# MHZ S MA R 50

50 1.814e-3 54.324 0.999 -0.085 0.999 -0.085 1.814e-3 54.324
74.969 2.463e-3 63.761 0.999 -0.127 0.999 -0.127 2.463e-3 63.761
99.938 3.151e-3 69.16 0.999 -0.169 0.999 -0.169 3.151e-3 69.16
124.906 3.857e-3 72.588 0.999 -0.211 0.999 -0.211 3.857e-3 72.588
149.875 4.573e-3 74.937 0.999 -0.253 0.999 -0.253 4.573e-3 74.937
174.844 5.294e-3 76.636 0.999 -0.295 0.999 -0.295 5.294e-3 76.636
199.813 6.02e-3 77.916 0.999 -0.338 0.999 -0.338 6.02e-3 77.916
224.781 6.747e-3 78.912 0.999 -0.38 0.999 -0.38 6.747e-3 78.912
249.75 7.477e-3 79.705 0.999 -0.422 0.999 -0.422 7.477e-3 79.705
274.719 8.208e-3 80.349 0.999 -0.464 0.999 -0.464 8.208e-3 80.349
299.688 8.939e-3 80.882 0.999 -0.506 0.999 -0.506 8.939e-3 80.882
324.656 9.672e-3 81.327 0.999 -0.549 0.999 -0.549 9.672e-3 81.327
349.625 0.01 81.703 0.999 -0.591 0.999 -0.591 0.01 81.703
374.594 0.011 82.025 0.999 -0.633 0.999 -0.633 0.011 82.025
399.563 0.012 82.301 0.998 -0.675 0.998 -0.675 0.012 82.301
424.531 0.013 82.54 0.998 -0.717 0.998 -0.717 0.013 82.54
449.5 0.013 82.749 0.998 -0.76 0.998 -0.76 0.013 82.749
474.469 0.014 82.931 0.998 -0.802 0.998 -0.802 0.014 82.931
499.438 0.015 83.091 0.998 -0.844 0.998 -0.844 0.015 83.091
524.406 0.016 83.232 0.998 -0.886 0.998 -0.886 0.016 83.232
549.375 0.016 83.356 0.998 -0.928 0.998 -0.928 0.016 83.356
574.344 0.017 83.466 0.998 -0.97 0.998 -0.97 0.017 83.466
599.313 0.018 83.563 0.998 -1.013 0.998 -1.013 0.018 83.563
624.281 0.018 83.649 0.998 -1.055 0.998 -1.055 0.018 83.649
649.25 0.019 83.725 0.998 -1.097 0.998 -1.097 0.019 83.725
674.219 0.02 83.793 0.998 -1.139 0.998 -1.139 0.02 83.793
699.188 0.021 83.853 0.998 -1.181 0.998 -1.181 0.021 83.853
724.156 0.021 83.906 0.998 -1.223 0.998 -1.223 0.021 83.906
749.125 0.022 83.952 0.998 -1.266 0.998 -1.266 0.022 83.952
774.094 0.023 83.993 0.998 -1.308 0.998 -1.308 0.023 83.993
799.063 0.024 84.028 0.998 -1.35 0.998 -1.35 0.024 84.028
824.031 0.024 84.059 0.998 -1.392 0.998 -1.392 0.024 84.059
849 0.025 84.086 0.998 -1.434 0.998 -1.434 0.025 84.086
873.969 0.026 84.109 0.998 -1.477 0.998 -1.477 0.026 84.109
898.938 0.027 84.128 0.998 -1.519 0.998 -1.519 0.027 84.128
923.906 0.027 84.143 0.998 -1.561 0.998 -1.561 0.027 84.143
948.875 0.028 84.156 0.998 -1.603 0.998 -1.603 0.028 84.156
973.844 0.029 84.166 0.997 -1.645 0.997 -1.645 0.029 84.166
998.813 0.03 84.173 0.997 -1.688 0.997 -1.688 0.03 84.173
1023.781 0.03 84.178 0.997 -1.73 0.997 -1.73 0.03 84.178
1048.75 0.031 84.181 0.997 -1.772 0.997 -1.772 0.031 84.181
1073.719 0.032 84.181 0.997 -1.814 0.997 -1.814 0.032 84.181
1098.688 0.032 84.18 0.997 -1.856 0.997 -1.856 0.032 84.18
1123.656 0.033 84.177 0.997 -1.899 0.997 -1.899 0.033 84.177
1148.625 0.034 84.172 0.997 -1.941 0.997 -1.941 0.034 84.172
1173.594 0.035 84.165 0.997 -1.983 0.997 -1.983 0.035 84.165
1198.563 0.035 84.157 0.997 -2.025 0.997 -2.025 0.035 84.157
1223.531 0.036 84.148 0.997 -2.067 0.997 -2.067 0.036 84.148
1248.5 0.037 84.137 0.997 -2.11 0.997 -2.11 0.037 84.137
1273.469 0.038 84.125 0.997 -2.152 0.997 -2.152 0.038 84.125
1298.438 0.038 84.112 0.997 -2.194 0.997 -2.194 0.038 84.112
1323.406 0.039 84.098 0.997 -2.236 0.997 -2.236 0.039 84.098
1348.375 0.04 84.082 0.997 -2.279 0.997 -2.279 0.04 84.082
1373.344 0.041 84.066 0.997 -2.321 0.997 -2.321 0.041 84.066
1398.313 0.041 84.049 0.997 -2.363 0.997 -2.363 0.041 84.049
1423.281 0.042 84.031 0.997 -2.405 0.997 -2.405 0.042 84.031
1448.25 0.043 84.012 0.996 -2.447 0.996 -2.447 0.043 84.012
1473.219 0.044 83.992 0.996 -2.49 0.996 -2.49 0.044 83.992
1498.188 0.044 83.972 0.996 -2.532 0.996 -2.532 0.044 83.972
1523.156 0.045 83.95 0.996 -2.574 0.996 -2.574 0.045 83.95
1548.125 0.046 83.929 0.996 -2.616 0.996 -2.616 0.046 83.929
1573.094 0.046 83.906 0.996 -2.659 0.996 -2.659 0.046 83.906
1598.063 0.047 83.883 0.996 -2.701 0.996 -2.701 0.047 83.883
1623.031 0.048 83.859 0.996 -2.743 0.996 -2.743 0.048 83.859
1648 0.049 83.835 0.996 -2.786 0.996 -2.786 0.049 83.835
1672.969 0.049 83.81 0.996 -2.828 0.996 -2.828 0.049 83.81
1697.938 0.05 83.784 0.996 -2.87 0.996 -2.87 0.05 83.784
1722.906 0.051 83.758 0.996 -2.912 0.996 -2.912 0.051 83.758
1747.875 0.052 83.732 0.996 -2.955 0.996 -2.955 0.052 83.732
1772.844 0.052 83.705 0.996 -2.997 0.996 -2.997 0.052 83.705
1797.813 0.053 83.678 0.996 -3.039 0.996 -3.039 0.053 83.678
1822.781 0.054 83.65 0.995 -3.082 0.995 -3.082 0.054 83.65
1847.75 0.055 83.622 0.995 -3.124 0.995 -3.124 0.055 83.622
1872.719 0.055 83.593 0.995 -3.166 0.995 -3.166 0.055 83.593
1897.688 0.056 83.565 0.995 -3.209 0.995 -3.209 0.056 83.565
1922.656 0.057 83.535 0.995 -3.251 0.995 -3.251 0.057 83.535
1947.625 0.058 83.506 0.995 -3.293 0.995 -3.293 0.058 83.506
1972.594 0.058 83.476 0.995 -3.336 0.995 -3.336 0.058 83.476
1997.563 0.059 83.445 0.995 -3.378 0.995 -3.378 0.059 83.445
2022.531 0.06 83.415 0.995 -3.42 0.995 -3.42 0.06 83.415
2047.5 0.06 83.384 0.995 -3.463 0.995 -3.463 0.06 83.384
2072.469 0.061 83.353 0.995 -3.505 0.995 -3.505 0.061 83.353
2097.438 0.062 83.321 0.995 -3.547 0.995 -3.547 0.062 83.321
2122.406 0.063 83.29 0.995 -3.59 0.995 -3.59 0.063 83.29
2147.375 0.063 83.258 0.995 -3.632 0.995 -3.632 0.063 83.258
2172.344 0.064 83.225 0.994 -3.675 0.994 -3.675 0.064 83.225
2197.313 0.065 83.193 0.994 -3.717 0.994 -3.717 0.065 83.193
2222.281 0.066 83.16 0.994 -3.759 0.994 -3.759 0.066 83.16
2247.25 0.066 83.127 0.994 -3.802 0.994 -3.802 0.066 83.127
2272.219 0.067 83.094 0.994 -3.844 0.994 -3.844 0.067 83.094
2297.188 0.068 83.061 0.994 -3.887 0.994 -3.887 0.068 83.061
2322.156 0.069 83.027 0.994 -3.929 0.994 -3.929 0.069 83.027
2347.125 0.069 82.993 0.994 -3.972 0.994 -3.972 0.069 82.993
2372.094 0.07 82.959 0.994 -4.014 0.994 -4.014 0.07 82.959
2397.063 0.071 82.925 0.994 -4.057 0.994 -4.057 0.071 82.925
2422.031 0.072 82.891 0.994 -4.099 0.994 -4.099 0.072 82.891
2447 0.072 82.856 0.994 -4.142 0.994 -4.142 0.072 82.856
2471.969 0.073 82.822 0.994 -4.184 0.994 -4.184 0.073 82.822
2496.938 0.074 82.787 0.993 -4.227 0.993 -4.227 0.074 82.787
2521.906 0.075 82.752 0.993 -4.269 0.993 -4.269 0.075 82.752
2546.875 0.075 82.716 0.993 -4.312 0.993 -4.312 0.075 82.716
2571.844 0.076 82.681 0.993 -4.354 0.993 -4.354 0.076 82.681
2596.813 0.077 82.645 0.993 -4.397 0.993 -4.397 0.077 82.645
2621.781 0.078 82.61 0.993 -4.439 0.993 -4.439 0.078 82.61
2646.75 0.078 82.574 0.993 -4.482 0.993 -4.482 0.078 82.574
2671.719 0.079 82.538 0.993 -4.524 0.993 -4.524 0.079 82.538
2696.688 0.08 82.502 0.993 -4.567 0.993 -4.567 0.08 82.502
2721.656 0.08 82.466 0.993 -4.609 0.993 -4.609 0.08 82.466
2746.625 0.081 82.429 0.993 -4.652 0.993 -4.652 0.081 82.429
2771.594 0.082 82.393 0.992 -4.695 0.992 -4.695 0.082 82.393
2796.563 0.083 82.356 0.992 -4.737 0.992 -4.737 0.083 82.356
2821.531 0.083 82.319 0.992 -4.78 0.992 -4.78 0.083 82.319
2846.5 0.084 82.283 0.992 -4.822 0.992 -4.822 0.084 82.283
2871.469 0.085 82.246 0.992 -4.865 0.992 -4.865 0.085 82.246
2896.438 0.086 82.208 0.992 -4.908 0.992 -4.908 0.086 82.208
2921.406 0.086 82.171 0.992 -4.95 0.992 -4.95 0.086 82.171
2946.375 0.087 82.134 0.992 -4.993 0.992 -4.993 0.087 82.134
2971.344 0.088 82.097 0.992 -5.036 0.992 -5.036 0.088 82.097
2996.313 0.089 82.059 0.992 -5.078 0.992 -5.078 0.089 82.059
3021.281 0.089 82.021 0.992 -5.121 0.992 -5.121 0.089 82.021
3046.25 0.09 81.984 0.991 -5.164 0.991 -5.164 0.09 81.984
3071.219 0.091 81.946 0.991 -5.206 0.991 -5.206 0.091 81.946
3096.188 0.092 81.908 0.991 -5.249 0.991 -5.249 0.092 81.908
3121.156 0.092 81.87 0.991 -5.292 0.991 -5.292 0.092 81.87
3146.125 0.093 81.832 0.991 -5.335 0.991 -5.335 0.093 81.832
3171.094 0.094 81.793 0.991 -5.377 0.991 -5.377 0.094 81.793
3196.063 0.095 81.755 0.991 -5.42 0.991 -5.42 0.095 81.755
3221.031 0.095 81.717 0.991 -5.463 0.991 -5.463 0.095 81.717
3246 0.096 81.678 0.991 -5.506 0.991 -5.506 0.096 81.678
3270.969 0.097 81.64 0.991 -5.549 0.991 -5.549 0.097 81.64
3295.938 0.098 81.601 0.99 -5.591 0.99 -5.591 0.098 81.601
3320.906 0.098 81.562 0.99 -5.634 0.99 -5.634 0.098 81.562
3345.875 0.099 81.524 0.99 -5.677 0.99 -5.677 0.099 81.524
3370.844 0.1 81.485 0.99 -5.72 0.99 -5.72 0.1 81.485
3395.813 0.101 81.446 0.99 -5.763 0.99 -5.763 0.101 81.446
3420.781 0.101 81.407 0.99 -5.806 0.99 -5.806 0.101 81.407
3445.75 0.102 81.368 0.99 -5.849 0.99 -5.849 0.102 81.368
3470.719 0.103 81.328 0.99 -5.891 0.99 -5.891 0.103 81.328
3495.688 0.104 81.289 0.99 -5.934 0.99 -5.934 0.104 81.289
3520.656 0.104 81.25 0.99 -5.977 0.99 -5.977 0.104 81.25
3545.625 0.105 81.21 0.989 -6.02 0.989 -6.02 0.105 81.21
3570.594 0.106 81.171 0.989 -6.063 0.989 -6.063 0.106 81.171
3595.563 0.106 81.131 0.989 -6.106 0.989 -6.106 0.106 81.131
3620.531 0.107 81.092 0.989 -6.149 0.989 -6.149 0.107 81.092
3645.5 0.108 81.052 0.989 -6.192 0.989 -6.192 0.108 81.052
3670.469 0.109 81.012 0.989 -6.235 0.989 -6.235 0.109 81.012
3695.438 0.109 80.972 0.989 -6.278 0.989 -6.278 0.109 80.972
3720.406 0.11 80.933 0.989 -6.321 0.989 -6.321 0.11 80.933
3745.375 0.111 80.893 0.989 -6.364 0.989 -6.364 0.111 80.893
3770.344 0.112 80.853 0.988 -6.407 0.988 -6.407 0.112 80.853
3795.313 0.112 80.813 0.988 -6.45 0.988 -6.45 0.112 80.813
3820.281 0.113 80.772 0.988 -6.493 0.988 -6.493 0.113 80.772
3845.25 0.114 80.732 0.988 -6.537 0.988 -6.537 0.114 80.732
3870.219 0.115 80.692 0.988 -6.58 0.988 -6.58 0.115 80.692
3895.188 0.115 80.652 0.988 -6.623 0.988 -6.623 0.115 80.652
3920.156 0.116 80.611 0.988 -6.666 0.988 -6.666 0.116 80.611
3945.125 0.117 80.571 0.988 -6.709 0.988 -6.709 0.117 80.571
3970.094 0.118 80.53 0.987 -6.752 0.987 -6.752 0.118 80.53
3995.063 0.118 80.49 0.987 -6.795 0.987 -6.795 0.118 80.49
4020.031 0.119 80.449 0.987 -6.839 0.987 -6.839 0.119 80.449
4045 0.12 80.409 0.987 -6.882 0.987 -6.882 0.12 80.409
4069.969 0.121 80.368 0.987 -6.925 0.987 -6.925 0.121 80.368
4094.938 0.121 80.327 0.987 -6.968 0.987 -6.968 0.121 80.327
4119.906 0.122 80.286 0.987 -7.012 0.987 -7.012 0.122 80.286
4144.875 0.123 80.246 0.987 -7.055 0.987 -7.055 0.123 80.246
4169.844 0.124 80.205 0.987 -7.098 0.987 -7.098 0.124 80.205
4194.813 0.124 80.164 0.986 -7.141 0.986 -7.141 0.124 80.164
4219.781 0.125 80.123 0.986 -7.185 0.986 -7.185 0.125 80.123
4244.75 0.126 80.082 0.986 -7.228 0.986 -7.228 0.126 80.082
4269.719 0.127 80.041 0.986 -7.272 0.986 -7.272 0.127 80.041
4294.688 0.127 79.999 0.986 -7.315 0.986 -7.315 0.127 79.999
4319.656 0.128 79.958 0.986 -7.358 0.986 -7.358 0.128 79.958
4344.625 0.129 79.917 0.986 -7.402 0.986 -7.402 0.129 79.917
4369.594 0.13 79.876 0.986 -7.445 0.986 -7.445 0.13 79.876
4394.563 0.13 79.834 0.985 -7.489 0.985 -7.489 0.13 79.834
4419.531 0.131 79.793 0.985 -7.532 0.985 -7.532 0.131 79.793
4444.5 0.132 79.751 0.985 -7.575 0.985 -7.575 0.132 79.751
4469.469 0.133 79.71 0.985 -7.619 0.985 -7.619 0.133 79.71
4494.438 0.133 79.668 0.985 -7.662 0.985 -7.662 0.133 79.668
4519.406 0.134 79.627 0.985 -7.706 0.985 -7.706 0.134 79.627
4544.375 0.135 79.585 0.985 -7.749 0.985 -7.749 0.135 79.585
4569.344 0.136 79.543 0.984 -7.793 0.984 -7.793 0.136 79.543
4594.313 0.136 79.502 0.984 -7.837 0.984 -7.837 0.136 79.502
4619.281 0.137 79.46 0.984 -7.88 0.984 -7.88 0.137 79.46
4644.25 0.138 79.418 0.984 -7.924 0.984 -7.924 0.138 79.418
4669.219 0.139 79.376 0.984 -7.967 0.984 -7.967 0.139 79.376
4694.188 0.14 79.334 0.984 -8.011 0.984 -8.011 0.14 79.334
4719.156 0.14 79.292 0.984 -8.055 0.984 -8.055 0.14 79.292
4744.125 0.141 79.25 0.984 -8.098 0.984 -8.098 0.141 79.25
4769.094 0.142 79.208 0.983 -8.142 0.983 -8.142 0.142 79.208
4794.063 0.143 79.166 0.983 -8.186 0.983 -8.186 0.143 79.166
4819.031 0.143 79.124 0.983 -8.23 0.983 -8.23 0.143 79.124
4844 0.144 79.082 0.983 -8.273 0.983 -8.273 0.144 79.082
4868.969 0.145 79.04 0.983 -8.317 0.983 -8.317 0.145 79.04
4893.938 0.146 78.997 0.983 -8.361 0.983 -8.361 0.146 78.997
4918.906 0.146 78.955 0.983 -8.405 0.983 -8.405 0.146 78.955
4943.875 0.147 78.913 0.982 -8.448 0.982 -8.448 0.147 78.913
4968.844 0.148 78.87 0.982 -8.492 0.982 -8.492 0.148 78.87
4993.813 0.149 78.828 0.982 -8.536 0.982 -8.536 0.149 78.828
5018.781 0.149 78.785 0.982 -8.58 0.982 -8.58 0.149 78.785
5043.75 0.15 78.743 0.982 -8.624 0.982 -8.624 0.15 78.743
5068.719 0.151 78.7 0.982 -8.668 0.982 -8.668 0.151 78.7
5093.688 0.152 78.658 0.982 -8.712 0.982 -8.712 0.152 78.658
5118.656 0.152 78.615 0.981 -8.756 0.981 -8.756 0.152 78.615
5143.625 0.153 78.573 0.981 -8.8 0.981 -8.8 0.153 78.573
5168.594 0.154 78.53 0.981 -8.844 0.981 -8.844 0.154 78.53
5193.563 0.155 78.487 0.981 -8.888 0.981 -8.888 0.155 78.487
5218.531 0.155 78.444 0.981 -8.932 0.981 -8.932 0.155 78.444
5243.5 0.156 78.401 0.981 -8.976 0.981 -8.976 0.156 78.401
5268.469 0.157 78.359 0.98 -9.02 0.98 -9.02 0.157 78.359
5293.438 0.158 78.316 0.98 -9.064 0.98 -9.064 0.158 78.316
5318.406 0.158 78.273 0.98 -9.108 0.98 -9.108 0.158 78.273
5343.375 0.159 78.23 0.98 -9.152 0.98 -9.152 0.159 78.23
5368.344 0.16 78.187 0.98 -9.196 0.98 -9.196 0.16 78.187
5393.313 0.161 78.144 0.98 -9.241 0.98 -9.241 0.161 78.144
5418.281 0.162 78.1 0.98 -9.285 0.98 -9.285 0.162 78.1
5443.25 0.162 78.057 0.979 -9.329 0.979 -9.329 0.162 78.057
5468.219 0.163 78.014 0.979 -9.373 0.979 -9.373 0.163 78.014
5493.188 0.164 77.971 0.979 -9.418 0.979 -9.418 0.164 77.971
5518.156 0.165 77.928 0.979 -9.462 0.979 -9.462 0.165 77.928
5543.125 0.165 77.884 0.979 -9.506 0.979 -9.506 0.165 77.884
5568.094 0.166 77.841 0.979 -9.55 0.979 -9.55 0.166 77.841
5593.063 0.167 77.798 0.978 -9.595 0.978 -9.595 0.167 77.798
5618.031 0.168 77.754 0.978 -9.639 0.978 -9.639 0.168 77.754
5643 0.168 77.711 0.978 -9.684 0.978 -9.684 0.168 77.711
5667.969 0.169 77.667 0.978 -9.728 0.978 -9.728 0.169 77.667
5692.938 0.17 77.624 0.978 -9.772 0.978 -9.772 0.17 77.624
5717.906 0.171 77.58 0.978 -9.817 0.978 -9.817 0.171 77.58
5742.875 0.171 77.536 0.977 -9.861 0.977 -9.861 0.171 77.536
5767.844 0.172 77.493 0.977 -9.906 0.977 -9.906 0.172 77.493
5792.813 0.173 77.449 0.977 -9.95 0.977 -9.95 0.173 77.449
5817.781 0.174 77.405 0.977 -9.995 0.977 -9.995 0.174 77.405
5842.75 0.175 77.362 0.977 -10.039 0.977 -10.039 0.175 77.362
5867.719 0.175 77.318 0.977 -10.084 0.977 -10.084 0.175 77.318
5892.688 0.176 77.274 0.976 -10.129 0.976 -10.129 0.176 77.274
5917.656 0.177 77.23 0.976 -10.173 0.976 -10.173 0.177 77.23
5942.625 0.178 77.186 0.976 -10.218 0.976 -10.218 0.178 77.186
5967.594 0.178 77.142 0.976 -10.263 0.976 -10.263 0.178 77.142
5992.563 0.179 77.098 0.976 -10.307 0.976 -10.307 0.179 77.098
6017.531 0.18 77.054 0.976 -10.352 0.976 -10.352 0.18 77.054
6042.5 0.181 77.01 0.975 -10.397 0.975 -10.397 0.181 77.01
6067.469 0.181 76.966 0.975 -10.442 0.975 -10.442 0.181 76.966
6092.438 0.182 76.922 0.975 -10.486 0.975 -10.486 0.182 76.922
6117.406 0.183 76.878 0.975 -10.531 0.975 -10.531 0.183 76.878
6142.375 0.184 76.833 0.975 -10.576 0.975 -10.576 0.184 76.833
6167.344 0.185 76.789 0.975 -10.621 0.975 -10.621 0.185 76.789
6192.313 0.185 76.745 0.974 -10.666 0.974 -10.666 0.185 76.745
6217.281 0.186 76.701 0.974 -10.711 0.974 -10.711 0.186 76.701
6242.25 0.187 76.656 0.974 -10.756 0.974 -10.756 0.187 76.656
6267.219 0.188 76.612 0.974 -10.801 0.974 -10.801 0.188 76.612
6292.188 0.188 76.567 0.974 -10.846 0.974 -10.846 0.188 76.567
6317.156 0.189 76.523 0.973 -10.891 0.973 -10.891 0.189 76.523
6342.125 0.19 76.478 0.973 -10.936 0.973 -10.936 0.19 76.478
6367.094 0.191 76.434 0.973 -10.981 0.973 -10.981 0.191 76.434
6392.063 0.191 76.389 0.973 -11.026 0.973 -11.026 0.191 76.389
6417.031 0.192 76.344 0.973 -11.071 0.973 -11.071 0.192 76.344
6442 0.193 76.3 0.973 -11.116 0.973 -11.116 0.193 76.3
6466.969 0.194 76.255 0.972 -11.161 0.972 -11.161 0.194 76.255
6491.938 0.195 76.21 0.972 -11.207 0.972 -11.207 0.195 76.21
6516.906 0.195 76.165 0.972 -11.252 0.972 -11.252 0.195 76.165
6541.875 0.196 76.121 0.972 -11.297 0.972 -11.297 0.196 76.121
6566.844 0.197 76.076 0.972 -11.342 0.972 -11.342 0.197 76.076
6591.813 0.198 76.031 0.971 -11.388 0.971 -11.388 0.198 76.031
6616.781 0.198 75.986 0.971 -11.433 0.971 -11.433 0.198 75.986
6641.75 0.199 75.941 0.971 -11.478 0.971 -11.478 0.199 75.941
6666.719 0.2 75.896 0.971 -11.524 0.971 -11.524 0.2 75.896
6691.688 0.201 75.851 0.971 -11.569 0.971 -11.569 0.201 75.851
6716.656 0.202 75.806 0.97 -11.615 0.97 -11.615 0.202 75.806
6741.625 0.202 75.761 0.97 -11.66 0.97 -11.66 0.202 75.761
6766.594 0.203 75.715 0.97 -11.706 0.97 -11.706 0.203 75.715
6791.563 0.204 75.67 0.97 -11.751 0.97 -11.751 0.204 75.67
6816.531 0.205 75.625 0.97 -11.797 0.97 -11.797 0.205 75.625
6841.5 0.205 75.58 0.969 -11.842 0.969 -11.842 0.205 75.58
6866.469 0.206 75.534 0.969 -11.888 0.969 -11.888 0.206 75.534
6891.438 0.207 75.489 0.969 -11.933 0.969 -11.933 0.207 75.489
6916.406 0.208 75.444 0.969 -11.979 0.969 -11.979 0.208 75.444
6941.375 0.209 75.398 0.969 -12.025 0.969 -12.025 0.209 75.398
6966.344 0.209 75.353 0.968 -12.07 0.968 -12.07 0.209 75.353
6991.313 0.21 75.307 0.968 -12.116 0.968 -12.116 0.21 75.307
7016.281 0.211 75.262 0.968 -12.162 0.968 -12.162 0.211 75.262
7041.25 0.212 75.216 0.968 -12.208 0.968 -12.208 0.212 75.216
7066.219 0.212 75.17 0.968 -12.254 0.968 -12.254 0.212 75.17
7091.188 0.213 75.125 0.967 -12.299 0.967 -12.299 0.213 75.125
7116.156 0.214 75.079 0.967 -12.345 0.967 -12.345 0.214 75.079
7141.125 0.215 75.033 0.967 -12.391 0.967 -12.391 0.215 75.033
7166.094 0.216 74.987 0.967 -12.437 0.967 -12.437 0.216 74.987
7191.063 0.216 74.942 0.967 -12.483 0.967 -12.483 0.216 74.942
7216.031 0.217 74.896 0.966 -12.529 0.966 -12.529 0.217 74.896
7241 0.218 74.85 0.966 -12.575 0.966 -12.575 0.218 74.85
7265.969 0.219 74.804 0.966 -12.621 0.966 -12.621 0.219 74.804
7290.938 0.22 74.758 0.966 -12.667 0.966 -12.667 0.22 74.758
7315.906 0.22 74.712 0.966 -12.713 0.966 -12.713 0.22 74.712
7340.875 0.221 74.666 0.965 -12.76 0.965 -12.76 0.221 74.666
7365.844 0.222 74.62 0.965 -12.806 0.965 -12.806 0.222 74.62
7390.813 0.223 74.573 0.965 -12.852 0.965 -12.852 0.223 74.573
7415.781 0.223 74.527 0.965 -12.898 0.965 -12.898 0.223 74.527
7440.75 0.224 74.481 0.965 -12.944 0.965 -12.944 0.224 74.481
7465.719 0.225 74.435 0.964 -12.991 0.964 -12.991 0.225 74.435
7490.688 0.226 74.389 0.964 -13.037 0.964 -13.037 0.226 74.389
7515.656 0.227 74.342 0.964 -13.083 0.964 -13.083 0.227 74.342
7540.625 0.227 74.296 0.964 -13.13 0.964 -13.13 0.227 74.296
7565.594 0.228 74.249 0.963 -13.176 0.963 -13.176 0.228 74.249
7590.563 0.229 74.203 0.963 -13.223 0.963 -13.223 0.229 74.203
7615.531 0.23 74.156 0.963 -13.269 0.963 -13.269 0.23 74.156
7640.5 0.231 74.11 0.963 -13.316 0.963 -13.316 0.231 74.11
7665.469 0.231 74.063 0.963 -13.362 0.963 -13.362 0.231 74.063
7690.438 0.232 74.017 0.962 -13.409 0.962 -13.409 0.232 74.017
7715.406 0.233 73.97 0.962 -13.455 0.962 -13.455 0.233 73.97
7740.375 0.234 73.923 0.962 -13.502 0.962 -13.502 0.234 73.923
7765.344 0.235 73.877 0.962 -13.548 0.962 -13.548 0.235 73.877
7790.313 0.235 73.83 0.961 -13.595 0.961 -13.595 0.235 73.83
7815.281 0.236 73.783 0.961 -13.642 0.961 -13.642 0.236 73.783
7840.25 0.237 73.736 0.961 -13.689 0.961 -13.689 0.237 73.736
7865.219 0.238 73.689 0.961 -13.735 0.961 -13.735 0.238 73.689
7890.188 0.238 73.642 0.96 -13.782 0.96 -13.782 0.238 73.642
7915.156 0.239 73.595 0.96 -13.829 0.96 -13.829 0.239 73.595
7940.125 0.24 73.548 0.96 -13.876 0.96 -13.876 0.24 73.548
7965.094 0.241 73.501 0.96 -13.923 0.96 -13.923 0.241 73.501
7990.063 0.242 73.454 0.96 -13.97 0.96 -13.97 0.242 73.454
8015.031 0.242 73.407 0.959 -14.017 0.959 -14.017 0.242 73.407
8040 0.243 73.36 0.959 -14.064 0.959 -14.064 0.243 73.36
8064.969 0.244 73.312 0.959 -14.111 0.959 -14.111 0.244 73.312
8089.938 0.245 73.265 0.959 -14.158 0.959 -14.158 0.245 73.265
8114.906 0.246 73.218 0.958 -14.205 0.958 -14.205 0.246 73.218
8139.875 0.246 73.17 0.958 -14.252 0.958 -14.252 0.246 73.17
8164.844 0.247 73.123 0.958 -14.299 0.958 -14.299 0.247 73.123
8189.813 0.248 73.076 0.958 -14.347 0.958 -14.347 0.248 73.076
8214.781 0.249 73.028 0.957 -14.394 0.957 -14.394 0.249 73.028
8239.75 0.25 72.981 0.957 -14.441 0.957 -14.441 0.25 72.981
