# MHZ S MA R 50

50 1.459e-3 45.161 0.999 -0.059 0.999 -0.059 1.459e-3 45.161
74.969 1.87e-3 56.046 0.999 -0.089 0.999 -0.089 1.87e-3 56.046
99.938 2.324e-3 62.843 0.999 -0.119 0.999 -0.119 2.324e-3 62.843
124.906 2.8e-3 67.367 0.999 -0.148 0.999 -0.148 2.8e-3 67.367
149.875 3.288e-3 70.554 0.999 -0.178 0.999 -0.178 3.288e-3 70.554
174.844 3.785e-3 72.904 0.999 -0.207 0.999 -0.207 3.785e-3 72.904
199.813 4.286e-3 74.699 0.999 -0.237 0.999 -0.237 4.286e-3 74.699
224.781 4.79e-3 76.111 0.999 -0.267 0.999 -0.267 4.79e-3 76.111
249.75 5.297e-3 77.248 0.999 -0.296 0.999 -0.296 5.297e-3 77.248
274.719 5.806e-3 78.181 0.999 -0.326 0.999 -0.326 5.806e-3 78.181
299.688 6.316e-3 78.958 0.999 -0.356 0.999 -0.356 6.316e-3 78.958
324.656 6.828e-3 79.615 0.999 -0.385 0.999 -0.385 6.828e-3 79.615
349.625 7.34e-3 80.176 0.999 -0.415 0.999 -0.415 7.34e-3 80.176
374.594 7.853e-3 80.66 0.999 -0.445 0.999 -0.445 7.853e-3 80.66
399.563 8.366e-3 81.081 0.999 -0.474 0.999 -0.474 8.366e-3 81.081
424.531 8.88e-3 81.45 0.999 -0.504 0.999 -0.504 8.88e-3 81.45
449.5 9.394e-3 81.775 0.999 -0.533 0.999 -0.533 9.394e-3 81.775
474.469 9.909e-3 82.063 0.999 -0.563 0.999 -0.563 9.909e-3 82.063
499.438 0.01 82.32 0.999 -0.593 0.999 -0.593 0.01 82.32
524.406 0.011 82.55 0.999 -0.622 0.999 -0.622 0.011 82.55
549.375 0.011 82.757 0.999 -0.652 0.999 -0.652 0.011 82.757
574.344 0.012 82.943 0.999 -0.682 0.999 -0.682 0.012 82.943
599.313 0.012 83.111 0.999 -0.711 0.999 -0.711 0.012 83.111
624.281 0.013 83.264 0.999 -0.741 0.999 -0.741 0.013 83.264
649.25 0.014 83.403 0.999 -0.77 0.999 -0.77 0.014 83.403
674.219 0.014 83.529 0.999 -0.8 0.999 -0.8 0.014 83.529
699.188 0.015 83.645 0.998 -0.83 0.998 -0.83 0.015 83.645
724.156 0.015 83.75 0.998 -0.859 0.998 -0.859 0.015 83.75
749.125 0.016 83.847 0.998 -0.889 0.998 -0.889 0.016 83.847
774.094 0.016 83.935 0.998 -0.919 0.998 -0.919 0.016 83.935
799.063 0.017 84.016 0.998 -0.948 0.998 -0.948 0.017 84.016
824.031 0.017 84.09 0.998 -0.978 0.998 -0.978 0.017 84.09
849 0.018 84.159 0.998 -1.008 0.998 -1.008 0.018 84.159
873.969 0.018 84.221 0.998 -1.037 0.998 -1.037 0.018 84.221
898.938 0.019 84.279 0.998 -1.067 0.998 -1.067 0.019 84.279
923.906 0.019 84.332 0.998 -1.097 0.998 -1.097 0.019 84.332
948.875 0.02 84.38 0.998 -1.126 0.998 -1.126 0.02 84.38
973.844 0.02 84.425 0.998 -1.156 0.998 -1.156 0.02 84.425
998.813 0.021 84.466 0.998 -1.186 0.998 -1.186 0.021 84.466
1023.781 0.021 84.503 0.998 -1.215 0.998 -1.215 0.021 84.503
1048.75 0.022 84.537 0.998 -1.245 0.998 -1.245 0.022 84.537
1073.719 0.022 84.569 0.998 -1.274 0.998 -1.274 0.022 84.569
1098.688 0.023 84.597 0.998 -1.304 0.998 -1.304 0.023 84.597
1123.656 0.023 84.623 0.998 -1.334 0.998 -1.334 0.023 84.623
1148.625 0.024 84.647 0.998 -1.364 0.998 -1.364 0.024 84.647
1173.594 0.024 84.668 0.998 -1.393 0.998 -1.393 0.024 84.668
1198.563 0.025 84.687 0.998 -1.423 0.998 -1.423 0.025 84.687
1223.531 0.025 84.704 0.998 -1.453 0.998 -1.453 0.025 84.704
1248.5 0.026 84.719 0.998 -1.482 0.998 -1.482 0.026 84.719
1273.469 0.026 84.733 0.998 -1.512 0.998 -1.512 0.026 84.733
1298.438 0.027 84.745 0.998 -1.542 0.998 -1.542 0.027 84.745
1323.406 0.027 84.755 0.998 -1.571 0.998 -1.571 0.027 84.755
1348.375 0.028 84.764 0.998 -1.601 0.998 -1.601 0.028 84.764
1373.344 0.029 84.771 0.998 -1.631 0.998 -1.631 0.029 84.771
1398.313 0.029 84.777 0.998 -1.66 0.998 -1.66 0.029 84.777
1423.281 0.03 84.782 0.998 -1.69 0.998 -1.69 0.03 84.782
1448.25 0.03 84.786 0.998 -1.72 0.998 -1.72 0.03 84.786
1473.219 0.031 84.788 0.998 -1.749 0.998 -1.749 0.031 84.788
1498.188 0.031 84.789 0.998 -1.779 0.998 -1.779 0.031 84.789
1523.156 0.032 84.79 0.998 -1.809 0.998 -1.809 0.032 84.79
1548.125 0.032 84.789 0.998 -1.839 0.998 -1.839 0.032 84.789
1573.094 0.033 84.788 0.998 -1.868 0.998 -1.868 0.033 84.788
1598.063 0.033 84.785 0.998 -1.898 0.998 -1.898 0.033 84.785
1623.031 0.034 84.782 0.998 -1.928 0.998 -1.928 0.034 84.782
1648 0.034 84.778 0.997 -1.958 0.997 -1.958 0.034 84.778
1672.969 0.035 84.773 0.997 -1.987 0.997 -1.987 0.035 84.773
1697.938 0.035 84.767 0.997 -2.017 0.997 -2.017 0.035 84.767
1722.906 0.036 84.761 0.997 -2.047 0.997 -2.047 0.036 84.761
1747.875 0.036 84.754 0.997 -2.077 0.997 -2.077 0.036 84.754
1772.844 0.037 84.747 0.997 -2.106 0.997 -2.106 0.037 84.747
1797.813 0.037 84.738 0.997 -2.136 0.997 -2.136 0.037 84.738
1822.781 0.038 84.729 0.997 -2.166 0.997 -2.166 0.038 84.729
1847.75 0.038 84.72 0.997 -2.196 0.997 -2.196 0.038 84.72
1872.719 0.039 84.71 0.997 -2.225 0.997 -2.225 0.039 84.71
1897.688 0.039 84.7 0.997 -2.255 0.997 -2.255 0.039 84.7
1922.656 0.04 84.689 0.997 -2.285 0.997 -2.285 0.04 84.689
1947.625 0.04 84.677 0.997 -2.315 0.997 -2.315 0.04 84.677
1972.594 0.041 84.665 0.997 -2.345 0.997 -2.345 0.041 84.665
1997.563 0.041 84.653 0.997 -2.374 0.997 -2.374 0.041 84.653
2022.531 0.042 84.64 0.997 -2.404 0.997 -2.404 0.042 84.64
2047.5 0.043 84.627 0.997 -2.434 0.997 -2.434 0.043 84.627
2072.469 0.043 84.613 0.997 -2.464 0.997 -2.464 0.043 84.613
2097.438 0.044 84.599 0.997 -2.494 0.997 -2.494 0.044 84.599
2122.406 0.044 84.584 0.997 -2.523 0.997 -2.523 0.044 84.584
2147.375 0.045 84.57 0.997 -2.553 0.997 -2.553 0.045 84.57
2172.344 0.045 84.554 0.997 -2.583 0.997 -2.583 0.045 84.554
2197.313 0.046 84.539 0.997 -2.613 0.997 -2.613 0.046 84.539
2222.281 0.046 84.523 0.997 -2.643 0.997 -2.643 0.046 84.523
2247.25 0.047 84.507 0.997 -2.673 0.997 -2.673 0.047 84.507
2272.219 0.047 84.49 0.997 -2.702 0.997 -2.702 0.047 84.49
2297.188 0.048 84.474 0.997 -2.732 0.997 -2.732 0.048 84.474
2322.156 0.048 84.457 0.996 -2.762 0.996 -2.762 0.048 84.457
2347.125 0.049 84.439 0.996 -2.792 0.996 -2.792 0.049 84.439
2372.094 0.049 84.422 0.996 -2.822 0.996 -2.822 0.049 84.422
2397.063 0.05 84.404 0.996 -2.852 0.996 -2.852 0.05 84.404
2422.031 0.05 84.386 0.996 -2.882 0.996 -2.882 0.05 84.386
2447 0.051 84.367 0.996 -2.912 0.996 -2.912 0.051 84.367
2471.969 0.051 84.349 0.996 -2.942 0.996 -2.942 0.051 84.349
2496.938 0.052 84.33 0.996 -2.972 0.996 -2.972 0.052 84.33
2521.906 0.052 84.311 0.996 -3.001 0.996 -3.001 0.052 84.311
2546.875 0.053 84.291 0.996 -3.031 0.996 -3.031 0.053 84.291
2571.844 0.053 84.272 0.996 -3.061 0.996 -3.061 0.053 84.272
2596.813 0.054 84.252 0.996 -3.091 0.996 -3.091 0.054 84.252
2621.781 0.055 84.232 0.996 -3.121 0.996 -3.121 0.055 84.232
2646.75 0.055 84.212 0.996 -3.151 0.996 -3.151 0.055 84.212
2671.719 0.056 84.192 0.996 -3.181 0.996 -3.181 0.056 84.192
2696.688 0.056 84.171 0.996 -3.211 0.996 -3.211 0.056 84.171
2721.656 0.057 84.15 0.996 -3.241 0.996 -3.241 0.057 84.15
2746.625 0.057 84.129 0.996 -3.271 0.996 -3.271 0.057 84.129
2771.594 0.058 84.108 0.996 -3.301 0.996 -3.301 0.058 84.108
2796.563 0.058 84.087 0.996 -3.331 0.996 -3.331 0.058 84.087
2821.531 0.059 84.066 0.996 -3.361 0.996 -3.361 0.059 84.066
2846.5 0.059 84.044 0.996 -3.391 0.996 -3.391 0.059 84.044
2871.469 0.06 84.022 0.996 -3.421 0.996 -3.421 0.06 84.022
2896.438 0.06 84.001 0.996 -3.451 0.996 -3.451 0.06 84.001
2921.406 0.061 83.979 0.995 -3.481 0.995 -3.481 0.061 83.979
2946.375 0.061 83.956 0.995 -3.511 0.995 -3.511 0.061 83.956
2971.344 0.062 83.934 0.995 -3.541 0.995 -3.541 0.062 83.934
2996.313 0.062 83.912 0.995 -3.571 0.995 -3.571 0.062 83.912
3021.281 0.063 83.889 0.995 -3.601 0.995 -3.601 0.063 83.889
3046.25 0.063 83.866 0.995 -3.631 0.995 -3.631 0.063 83.866
3071.219 0.064 83.843 0.995 -3.662 0.995 -3.662 0.064 83.843
3096.188 0.064 83.82 0.995 -3.692 0.995 -3.692 0.064 83.82
3121.156 0.065 83.797 0.995 -3.722 0.995 -3.722 0.065 83.797
3146.125 0.065 83.774 0.995 -3.752 0.995 -3.752 0.065 83.774
3171.094 0.066 83.751 0.995 -3.782 0.995 -3.782 0.066 83.751
3196.063 0.067 83.727 0.995 -3.812 0.995 -3.812 0.067 83.727
3221.031 0.067 83.703 0.995 -3.842 0.995 -3.842 0.067 83.703
3246 0.068 83.68 0.995 -3.872 0.995 -3.872 0.068 83.68
3270.969 0.068 83.656 0.995 -3.903 0.995 -3.903 0.068 83.656
3295.938 0.069 83.632 0.995 -3.933 0.995 -3.933 0.069 83.632
3320.906 0.069 83.608 0.995 -3.963 0.995 -3.963 0.069 83.608
3345.875 0.07 83.584 0.995 -3.993 0.995 -3.993 0.07 83.584
3370.844 0.07 83.56 0.995 -4.023 0.995 -4.023 0.07 83.56
3395.813 0.071 83.535 0.995 -4.053 0.995 -4.053 0.071 83.535
3420.781 0.071 83.511 0.994 -4.084 0.994 -4.084 0.071 83.511
3445.75 0.072 83.486 0.994 -4.114 0.994 -4.114 0.072 83.486
3470.719 0.072 83.462 0.994 -4.144 0.994 -4.144 0.072 83.462
3495.688 0.073 83.437 0.994 -4.174 0.994 -4.174 0.073 83.437
3520.656 0.073 83.412 0.994 -4.205 0.994 -4.205 0.073 83.412
3545.625 0.074 83.387 0.994 -4.235 0.994 -4.235 0.074 83.387
3570.594 0.074 83.362 0.994 -4.265 0.994 -4.265 0.074 83.362
3595.563 0.075 83.337 0.994 -4.295 0.994 -4.295 0.075 83.337
3620.531 0.075 83.312 0.994 -4.326 0.994 -4.326 0.075 83.312
3645.5 0.076 83.287 0.994 -4.356 0.994 -4.356 0.076 83.287
3670.469 0.077 83.261 0.994 -4.386 0.994 -4.386 0.077 83.261
3695.438 0.077 83.236 0.994 -4.417 0.994 -4.417 0.077 83.236
3720.406 0.078 83.21 0.994 -4.447 0.994 -4.447 0.078 83.21
3745.375 0.078 83.185 0.994 -4.477 0.994 -4.477 0.078 83.185
3770.344 0.079 83.159 0.994 -4.508 0.994 -4.508 0.079 83.159
3795.313 0.079 83.133 0.994 -4.538 0.994 -4.538 0.079 83.133
3820.281 0.08 83.107 0.994 -4.568 0.994 -4.568 0.08 83.107
3845.25 0.08 83.082 0.994 -4.599 0.994 -4.599 0.08 83.082
3870.219 0.081 83.056 0.993 -4.629 0.993 -4.629 0.081 83.056
3895.188 0.081 83.03 0.993 -4.66 0.993 -4.66 0.081 83.03
3920.156 0.082 83.003 0.993 -4.69 0.993 -4.69 0.082 83.003
3945.125 0.082 82.977 0.993 -4.72 0.993 -4.72 0.082 82.977
3970.094 0.083 82.951 0.993 -4.751 0.993 -4.751 0.083 82.951
3995.063 0.083 82.925 0.993 -4.781 0.993 -4.781 0.083 82.925
4020.031 0.084 82.898 0.993 -4.812 0.993 -4.812 0.084 82.898
4045 0.084 82.872 0.993 -4.842 0.993 -4.842 0.084 82.872
4069.969 0.085 82.845 0.993 -4.873 0.993 -4.873 0.085 82.845
4094.938 0.086 82.819 0.993 -4.903 0.993 -4.903 0.086 82.819
4119.906 0.086 82.792 0.993 -4.934 0.993 -4.934 0.086 82.792
4144.875 0.087 82.765 0.993 -4.964 0.993 -4.964 0.087 82.765
4169.844 0.087 82.739 0.993 -4.995 0.993 -4.995 0.087 82.739
4194.813 0.088 82.712 0.993 -5.025 0.993 -5.025 0.088 82.712
4219.781 0.088 82.685 0.993 -5.056 0.993 -5.056 0.088 82.685
4244.75 0.089 82.658 0.993 -5.086 0.993 -5.086 0.089 82.658
4269.719 0.089 82.631 0.993 -5.117 0.993 -5.117 0.089 82.631
4294.688 0.09 82.604 0.992 -5.148 0.992 -5.148 0.09 82.604
4319.656 0.09 82.577 0.992 -5.178 0.992 -5.178 0.09 82.577
4344.625 0.091 82.55 0.992 -5.209 0.992 -5.209 0.091 82.55
4369.594 0.091 82.523 0.992 -5.239 0.992 -5.239 0.091 82.523
4394.563 0.092 82.495 0.992 -5.27 0.992 -5.27 0.092 82.495
4419.531 0.092 82.468 0.992 -5.301 0.992 -5.301 0.092 82.468
4444.5 0.093 82.441 0.992 -5.331 0.992 -5.331 0.093 82.441
4469.469 0.094 82.413 0.992 -5.362 0.992 -5.362 0.094 82.413
4494.438 0.094 82.386 0.992 -5.393 0.992 -5.393 0.094 82.386
4519.406 0.095 82.358 0.992 -5.423 0.992 -5.423 0.095 82.358
4544.375 0.095 82.33 0.992 -5.454 0.992 -5.454 0.095 82.33
4569.344 0.096 82.303 0.992 -5.485 0.992 -5.485 0.096 82.303
4594.313 0.096 82.275 0.992 -5.516 0.992 -5.516 0.096 82.275
4619.281 0.097 82.247 0.992 -5.546 0.992 -5.546 0.097 82.247
4644.25 0.097 82.219 0.992 -5.577 0.992 -5.577 0.097 82.219
4669.219 0.098 82.192 0.991 -5.608 0.991 -5.608 0.098 82.192
4694.188 0.098 82.164 0.991 -5.639 0.991 -5.639 0.098 82.164
4719.156 0.099 82.136 0.991 -5.669 0.991 -5.669 0.099 82.136
4744.125 0.099 82.108 0.991 -5.7 0.991 -5.7 0.099 82.108
4769.094 0.1 82.08 0.991 -5.731 0.991 -5.731 0.1 82.08
4794.063 0.1 82.052 0.991 -5.762 0.991 -5.762 0.1 82.052
4819.031 0.101 82.023 0.991 -5.793 0.991 -5.793 0.101 82.023
4844 0.102 81.995 0.991 -5.824 0.991 -5.824 0.102 81.995
4868.969 0.102 81.967 0.991 -5.855 0.991 -5.855 0.102 81.967
4893.938 0.103 81.939 0.991 -5.885 0.991 -5.885 0.103 81.939
4918.906 0.103 81.91 0.991 -5.916 0.991 -5.916 0.103 81.91
4943.875 0.104 81.882 0.991 -5.947 0.991 -5.947 0.104 81.882
4968.844 0.104 81.854 0.991 -5.978 0.991 -5.978 0.104 81.854
4993.813 0.105 81.825 0.991 -6.009 0.991 -6.009 0.105 81.825
5018.781 0.105 81.797 0.99 -6.04 0.99 -6.04 0.105 81.797
5043.75 0.106 81.768 0.99 -6.071 0.99 -6.071 0.106 81.768
5068.719 0.106 81.74 0.99 -6.102 0.99 -6.102 0.106 81.74
5093.688 0.107 81.711 0.99 -6.133 0.99 -6.133 0.107 81.711
5118.656 0.107 81.682 0.99 -6.164 0.99 -6.164 0.107 81.682
5143.625 0.108 81.654 0.99 -6.195 0.99 -6.195 0.108 81.654
5168.594 0.109 81.625 0.99 -6.226 0.99 -6.226 0.109 81.625
5193.563 0.109 81.596 0.99 -6.257 0.99 -6.257 0.109 81.596
5218.531 0.11 81.567 0.99 -6.288 0.99 -6.288 0.11 81.567
5243.5 0.11 81.538 0.99 -6.32 0.99 -6.32 0.11 81.538
5268.469 0.111 81.509 0.99 -6.351 0.99 -6.351 0.111 81.509
5293.438 0.111 81.48 0.99 -6.382 0.99 -6.382 0.111 81.48
5318.406 0.112 81.451 0.99 -6.413 0.99 -6.413 0.112 81.451
5343.375 0.112 81.422 0.99 -6.444 0.99 -6.444 0.112 81.422
5368.344 0.113 81.393 0.989 -6.475 0.989 -6.475 0.113 81.393
5393.313 0.113 81.364 0.989 -6.506 0.989 -6.506 0.113 81.364
5418.281 0.114 81.335 0.989 -6.538 0.989 -6.538 0.114 81.335
5443.25 0.114 81.306 0.989 -6.569 0.989 -6.569 0.114 81.306
5468.219 0.115 81.276 0.989 -6.6 0.989 -6.6 0.115 81.276
5493.188 0.116 81.247 0.989 -6.631 0.989 -6.631 0.116 81.247
5518.156 0.116 81.218 0.989 -6.663 0.989 -6.663 0.116 81.218
5543.125 0.117 81.189 0.989 -6.694 0.989 -6.694 0.117 81.189
5568.094 0.117 81.159 0.989 -6.725 0.989 -6.725 0.117 81.159
5593.063 0.118 81.13 0.989 -6.757 0.989 -6.757 0.118 81.13
5618.031 0.118 81.1 0.989 -6.788 0.989 -6.788 0.118 81.1
5643 0.119 81.071 0.989 -6.819 0.989 -6.819 0.119 81.071
5667.969 0.119 81.041 0.988 -6.851 0.988 -6.851 0.119 81.041
5692.938 0.12 81.012 0.988 -6.882 0.988 -6.882 0.12 81.012
5717.906 0.12 80.982 0.988 -6.913 0.988 -6.913 0.12 80.982
5742.875 0.121 80.952 0.988 -6.945 0.988 -6.945 0.121 80.952
5767.844 0.122 80.923 0.988 -6.976 0.988 -6.976 0.122 80.923
5792.813 0.122 80.893 0.988 -7.008 0.988 -7.008 0.122 80.893
5817.781 0.123 80.863 0.988 -7.039 0.988 -7.039 0.123 80.863
5842.75 0.123 80.833 0.988 -7.071 0.988 -7.071 0.123 80.833
5867.719 0.124 80.803 0.988 -7.102 0.988 -7.102 0.124 80.803
5892.688 0.124 80.774 0.988 -7.134 0.988 -7.134 0.124 80.774
5917.656 0.125 80.744 0.988 -7.165 0.988 -7.165 0.125 80.744
5942.625 0.125 80.714 0.988 -7.197 0.988 -7.197 0.125 80.714
5967.594 0.126 80.684 0.987 -7.228 0.987 -7.228 0.126 80.684
5992.563 0.126 80.654 0.987 -7.26 0.987 -7.26 0.126 80.654
6017.531 0.127 80.624 0.987 -7.292 0.987 -7.292 0.127 80.624
6042.5 0.128 80.594 0.987 -7.323 0.987 -7.323 0.128 80.594
6067.469 0.128 80.563 0.987 -7.355 0.987 -7.355 0.128 80.563
6092.438 0.129 80.533 0.987 -7.387 0.987 -7.387 0.129 80.533
6117.406 0.129 80.503 0.987 -7.418 0.987 -7.418 0.129 80.503
6142.375 0.13 80.473 0.987 -7.45 0.987 -7.45 0.13 80.473
6167.344 0.13 80.443 0.987 -7.482 0.987 -7.482 0.13 80.443
6192.313 0.131 80.412 0.987 -7.513 0.987 -7.513 0.131 80.412
6217.281 0.131 80.382 0.987 -7.545 0.987 -7.545 0.131 80.382
6242.25 0.132 80.352 0.986 -7.577 0.986 -7.577 0.132 80.352
6267.219 0.132 80.321 0.986 -7.609 0.986 -7.609 0.132 80.321
6292.188 0.133 80.291 0.986 -7.641 0.986 -7.641 0.133 80.291
6317.156 0.134 80.26 0.986 -7.672 0.986 -7.672 0.134 80.26
6342.125 0.134 80.23 0.986 -7.704 0.986 -7.704 0.134 80.23
6367.094 0.135 80.199 0.986 -7.736 0.986 -7.736 0.135 80.199
6392.063 0.135 80.169 0.986 -7.768 0.986 -7.768 0.135 80.169
6417.031 0.136 80.138 0.986 -7.8 0.986 -7.8 0.136 80.138
6442 0.136 80.107 0.986 -7.832 0.986 -7.832 0.136 80.107
6466.969 0.137 80.077 0.986 -7.864 0.986 -7.864 0.137 80.077
6491.938 0.137 80.046 0.986 -7.896 0.986 -7.896 0.137 80.046
6516.906 0.138 80.015 0.985 -7.928 0.985 -7.928 0.138 80.015
6541.875 0.139 79.984 0.985 -7.96 0.985 -7.96 0.139 79.984
6566.844 0.139 79.954 0.985 -7.992 0.985 -7.992 0.139 79.954
6591.813 0.14 79.923 0.985 -8.024 0.985 -8.024 0.14 79.923
6616.781 0.14 79.892 0.985 -8.056 0.985 -8.056 0.14 79.892
6641.75 0.141 79.861 0.985 -8.088 0.985 -8.088 0.141 79.861
6666.719 0.141 79.83 0.985 -8.12 0.985 -8.12 0.141 79.83
6691.688 0.142 79.799 0.985 -8.152 0.985 -8.152 0.142 79.799
6716.656 0.142 79.768 0.985 -8.184 0.985 -8.184 0.142 79.768
6741.625 0.143 79.737 0.985 -8.217 0.985 -8.217 0.143 79.737
6766.594 0.144 79.706 0.985 -8.249 0.985 -8.249 0.144 79.706
6791.563 0.144 79.675 0.984 -8.281 0.984 -8.281 0.144 79.675
6816.531 0.145 79.643 0.984 -8.313 0.984 -8.313 0.145 79.643
6841.5 0.145 79.612 0.984 -8.345 0.984 -8.345 0.145 79.612
6866.469 0.146 79.581 0.984 -8.378 0.984 -8.378 0.146 79.581
6891.438 0.146 79.55 0.984 -8.41 0.984 -8.41 0.146 79.55
6916.406 0.147 79.519 0.984 -8.442 0.984 -8.442 0.147 79.519
6941.375 0.147 79.487 0.984 -8.475 0.984 -8.475 0.147 79.487
6966.344 0.148 79.456 0.984 -8.507 0.984 -8.507 0.148 79.456
6991.313 0.149 79.424 0.984 -8.539 0.984 -8.539 0.149 79.424
7016.281 0.149 79.393 0.984 -8.572 0.984 -8.572 0.149 79.393
7041.25 0.15 79.362 0.983 -8.604 0.983 -8.604 0.15 79.362
7066.219 0.15 79.33 0.983 -8.637 0.983 -8.637 0.15 79.33
7091.188 0.151 79.299 0.983 -8.669 0.983 -8.669 0.151 79.299
7116.156 0.151 79.267 0.983 -8.702 0.983 -8.702 0.151 79.267
7141.125 0.152 79.235 0.983 -8.734 0.983 -8.734 0.152 79.235
7166.094 0.153 79.204 0.983 -8.767 0.983 -8.767 0.153 79.204
7191.063 0.153 79.172 0.983 -8.799 0.983 -8.799 0.153 79.172
7216.031 0.154 79.14 0.983 -8.832 0.983 -8.832 0.154 79.14
7241 0.154 79.109 0.983 -8.864 0.983 -8.864 0.154 79.109
7265.969 0.155 79.077 0.982 -8.897 0.982 -8.897 0.155 79.077
7290.938 0.155 79.045 0.982 -8.929 0.982 -8.929 0.155 79.045
7315.906 0.156 79.013 0.982 -8.962 0.982 -8.962 0.156 79.013
7340.875 0.156 78.982 0.982 -8.995 0.982 -8.995 0.156 78.982
7365.844 0.157 78.95 0.982 -9.028 0.982 -9.028 0.157 78.95
7390.813 0.158 78.918 0.982 -9.06 0.982 -9.06 0.158 78.918
7415.781 0.158 78.886 0.982 -9.093 0.982 -9.093 0.158 78.886
7440.75 0.159 78.854 0.982 -9.126 0.982 -9.126 0.159 78.854
7465.719 0.159 78.822 0.982 -9.159 0.982 -9.159 0.159 78.822
7490.688 0.16 78.79 0.982 -9.191 0.982 -9.191 0.16 78.79
7515.656 0.16 78.758 0.981 -9.224 0.981 -9.224 0.16 78.758
7540.625 0.161 78.725 0.981 -9.257 0.981 -9.257 0.161 78.725
7565.594 0.162 78.693 0.981 -9.29 0.981 -9.29 0.162 78.693
7590.563 0.162 78.661 0.981 -9.323 0.981 -9.323 0.162 78.661
7615.531 0.163 78.629 0.981 -9.356 0.981 -9.356 0.163 78.629
7640.5 0.163 78.597 0.981 -9.389 0.981 -9.389 0.163 78.597
7665.469 0.164 78.564 0.981 -9.422 0.981 -9.422 0.164 78.564
7690.438 0.164 78.532 0.981 -9.455 0.981 -9.455 0.164 78.532
7715.406 0.165 78.5 0.981 -9.488 0.981 -9.488 0.165 78.5
7740.375 0.166 78.467 0.98 -9.521 0.98 -9.521 0.166 78.467
7765.344 0.166 78.435 0.98 -9.554 0.98 -9.554 0.166 78.435
7790.313 0.167 78.402 0.98 -9.587 0.98 -9.587 0.167 78.402
7815.281 0.167 78.37 0.98 -9.62 0.98 -9.62 0.167 78.37
7840.25 0.168 78.337 0.98 -9.653 0.98 -9.653 0.168 78.337
7865.219 0.168 78.305 0.98 -9.686 0.98 -9.686 0.168 78.305
7890.188 0.169 78.272 0.98 -9.72 0.98 -9.72 0.169 78.272
7915.156 0.17 78.24 0.98 -9.753 0.98 -9.753 0.17 78.24
7940.125 0.17 78.207 0.979 -9.786 0.979 -9.786 0.17 78.207
7965.094 0.171 78.174 0.979 -9.819 0.979 -9.819 0.171 78.174
7990.063 0.171 78.142 0.979 -9.853 0.979 -9.853 0.171 78.142
8015.031 0.172 78.109 0.979 -9.886 0.979 -9.886 0.172 78.109
8040 0.172 78.076 0.979 -9.919 0.979 -9.919 0.172 78.076
8064.969 0.173 78.043 0.979 -9.953 0.979 -9.953 0.173 78.043
8089.938 0.174 78.01 0.979 -9.986 0.979 -9.986 0.174 78.01
8114.906 0.174 77.977 0.979 -10.019 0.979 -10.019 0.174 77.977
8139.875 0.175 77.945 0.979 -10.053 0.979 -10.053 0.175 77.945
8164.844 0.175 77.912 0.978 -10.086 0.978 -10.086 0.175 77.912
8189.813 0.176 77.879 0.978 -10.12 0.978 -10.12 0.176 77.879
8214.781 0.176 77.846 0.978 -10.153 0.978 -10.153 0.176 77.846
8239.75 0.177 77.812 0.978 -10.187 0.978 -10.187 0.177 77.812
8264.719 0.178 77.779 0.978 -10.22 0.978 -10.22 0.178 77.779
8289.688 0.178 77.746 0.978 -10.254 0.978 -10.254 0.178 77.746
8314.656 0.179 77.713 0.978 -10.288 0.978 -10.288 0.179 77.713
