# MHZ S MA R 50

50 3.782e-3 55.798 0.998 -0.18 0.998 -0.18 3.782e-3 55.798
74.969 5.18e-3 64.884 0.998 -0.269 0.998 -0.269 5.18e-3 64.884
99.938 6.652e-3 69.996 0.998 -0.359 0.998 -0.359 6.652e-3 69.996
124.906 8.16e-3 73.205 0.998 -0.449 0.998 -0.449 8.16e-3 73.205
149.875 9.686e-3 75.38 0.998 -0.538 0.998 -0.538 9.686e-3 75.38
174.844 0.011 76.937 0.998 -0.628 0.998 -0.628 0.011 76.937
199.813 0.013 78.096 0.997 -0.718 0.997 -0.718 0.013 78.096
224.781 0.014 78.985 0.997 -0.807 0.997 -0.807 0.014 78.985
249.75 0.016 79.683 0.997 -0.897 0.997 -0.897 0.016 79.683
274.719 0.017 80.241 0.997 -0.986 0.997 -0.986 0.017 80.241
299.688 0.019 80.692 0.997 -1.076 0.997 -1.076 0.019 80.692
324.656 0.021 81.062 0.997 -1.166 0.997 -1.166 0.021 81.062
349.625 0.022 81.366 0.997 -1.255 0.997 -1.255 0.022 81.366
374.594 0.024 81.619 0.997 -1.345 0.997 -1.345 0.024 81.619
399.563 0.025 81.829 0.997 -1.434 0.997 -1.434 0.025 81.829
424.531 0.027 82.005 0.997 -1.524 0.997 -1.524 0.027 82.005
449.5 0.028 82.151 0.997 -1.613 0.997 -1.613 0.028 82.151
474.469 0.03 82.273 0.996 -1.703 0.996 -1.703 0.03 82.273
499.438 0.031 82.373 0.996 -1.792 0.996 -1.792 0.031 82.373
524.406 0.033 82.456 0.996 -1.882 0.996 -1.882 0.033 82.456
549.375 0.035 82.523 0.996 -1.971 0.996 -1.971 0.035 82.523
574.344 0.036 82.576 0.996 -2.061 0.996 -2.061 0.036 82.576
599.313 0.038 82.618 0.996 -2.15 0.996 -2.15 0.038 82.618
624.281 0.039 82.649 0.996 -2.24 0.996 -2.24 0.039 82.649
649.25 0.041 82.671 0.996 -2.329 0.996 -2.329 0.041 82.671
674.219 0.042 82.685 0.995 -2.419 0.995 -2.419 0.042 82.685
699.188 0.044 82.691 0.995 -2.508 0.995 -2.508 0.044 82.691
724.156 0.045 82.691 0.995 -2.597 0.995 -2.597 0.045 82.691
749.125 0.047 82.685 0.995 -2.687 0.995 -2.687 0.047 82.685
774.094 0.049 82.674 0.995 -2.776 0.995 -2.776 0.049 82.674
799.063 0.05 82.657 0.995 -2.866 0.995 -2.866 0.05 82.657
824.031 0.052 82.637 0.995 -2.955 0.995 -2.955 0.052 82.637
849 0.053 82.612 0.995 -3.044 0.995 -3.044 0.053 82.612
873.969 0.055 82.584 0.994 -3.134 0.994 -3.134 0.055 82.584
898.938 0.056 82.552 0.994 -3.223 0.994 -3.223 0.056 82.552
923.906 0.058 82.517 0.994 -3.312 0.994 -3.312 0.058 82.517
948.875 0.059 82.479 0.994 -3.402 0.994 -3.402 0.059 82.479
973.844 0.061 82.439 0.994 -3.491 0.994 -3.491 0.061 82.439
998.813 0.063 82.396 0.994 -3.58 0.994 -3.58 0.063 82.396
1023.781 0.064 82.351 0.993 -3.67 0.993 -3.67 0.064 82.351
1048.75 0.066 82.304 0.993 -3.759 0.993 -3.759 0.066 82.304
1073.719 0.067 82.255 0.993 -3.848 0.993 -3.848 0.067 82.255
1098.688 0.069 82.204 0.993 -3.938 0.993 -3.938 0.069 82.204
1123.656 0.07 82.151 0.993 -4.027 0.993 -4.027 0.07 82.151
1148.625 0.072 82.097 0.993 -4.116 0.993 -4.116 0.072 82.097
1173.594 0.073 82.041 0.992 -4.205 0.992 -4.205 0.073 82.041
1198.563 0.075 81.984 0.992 -4.295 0.992 -4.295 0.075 81.984
1223.531 0.077 81.925 0.992 -4.384 0.992 -4.384 0.077 81.925
1248.5 0.078 81.866 0.992 -4.473 0.992 -4.473 0.078 81.866
1273.469 0.08 81.805 0.992 -4.562 0.992 -4.562 0.08 81.805
1298.438 0.081 81.743 0.992 -4.652 0.992 -4.652 0.081 81.743
1323.406 0.083 81.68 0.991 -4.741 0.991 -4.741 0.083 81.68
1348.375 0.084 81.616 0.991 -4.83 0.991 -4.83 0.084 81.616
1373.344 0.086 81.551 0.991 -4.919 0.991 -4.919 0.086 81.551
1398.313 0.087 81.485 0.991 -5.008 0.991 -5.008 0.087 81.485
1423.281 0.089 81.419 0.991 -5.098 0.991 -5.098 0.089 81.419
1448.25 0.091 81.351 0.99 -5.187 0.99 -5.187 0.091 81.351
1473.219 0.092 81.283 0.99 -5.276 0.99 -5.276 0.092 81.283
1498.188 0.094 81.215 0.99 -5.365 0.99 -5.365 0.094 81.215
1523.156 0.095 81.145 0.99 -5.454 0.99 -5.454 0.095 81.145
1548.125 0.097 81.075 0.99 -5.543 0.99 -5.543 0.097 81.075
1573.094 0.098 81.004 0.989 -5.633 0.989 -5.633 0.098 81.004
1598.063 0.1 80.933 0.989 -5.722 0.989 -5.722 0.1 80.933
1623.031 0.101 80.861 0.989 -5.811 0.989 -5.811 0.101 80.861
1648 0.103 80.789 0.989 -5.9 0.989 -5.9 0.103 80.789
1672.969 0.105 80.716 0.989 -5.989 0.989 -5.989 0.105 80.716
1697.938 0.106 80.643 0.988 -6.078 0.988 -6.078 0.106 80.643
1722.906 0.108 80.569 0.988 -6.167 0.988 -6.167 0.108 80.569
1747.875 0.109 80.495 0.988 -6.256 0.988 -6.256 0.109 80.495
1772.844 0.111 80.42 0.988 -6.345 0.988 -6.345 0.111 80.42
1797.813 0.112 80.345 0.987 -6.434 0.987 -6.434 0.112 80.345
1822.781 0.114 80.27 0.987 -6.524 0.987 -6.524 0.114 80.27
1847.75 0.115 80.194 0.987 -6.613 0.987 -6.613 0.115 80.194
1872.719 0.117 80.118 0.987 -6.702 0.987 -6.702 0.117 80.118
1897.688 0.118 80.041 0.986 -6.791 0.986 -6.791 0.118 80.041
1922.656 0.12 79.964 0.986 -6.88 0.986 -6.88 0.12 79.964
1947.625 0.122 79.887 0.986 -6.969 0.986 -6.969 0.122 79.887
1972.594 0.123 79.81 0.986 -7.058 0.986 -7.058 0.123 79.81
1997.563 0.125 79.732 0.985 -7.147 0.985 -7.147 0.125 79.732
2022.531 0.126 79.654 0.985 -7.236 0.985 -7.236 0.126 79.654
2047.5 0.128 79.576 0.985 -7.325 0.985 -7.325 0.128 79.576
2072.469 0.129 79.497 0.985 -7.414 0.985 -7.414 0.129 79.497
2097.438 0.131 79.418 0.984 -7.503 0.984 -7.503 0.131 79.418
2122.406 0.132 79.339 0.984 -7.592 0.984 -7.592 0.132 79.339
2147.375 0.134 79.26 0.984 -7.681 0.984 -7.681 0.134 79.26
2172.344 0.135 79.18 0.984 -7.77 0.984 -7.77 0.135 79.18
2197.313 0.137 79.101 0.983 -7.859 0.983 -7.859 0.137 79.101
2222.281 0.138 79.021 0.983 -7.948 0.983 -7.948 0.138 79.021
2247.25 0.14 78.941 0.983 -8.037 0.983 -8.037 0.14 78.941
2272.219 0.142 78.86 0.983 -8.125 0.983 -8.125 0.142 78.86
2297.188 0.143 78.78 0.982 -8.214 0.982 -8.214 0.143 78.78
2322.156 0.145 78.699 0.982 -8.303 0.982 -8.303 0.145 78.699
2347.125 0.146 78.618 0.982 -8.392 0.982 -8.392 0.146 78.618
2372.094 0.148 78.537 0.981 -8.481 0.981 -8.481 0.148 78.537
2397.063 0.149 78.456 0.981 -8.57 0.981 -8.57 0.149 78.456
2422.031 0.151 78.374 0.981 -8.659 0.981 -8.659 0.151 78.374
2447 0.152 78.293 0.981 -8.748 0.981 -8.748 0.152 78.293
2471.969 0.154 78.211 0.98 -8.837 0.98 -8.837 0.154 78.211
2496.938 0.155 78.129 0.98 -8.926 0.98 -8.926 0.155 78.129
2521.906 0.157 78.047 0.98 -9.015 0.98 -9.015 0.157 78.047
2546.875 0.158 77.965 0.979 -9.103 0.979 -9.103 0.158 77.965
2571.844 0.16 77.883 0.979 -9.192 0.979 -9.192 0.16 77.883
2596.813 0.161 77.8 0.979 -9.281 0.979 -9.281 0.161 77.8
2621.781 0.163 77.718 0.978 -9.37 0.978 -9.37 0.163 77.718
2646.75 0.165 77.635 0.978 -9.459 0.978 -9.459 0.165 77.635
2671.719 0.166 77.552 0.978 -9.548 0.978 -9.548 0.166 77.552
2696.688 0.168 77.469 0.977 -9.637 0.977 -9.637 0.168 77.469
2721.656 0.169 77.386 0.977 -9.725 0.977 -9.725 0.169 77.386
2746.625 0.171 77.303 0.977 -9.814 0.977 -9.814 0.171 77.303
2771.594 0.172 77.22 0.976 -9.903 0.976 -9.903 0.172 77.22
2796.563 0.174 77.137 0.976 -9.992 0.976 -9.992 0.174 77.137
2821.531 0.175 77.053 0.976 -10.081 0.976 -10.081 0.175 77.053
2846.5 0.177 76.97 0.975 -10.169 0.975 -10.169 0.177 76.97
2871.469 0.178 76.886 0.975 -10.258 0.975 -10.258 0.178 76.886
2896.438 0.18 76.802 0.975 -10.347 0.975 -10.347 0.18 76.802
2921.406 0.181 76.718 0.974 -10.436 0.974 -10.436 0.181 76.718
2946.375 0.183 76.634 0.974 -10.525 0.974 -10.525 0.183 76.634
2971.344 0.184 76.55 0.974 -10.613 0.974 -10.613 0.184 76.55
2996.313 0.186 76.466 0.973 -10.702 0.973 -10.702 0.186 76.466
3021.281 0.187 76.382 0.973 -10.791 0.973 -10.791 0.187 76.382
3046.25 0.189 76.298 0.973 -10.88 0.973 -10.88 0.189 76.298
3071.219 0.19 76.214 0.972 -10.968 0.972 -10.968 0.19 76.214
3096.188 0.192 76.129 0.972 -11.057 0.972 -11.057 0.192 76.129
3121.156 0.194 76.045 0.972 -11.146 0.972 -11.146 0.194 76.045
3146.125 0.195 75.96 0.971 -11.235 0.971 -11.235 0.195 75.96
3171.094 0.197 75.875 0.971 -11.323 0.971 -11.323 0.197 75.875
3196.063 0.198 75.791 0.971 -11.412 0.971 -11.412 0.198 75.791
3221.031 0.2 75.706 0.97 -11.501 0.97 -11.501 0.2 75.706
3246 0.201 75.621 0.97 -11.59 0.97 -11.59 0.201 75.621
3270.969 0.203 75.536 0.969 -11.678 0.969 -11.678 0.203 75.536
3295.938 0.204 75.451 0.969 -11.767 0.969 -11.767 0.204 75.451
3320.906 0.206 75.366 0.969 -11.856 0.969 -11.856 0.206 75.366
3345.875 0.207 75.281 0.968 -11.944 0.968 -11.944 0.207 75.281
3370.844 0.209 75.196 0.968 -12.033 0.968 -12.033 0.209 75.196
3395.813 0.21 75.111 0.968 -12.122 0.968 -12.122 0.21 75.111
3420.781 0.212 75.025 0.967 -12.21 0.967 -12.21 0.212 75.025
3445.75 0.213 74.94 0.967 -12.299 0.967 -12.299 0.213 74.94
3470.719 0.215 74.855 0.966 -12.388 0.966 -12.388 0.215 74.855
3495.688 0.216 74.769 0.966 -12.477 0.966 -12.477 0.216 74.769
3520.656 0.218 74.684 0.966 -12.565 0.966 -12.565 0.218 74.684
3545.625 0.219 74.598 0.965 -12.654 0.965 -12.654 0.219 74.598
3570.594 0.221 74.513 0.965 -12.743 0.965 -12.743 0.221 74.513
3595.563 0.222 74.427 0.964 -12.831 0.964 -12.831 0.222 74.427
3620.531 0.224 74.341 0.964 -12.92 0.964 -12.92 0.224 74.341
3645.5 0.225 74.255 0.964 -13.008 0.964 -13.008 0.225 74.255
3670.469 0.227 74.17 0.963 -13.097 0.963 -13.097 0.227 74.17
3695.438 0.228 74.084 0.963 -13.186 0.963 -13.186 0.228 74.084
3720.406 0.23 73.998 0.962 -13.274 0.962 -13.274 0.23 73.998
3745.375 0.231 73.912 0.962 -13.363 0.962 -13.363 0.231 73.912
3770.344 0.233 73.826 0.962 -13.452 0.962 -13.452 0.233 73.826
3795.313 0.234 73.74 0.961 -13.54 0.961 -13.54 0.234 73.74
3820.281 0.236 73.654 0.961 -13.629 0.961 -13.629 0.236 73.654
3845.25 0.237 73.568 0.96 -13.717 0.96 -13.717 0.237 73.568
3870.219 0.239 73.482 0.96 -13.806 0.96 -13.806 0.239 73.482
3895.188 0.24 73.396 0.959 -13.895 0.959 -13.895 0.24 73.396
3920.156 0.242 73.309 0.959 -13.983 0.959 -13.983 0.242 73.309
3945.125 0.243 73.223 0.959 -14.072 0.959 -14.072 0.243 73.223
3970.094 0.245 73.137 0.958 -14.16 0.958 -14.16 0.245 73.137
3995.063 0.246 73.05 0.958 -14.249 0.958 -14.249 0.246 73.05
4020.031 0.248 72.964 0.957 -14.338 0.957 -14.338 0.248 72.964
4045 0.249 72.878 0.957 -14.426 0.957 -14.426 0.249 72.878
4069.969 0.251 72.791 0.956 -14.515 0.956 -14.515 0.251 72.791
4094.938 0.252 72.705 0.956 -14.603 0.956 -14.603 0.252 72.705
4119.906 0.254 72.618 0.955 -14.692 0.955 -14.692 0.254 72.618
4144.875 0.255 72.532 0.955 -14.781 0.955 -14.781 0.255 72.532
4169.844 0.257 72.445 0.954 -14.869 0.954 -14.869 0.257 72.445
4194.813 0.258 72.359 0.954 -14.958 0.954 -14.958 0.258 72.359
4219.781 0.26 72.272 0.954 -15.046 0.954 -15.046 0.26 72.272
4244.75 0.261 72.185 0.953 -15.135 0.953 -15.135 0.261 72.185
4269.719 0.263 72.099 0.953 -15.223 0.953 -15.223 0.263 72.099
4294.688 0.264 72.012 0.952 -15.312 0.952 -15.312 0.264 72.012
4319.656 0.266 71.925 0.952 -15.4 0.952 -15.4 0.266 71.925
4344.625 0.267 71.838 0.951 -15.489 0.951 -15.489 0.267 71.838
4369.594 0.269 71.752 0.951 -15.577 0.951 -15.577 0.269 71.752
4394.563 0.27 71.665 0.95 -15.666 0.95 -15.666 0.27 71.665
4419.531 0.272 71.578 0.95 -15.754 0.95 -15.754 0.272 71.578
4444.5 0.273 71.491 0.949 -15.843 0.949 -15.843 0.273 71.491
4469.469 0.275 71.404 0.949 -15.931 0.949 -15.931 0.275 71.404
4494.438 0.276 71.317 0.948 -16.02 0.948 -16.02 0.276 71.317
4519.406 0.278 71.23 0.948 -16.108 0.948 -16.108 0.278 71.23
4544.375 0.279 71.143 0.947 -16.197 0.947 -16.197 0.279 71.143
4569.344 0.281 71.056 0.947 -16.285 0.947 -16.285 0.281 71.056
4594.313 0.282 70.969 0.946 -16.374 0.946 -16.374 0.282 70.969
4619.281 0.284 70.882 0.946 -16.462 0.946 -16.462 0.284 70.882
4644.25 0.285 70.795 0.945 -16.551 0.945 -16.551 0.285 70.795
4669.219 0.287 70.708 0.945 -16.639 0.945 -16.639 0.287 70.708
4694.188 0.288 70.621 0.944 -16.728 0.944 -16.728 0.288 70.621
4719.156 0.29 70.533 0.944 -16.816 0.944 -16.816 0.29 70.533
4744.125 0.291 70.446 0.943 -16.905 0.943 -16.905 0.291 70.446
4769.094 0.293 70.359 0.943 -16.993 0.943 -16.993 0.293 70.359
4794.063 0.294 70.272 0.942 -17.082 0.942 -17.082 0.294 70.272
4819.031 0.296 70.185 0.942 -17.17 0.942 -17.17 0.296 70.185
4844 0.297 70.097 0.941 -17.259 0.941 -17.259 0.297 70.097
4868.969 0.298 70.01 0.941 -17.347 0.941 -17.347 0.298 70.01
4893.938 0.3 69.923 0.94 -17.436 0.94 -17.436 0.3 69.923
4918.906 0.301 69.835 0.94 -17.524 0.94 -17.524 0.301 69.835
4943.875 0.303 69.748 0.939 -17.612 0.939 -17.612 0.303 69.748
4968.844 0.304 69.661 0.939 -17.701 0.939 -17.701 0.304 69.661
4993.813 0.306 69.573 0.938 -17.789 0.938 -17.789 0.306 69.573
5018.781 0.307 69.486 0.938 -17.878 0.938 -17.878 0.307 69.486
5043.75 0.309 69.398 0.937 -17.966 0.937 -17.966 0.309 69.398
5068.719 0.31 69.311 0.937 -18.055 0.937 -18.055 0.31 69.311
5093.688 0.312 69.223 0.936 -18.143 0.936 -18.143 0.312 69.223
5118.656 0.313 69.136 0.935 -18.231 0.935 -18.231 0.313 69.136
5143.625 0.315 69.048 0.935 -18.32 0.935 -18.32 0.315 69.048
5168.594 0.316 68.961 0.934 -18.408 0.934 -18.408 0.316 68.961
5193.563 0.318 68.873 0.934 -18.497 0.934 -18.497 0.318 68.873
5218.531 0.319 68.786 0.933 -18.585 0.933 -18.585 0.319 68.786
5243.5 0.321 68.698 0.933 -18.673 0.933 -18.673 0.321 68.698
5268.469 0.322 68.611 0.932 -18.762 0.932 -18.762 0.322 68.611
5293.438 0.323 68.523 0.932 -18.85 0.932 -18.85 0.323 68.523
5318.406 0.325 68.435 0.931 -18.939 0.931 -18.939 0.325 68.435
5343.375 0.326 68.348 0.93 -19.027 0.93 -19.027 0.326 68.348
5368.344 0.328 68.26 0.93 -19.115 0.93 -19.115 0.328 68.26
5393.313 0.329 68.172 0.929 -19.204 0.929 -19.204 0.329 68.172
5418.281 0.331 68.085 0.929 -19.292 0.929 -19.292 0.331 68.085
5443.25 0.332 67.997 0.928 -19.38 0.928 -19.38 0.332 67.997
5468.219 0.334 67.909 0.928 -19.469 0.928 -19.469 0.334 67.909
5493.188 0.335 67.821 0.927 -19.557 0.927 -19.557 0.335 67.821
5518.156 0.337 67.734 0.926 -19.646 0.926 -19.646 0.337 67.734
5543.125 0.338 67.646 0.926 -19.734 0.926 -19.734 0.338 67.646
5568.094 0.339 67.558 0.925 -19.822 0.925 -19.822 0.339 67.558
5593.063 0.341 67.47 0.925 -19.911 0.925 -19.911 0.341 67.47
5618.031 0.342 67.382 0.924 -19.999 0.924 -19.999 0.342 67.382
5643 0.344 67.295 0.923 -20.087 0.923 -20.087 0.344 67.295
5667.969 0.345 67.207 0.923 -20.176 0.923 -20.176 0.345 67.207
5692.938 0.347 67.119 0.922 -20.264 0.922 -20.264 0.347 67.119
5717.906 0.348 67.031 0.922 -20.352 0.922 -20.352 0.348 67.031
5742.875 0.35 66.943 0.921 -20.441 0.921 -20.441 0.35 66.943
5767.844 0.351 66.855 0.92 -20.529 0.92 -20.529 0.351 66.855
5792.813 0.352 66.767 0.92 -20.617 0.92 -20.617 0.352 66.767
5817.781 0.354 66.679 0.919 -20.706 0.919 -20.706 0.354 66.679
5842.75 0.355 66.591 0.919 -20.794 0.919 -20.794 0.355 66.591
5867.719 0.357 66.503 0.918 -20.882 0.918 -20.882 0.357 66.503
5892.688 0.358 66.415 0.917 -20.97 0.917 -20.97 0.358 66.415
5917.656 0.36 66.327 0.917 -21.059 0.917 -21.059 0.36 66.327
5942.625 0.361 66.239 0.916 -21.147 0.916 -21.147 0.361 66.239
5967.594 0.363 66.151 0.916 -21.235 0.916 -21.235 0.363 66.151
5992.563 0.364 66.063 0.915 -21.324 0.915 -21.324 0.364 66.063
6017.531 0.365 65.975 0.914 -21.412 0.914 -21.412 0.365 65.975
6042.5 0.367 65.887 0.914 -21.5 0.914 -21.5 0.367 65.887
6067.469 0.368 65.799 0.913 -21.588 0.913 -21.588 0.368 65.799
6092.438 0.37 65.711 0.912 -21.677 0.912 -21.677 0.37 65.711
6117.406 0.371 65.623 0.912 -21.765 0.912 -21.765 0.371 65.623
6142.375 0.373 65.535 0.911 -21.853 0.911 -21.853 0.373 65.535
6167.344 0.374 65.447 0.911 -21.942 0.911 -21.942 0.374 65.447
6192.313 0.375 65.359 0.91 -22.03 0.91 -22.03 0.375 65.359
6217.281 0.377 65.271 0.909 -22.118 0.909 -22.118 0.377 65.271
6242.25 0.378 65.182 0.909 -22.206 0.909 -22.206 0.378 65.182
6267.219 0.38 65.094 0.908 -22.295 0.908 -22.295 0.38 65.094
6292.188 0.381 65.006 0.907 -22.383 0.907 -22.383 0.381 65.006
6317.156 0.383 64.918 0.907 -22.471 0.907 -22.471 0.383 64.918
6342.125 0.384 64.83 0.906 -22.559 0.906 -22.559 0.384 64.83
6367.094 0.385 64.742 0.905 -22.647 0.905 -22.647 0.385 64.742
6392.063 0.387 64.653 0.905 -22.736 0.905 -22.736 0.387 64.653
6417.031 0.388 64.565 0.904 -22.824 0.904 -22.824 0.388 64.565
6442 0.39 64.477 0.903 -22.912 0.903 -22.912 0.39 64.477
6466.969 0.391 64.389 0.903 -23 0.903 -23 0.391 64.389
6491.938 0.393 64.301 0.902 -23.089 0.902 -23.089 0.393 64.301
6516.906 0.394 64.212 0.901 -23.177 0.901 -23.177 0.394 64.212
6541.875 0.395 64.124 0.901 -23.265 0.901 -23.265 0.395 64.124
6566.844 0.397 64.036 0.9 -23.353 0.9 -23.353 0.397 64.036
6591.813 0.398 63.947 0.899 -23.441 0.899 -23.441 0.398 63.947
6616.781 0.4 63.859 0.899 -23.529 0.899 -23.529 0.4 63.859
6641.75 0.401 63.771 0.898 -23.618 0.898 -23.618 0.401 63.771
6666.719 0.402 63.683 0.897 -23.706 0.897 -23.706 0.402 63.683
6691.688 0.404 63.594 0.897 -23.794 0.897 -23.794 0.404 63.594
6716.656 0.405 63.506 0.896 -23.882 0.896 -23.882 0.405 63.506
6741.625 0.407 63.418 0.895 -23.97 0.895 -23.97 0.407 63.418
6766.594 0.408 63.329 0.895 -24.058 0.895 -24.058 0.408 63.329
6791.563 0.409 63.241 0.894 -24.147 0.894 -24.147 0.409 63.241
6816.531 0.411 63.152 0.893 -24.235 0.893 -24.235 0.411 63.152
6841.5 0.412 63.064 0.892 -24.323 0.892 -24.323 0.412 63.064
6866.469 0.414 62.976 0.892 -24.411 0.892 -24.411 0.414 62.976
6891.438 0.415 62.887 0.891 -24.499 0.891 -24.499 0.415 62.887
6916.406 0.417 62.799 0.89 -24.587 0.89 -24.587 0.417 62.799
6941.375 0.418 62.711 0.89 -24.675 0.89 -24.675 0.418 62.711
6966.344 0.419 62.622 0.889 -24.764 0.889 -24.764 0.419 62.622
6991.313 0.421 62.534 0.888 -24.852 0.888 -24.852 0.421 62.534
7016.281 0.422 62.445 0.887 -24.94 0.887 -24.94 0.422 62.445
7041.25 0.424 62.357 0.887 -25.028 0.887 -25.028 0.424 62.357
7066.219 0.425 62.268 0.886 -25.116 0.886 -25.116 0.425 62.268
7091.188 0.426 62.18 0.885 -25.204 0.885 -25.204 0.426 62.18
7116.156 0.428 62.091 0.885 -25.292 0.885 -25.292 0.428 62.091
7141.125 0.429 62.003 0.884 -25.38 0.884 -25.38 0.429 62.003
7166.094 0.43 61.914 0.883 -25.468 0.883 -25.468 0.43 61.914
7191.063 0.432 61.826 0.882 -25.556 0.882 -25.556 0.432 61.826
7216.031 0.433 61.738 0.882 -25.645 0.882 -25.645 0.433 61.738
7241 0.435 61.649 0.881 -25.733 0.881 -25.733 0.435 61.649
7265.969 0.436 61.561 0.88 -25.821 0.88 -25.821 0.436 61.561
7290.938 0.437 61.472 0.88 -25.909 0.88 -25.909 0.437 61.472
7315.906 0.439 61.383 0.879 -25.997 0.879 -25.997 0.439 61.383
7340.875 0.44 61.295 0.878 -26.085 0.878 -26.085 0.44 61.295
7365.844 0.442 61.206 0.877 -26.173 0.877 -26.173 0.442 61.206
7390.813 0.443 61.118 0.877 -26.261 0.877 -26.261 0.443 61.118
7415.781 0.444 61.029 0.876 -26.349 0.876 -26.349 0.444 61.029
7440.75 0.446 60.941 0.875 -26.437 0.875 -26.437 0.446 60.941
7465.719 0.447 60.852 0.874 -26.525 0.874 -26.525 0.447 60.852
7490.688 0.448 60.764 0.874 -26.613 0.874 -26.613 0.448 60.764
7515.656 0.45 60.675 0.873 -26.701 0.873 -26.701 0.45 60.675
7540.625 0.451 60.586 0.872 -26.789 0.872 -26.789 0.451 60.586
7565.594 0.453 60.498 0.871 -26.877 0.871 -26.877 0.453 60.498
7590.563 0.454 60.409 0.87 -26.965 0.87 -26.965 0.454 60.409
7615.531 0.455 60.321 0.87 -27.053 0.87 -27.053 0.455 60.321
7640.5 0.457 60.232 0.869 -27.141 0.869 -27.141 0.457 60.232
7665.469 0.458 60.144 0.868 -27.229 0.868 -27.229 0.458 60.144
7690.438 0.459 60.055 0.867 -27.317 0.867 -27.317 0.459 60.055
7715.406 0.461 59.966 0.867 -27.405 0.867 -27.405 0.461 59.966
7740.375 0.462 59.878 0.866 -27.493 0.866 -27.493 0.462 59.878
7765.344 0.463 59.789 0.865 -27.581 0.865 -27.581 0.463 59.789
7790.313 0.465 59.7 0.864 -27.669 0.864 -27.669 0.465 59.7
7815.281 0.466 59.612 0.864 -27.757 0.864 -27.757 0.466 59.612
7840.25 0.468 59.523 0.863 -27.845 0.863 -27.845 0.468 59.523
7865.219 0.469 59.434 0.862 -27.932 0.862 -27.932 0.469 59.434
7890.188 0.47 59.346 0.861 -28.02 0.861 -28.02 0.47 59.346
7915.156 0.472 59.257 0.86 -28.108 0.86 -28.108 0.472 59.257
7940.125 0.473 59.168 0.86 -28.196 0.86 -28.196 0.473 59.168
7965.094 0.474 59.08 0.859 -28.284 0.859 -28.284 0.474 59.08
7990.063 0.476 58.991 0.858 -28.372 0.858 -28.372 0.476 58.991
8015.031 0.477 58.902 0.857 -28.46 0.857 -28.46 0.477 58.902
8040 0.478 58.814 0.856 -28.548 0.856 -28.548 0.478 58.814
8064.969 0.48 58.725 0.856 -28.636 0.856 -28.636 0.48 58.725
8089.938 0.481 58.636 0.855 -28.723 0.855 -28.723 0.481 58.636
8114.906 0.482 58.548 0.854 -28.811 0.854 -28.811 0.482 58.548
8139.875 0.484 58.459 0.853 -28.899 0.853 -28.899 0.484 58.459
8164.844 0.485 58.37 0.852 -28.987 0.852 -28.987 0.485 58.37
