# MHZ S MA R 50

50 2.059e-3 58.513 0.999 -0.101 0.999 -0.101 2.059e-3 58.513
74.969 2.859e-3 67.029 0.999 -0.151 0.999 -0.151 2.859e-3 67.029
99.938 3.694e-3 71.74 0.999 -0.201 0.999 -0.201 3.694e-3 71.74
124.906 4.546e-3 74.682 0.999 -0.252 0.999 -0.252 4.546e-3 74.682
149.875 5.406e-3 76.675 0.999 -0.302 0.999 -0.302 5.406e-3 76.675
174.844 6.271e-3 78.106 0.999 -0.352 0.999 -0.352 6.271e-3 78.106
199.813 7.139e-3 79.178 0.999 -0.402 0.999 -0.402 7.139e-3 79.178
224.781 8.01e-3 80.005 0.999 -0.453 0.999 -0.453 8.01e-3 80.005
249.75 8.881e-3 80.661 0.999 -0.503 0.999 -0.503 8.881e-3 80.661
274.719 9.754e-3 81.19 0.999 -0.553 0.999 -0.553 9.754e-3 81.19
299.688 0.011 81.624 0.999 -0.603 0.999 -0.603 0.011 81.624
324.656 0.012 81.984 0.998 -0.654 0.998 -0.654 0.012 81.984
349.625 0.012 82.287 0.998 -0.704 0.998 -0.704 0.012 82.287
374.594 0.013 82.543 0.998 -0.754 0.998 -0.754 0.013 82.543
399.563 0.014 82.76 0.998 -0.804 0.998 -0.804 0.014 82.76
424.531 0.015 82.947 0.998 -0.855 0.998 -0.855 0.015 82.947
449.5 0.016 83.107 0.998 -0.905 0.998 -0.905 0.016 83.107
474.469 0.017 83.246 0.998 -0.955 0.998 -0.955 0.017 83.246
499.438 0.018 83.365 0.998 -1.005 0.998 -1.005 0.018 83.365
524.406 0.019 83.469 0.998 -1.056 0.998 -1.056 0.019 83.469
549.375 0.019 83.559 0.998 -1.106 0.998 -1.106 0.019 83.559
574.344 0.02 83.636 0.998 -1.156 0.998 -1.156 0.02 83.636
599.313 0.021 83.703 0.998 -1.206 0.998 -1.206 0.021 83.703
624.281 0.022 83.761 0.998 -1.256 0.998 -1.256 0.022 83.761
649.25 0.023 83.81 0.998 -1.307 0.998 -1.307 0.023 83.81
674.219 0.024 83.852 0.998 -1.357 0.998 -1.357 0.024 83.852
699.188 0.025 83.887 0.998 -1.407 0.998 -1.407 0.025 83.887
724.156 0.026 83.917 0.998 -1.457 0.998 -1.457 0.026 83.917
749.125 0.026 83.941 0.998 -1.508 0.998 -1.508 0.026 83.941
774.094 0.027 83.96 0.997 -1.558 0.997 -1.558 0.027 83.96
799.063 0.028 83.975 0.997 -1.608 0.997 -1.608 0.028 83.975
824.031 0.029 83.986 0.997 -1.658 0.997 -1.658 0.029 83.986
849 0.03 83.994 0.997 -1.709 0.997 -1.709 0.03 83.994
873.969 0.031 83.998 0.997 -1.759 0.997 -1.759 0.031 83.998
898.938 0.032 83.999 0.997 -1.809 0.997 -1.809 0.032 83.999
923.906 0.033 83.998 0.997 -1.859 0.997 -1.859 0.033 83.998
948.875 0.033 83.993 0.997 -1.909 0.997 -1.909 0.033 83.993
973.844 0.034 83.987 0.997 -1.96 0.997 -1.96 0.034 83.987
998.813 0.035 83.978 0.997 -2.01 0.997 -2.01 0.035 83.978
1023.781 0.036 83.967 0.997 -2.06 0.997 -2.06 0.036 83.967
1048.75 0.037 83.955 0.997 -2.11 0.997 -2.11 0.037 83.955
1073.719 0.038 83.94 0.997 -2.161 0.997 -2.161 0.038 83.94
1098.688 0.039 83.924 0.997 -2.211 0.997 -2.211 0.039 83.924
1123.656 0.04 83.907 0.997 -2.261 0.997 -2.261 0.04 83.907
1148.625 0.04 83.888 0.997 -2.311 0.997 -2.311 0.04 83.888
1173.594 0.041 83.868 0.996 -2.362 0.996 -2.362 0.041 83.868
1198.563 0.042 83.846 0.996 -2.412 0.996 -2.412 0.042 83.846
1223.531 0.043 83.823 0.996 -2.462 0.996 -2.462 0.043 83.823
1248.5 0.044 83.799 0.996 -2.512 0.996 -2.512 0.044 83.799
1273.469 0.045 83.774 0.996 -2.563 0.996 -2.563 0.045 83.774
1298.438 0.046 83.749 0.996 -2.613 0.996 -2.613 0.046 83.749
1323.406 0.047 83.722 0.996 -2.663 0.996 -2.663 0.047 83.722
1348.375 0.047 83.694 0.996 -2.713 0.996 -2.713 0.047 83.694
1373.344 0.048 83.666 0.996 -2.764 0.996 -2.764 0.048 83.666
1398.313 0.049 83.636 0.996 -2.814 0.996 -2.814 0.049 83.636
1423.281 0.05 83.606 0.996 -2.864 0.996 -2.864 0.05 83.606
1448.25 0.051 83.575 0.996 -2.914 0.996 -2.914 0.051 83.575
1473.219 0.052 83.544 0.996 -2.965 0.996 -2.965 0.052 83.544
1498.188 0.053 83.512 0.995 -3.015 0.995 -3.015 0.053 83.512
1523.156 0.054 83.479 0.995 -3.065 0.995 -3.065 0.054 83.479
1548.125 0.054 83.446 0.995 -3.116 0.995 -3.116 0.054 83.446
1573.094 0.055 83.412 0.995 -3.166 0.995 -3.166 0.055 83.412
1598.063 0.056 83.378 0.995 -3.216 0.995 -3.216 0.056 83.378
1623.031 0.057 83.343 0.995 -3.266 0.995 -3.266 0.057 83.343
1648 0.058 83.308 0.995 -3.317 0.995 -3.317 0.058 83.308
1672.969 0.059 83.272 0.995 -3.367 0.995 -3.367 0.059 83.272
1697.938 0.06 83.236 0.995 -3.417 0.995 -3.417 0.06 83.236
1722.906 0.061 83.199 0.995 -3.468 0.995 -3.468 0.061 83.199
1747.875 0.061 83.162 0.995 -3.518 0.995 -3.518 0.061 83.162
1772.844 0.062 83.125 0.994 -3.568 0.994 -3.568 0.062 83.125
1797.813 0.063 83.087 0.994 -3.619 0.994 -3.619 0.063 83.087
1822.781 0.064 83.049 0.994 -3.669 0.994 -3.669 0.064 83.049
1847.75 0.065 83.01 0.994 -3.719 0.994 -3.719 0.065 83.01
1872.719 0.066 82.971 0.994 -3.77 0.994 -3.77 0.066 82.971
1897.688 0.067 82.932 0.994 -3.82 0.994 -3.82 0.067 82.932
1922.656 0.068 82.893 0.994 -3.87 0.994 -3.87 0.068 82.893
1947.625 0.068 82.853 0.994 -3.921 0.994 -3.921 0.068 82.853
1972.594 0.069 82.813 0.994 -3.971 0.994 -3.971 0.069 82.813
1997.563 0.07 82.773 0.994 -4.021 0.994 -4.021 0.07 82.773
2022.531 0.071 82.732 0.994 -4.072 0.994 -4.072 0.071 82.732
2047.5 0.072 82.691 0.993 -4.122 0.993 -4.122 0.072 82.691
2072.469 0.073 82.65 0.993 -4.173 0.993 -4.173 0.073 82.65
2097.438 0.074 82.609 0.993 -4.223 0.993 -4.223 0.074 82.609
2122.406 0.075 82.567 0.993 -4.273 0.993 -4.273 0.075 82.567
2147.375 0.076 82.526 0.993 -4.324 0.993 -4.324 0.076 82.526
2172.344 0.076 82.484 0.993 -4.374 0.993 -4.374 0.076 82.484
2197.313 0.077 82.442 0.993 -4.425 0.993 -4.425 0.077 82.442
2222.281 0.078 82.399 0.993 -4.475 0.993 -4.475 0.078 82.399
2247.25 0.079 82.357 0.993 -4.526 0.993 -4.526 0.079 82.357
2272.219 0.08 82.314 0.992 -4.576 0.992 -4.576 0.08 82.314
2297.188 0.081 82.271 0.992 -4.626 0.992 -4.626 0.081 82.271
2322.156 0.082 82.228 0.992 -4.677 0.992 -4.677 0.082 82.228
2347.125 0.083 82.185 0.992 -4.727 0.992 -4.727 0.083 82.185
2372.094 0.083 82.141 0.992 -4.778 0.992 -4.778 0.083 82.141
2397.063 0.084 82.098 0.992 -4.828 0.992 -4.828 0.084 82.098
2422.031 0.085 82.054 0.992 -4.879 0.992 -4.879 0.085 82.054
2447 0.086 82.01 0.992 -4.929 0.992 -4.929 0.086 82.01
2471.969 0.087 81.966 0.992 -4.98 0.992 -4.98 0.087 81.966
2496.938 0.088 81.922 0.991 -5.03 0.991 -5.03 0.088 81.922
2521.906 0.089 81.877 0.991 -5.081 0.991 -5.081 0.089 81.877
2546.875 0.09 81.833 0.991 -5.131 0.991 -5.131 0.09 81.833
2571.844 0.09 81.788 0.991 -5.182 0.991 -5.182 0.09 81.788
2596.813 0.091 81.743 0.991 -5.232 0.991 -5.232 0.091 81.743
2621.781 0.092 81.698 0.991 -5.283 0.991 -5.283 0.092 81.698
2646.75 0.093 81.653 0.991 -5.334 0.991 -5.334 0.093 81.653
2671.719 0.094 81.608 0.991 -5.384 0.991 -5.384 0.094 81.608
2696.688 0.095 81.563 0.991 -5.435 0.991 -5.435 0.095 81.563
2721.656 0.096 81.518 0.99 -5.485 0.99 -5.485 0.096 81.518
2746.625 0.097 81.472 0.99 -5.536 0.99 -5.536 0.097 81.472
2771.594 0.097 81.427 0.99 -5.586 0.99 -5.586 0.097 81.427
2796.563 0.098 81.381 0.99 -5.637 0.99 -5.637 0.098 81.381
2821.531 0.099 81.335 0.99 -5.688 0.99 -5.688 0.099 81.335
2846.5 0.1 81.289 0.99 -5.738 0.99 -5.738 0.1 81.289
2871.469 0.101 81.243 0.99 -5.789 0.99 -5.789 0.101 81.243
2896.438 0.102 81.197 0.99 -5.84 0.99 -5.84 0.102 81.197
2921.406 0.103 81.151 0.989 -5.89 0.989 -5.89 0.103 81.151
2946.375 0.104 81.105 0.989 -5.941 0.989 -5.941 0.104 81.105
2971.344 0.105 81.058 0.989 -5.992 0.989 -5.992 0.105 81.058
2996.313 0.105 81.012 0.989 -6.042 0.989 -6.042 0.105 81.012
3021.281 0.106 80.965 0.989 -6.093 0.989 -6.093 0.106 80.965
3046.25 0.107 80.919 0.989 -6.144 0.989 -6.144 0.107 80.919
3071.219 0.108 80.872 0.989 -6.194 0.989 -6.194 0.108 80.872
3096.188 0.109 80.825 0.988 -6.245 0.988 -6.245 0.109 80.825
3121.156 0.11 80.778 0.988 -6.296 0.988 -6.296 0.11 80.778
3146.125 0.111 80.731 0.988 -6.347 0.988 -6.347 0.111 80.731
3171.094 0.112 80.684 0.988 -6.398 0.988 -6.398 0.112 80.684
3196.063 0.112 80.637 0.988 -6.448 0.988 -6.448 0.112 80.637
3221.031 0.113 80.59 0.988 -6.499 0.988 -6.499 0.113 80.59
3246 0.114 80.542 0.988 -6.55 0.988 -6.55 0.114 80.542
3270.969 0.115 80.495 0.988 -6.601 0.988 -6.601 0.115 80.495
3295.938 0.116 80.448 0.987 -6.652 0.987 -6.652 0.116 80.448
3320.906 0.117 80.4 0.987 -6.702 0.987 -6.702 0.117 80.4
3345.875 0.118 80.352 0.987 -6.753 0.987 -6.753 0.118 80.352
3370.844 0.119 80.305 0.987 -6.804 0.987 -6.804 0.119 80.305
3395.813 0.12 80.257 0.987 -6.855 0.987 -6.855 0.12 80.257
3420.781 0.12 80.209 0.987 -6.906 0.987 -6.906 0.12 80.209
3445.75 0.121 80.161 0.987 -6.957 0.987 -6.957 0.121 80.161
3470.719 0.122 80.113 0.986 -7.008 0.986 -7.008 0.122 80.113
3495.688 0.123 80.066 0.986 -7.059 0.986 -7.059 0.123 80.066
3520.656 0.124 80.017 0.986 -7.11 0.986 -7.11 0.124 80.017
3545.625 0.125 79.969 0.986 -7.16 0.986 -7.16 0.125 79.969
3570.594 0.126 79.921 0.986 -7.211 0.986 -7.211 0.126 79.921
3595.563 0.127 79.873 0.986 -7.262 0.986 -7.262 0.127 79.873
3620.531 0.127 79.825 0.986 -7.313 0.986 -7.313 0.127 79.825
3645.5 0.128 79.776 0.985 -7.364 0.985 -7.364 0.128 79.776
3670.469 0.129 79.728 0.985 -7.415 0.985 -7.415 0.129 79.728
3695.438 0.13 79.679 0.985 -7.466 0.985 -7.466 0.13 79.679
3720.406 0.131 79.631 0.985 -7.518 0.985 -7.518 0.131 79.631
3745.375 0.132 79.582 0.985 -7.569 0.985 -7.569 0.132 79.582
3770.344 0.133 79.534 0.985 -7.62 0.985 -7.62 0.133 79.534
3795.313 0.134 79.485 0.984 -7.671 0.984 -7.671 0.134 79.485
3820.281 0.135 79.436 0.984 -7.722 0.984 -7.722 0.135 79.436
3845.25 0.135 79.387 0.984 -7.773 0.984 -7.773 0.135 79.387
3870.219 0.136 79.338 0.984 -7.824 0.984 -7.824 0.136 79.338
3895.188 0.137 79.29 0.984 -7.875 0.984 -7.875 0.137 79.29
3920.156 0.138 79.241 0.984 -7.926 0.984 -7.926 0.138 79.241
3945.125 0.139 79.192 0.983 -7.978 0.983 -7.978 0.139 79.192
3970.094 0.14 79.143 0.983 -8.029 0.983 -8.029 0.14 79.143
3995.063 0.141 79.093 0.983 -8.08 0.983 -8.08 0.141 79.093
4020.031 0.142 79.044 0.983 -8.131 0.983 -8.131 0.142 79.044
4045 0.142 78.995 0.983 -8.182 0.983 -8.182 0.142 78.995
4069.969 0.143 78.946 0.983 -8.234 0.983 -8.234 0.143 78.946
4094.938 0.144 78.896 0.982 -8.285 0.982 -8.285 0.144 78.896
4119.906 0.145 78.847 0.982 -8.336 0.982 -8.336 0.145 78.847
4144.875 0.146 78.798 0.982 -8.387 0.982 -8.387 0.146 78.798
4169.844 0.147 78.748 0.982 -8.439 0.982 -8.439 0.147 78.748
4194.813 0.148 78.699 0.982 -8.49 0.982 -8.49 0.148 78.699
4219.781 0.149 78.649 0.982 -8.541 0.982 -8.541 0.149 78.649
4244.75 0.15 78.6 0.981 -8.593 0.981 -8.593 0.15 78.6
4269.719 0.15 78.55 0.981 -8.644 0.981 -8.644 0.15 78.55
4294.688 0.151 78.5 0.981 -8.696 0.981 -8.696 0.151 78.5
4319.656 0.152 78.45 0.981 -8.747 0.981 -8.747 0.152 78.45
4344.625 0.153 78.401 0.981 -8.798 0.981 -8.798 0.153 78.401
4369.594 0.154 78.351 0.981 -8.85 0.981 -8.85 0.154 78.351
4394.563 0.155 78.301 0.98 -8.901 0.98 -8.901 0.155 78.301
4419.531 0.156 78.251 0.98 -8.953 0.98 -8.953 0.156 78.251
4444.5 0.157 78.201 0.98 -9.004 0.98 -9.004 0.157 78.201
4469.469 0.158 78.151 0.98 -9.056 0.98 -9.056 0.158 78.151
4494.438 0.158 78.101 0.98 -9.107 0.98 -9.107 0.158 78.101
4519.406 0.159 78.051 0.979 -9.159 0.979 -9.159 0.159 78.051
4544.375 0.16 78.001 0.979 -9.21 0.979 -9.21 0.16 78.001
4569.344 0.161 77.951 0.979 -9.262 0.979 -9.262 0.161 77.951
4594.313 0.162 77.9 0.979 -9.314 0.979 -9.314 0.162 77.9
4619.281 0.163 77.85 0.979 -9.365 0.979 -9.365 0.163 77.85
4644.25 0.164 77.8 0.979 -9.417 0.979 -9.417 0.164 77.8
4669.219 0.165 77.749 0.978 -9.469 0.978 -9.469 0.165 77.749
4694.188 0.166 77.699 0.978 -9.52 0.978 -9.52 0.166 77.699
4719.156 0.166 77.649 0.978 -9.572 0.978 -9.572 0.166 77.649
4744.125 0.167 77.598 0.978 -9.624 0.978 -9.624 0.167 77.598
4769.094 0.168 77.548 0.978 -9.675 0.978 -9.675 0.168 77.548
4794.063 0.169 77.497 0.977 -9.727 0.977 -9.727 0.169 77.497
4819.031 0.17 77.446 0.977 -9.779 0.977 -9.779 0.17 77.446
4844 0.171 77.396 0.977 -9.831 0.977 -9.831 0.171 77.396
4868.969 0.172 77.345 0.977 -9.882 0.977 -9.882 0.172 77.345
4893.938 0.173 77.294 0.977 -9.934 0.977 -9.934 0.173 77.294
4918.906 0.174 77.244 0.976 -9.986 0.976 -9.986 0.174 77.244
4943.875 0.175 77.193 0.976 -10.038 0.976 -10.038 0.175 77.193
4968.844 0.175 77.142 0.976 -10.09 0.976 -10.09 0.175 77.142
4993.813 0.176 77.091 0.976 -10.142 0.976 -10.142 0.176 77.091
5018.781 0.177 77.04 0.976 -10.194 0.976 -10.194 0.177 77.04
5043.75 0.178 76.989 0.975 -10.246 0.975 -10.246 0.178 76.989
5068.719 0.179 76.938 0.975 -10.297 0.975 -10.297 0.179 76.938
5093.688 0.18 76.887 0.975 -10.349 0.975 -10.349 0.18 76.887
5118.656 0.181 76.836 0.975 -10.401 0.975 -10.401 0.181 76.836
5143.625 0.182 76.785 0.975 -10.453 0.975 -10.453 0.182 76.785
5168.594 0.183 76.734 0.974 -10.505 0.974 -10.505 0.183 76.734
5193.563 0.183 76.683 0.974 -10.558 0.974 -10.558 0.183 76.683
5218.531 0.184 76.632 0.974 -10.61 0.974 -10.61 0.184 76.632
5243.5 0.185 76.58 0.974 -10.662 0.974 -10.662 0.185 76.58
5268.469 0.186 76.529 0.974 -10.714 0.974 -10.714 0.186 76.529
5293.438 0.187 76.478 0.973 -10.766 0.973 -10.766 0.187 76.478
5318.406 0.188 76.426 0.973 -10.818 0.973 -10.818 0.188 76.426
5343.375 0.189 76.375 0.973 -10.87 0.973 -10.87 0.189 76.375
5368.344 0.19 76.323 0.973 -10.923 0.973 -10.923 0.19 76.323
5393.313 0.191 76.272 0.973 -10.975 0.973 -10.975 0.191 76.272
5418.281 0.191 76.22 0.972 -11.027 0.972 -11.027 0.191 76.22
5443.25 0.192 76.169 0.972 -11.079 0.972 -11.079 0.192 76.169
5468.219 0.193 76.117 0.972 -11.132 0.972 -11.132 0.193 76.117
5493.188 0.194 76.065 0.972 -11.184 0.972 -11.184 0.194 76.065
5518.156 0.195 76.014 0.971 -11.236 0.971 -11.236 0.195 76.014
5543.125 0.196 75.962 0.971 -11.289 0.971 -11.289 0.196 75.962
5568.094 0.197 75.91 0.971 -11.341 0.971 -11.341 0.197 75.91
5593.063 0.198 75.859 0.971 -11.393 0.971 -11.393 0.198 75.859
5618.031 0.199 75.807 0.971 -11.446 0.971 -11.446 0.199 75.807
5643 0.2 75.755 0.97 -11.498 0.97 -11.498 0.2 75.755
5667.969 0.2 75.703 0.97 -11.551 0.97 -11.551 0.2 75.703
5692.938 0.201 75.651 0.97 -11.603 0.97 -11.603 0.201 75.651
5717.906 0.202 75.599 0.97 -11.656 0.97 -11.656 0.202 75.599
5742.875 0.203 75.547 0.969 -11.708 0.969 -11.708 0.203 75.547
5767.844 0.204 75.495 0.969 -11.761 0.969 -11.761 0.204 75.495
5792.813 0.205 75.443 0.969 -11.813 0.969 -11.813 0.205 75.443
5817.781 0.206 75.391 0.969 -11.866 0.969 -11.866 0.206 75.391
5842.75 0.207 75.338 0.969 -11.919 0.969 -11.919 0.207 75.338
5867.719 0.208 75.286 0.968 -11.971 0.968 -11.971 0.208 75.286
5892.688 0.209 75.234 0.968 -12.024 0.968 -12.024 0.209 75.234
5917.656 0.209 75.182 0.968 -12.077 0.968 -12.077 0.209 75.182
5942.625 0.21 75.129 0.968 -12.129 0.968 -12.129 0.21 75.129
5967.594 0.211 75.077 0.967 -12.182 0.967 -12.182 0.211 75.077
5992.563 0.212 75.025 0.967 -12.235 0.967 -12.235 0.212 75.025
6017.531 0.213 74.972 0.967 -12.288 0.967 -12.288 0.213 74.972
6042.5 0.214 74.92 0.967 -12.34 0.967 -12.34 0.214 74.92
6067.469 0.215 74.867 0.966 -12.393 0.966 -12.393 0.215 74.867
6092.438 0.216 74.815 0.966 -12.446 0.966 -12.446 0.216 74.815
6117.406 0.217 74.762 0.966 -12.499 0.966 -12.499 0.217 74.762
6142.375 0.218 74.709 0.966 -12.552 0.966 -12.552 0.218 74.709
6167.344 0.218 74.657 0.965 -12.605 0.965 -12.605 0.218 74.657
6192.313 0.219 74.604 0.965 -12.658 0.965 -12.658 0.219 74.604
6217.281 0.22 74.551 0.965 -12.711 0.965 -12.711 0.22 74.551
6242.25 0.221 74.499 0.965 -12.764 0.965 -12.764 0.221 74.499
6267.219 0.222 74.446 0.964 -12.817 0.964 -12.817 0.222 74.446
6292.188 0.223 74.393 0.964 -12.87 0.964 -12.87 0.223 74.393
6317.156 0.224 74.34 0.964 -12.923 0.964 -12.923 0.224 74.34
6342.125 0.225 74.287 0.964 -12.976 0.964 -12.976 0.225 74.287
6367.094 0.226 74.234 0.963 -13.029 0.963 -13.029 0.226 74.234
6392.063 0.227 74.181 0.963 -13.082 0.963 -13.082 0.227 74.181
6417.031 0.228 74.128 0.963 -13.136 0.963 -13.136 0.228 74.128
6442 0.228 74.075 0.963 -13.189 0.963 -13.189 0.228 74.075
6466.969 0.229 74.022 0.962 -13.242 0.962 -13.242 0.229 74.022
6491.938 0.23 73.969 0.962 -13.295 0.962 -13.295 0.23 73.969
6516.906 0.231 73.916 0.962 -13.349 0.962 -13.349 0.231 73.916
6541.875 0.232 73.862 0.962 -13.402 0.962 -13.402 0.232 73.862
6566.844 0.233 73.809 0.961 -13.455 0.961 -13.455 0.233 73.809
6591.813 0.234 73.756 0.961 -13.509 0.961 -13.509 0.234 73.756
6616.781 0.235 73.702 0.961 -13.562 0.961 -13.562 0.235 73.702
6641.75 0.236 73.649 0.961 -13.616 0.961 -13.616 0.236 73.649
6666.719 0.237 73.596 0.96 -13.669 0.96 -13.669 0.237 73.596
6691.688 0.237 73.542 0.96 -13.722 0.96 -13.722 0.237 73.542
6716.656 0.238 73.489 0.96 -13.776 0.96 -13.776 0.238 73.489
6741.625 0.239 73.435 0.96 -13.83 0.96 -13.83 0.239 73.435
6766.594 0.24 73.382 0.959 -13.883 0.959 -13.883 0.24 73.382
6791.563 0.241 73.328 0.959 -13.937 0.959 -13.937 0.241 73.328
6816.531 0.242 73.274 0.959 -13.99 0.959 -13.99 0.242 73.274
6841.5 0.243 73.221 0.959 -14.044 0.959 -14.044 0.243 73.221
6866.469 0.244 73.167 0.958 -14.098 0.958 -14.098 0.244 73.167
6891.438 0.245 73.113 0.958 -14.151 0.958 -14.151 0.245 73.113
6916.406 0.246 73.059 0.958 -14.205 0.958 -14.205 0.246 73.059
6941.375 0.247 73.005 0.957 -14.259 0.957 -14.259 0.247 73.005
6966.344 0.247 72.952 0.957 -14.313 0.957 -14.313 0.247 72.952
6991.313 0.248 72.898 0.957 -14.366 0.957 -14.366 0.248 72.898
7016.281 0.249 72.844 0.957 -14.42 0.957 -14.42 0.249 72.844
7041.25 0.25 72.79 0.956 -14.474 0.956 -14.474 0.25 72.79
7066.219 0.251 72.736 0.956 -14.528 0.956 -14.528 0.251 72.736
7091.188 0.252 72.682 0.956 -14.582 0.956 -14.582 0.252 72.682
7116.156 0.253 72.628 0.955 -14.636 0.955 -14.636 0.253 72.628
7141.125 0.254 72.573 0.955 -14.69 0.955 -14.69 0.254 72.573
7166.094 0.255 72.519 0.955 -14.744 0.955 -14.744 0.255 72.519
7191.063 0.256 72.465 0.955 -14.798 0.955 -14.798 0.256 72.465
7216.031 0.257 72.411 0.954 -14.852 0.954 -14.852 0.257 72.411
7241 0.258 72.356 0.954 -14.906 0.954 -14.906 0.258 72.356
7265.969 0.258 72.302 0.954 -14.96 0.954 -14.96 0.258 72.302
7290.938 0.259 72.248 0.953 -15.015 0.953 -15.015 0.259 72.248
7315.906 0.26 72.193 0.953 -15.069 0.953 -15.069 0.26 72.193
7340.875 0.261 72.139 0.953 -15.123 0.953 -15.123 0.261 72.139
7365.844 0.262 72.084 0.953 -15.177 0.953 -15.177 0.262 72.084
7390.813 0.263 72.03 0.952 -15.232 0.952 -15.232 0.263 72.03
7415.781 0.264 71.975 0.952 -15.286 0.952 -15.286 0.264 71.975
7440.75 0.265 71.921 0.952 -15.34 0.952 -15.34 0.265 71.921
7465.719 0.266 71.866 0.951 -15.395 0.951 -15.395 0.266 71.866
7490.688 0.267 71.811 0.951 -15.449 0.951 -15.449 0.267 71.811
7515.656 0.268 71.756 0.951 -15.503 0.951 -15.503 0.268 71.756
7540.625 0.269 71.702 0.951 -15.558 0.951 -15.558 0.269 71.702
7565.594 0.269 71.647 0.95 -15.612 0.95 -15.612 0.269 71.647
7590.563 0.27 71.592 0.95 -15.667 0.95 -15.667 0.27 71.592
7615.531 0.271 71.537 0.95 -15.721 0.95 -15.721 0.271 71.537
7640.5 0.272 71.482 0.949 -15.776 0.949 -15.776 0.272 71.482
7665.469 0.273 71.427 0.949 -15.831 0.949 -15.831 0.273 71.427
7690.438 0.274 71.372 0.949 -15.885 0.949 -15.885 0.274 71.372
7715.406 0.275 71.317 0.948 -15.94 0.948 -15.94 0.275 71.317
7740.375 0.276 71.262 0.948 -15.995 0.948 -15.995 0.276 71.262
7765.344 0.277 71.207 0.948 -16.05 0.948 -16.05 0.277 71.207
7790.313 0.278 71.152 0.947 -16.104 0.947 -16.104 0.278 71.152
7815.281 0.279 71.096 0.947 -16.159 0.947 -16.159 0.279 71.096
7840.25 0.28 71.041 0.947 -16.214 0.947 -16.214 0.28 71.041
7865.219 0.28 70.986 0.947 -16.269 0.947 -16.269 0.28 70.986
7890.188 0.281 70.93 0.946 -16.324 0.946 -16.324 0.281 70.93
7915.156 0.282 70.875 0.946 -16.379 0.946 -16.379 0.282 70.875
7940.125 0.283 70.82 0.946 -16.434 0.946 -16.434 0.283 70.82
7965.094 0.284 70.764 0.945 -16.489 0.945 -16.489 0.284 70.764
7990.063 0.285 70.709 0.945 -16.544 0.945 -16.544 0.285 70.709
8015.031 0.286 70.653 0.945 -16.599 0.945 -16.599 0.286 70.653
8040 0.287 70.598 0.944 -16.654 0.944 -16.654 0.287 70.598
8064.969 0.288 70.542 0.944 -16.709 0.944 -16.709 0.288 70.542
8089.938 0.289 70.486 0.944 -16.764 0.944 -16.764 0.289 70.486
8114.906 0.29 70.43 0.943 -16.819 0.943 -16.819 0.29 70.43
8139.875 0.291 70.375 0.943 -16.875 0.943 -16.875 0.291 70.375
8164.844 0.292 70.319 0.943 -16.93 0.943 -16.93 0.292 70.319
8189.813 0.292 70.263 0.942 -16.985 0.942 -16.985 0.292 70.263
8214.781 0.293 70.207 0.942 -17.041 0.942 -17.041 0.293 70.207
