# MHZ S MA R 50

50 9.303e-3 47.193 0.994 -0.394 0.994 -0.394 9.303e-3 47.193
74.969 0.012 57.428 0.994 -0.59 0.994 -0.59 0.012 57.428
99.938 0.015 63.583 0.993 -0.786 0.993 -0.786 0.015 63.583
124.906 0.018 67.565 0.993 -0.983 0.993 -0.983 0.018 67.565
149.875 0.022 70.298 0.993 -1.179 0.993 -1.179 0.022 70.298
174.844 0.025 72.258 0.993 -1.375 0.993 -1.375 0.025 72.258
199.813 0.028 73.712 0.992 -1.571 0.992 -1.571 0.028 73.712
224.781 0.032 74.817 0.992 -1.767 0.992 -1.767 0.032 74.817
249.75 0.035 75.672 0.992 -1.963 0.992 -1.963 0.035 75.672
274.719 0.038 76.343 0.992 -2.159 0.992 -2.159 0.038 76.343
299.688 0.042 76.873 0.991 -2.354 0.991 -2.354 0.042 76.873
324.656 0.045 77.295 0.991 -2.55 0.991 -2.55 0.045 77.295
349.625 0.049 77.63 0.991 -2.745 0.991 -2.745 0.049 77.63
374.594 0.052 77.896 0.99 -2.941 0.99 -2.941 0.052 77.896
399.563 0.055 78.106 0.99 -3.136 0.99 -3.136 0.055 78.106
424.531 0.059 78.269 0.99 -3.331 0.99 -3.331 0.059 78.269
449.5 0.062 78.392 0.989 -3.527 0.989 -3.527 0.062 78.392
474.469 0.066 78.483 0.989 -3.722 0.989 -3.722 0.066 78.483
499.438 0.069 78.545 0.989 -3.917 0.989 -3.917 0.069 78.545
524.406 0.072 78.583 0.988 -4.111 0.988 -4.111 0.072 78.583
549.375 0.076 78.601 0.988 -4.306 0.988 -4.306 0.076 78.601
574.344 0.079 78.6 0.987 -4.501 0.987 -4.501 0.079 78.6
599.313 0.082 78.583 0.987 -4.695 0.987 -4.695 0.082 78.583
624.281 0.086 78.553 0.987 -4.89 0.987 -4.89 0.086 78.553
649.25 0.089 78.51 0.986 -5.084 0.986 -5.084 0.089 78.51
674.219 0.093 78.456 0.986 -5.278 0.986 -5.278 0.093 78.456
699.188 0.096 78.392 0.985 -5.472 0.985 -5.472 0.096 78.392
724.156 0.099 78.319 0.985 -5.666 0.985 -5.666 0.099 78.319
749.125 0.103 78.238 0.984 -5.86 0.984 -5.86 0.103 78.238
774.094 0.106 78.15 0.984 -6.053 0.984 -6.053 0.106 78.15
799.063 0.109 78.056 0.983 -6.247 0.983 -6.247 0.109 78.056
824.031 0.113 77.956 0.983 -6.44 0.983 -6.44 0.113 77.956
849 0.116 77.851 0.982 -6.633 0.982 -6.633 0.116 77.851
873.969 0.119 77.74 0.982 -6.827 0.982 -6.827 0.119 77.74
898.938 0.123 77.626 0.981 -7.02 0.981 -7.02 0.123 77.626
923.906 0.126 77.507 0.98 -7.212 0.98 -7.212 0.126 77.507
948.875 0.129 77.384 0.98 -7.405 0.98 -7.405 0.129 77.384
973.844 0.133 77.258 0.979 -7.598 0.979 -7.598 0.133 77.258
998.813 0.136 77.129 0.979 -7.79 0.979 -7.79 0.136 77.129
1023.781 0.139 76.996 0.978 -7.982 0.978 -7.982 0.139 76.996
1048.75 0.143 76.862 0.977 -8.174 0.977 -8.174 0.143 76.862
1073.719 0.146 76.724 0.977 -8.366 0.977 -8.366 0.146 76.724
1098.688 0.149 76.584 0.976 -8.558 0.976 -8.558 0.149 76.584
1123.656 0.153 76.442 0.976 -8.75 0.976 -8.75 0.153 76.442
1148.625 0.156 76.298 0.975 -8.941 0.975 -8.941 0.156 76.298
1173.594 0.159 76.153 0.974 -9.132 0.974 -9.132 0.159 76.153
1198.563 0.163 76.005 0.974 -9.324 0.974 -9.324 0.163 76.005
1223.531 0.166 75.856 0.973 -9.515 0.973 -9.515 0.166 75.856
1248.5 0.169 75.705 0.972 -9.705 0.972 -9.705 0.169 75.705
1273.469 0.172 75.553 0.971 -9.896 0.971 -9.896 0.172 75.553
1298.438 0.176 75.4 0.971 -10.086 0.971 -10.086 0.176 75.4
1323.406 0.179 75.245 0.97 -10.277 0.97 -10.277 0.179 75.245
1348.375 0.182 75.089 0.969 -10.467 0.969 -10.467 0.182 75.089
1373.344 0.185 74.932 0.968 -10.657 0.968 -10.657 0.185 74.932
1398.313 0.189 74.774 0.968 -10.847 0.968 -10.847 0.189 74.774
1423.281 0.192 74.615 0.967 -11.036 0.967 -11.036 0.192 74.615
1448.25 0.195 74.455 0.966 -11.225 0.966 -11.225 0.195 74.455
1473.219 0.198 74.295 0.965 -11.415 0.965 -11.415 0.198 74.295
1498.188 0.202 74.133 0.965 -11.604 0.965 -11.604 0.202 74.133
1523.156 0.205 73.971 0.964 -11.793 0.964 -11.793 0.205 73.971
1548.125 0.208 73.808 0.963 -11.981 0.963 -11.981 0.208 73.808
1573.094 0.211 73.644 0.962 -12.17 0.962 -12.17 0.211 73.644
1598.063 0.215 73.48 0.961 -12.358 0.961 -12.358 0.215 73.48
1623.031 0.218 73.316 0.96 -12.546 0.96 -12.546 0.218 73.316
1648 0.221 73.15 0.96 -12.734 0.96 -12.734 0.221 73.15
1672.969 0.224 72.985 0.959 -12.922 0.959 -12.922 0.224 72.985
1697.938 0.227 72.818 0.958 -13.109 0.958 -13.109 0.227 72.818
1722.906 0.231 72.652 0.957 -13.296 0.957 -13.296 0.231 72.652
1747.875 0.234 72.485 0.956 -13.483 0.956 -13.483 0.234 72.485
1772.844 0.237 72.317 0.955 -13.67 0.955 -13.67 0.237 72.317
1797.813 0.24 72.149 0.954 -13.857 0.954 -13.857 0.24 72.149
1822.781 0.243 71.981 0.953 -14.043 0.953 -14.043 0.243 71.981
1847.75 0.246 71.813 0.952 -14.23 0.952 -14.23 0.246 71.813
1872.719 0.25 71.644 0.951 -14.416 0.951 -14.416 0.25 71.644
1897.688 0.253 71.475 0.95 -14.601 0.95 -14.601 0.253 71.475
1922.656 0.256 71.306 0.949 -14.787 0.949 -14.787 0.256 71.306
1947.625 0.259 71.136 0.948 -14.972 0.948 -14.972 0.259 71.136
1972.594 0.262 70.967 0.947 -15.158 0.947 -15.158 0.262 70.967
1997.563 0.265 70.797 0.947 -15.343 0.947 -15.343 0.265 70.797
2022.531 0.268 70.627 0.946 -15.527 0.946 -15.527 0.268 70.627
2047.5 0.271 70.456 0.944 -15.712 0.944 -15.712 0.271 70.456
2072.469 0.275 70.286 0.943 -15.896 0.943 -15.896 0.275 70.286
2097.438 0.278 70.116 0.942 -16.08 0.942 -16.08 0.278 70.116
2122.406 0.281 69.945 0.941 -16.264 0.941 -16.264 0.281 69.945
2147.375 0.284 69.774 0.94 -16.448 0.94 -16.448 0.284 69.774
2172.344 0.287 69.603 0.939 -16.631 0.939 -16.631 0.287 69.603
2197.313 0.29 69.432 0.938 -16.814 0.938 -16.814 0.29 69.432
2222.281 0.293 69.261 0.937 -16.997 0.937 -16.997 0.293 69.261
2247.25 0.296 69.09 0.936 -17.18 0.936 -17.18 0.296 69.09
2272.219 0.299 68.919 0.935 -17.362 0.935 -17.362 0.299 68.919
2297.188 0.302 68.748 0.934 -17.544 0.934 -17.544 0.302 68.748
2322.156 0.305 68.577 0.933 -17.726 0.933 -17.726 0.305 68.577
2347.125 0.308 68.406 0.932 -17.908 0.932 -17.908 0.308 68.406
2372.094 0.311 68.235 0.931 -18.09 0.931 -18.09 0.311 68.235
2397.063 0.314 68.064 0.93 -18.271 0.93 -18.271 0.314 68.064
2422.031 0.317 67.892 0.928 -18.452 0.928 -18.452 0.317 67.892
2447 0.32 67.721 0.927 -18.633 0.927 -18.633 0.32 67.721
2471.969 0.323 67.55 0.926 -18.813 0.926 -18.813 0.323 67.55
2496.938 0.326 67.379 0.925 -18.994 0.925 -18.994 0.326 67.379
2521.906 0.329 67.208 0.924 -19.174 0.924 -19.174 0.329 67.208
2546.875 0.332 67.037 0.923 -19.353 0.923 -19.353 0.332 67.037
2571.844 0.335 66.866 0.921 -19.533 0.921 -19.533 0.335 66.866
2596.813 0.338 66.695 0.92 -19.712 0.92 -19.712 0.338 66.695
2621.781 0.341 66.524 0.919 -19.891 0.919 -19.891 0.341 66.524
2646.75 0.344 66.353 0.918 -20.07 0.918 -20.07 0.344 66.353
2671.719 0.347 66.183 0.917 -20.249 0.917 -20.249 0.347 66.183
2696.688 0.35 66.012 0.915 -20.427 0.915 -20.427 0.35 66.012
2721.656 0.353 65.842 0.914 -20.605 0.914 -20.605 0.353 65.842
2746.625 0.356 65.671 0.913 -20.783 0.913 -20.783 0.356 65.671
2771.594 0.358 65.501 0.912 -20.96 0.912 -20.96 0.358 65.501
2796.563 0.361 65.331 0.91 -21.137 0.91 -21.137 0.361 65.331
2821.531 0.364 65.16 0.909 -21.314 0.909 -21.314 0.364 65.16
2846.5 0.367 64.99 0.908 -21.491 0.908 -21.491 0.367 64.99
2871.469 0.37 64.82 0.907 -21.668 0.907 -21.668 0.37 64.82
2896.438 0.373 64.651 0.905 -21.844 0.905 -21.844 0.373 64.651
2921.406 0.376 64.481 0.904 -22.02 0.904 -22.02 0.376 64.481
2946.375 0.378 64.312 0.903 -22.195 0.903 -22.195 0.378 64.312
2971.344 0.381 64.142 0.902 -22.371 0.902 -22.371 0.381 64.142
2996.313 0.384 63.973 0.9 -22.546 0.9 -22.546 0.384 63.973
3021.281 0.387 63.804 0.899 -22.721 0.899 -22.721 0.387 63.804
3046.25 0.39 63.635 0.898 -22.895 0.898 -22.895 0.39 63.635
3071.219 0.393 63.466 0.896 -23.07 0.896 -23.07 0.393 63.466
3096.188 0.395 63.297 0.895 -23.244 0.895 -23.244 0.395 63.297
3121.156 0.398 63.129 0.894 -23.417 0.894 -23.417 0.398 63.129
3146.125 0.401 62.96 0.892 -23.591 0.892 -23.591 0.401 62.96
3171.094 0.404 62.792 0.891 -23.764 0.891 -23.764 0.404 62.792
3196.063 0.406 62.624 0.89 -23.937 0.89 -23.937 0.406 62.624
3221.031 0.409 62.456 0.888 -24.11 0.888 -24.11 0.409 62.456
3246 0.412 62.289 0.887 -24.282 0.887 -24.282 0.412 62.289
3270.969 0.415 62.121 0.886 -24.454 0.886 -24.454 0.415 62.121
3295.938 0.417 61.954 0.884 -24.626 0.884 -24.626 0.417 61.954
3320.906 0.42 61.787 0.883 -24.798 0.883 -24.798 0.42 61.787
3345.875 0.423 61.62 0.881 -24.969 0.881 -24.969 0.423 61.62
3370.844 0.426 61.453 0.88 -25.14 0.88 -25.14 0.426 61.453
3395.813 0.428 61.286 0.879 -25.311 0.879 -25.311 0.428 61.286
3420.781 0.431 61.12 0.877 -25.481 0.877 -25.481 0.431 61.12
3445.75 0.434 60.954 0.876 -25.651 0.876 -25.651 0.434 60.954
3470.719 0.436 60.788 0.874 -25.821 0.874 -25.821 0.436 60.788
3495.688 0.439 60.622 0.873 -25.991 0.873 -25.991 0.439 60.622
3520.656 0.442 60.456 0.871 -26.16 0.871 -26.16 0.442 60.456
3545.625 0.444 60.291 0.87 -26.329 0.87 -26.329 0.444 60.291
3570.594 0.447 60.126 0.869 -26.498 0.869 -26.498 0.447 60.126
3595.563 0.45 59.961 0.867 -26.667 0.867 -26.667 0.45 59.961
3620.531 0.452 59.796 0.866 -26.835 0.866 -26.835 0.452 59.796
3645.5 0.455 59.631 0.864 -27.003 0.864 -27.003 0.455 59.631
3670.469 0.457 59.467 0.863 -27.17 0.863 -27.17 0.457 59.467
3695.438 0.46 59.303 0.861 -27.338 0.861 -27.338 0.46 59.303
3720.406 0.463 59.139 0.86 -27.505 0.86 -27.505 0.463 59.139
3745.375 0.465 58.975 0.858 -27.671 0.858 -27.671 0.465 58.975
3770.344 0.468 58.812 0.857 -27.838 0.857 -27.838 0.468 58.812
3795.313 0.47 58.648 0.855 -28.004 0.855 -28.004 0.47 58.648
3820.281 0.473 58.485 0.854 -28.17 0.854 -28.17 0.473 58.485
3845.25 0.475 58.322 0.852 -28.335 0.852 -28.335 0.475 58.322
3870.219 0.478 58.16 0.851 -28.501 0.851 -28.501 0.478 58.16
3895.188 0.481 57.997 0.849 -28.666 0.849 -28.666 0.481 57.997
3920.156 0.483 57.835 0.848 -28.83 0.848 -28.83 0.483 57.835
3945.125 0.486 57.673 0.846 -28.995 0.846 -28.995 0.486 57.673
3970.094 0.488 57.511 0.845 -29.159 0.845 -29.159 0.488 57.511
3995.063 0.491 57.35 0.843 -29.323 0.843 -29.323 0.491 57.35
4020.031 0.493 57.189 0.842 -29.486 0.842 -29.486 0.493 57.189
4045 0.496 57.028 0.84 -29.65 0.84 -29.65 0.496 57.028
4069.969 0.498 56.867 0.839 -29.813 0.839 -29.813 0.498 56.867
4094.938 0.5 56.706 0.837 -29.975 0.837 -29.975 0.5 56.706
4119.906 0.503 56.546 0.836 -30.138 0.836 -30.138 0.503 56.546
4144.875 0.505 56.386 0.834 -30.3 0.834 -30.3 0.505 56.386
4169.844 0.508 56.226 0.833 -30.461 0.833 -30.461 0.508 56.226
4194.813 0.51 56.066 0.831 -30.623 0.831 -30.623 0.51 56.066
4219.781 0.513 55.907 0.83 -30.784 0.83 -30.784 0.513 55.907
4244.75 0.515 55.748 0.828 -30.945 0.828 -30.945 0.515 55.748
4269.719 0.517 55.589 0.826 -31.105 0.826 -31.105 0.517 55.589
4294.688 0.52 55.43 0.825 -31.266 0.825 -31.266 0.52 55.43
4319.656 0.522 55.272 0.823 -31.426 0.823 -31.426 0.522 55.272
4344.625 0.525 55.114 0.822 -31.585 0.822 -31.585 0.525 55.114
4369.594 0.527 54.956 0.82 -31.745 0.82 -31.745 0.527 54.956
4394.563 0.529 54.798 0.818 -31.904 0.818 -31.904 0.529 54.798
4419.531 0.532 54.641 0.817 -32.063 0.817 -32.063 0.532 54.641
4444.5 0.534 54.484 0.815 -32.221 0.815 -32.221 0.534 54.484
4469.469 0.536 54.327 0.814 -32.379 0.814 -32.379 0.536 54.327
4494.438 0.539 54.17 0.812 -32.537 0.812 -32.537 0.539 54.17
4519.406 0.541 54.014 0.81 -32.695 0.81 -32.695 0.541 54.014
4544.375 0.543 53.858 0.809 -32.852 0.809 -32.852 0.543 53.858
4569.344 0.546 53.702 0.807 -33.009 0.807 -33.009 0.546 53.702
4594.313 0.548 53.546 0.806 -33.166 0.806 -33.166 0.548 53.546
4619.281 0.55 53.391 0.804 -33.322 0.804 -33.322 0.55 53.391
4644.25 0.553 53.236 0.802 -33.478 0.802 -33.478 0.553 53.236
4669.219 0.555 53.081 0.801 -33.634 0.801 -33.634 0.555 53.081
4694.188 0.557 52.926 0.799 -33.79 0.799 -33.79 0.557 52.926
4719.156 0.559 52.772 0.798 -33.945 0.798 -33.945 0.559 52.772
4744.125 0.562 52.618 0.796 -34.1 0.796 -34.1 0.562 52.618
4769.094 0.564 52.464 0.794 -34.254 0.794 -34.254 0.564 52.464
4794.063 0.566 52.31 0.793 -34.409 0.793 -34.409 0.566 52.31
4819.031 0.568 52.157 0.791 -34.563 0.791 -34.563 0.568 52.157
4844 0.57 52.004 0.789 -34.716 0.789 -34.716 0.57 52.004
4868.969 0.573 51.851 0.788 -34.87 0.788 -34.87 0.573 51.851
4893.938 0.575 51.698 0.786 -35.023 0.786 -35.023 0.575 51.698
4918.906 0.577 51.546 0.784 -35.176 0.784 -35.176 0.577 51.546
4943.875 0.579 51.394 0.783 -35.328 0.783 -35.328 0.579 51.394
4968.844 0.581 51.242 0.781 -35.48 0.781 -35.48 0.581 51.242
4993.813 0.584 51.091 0.779 -35.632 0.779 -35.632 0.584 51.091
5018.781 0.586 50.939 0.778 -35.784 0.778 -35.784 0.586 50.939
5043.75 0.588 50.788 0.776 -35.935 0.776 -35.935 0.588 50.788
5068.719 0.59 50.638 0.774 -36.086 0.774 -36.086 0.59 50.638
5093.688 0.592 50.487 0.773 -36.237 0.773 -36.237 0.592 50.487
5118.656 0.594 50.337 0.771 -36.387 0.771 -36.387 0.594 50.337
5143.625 0.596 50.187 0.769 -36.537 0.769 -36.537 0.596 50.187
5168.594 0.598 50.037 0.768 -36.687 0.768 -36.687 0.598 50.037
5193.563 0.601 49.888 0.766 -36.836 0.766 -36.836 0.601 49.888
5218.531 0.603 49.739 0.764 -36.985 0.764 -36.985 0.603 49.739
5243.5 0.605 49.59 0.763 -37.134 0.763 -37.134 0.605 49.59
5268.469 0.607 49.441 0.761 -37.283 0.761 -37.283 0.607 49.441
5293.438 0.609 49.293 0.759 -37.431 0.759 -37.431 0.609 49.293
5318.406 0.611 49.145 0.758 -37.579 0.758 -37.579 0.611 49.145
5343.375 0.613 48.997 0.756 -37.727 0.756 -37.727 0.613 48.997
5368.344 0.615 48.849 0.754 -37.874 0.754 -37.874 0.615 48.849
5393.313 0.617 48.702 0.753 -38.021 0.753 -38.021 0.617 48.702
5418.281 0.619 48.555 0.751 -38.168 0.751 -38.168 0.619 48.555
5443.25 0.621 48.408 0.749 -38.314 0.749 -38.314 0.621 48.408
5468.219 0.623 48.261 0.747 -38.461 0.747 -38.461 0.623 48.261
5493.188 0.625 48.115 0.746 -38.607 0.746 -38.607 0.625 48.115
5518.156 0.627 47.969 0.744 -38.752 0.744 -38.752 0.627 47.969
5543.125 0.629 47.823 0.742 -38.897 0.742 -38.897 0.629 47.823
5568.094 0.631 47.678 0.741 -39.042 0.741 -39.042 0.631 47.678
5593.063 0.633 47.533 0.739 -39.187 0.739 -39.187 0.633 47.533
5618.031 0.635 47.388 0.737 -39.331 0.737 -39.331 0.635 47.388
5643 0.637 47.243 0.735 -39.475 0.735 -39.475 0.637 47.243
5667.969 0.639 47.099 0.734 -39.619 0.734 -39.619 0.639 47.099
5692.938 0.641 46.954 0.732 -39.763 0.732 -39.763 0.641 46.954
5717.906 0.643 46.81 0.73 -39.906 0.73 -39.906 0.643 46.81
5742.875 0.644 46.667 0.729 -40.049 0.729 -40.049 0.644 46.667
5767.844 0.646 46.523 0.727 -40.191 0.727 -40.191 0.646 46.523
5792.813 0.648 46.38 0.725 -40.334 0.725 -40.334 0.648 46.38
5817.781 0.65 46.237 0.723 -40.476 0.723 -40.476 0.65 46.237
5842.75 0.652 46.095 0.722 -40.617 0.722 -40.617 0.652 46.095
5867.719 0.654 45.953 0.72 -40.759 0.72 -40.759 0.654 45.953
5892.688 0.656 45.811 0.718 -40.9 0.718 -40.9 0.656 45.811
5917.656 0.658 45.669 0.716 -41.041 0.716 -41.041 0.658 45.669
5942.625 0.66 45.527 0.715 -41.181 0.715 -41.181 0.66 45.527
5967.594 0.661 45.386 0.713 -41.321 0.713 -41.321 0.661 45.386
5992.563 0.663 45.245 0.711 -41.461 0.711 -41.461 0.663 45.245
6017.531 0.665 45.104 0.71 -41.601 0.71 -41.601 0.665 45.104
6042.5 0.667 44.964 0.708 -41.74 0.708 -41.74 0.667 44.964
6067.469 0.669 44.824 0.706 -41.879 0.706 -41.879 0.669 44.824
6092.438 0.67 44.684 0.704 -42.018 0.704 -42.018 0.67 44.684
6117.406 0.672 44.544 0.703 -42.156 0.703 -42.156 0.672 44.544
6142.375 0.674 44.404 0.701 -42.294 0.701 -42.294 0.674 44.404
6167.344 0.676 44.265 0.699 -42.432 0.699 -42.432 0.676 44.265
6192.313 0.678 44.126 0.697 -42.57 0.697 -42.57 0.678 44.126
6217.281 0.679 43.988 0.696 -42.707 0.696 -42.707 0.679 43.988
6242.25 0.681 43.849 0.694 -42.844 0.694 -42.844 0.681 43.849
6267.219 0.683 43.711 0.692 -42.981 0.692 -42.981 0.683 43.711
6292.188 0.685 43.573 0.69 -43.117 0.69 -43.117 0.685 43.573
6317.156 0.686 43.436 0.689 -43.253 0.689 -43.253 0.686 43.436
6342.125 0.688 43.298 0.687 -43.389 0.687 -43.389 0.688 43.298
6367.094 0.69 43.161 0.685 -43.524 0.685 -43.524 0.69 43.161
6392.063 0.692 43.025 0.683 -43.66 0.683 -43.66 0.692 43.025
6417.031 0.693 42.888 0.682 -43.795 0.682 -43.795 0.693 42.888
6442 0.695 42.752 0.68 -43.929 0.68 -43.929 0.695 42.752
6466.969 0.697 42.616 0.678 -44.063 0.678 -44.063 0.697 42.616
6491.938 0.698 42.48 0.676 -44.198 0.676 -44.198 0.698 42.48
6516.906 0.7 42.344 0.675 -44.331 0.675 -44.331 0.7 42.344
6541.875 0.702 42.209 0.673 -44.465 0.673 -44.465 0.702 42.209
6566.844 0.703 42.074 0.671 -44.598 0.671 -44.598 0.703 42.074
6591.813 0.705 41.939 0.669 -44.731 0.669 -44.731 0.705 41.939
6616.781 0.707 41.805 0.668 -44.863 0.668 -44.863 0.707 41.805
6641.75 0.708 41.671 0.666 -44.996 0.666 -44.996 0.708 41.671
6666.719 0.71 41.537 0.664 -45.128 0.664 -45.128 0.71 41.537
6691.688 0.712 41.403 0.662 -45.259 0.662 -45.259 0.712 41.403
6716.656 0.713 41.269 0.661 -45.391 0.661 -45.391 0.713 41.269
6741.625 0.715 41.136 0.659 -45.522 0.659 -45.522 0.715 41.136
6766.594 0.716 41.003 0.657 -45.653 0.657 -45.653 0.716 41.003
6791.563 0.718 40.87 0.655 -45.783 0.655 -45.783 0.718 40.87
6816.531 0.72 40.738 0.654 -45.914 0.654 -45.914 0.72 40.738
6841.5 0.721 40.606 0.652 -46.044 0.652 -46.044 0.721 40.606
6866.469 0.723 40.474 0.65 -46.173 0.65 -46.173 0.723 40.474
6891.438 0.724 40.342 0.648 -46.303 0.648 -46.303 0.724 40.342
6916.406 0.726 40.211 0.647 -46.432 0.647 -46.432 0.726 40.211
6941.375 0.727 40.079 0.645 -46.561 0.645 -46.561 0.727 40.079
6966.344 0.729 39.949 0.643 -46.689 0.643 -46.689 0.729 39.949
6991.313 0.73 39.818 0.641 -46.818 0.641 -46.818 0.73 39.818
7016.281 0.732 39.687 0.64 -46.946 0.64 -46.946 0.732 39.687
7041.25 0.733 39.557 0.638 -47.073 0.638 -47.073 0.733 39.557
7066.219 0.735 39.427 0.636 -47.201 0.636 -47.201 0.735 39.427
7091.188 0.737 39.298 0.634 -47.328 0.634 -47.328 0.737 39.298
7116.156 0.738 39.168 0.633 -47.455 0.633 -47.455 0.738 39.168
7141.125 0.74 39.039 0.631 -47.582 0.631 -47.582 0.74 39.039
7166.094 0.741 38.91 0.629 -47.708 0.629 -47.708 0.741 38.91
7191.063 0.742 38.781 0.627 -47.834 0.627 -47.834 0.742 38.781
7216.031 0.744 38.653 0.626 -47.96 0.626 -47.96 0.744 38.653
7241 0.745 38.525 0.624 -48.085 0.624 -48.085 0.745 38.525
7265.969 0.747 38.397 0.622 -48.21 0.622 -48.21 0.747 38.397
7290.938 0.748 38.269 0.62 -48.335 0.62 -48.335 0.748 38.269
7315.906 0.75 38.142 0.619 -48.46 0.619 -48.46 0.75 38.142
7340.875 0.751 38.014 0.617 -48.584 0.617 -48.584 0.751 38.014
7365.844 0.753 37.887 0.615 -48.708 0.615 -48.708 0.753 37.887
7390.813 0.754 37.761 0.613 -48.832 0.613 -48.832 0.754 37.761
7415.781 0.756 37.634 0.612 -48.956 0.612 -48.956 0.756 37.634
7440.75 0.757 37.508 0.61 -49.079 0.61 -49.079 0.757 37.508
7465.719 0.758 37.382 0.608 -49.202 0.608 -49.202 0.758 37.382
7490.688 0.76 37.256 0.606 -49.325 0.606 -49.325 0.76 37.256
7515.656 0.761 37.131 0.605 -49.447 0.605 -49.447 0.761 37.131
7540.625 0.763 37.005 0.603 -49.569 0.603 -49.569 0.763 37.005
7565.594 0.764 36.88 0.601 -49.691 0.601 -49.691 0.764 36.88
7590.563 0.765 36.756 0.599 -49.812 0.599 -49.812 0.765 36.756
7615.531 0.767 36.631 0.598 -49.934 0.598 -49.934 0.767 36.631
7640.5 0.768 36.507 0.596 -50.055 0.596 -50.055 0.768 36.507
7665.469 0.769 36.383 0.594 -50.176 0.594 -50.176 0.769 36.383
7690.438 0.771 36.259 0.593 -50.296 0.593 -50.296 0.771 36.259
7715.406 0.772 36.135 0.591 -50.416 0.591 -50.416 0.772 36.135
7740.375 0.773 36.012 0.589 -50.536 0.589 -50.536 0.773 36.012
7765.344 0.775 35.889 0.587 -50.656 0.587 -50.656 0.775 35.889
7790.313 0.776 35.766 0.586 -50.775 0.586 -50.775 0.776 35.766
7815.281 0.777 35.643 0.584 -50.894 0.584 -50.894 0.777 35.643
7840.25 0.779 35.521 0.582 -51.013 0.582 -51.013 0.779 35.521
7865.219 0.78 35.399 0.58 -51.132 0.58 -51.132 0.78 35.399
7890.188 0.781 35.277 0.579 -51.25 0.579 -51.25 0.781 35.277
7915.156 0.783 35.155 0.577 -51.368 0.577 -51.368 0.783 35.155
7940.125 0.784 35.034 0.575 -51.486 0.575 -51.486 0.784 35.034
7965.094 0.785 34.913 0.573 -51.603 0.573 -51.603 0.785 34.913
7990.063 0.786 34.792 0.572 -51.721 0.572 -51.721 0.786 34.792
8015.031 0.788 34.671 0.57 -51.838 0.57 -51.838 0.788 34.671
8040 0.789 34.55 0.568 -51.954 0.568 -51.954 0.789 34.55
8064.969 0.79 34.43 0.566 -52.071 0.566 -52.071 0.79 34.43
8089.938 0.791 34.31 0.565 -52.187 0.565 -52.187 0.791 34.31
8114.906 0.793 34.19 0.563 -52.303 0.563 -52.303 0.793 34.19
8139.875 0.794 34.071 0.561 -52.418 0.561 -52.418 0.794 34.071
