# MHZ S MA R 50

50 1.603e-3 49.712 0.999 -0.07 0.999 -0.07 1.603e-3 49.712
74.969 2.116e-3 60.05 0.999 -0.105 0.999 -0.105 2.116e-3 60.05
99.938 2.67e-3 66.218 0.999 -0.14 0.999 -0.14 2.67e-3 66.218
124.906 3.246e-3 70.223 0.999 -0.175 0.999 -0.175 3.246e-3 70.223
149.875 3.832e-3 73.002 0.999 -0.21 0.999 -0.21 3.832e-3 73.002
174.844 4.425e-3 75.03 0.999 -0.245 0.999 -0.245 4.425e-3 75.03
199.813 5.023e-3 76.569 0.999 -0.28 0.999 -0.28 5.023e-3 76.569
224.781 5.623e-3 77.773 0.999 -0.315 0.999 -0.315 5.623e-3 77.773
249.75 6.226e-3 78.737 0.999 -0.35 0.999 -0.35 6.226e-3 78.737
274.719 6.83e-3 79.524 0.999 -0.385 0.999 -0.385 6.83e-3 79.524
299.688 7.435e-3 80.178 0.999 -0.42 0.999 -0.42 7.435e-3 80.178
324.656 8.041e-3 80.728 0.999 -0.455 0.999 -0.455 8.041e-3 80.728
349.625 8.648e-3 81.196 0.999 -0.49 0.999 -0.49 8.648e-3 81.196
374.594 9.256e-3 81.598 0.999 -0.525 0.999 -0.525 9.256e-3 81.598
399.563 9.864e-3 81.946 0.999 -0.56 0.999 -0.56 9.864e-3 81.946
424.531 0.01 82.25 0.999 -0.595 0.999 -0.595 0.01 82.25
449.5 0.011 82.516 0.999 -0.63 0.999 -0.63 0.011 82.516
474.469 0.012 82.751 0.999 -0.665 0.999 -0.665 0.012 82.751
499.438 0.012 82.96 0.999 -0.7 0.999 -0.7 0.012 82.96
524.406 0.013 83.145 0.999 -0.735 0.999 -0.735 0.013 83.145
549.375 0.014 83.31 0.999 -0.77 0.999 -0.77 0.014 83.31
574.344 0.014 83.458 0.998 -0.805 0.998 -0.805 0.014 83.458
599.313 0.015 83.591 0.998 -0.84 0.998 -0.84 0.015 83.591
624.281 0.015 83.711 0.998 -0.875 0.998 -0.875 0.015 83.711
649.25 0.016 83.819 0.998 -0.91 0.998 -0.91 0.016 83.819
674.219 0.017 83.916 0.998 -0.946 0.998 -0.946 0.017 83.916
699.188 0.017 84.004 0.998 -0.981 0.998 -0.981 0.017 84.004
724.156 0.018 84.083 0.998 -1.016 0.998 -1.016 0.018 84.083
749.125 0.018 84.155 0.998 -1.051 0.998 -1.051 0.018 84.155
774.094 0.019 84.22 0.998 -1.086 0.998 -1.086 0.019 84.22
799.063 0.02 84.279 0.998 -1.121 0.998 -1.121 0.02 84.279
824.031 0.02 84.332 0.998 -1.156 0.998 -1.156 0.02 84.332
849 0.021 84.38 0.998 -1.191 0.998 -1.191 0.021 84.38
873.969 0.021 84.423 0.998 -1.226 0.998 -1.226 0.021 84.423
898.938 0.022 84.462 0.998 -1.261 0.998 -1.261 0.022 84.462
923.906 0.023 84.497 0.998 -1.296 0.998 -1.296 0.023 84.497
948.875 0.023 84.528 0.998 -1.331 0.998 -1.331 0.023 84.528
973.844 0.024 84.555 0.998 -1.366 0.998 -1.366 0.024 84.555
998.813 0.025 84.58 0.998 -1.401 0.998 -1.401 0.025 84.58
1023.781 0.025 84.602 0.998 -1.436 0.998 -1.436 0.025 84.602
1048.75 0.026 84.621 0.998 -1.471 0.998 -1.471 0.026 84.621
1073.719 0.026 84.637 0.998 -1.506 0.998 -1.506 0.026 84.637
1098.688 0.027 84.652 0.998 -1.541 0.998 -1.541 0.027 84.652
1123.656 0.028 84.664 0.998 -1.576 0.998 -1.576 0.028 84.664
1148.625 0.028 84.674 0.998 -1.611 0.998 -1.611 0.028 84.674
1173.594 0.029 84.682 0.998 -1.646 0.998 -1.646 0.029 84.682
1198.563 0.029 84.688 0.998 -1.681 0.998 -1.681 0.029 84.688
1223.531 0.03 84.692 0.998 -1.716 0.998 -1.716 0.03 84.692
1248.5 0.031 84.695 0.998 -1.752 0.998 -1.752 0.031 84.695
1273.469 0.031 84.697 0.998 -1.787 0.998 -1.787 0.031 84.697
1298.438 0.032 84.697 0.998 -1.822 0.998 -1.822 0.032 84.697
1323.406 0.032 84.696 0.998 -1.857 0.998 -1.857 0.032 84.696
1348.375 0.033 84.693 0.997 -1.892 0.997 -1.892 0.033 84.693
1373.344 0.034 84.689 0.997 -1.927 0.997 -1.927 0.034 84.689
1398.313 0.034 84.684 0.997 -1.962 0.997 -1.962 0.034 84.684
1423.281 0.035 84.679 0.997 -1.997 0.997 -1.997 0.035 84.679
1448.25 0.036 84.672 0.997 -2.032 0.997 -2.032 0.036 84.672
1473.219 0.036 84.664 0.997 -2.067 0.997 -2.067 0.036 84.664
1498.188 0.037 84.655 0.997 -2.102 0.997 -2.102 0.037 84.655
1523.156 0.037 84.645 0.997 -2.138 0.997 -2.138 0.037 84.645
1548.125 0.038 84.635 0.997 -2.173 0.997 -2.173 0.038 84.635
1573.094 0.039 84.623 0.997 -2.208 0.997 -2.208 0.039 84.623
1598.063 0.039 84.611 0.997 -2.243 0.997 -2.243 0.039 84.611
1623.031 0.04 84.599 0.997 -2.278 0.997 -2.278 0.04 84.599
1648 0.04 84.585 0.997 -2.313 0.997 -2.313 0.04 84.585
1672.969 0.041 84.571 0.997 -2.348 0.997 -2.348 0.041 84.571
1697.938 0.042 84.556 0.997 -2.384 0.997 -2.384 0.042 84.556
1722.906 0.042 84.541 0.997 -2.419 0.997 -2.419 0.042 84.541
1747.875 0.043 84.525 0.997 -2.454 0.997 -2.454 0.043 84.525
1772.844 0.043 84.509 0.997 -2.489 0.997 -2.489 0.043 84.509
1797.813 0.044 84.492 0.997 -2.524 0.997 -2.524 0.044 84.492
1822.781 0.045 84.474 0.997 -2.559 0.997 -2.559 0.045 84.474
1847.75 0.045 84.456 0.997 -2.595 0.997 -2.595 0.045 84.456
1872.719 0.046 84.438 0.997 -2.63 0.997 -2.63 0.046 84.438
1897.688 0.047 84.419 0.997 -2.665 0.997 -2.665 0.047 84.419
1922.656 0.047 84.399 0.997 -2.7 0.997 -2.7 0.047 84.399
1947.625 0.048 84.38 0.996 -2.735 0.996 -2.735 0.048 84.38
1972.594 0.048 84.36 0.996 -2.771 0.996 -2.771 0.048 84.36
1997.563 0.049 84.339 0.996 -2.806 0.996 -2.806 0.049 84.339
2022.531 0.05 84.318 0.996 -2.841 0.996 -2.841 0.05 84.318
2047.5 0.05 84.297 0.996 -2.876 0.996 -2.876 0.05 84.297
2072.469 0.051 84.275 0.996 -2.911 0.996 -2.911 0.051 84.275
2097.438 0.051 84.253 0.996 -2.947 0.996 -2.947 0.051 84.253
2122.406 0.052 84.231 0.996 -2.982 0.996 -2.982 0.052 84.231
2147.375 0.053 84.208 0.996 -3.017 0.996 -3.017 0.053 84.208
2172.344 0.053 84.186 0.996 -3.052 0.996 -3.052 0.053 84.186
2197.313 0.054 84.162 0.996 -3.088 0.996 -3.088 0.054 84.162
2222.281 0.055 84.139 0.996 -3.123 0.996 -3.123 0.055 84.139
2247.25 0.055 84.115 0.996 -3.158 0.996 -3.158 0.055 84.115
2272.219 0.056 84.091 0.996 -3.194 0.996 -3.194 0.056 84.091
2297.188 0.056 84.067 0.996 -3.229 0.996 -3.229 0.056 84.067
2322.156 0.057 84.042 0.996 -3.264 0.996 -3.264 0.057 84.042
2347.125 0.058 84.018 0.996 -3.299 0.996 -3.299 0.058 84.018
2372.094 0.058 83.993 0.996 -3.335 0.996 -3.335 0.058 83.993
2397.063 0.059 83.967 0.996 -3.37 0.996 -3.37 0.059 83.967
2422.031 0.059 83.942 0.995 -3.405 0.995 -3.405 0.059 83.942
2447 0.06 83.916 0.995 -3.441 0.995 -3.441 0.06 83.916
2471.969 0.061 83.89 0.995 -3.476 0.995 -3.476 0.061 83.89
2496.938 0.061 83.864 0.995 -3.511 0.995 -3.511 0.061 83.864
2521.906 0.062 83.838 0.995 -3.547 0.995 -3.547 0.062 83.838
2546.875 0.063 83.812 0.995 -3.582 0.995 -3.582 0.063 83.812
2571.844 0.063 83.785 0.995 -3.618 0.995 -3.618 0.063 83.785
2596.813 0.064 83.758 0.995 -3.653 0.995 -3.653 0.064 83.758
2621.781 0.064 83.731 0.995 -3.688 0.995 -3.688 0.064 83.731
2646.75 0.065 83.704 0.995 -3.724 0.995 -3.724 0.065 83.704
2671.719 0.066 83.677 0.995 -3.759 0.995 -3.759 0.066 83.677
2696.688 0.066 83.649 0.995 -3.795 0.995 -3.795 0.066 83.649
2721.656 0.067 83.622 0.995 -3.83 0.995 -3.83 0.067 83.622
2746.625 0.067 83.594 0.995 -3.866 0.995 -3.866 0.067 83.594
2771.594 0.068 83.566 0.995 -3.901 0.995 -3.901 0.068 83.566
2796.563 0.069 83.538 0.995 -3.936 0.995 -3.936 0.069 83.538
2821.531 0.069 83.51 0.995 -3.972 0.995 -3.972 0.069 83.51
2846.5 0.07 83.481 0.994 -4.007 0.994 -4.007 0.07 83.481
2871.469 0.071 83.453 0.994 -4.043 0.994 -4.043 0.071 83.453
2896.438 0.071 83.424 0.994 -4.078 0.994 -4.078 0.071 83.424
2921.406 0.072 83.395 0.994 -4.114 0.994 -4.114 0.072 83.395
2946.375 0.072 83.366 0.994 -4.149 0.994 -4.149 0.072 83.366
2971.344 0.073 83.337 0.994 -4.185 0.994 -4.185 0.073 83.337
2996.313 0.074 83.308 0.994 -4.22 0.994 -4.22 0.074 83.308
3021.281 0.074 83.279 0.994 -4.256 0.994 -4.256 0.074 83.279
3046.25 0.075 83.249 0.994 -4.292 0.994 -4.292 0.075 83.249
3071.219 0.076 83.22 0.994 -4.327 0.994 -4.327 0.076 83.22
3096.188 0.076 83.19 0.994 -4.363 0.994 -4.363 0.076 83.19
3121.156 0.077 83.16 0.994 -4.398 0.994 -4.398 0.077 83.16
3146.125 0.077 83.13 0.994 -4.434 0.994 -4.434 0.077 83.13
3171.094 0.078 83.101 0.994 -4.47 0.994 -4.47 0.078 83.101
3196.063 0.079 83.07 0.994 -4.505 0.994 -4.505 0.079 83.07
3221.031 0.079 83.04 0.994 -4.541 0.994 -4.541 0.079 83.04
3246 0.08 83.01 0.993 -4.576 0.993 -4.576 0.08 83.01
3270.969 0.08 82.98 0.993 -4.612 0.993 -4.612 0.08 82.98
3295.938 0.081 82.949 0.993 -4.648 0.993 -4.648 0.081 82.949
3320.906 0.082 82.919 0.993 -4.683 0.993 -4.683 0.082 82.919
3345.875 0.082 82.888 0.993 -4.719 0.993 -4.719 0.082 82.888
3370.844 0.083 82.857 0.993 -4.755 0.993 -4.755 0.083 82.857
3395.813 0.084 82.826 0.993 -4.791 0.993 -4.791 0.084 82.826
3420.781 0.084 82.795 0.993 -4.826 0.993 -4.826 0.084 82.795
3445.75 0.085 82.764 0.993 -4.862 0.993 -4.862 0.085 82.764
3470.719 0.085 82.733 0.993 -4.898 0.993 -4.898 0.085 82.733
3495.688 0.086 82.702 0.993 -4.933 0.993 -4.933 0.086 82.702
3520.656 0.087 82.671 0.993 -4.969 0.993 -4.969 0.087 82.671
3545.625 0.087 82.64 0.993 -5.005 0.993 -5.005 0.087 82.64
3570.594 0.088 82.608 0.993 -5.041 0.993 -5.041 0.088 82.608
3595.563 0.089 82.577 0.992 -5.077 0.992 -5.077 0.089 82.577
3620.531 0.089 82.545 0.992 -5.112 0.992 -5.112 0.089 82.545
3645.5 0.09 82.513 0.992 -5.148 0.992 -5.148 0.09 82.513
3670.469 0.09 82.482 0.992 -5.184 0.992 -5.184 0.09 82.482
3695.438 0.091 82.45 0.992 -5.22 0.992 -5.22 0.091 82.45
3720.406 0.092 82.418 0.992 -5.256 0.992 -5.256 0.092 82.418
3745.375 0.092 82.386 0.992 -5.292 0.992 -5.292 0.092 82.386
3770.344 0.093 82.354 0.992 -5.328 0.992 -5.328 0.093 82.354
3795.313 0.094 82.322 0.992 -5.364 0.992 -5.364 0.094 82.322
3820.281 0.094 82.29 0.992 -5.399 0.992 -5.399 0.094 82.29
3845.25 0.095 82.258 0.992 -5.435 0.992 -5.435 0.095 82.258
3870.219 0.095 82.225 0.992 -5.471 0.992 -5.471 0.095 82.225
3895.188 0.096 82.193 0.992 -5.507 0.992 -5.507 0.096 82.193
3920.156 0.097 82.161 0.991 -5.543 0.991 -5.543 0.097 82.161
3945.125 0.097 82.128 0.991 -5.579 0.991 -5.579 0.097 82.128
3970.094 0.098 82.096 0.991 -5.615 0.991 -5.615 0.098 82.096
3995.063 0.099 82.063 0.991 -5.651 0.991 -5.651 0.099 82.063
4020.031 0.099 82.03 0.991 -5.687 0.991 -5.687 0.099 82.03
4045 0.1 81.998 0.991 -5.723 0.991 -5.723 0.1 81.998
4069.969 0.1 81.965 0.991 -5.759 0.991 -5.759 0.1 81.965
4094.938 0.101 81.932 0.991 -5.795 0.991 -5.795 0.101 81.932
4119.906 0.102 81.899 0.991 -5.832 0.991 -5.832 0.102 81.899
4144.875 0.102 81.866 0.991 -5.868 0.991 -5.868 0.102 81.866
4169.844 0.103 81.833 0.991 -5.904 0.991 -5.904 0.103 81.833
4194.813 0.104 81.8 0.991 -5.94 0.991 -5.94 0.104 81.8
4219.781 0.104 81.767 0.99 -5.976 0.99 -5.976 0.104 81.767
4244.75 0.105 81.734 0.99 -6.012 0.99 -6.012 0.105 81.734
4269.719 0.105 81.701 0.99 -6.048 0.99 -6.048 0.105 81.701
4294.688 0.106 81.667 0.99 -6.085 0.99 -6.085 0.106 81.667
4319.656 0.107 81.634 0.99 -6.121 0.99 -6.121 0.107 81.634
4344.625 0.107 81.6 0.99 -6.157 0.99 -6.157 0.107 81.6
4369.594 0.108 81.567 0.99 -6.193 0.99 -6.193 0.108 81.567
4394.563 0.109 81.534 0.99 -6.229 0.99 -6.229 0.109 81.534
4419.531 0.109 81.5 0.99 -6.266 0.99 -6.266 0.109 81.5
4444.5 0.11 81.466 0.99 -6.302 0.99 -6.302 0.11 81.466
4469.469 0.11 81.433 0.99 -6.338 0.99 -6.338 0.11 81.433
4494.438 0.111 81.399 0.99 -6.375 0.99 -6.375 0.111 81.399
4519.406 0.112 81.365 0.989 -6.411 0.989 -6.411 0.112 81.365
4544.375 0.112 81.331 0.989 -6.447 0.989 -6.447 0.112 81.331
4569.344 0.113 81.298 0.989 -6.484 0.989 -6.484 0.113 81.298
4594.313 0.114 81.264 0.989 -6.52 0.989 -6.52 0.114 81.264
4619.281 0.114 81.23 0.989 -6.556 0.989 -6.556 0.114 81.23
4644.25 0.115 81.196 0.989 -6.593 0.989 -6.593 0.115 81.196
4669.219 0.116 81.162 0.989 -6.629 0.989 -6.629 0.116 81.162
4694.188 0.116 81.128 0.989 -6.666 0.989 -6.666 0.116 81.128
4719.156 0.117 81.093 0.989 -6.702 0.989 -6.702 0.117 81.093
4744.125 0.117 81.059 0.989 -6.739 0.989 -6.739 0.117 81.059
4769.094 0.118 81.025 0.988 -6.775 0.988 -6.775 0.118 81.025
4794.063 0.119 80.991 0.988 -6.812 0.988 -6.812 0.119 80.991
4819.031 0.119 80.956 0.988 -6.848 0.988 -6.848 0.119 80.956
4844 0.12 80.922 0.988 -6.885 0.988 -6.885 0.12 80.922
4868.969 0.121 80.888 0.988 -6.921 0.988 -6.921 0.121 80.888
4893.938 0.121 80.853 0.988 -6.958 0.988 -6.958 0.121 80.853
4918.906 0.122 80.819 0.988 -6.994 0.988 -6.994 0.122 80.819
4943.875 0.122 80.784 0.988 -7.031 0.988 -7.031 0.122 80.784
4968.844 0.123 80.749 0.988 -7.068 0.988 -7.068 0.123 80.749
4993.813 0.124 80.715 0.988 -7.104 0.988 -7.104 0.124 80.715
5018.781 0.124 80.68 0.988 -7.141 0.988 -7.141 0.124 80.68
5043.75 0.125 80.645 0.987 -7.178 0.987 -7.178 0.125 80.645
5068.719 0.126 80.611 0.987 -7.214 0.987 -7.214 0.126 80.611
5093.688 0.126 80.576 0.987 -7.251 0.987 -7.251 0.126 80.576
5118.656 0.127 80.541 0.987 -7.288 0.987 -7.288 0.127 80.541
5143.625 0.128 80.506 0.987 -7.324 0.987 -7.324 0.128 80.506
5168.594 0.128 80.471 0.987 -7.361 0.987 -7.361 0.128 80.471
5193.563 0.129 80.436 0.987 -7.398 0.987 -7.398 0.129 80.436
5218.531 0.129 80.401 0.987 -7.435 0.987 -7.435 0.129 80.401
5243.5 0.13 80.366 0.987 -7.472 0.987 -7.472 0.13 80.366
5268.469 0.131 80.331 0.986 -7.509 0.986 -7.509 0.131 80.331
5293.438 0.131 80.296 0.986 -7.545 0.986 -7.545 0.131 80.296
5318.406 0.132 80.26 0.986 -7.582 0.986 -7.582 0.132 80.26
5343.375 0.133 80.225 0.986 -7.619 0.986 -7.619 0.133 80.225
5368.344 0.133 80.19 0.986 -7.656 0.986 -7.656 0.133 80.19
5393.313 0.134 80.155 0.986 -7.693 0.986 -7.693 0.134 80.155
5418.281 0.135 80.119 0.986 -7.73 0.986 -7.73 0.135 80.119
5443.25 0.135 80.084 0.986 -7.767 0.986 -7.767 0.135 80.084
5468.219 0.136 80.049 0.986 -7.804 0.986 -7.804 0.136 80.049
5493.188 0.137 80.013 0.986 -7.841 0.986 -7.841 0.137 80.013
5518.156 0.137 79.978 0.985 -7.878 0.985 -7.878 0.137 79.978
5543.125 0.138 79.942 0.985 -7.915 0.985 -7.915 0.138 79.942
5568.094 0.138 79.906 0.985 -7.952 0.985 -7.952 0.138 79.906
5593.063 0.139 79.871 0.985 -7.989 0.985 -7.989 0.139 79.871
5618.031 0.14 79.835 0.985 -8.026 0.985 -8.026 0.14 79.835
5643 0.14 79.799 0.985 -8.064 0.985 -8.064 0.14 79.799
5667.969 0.141 79.764 0.985 -8.101 0.985 -8.101 0.141 79.764
5692.938 0.142 79.728 0.985 -8.138 0.985 -8.138 0.142 79.728
5717.906 0.142 79.692 0.985 -8.175 0.985 -8.175 0.142 79.692
5742.875 0.143 79.656 0.984 -8.212 0.984 -8.212 0.143 79.656
5767.844 0.144 79.62 0.984 -8.25 0.984 -8.25 0.144 79.62
5792.813 0.144 79.584 0.984 -8.287 0.984 -8.287 0.144 79.584
5817.781 0.145 79.548 0.984 -8.324 0.984 -8.324 0.145 79.548
5842.75 0.146 79.512 0.984 -8.361 0.984 -8.361 0.146 79.512
5867.719 0.146 79.476 0.984 -8.399 0.984 -8.399 0.146 79.476
5892.688 0.147 79.44 0.984 -8.436 0.984 -8.436 0.147 79.44
5917.656 0.147 79.404 0.984 -8.473 0.984 -8.473 0.147 79.404
5942.625 0.148 79.368 0.984 -8.511 0.984 -8.511 0.148 79.368
5967.594 0.149 79.332 0.983 -8.548 0.983 -8.548 0.149 79.332
5992.563 0.149 79.295 0.983 -8.586 0.983 -8.586 0.149 79.295
6017.531 0.15 79.259 0.983 -8.623 0.983 -8.623 0.15 79.259
6042.5 0.151 79.223 0.983 -8.661 0.983 -8.661 0.151 79.223
6067.469 0.151 79.186 0.983 -8.698 0.983 -8.698 0.151 79.186
6092.438 0.152 79.15 0.983 -8.736 0.983 -8.736 0.152 79.15
6117.406 0.153 79.114 0.983 -8.773 0.983 -8.773 0.153 79.114
6142.375 0.153 79.077 0.983 -8.811 0.983 -8.811 0.153 79.077
6167.344 0.154 79.041 0.982 -8.848 0.982 -8.848 0.154 79.041
6192.313 0.155 79.004 0.982 -8.886 0.982 -8.886 0.155 79.004
6217.281 0.155 78.967 0.982 -8.924 0.982 -8.924 0.155 78.967
6242.25 0.156 78.931 0.982 -8.961 0.982 -8.961 0.156 78.931
6267.219 0.157 78.894 0.982 -8.999 0.982 -8.999 0.157 78.894
6292.188 0.157 78.857 0.982 -9.037 0.982 -9.037 0.157 78.857
6317.156 0.158 78.821 0.982 -9.074 0.982 -9.074 0.158 78.821
6342.125 0.158 78.784 0.982 -9.112 0.982 -9.112 0.158 78.784
6367.094 0.159 78.747 0.981 -9.15 0.981 -9.15 0.159 78.747
6392.063 0.16 78.71 0.981 -9.188 0.981 -9.188 0.16 78.71
6417.031 0.16 78.673 0.981 -9.226 0.981 -9.226 0.16 78.673
6442 0.161 78.637 0.981 -9.263 0.981 -9.263 0.161 78.637
6466.969 0.162 78.6 0.981 -9.301 0.981 -9.301 0.162 78.6
6491.938 0.162 78.563 0.981 -9.339 0.981 -9.339 0.162 78.563
6516.906 0.163 78.526 0.981 -9.377 0.981 -9.377 0.163 78.526
6541.875 0.164 78.488 0.981 -9.415 0.981 -9.415 0.164 78.488
6566.844 0.164 78.451 0.98 -9.453 0.98 -9.453 0.164 78.451
6591.813 0.165 78.414 0.98 -9.491 0.98 -9.491 0.165 78.414
6616.781 0.166 78.377 0.98 -9.529 0.98 -9.529 0.166 78.377
6641.75 0.166 78.34 0.98 -9.567 0.98 -9.567 0.166 78.34
6666.719 0.167 78.303 0.98 -9.605 0.98 -9.605 0.167 78.303
6691.688 0.168 78.265 0.98 -9.643 0.98 -9.643 0.168 78.265
6716.656 0.168 78.228 0.98 -9.681 0.98 -9.681 0.168 78.228
6741.625 0.169 78.191 0.979 -9.72 0.979 -9.72 0.169 78.191
6766.594 0.17 78.153 0.979 -9.758 0.979 -9.758 0.17 78.153
6791.563 0.17 78.116 0.979 -9.796 0.979 -9.796 0.17 78.116
6816.531 0.171 78.078 0.979 -9.834 0.979 -9.834 0.171 78.078
6841.5 0.172 78.041 0.979 -9.872 0.979 -9.872 0.172 78.041
6866.469 0.172 78.003 0.979 -9.911 0.979 -9.911 0.172 78.003
6891.438 0.173 77.966 0.979 -9.949 0.979 -9.949 0.173 77.966
6916.406 0.174 77.928 0.979 -9.987 0.979 -9.987 0.174 77.928
6941.375 0.174 77.89 0.978 -10.026 0.978 -10.026 0.174 77.89
6966.344 0.175 77.853 0.978 -10.064 0.978 -10.064 0.175 77.853
6991.313 0.176 77.815 0.978 -10.102 0.978 -10.102 0.176 77.815
7016.281 0.176 77.777 0.978 -10.141 0.978 -10.141 0.176 77.777
7041.25 0.177 77.739 0.978 -10.179 0.978 -10.179 0.177 77.739
7066.219 0.178 77.701 0.978 -10.218 0.978 -10.218 0.178 77.701
7091.188 0.178 77.664 0.978 -10.256 0.978 -10.256 0.178 77.664
7116.156 0.179 77.626 0.977 -10.295 0.977 -10.295 0.179 77.626
7141.125 0.179 77.588 0.977 -10.333 0.977 -10.333 0.179 77.588
7166.094 0.18 77.55 0.977 -10.372 0.977 -10.372 0.18 77.55
7191.063 0.181 77.512 0.977 -10.411 0.977 -10.411 0.181 77.512
7216.031 0.181 77.474 0.977 -10.449 0.977 -10.449 0.181 77.474
7241 0.182 77.435 0.977 -10.488 0.977 -10.488 0.182 77.435
7265.969 0.183 77.397 0.977 -10.527 0.977 -10.527 0.183 77.397
7290.938 0.183 77.359 0.976 -10.565 0.976 -10.565 0.183 77.359
7315.906 0.184 77.321 0.976 -10.604 0.976 -10.604 0.184 77.321
7340.875 0.185 77.283 0.976 -10.643 0.976 -10.643 0.185 77.283
7365.844 0.185 77.244 0.976 -10.682 0.976 -10.682 0.185 77.244
7390.813 0.186 77.206 0.976 -10.72 0.976 -10.72 0.186 77.206
7415.781 0.187 77.168 0.976 -10.759 0.976 -10.759 0.187 77.168
7440.75 0.187 77.129 0.976 -10.798 0.976 -10.798 0.187 77.129
7465.719 0.188 77.091 0.975 -10.837 0.975 -10.837 0.188 77.091
7490.688 0.189 77.052 0.975 -10.876 0.975 -10.876 0.189 77.052
7515.656 0.189 77.014 0.975 -10.915 0.975 -10.915 0.189 77.014
7540.625 0.19 76.975 0.975 -10.954 0.975 -10.954 0.19 76.975
7565.594 0.191 76.937 0.975 -10.993 0.975 -10.993 0.191 76.937
7590.563 0.191 76.898 0.975 -11.032 0.975 -11.032 0.191 76.898
7615.531 0.192 76.859 0.974 -11.071 0.974 -11.071 0.192 76.859
7640.5 0.193 76.821 0.974 -11.11 0.974 -11.11 0.193 76.821
7665.469 0.193 76.782 0.974 -11.149 0.974 -11.149 0.193 76.782
7690.438 0.194 76.743 0.974 -11.189 0.974 -11.189 0.194 76.743
7715.406 0.195 76.704 0.974 -11.228 0.974 -11.228 0.195 76.704
7740.375 0.196 76.665 0.974 -11.267 0.974 -11.267 0.196 76.665
7765.344 0.196 76.626 0.974 -11.306 0.974 -11.306 0.196 76.626
7790.313 0.197 76.587 0.973 -11.346 0.973 -11.346 0.197 76.587
7815.281 0.198 76.548 0.973 -11.385 0.973 -11.385 0.198 76.548
7840.25 0.198 76.509 0.973 -11.424 0.973 -11.424 0.198 76.509
7865.219 0.199 76.47 0.973 -11.464 0.973 -11.464 0.199 76.47
7890.188 0.2 76.431 0.973 -11.503 0.973 -11.503 0.2 76.431
7915.156 0.2 76.392 0.973 -11.543 0.973 -11.543 0.2 76.392
7940.125 0.201 76.353 0.972 -11.582 0.972 -11.582 0.201 76.353
7965.094 0.202 76.314 0.972 -11.622 0.972 -11.622 0.202 76.314
7990.063 0.202 76.274 0.972 -11.661 0.972 -11.661 0.202 76.274
8015.031 0.203 76.235 0.972 -11.701 0.972 -11.701 0.203 76.235
8040 0.204 76.196 0.972 -11.74 0.972 -11.74 0.204 76.196
8064.969 0.204 76.156 0.972 -11.78 0.972 -11.78 0.204 76.156
8089.938 0.205 76.117 0.971 -11.819 0.971 -11.819 0.205 76.117
8114.906 0.206 76.078 0.971 -11.859 0.971 -11.859 0.206 76.078
8139.875 0.206 76.038 0.971 -11.899 0.971 -11.899 0.206 76.038
8164.844 0.207 75.999 0.971 -11.939 0.971 -11.939 0.207 75.999
8189.813 0.208 75.959 0.971 -11.978 0.971 -11.978 0.208 75.959
8214.781 0.208 75.919 0.971 -12.018 0.971 -12.018 0.208 75.919
8239.75 0.209 75.88 0.97 -12.058 0.97 -12.058 0.209 75.88
8264.719 0.21 75.84 0.97 -12.098 0.97 -12.098 0.21 75.84
8289.688 0.21 75.8 0.97 -12.138 0.97 -12.138 0.21 75.8
