# MHZ S MA R 50

50 7.66e-3 46.934 0.995 -0.322 0.995 -0.322 7.66e-3 46.934
74.969 9.966e-3 57.318 0.995 -0.483 0.995 -0.483 9.966e-3 57.318
99.938 0.012 63.605 0.995 -0.644 0.995 -0.644 0.012 63.605
124.906 0.015 67.694 0.994 -0.805 0.994 -0.805 0.015 67.694
149.875 0.018 70.515 0.994 -0.966 0.994 -0.966 0.018 70.515
174.844 0.02 72.552 0.994 -1.126 0.994 -1.126 0.02 72.552
199.813 0.023 74.072 0.994 -1.287 0.994 -1.287 0.023 74.072
224.781 0.026 75.238 0.994 -1.448 0.994 -1.448 0.026 75.238
249.75 0.029 76.149 0.994 -1.608 0.994 -1.608 0.029 76.149
274.719 0.031 76.871 0.993 -1.769 0.993 -1.769 0.031 76.871
299.688 0.034 77.451 0.993 -1.929 0.993 -1.929 0.034 77.451
324.656 0.037 77.92 0.993 -2.09 0.993 -2.09 0.037 77.92
349.625 0.04 78.301 0.993 -2.25 0.993 -2.25 0.04 78.301
374.594 0.043 78.611 0.992 -2.411 0.992 -2.411 0.043 78.611
399.563 0.045 78.864 0.992 -2.571 0.992 -2.571 0.045 78.864
424.531 0.048 79.068 0.992 -2.731 0.992 -2.731 0.048 79.068
449.5 0.051 79.233 0.992 -2.891 0.992 -2.891 0.051 79.233
474.469 0.054 79.364 0.991 -3.052 0.991 -3.052 0.054 79.364
499.438 0.056 79.467 0.991 -3.212 0.991 -3.212 0.056 79.467
524.406 0.059 79.544 0.991 -3.372 0.991 -3.372 0.059 79.544
549.375 0.062 79.601 0.991 -3.532 0.991 -3.532 0.062 79.601
574.344 0.065 79.638 0.99 -3.692 0.99 -3.692 0.065 79.638
599.313 0.068 79.66 0.99 -3.851 0.99 -3.851 0.068 79.66
624.281 0.07 79.667 0.99 -4.011 0.99 -4.011 0.07 79.667
649.25 0.073 79.661 0.989 -4.171 0.989 -4.171 0.073 79.661
674.219 0.076 79.645 0.989 -4.331 0.989 -4.331 0.076 79.645
699.188 0.079 79.618 0.989 -4.49 0.989 -4.49 0.079 79.618
724.156 0.081 79.582 0.989 -4.65 0.989 -4.65 0.081 79.582
749.125 0.084 79.538 0.988 -4.809 0.988 -4.809 0.084 79.538
774.094 0.087 79.486 0.988 -4.969 0.988 -4.969 0.087 79.486
799.063 0.09 79.428 0.987 -5.128 0.987 -5.128 0.09 79.428
824.031 0.093 79.364 0.987 -5.287 0.987 -5.287 0.093 79.364
849 0.095 79.294 0.987 -5.446 0.987 -5.446 0.095 79.294
873.969 0.098 79.22 0.986 -5.606 0.986 -5.606 0.098 79.22
898.938 0.101 79.14 0.986 -5.765 0.986 -5.765 0.101 79.14
923.906 0.104 79.057 0.986 -5.924 0.986 -5.924 0.104 79.057
948.875 0.106 78.969 0.985 -6.082 0.985 -6.082 0.106 78.969
973.844 0.109 78.878 0.985 -6.241 0.985 -6.241 0.109 78.878
998.813 0.112 78.784 0.984 -6.4 0.984 -6.4 0.112 78.784
1023.781 0.115 78.687 0.984 -6.559 0.984 -6.559 0.115 78.687
1048.75 0.117 78.586 0.984 -6.717 0.984 -6.717 0.117 78.586
1073.719 0.12 78.483 0.983 -6.876 0.983 -6.876 0.12 78.483
1098.688 0.123 78.378 0.983 -7.034 0.983 -7.034 0.123 78.378
1123.656 0.126 78.271 0.982 -7.193 0.982 -7.193 0.126 78.271
1148.625 0.128 78.161 0.982 -7.351 0.982 -7.351 0.128 78.161
1173.594 0.131 78.049 0.981 -7.509 0.981 -7.509 0.131 78.049
1198.563 0.134 77.935 0.981 -7.667 0.981 -7.667 0.134 77.935
1223.531 0.137 77.82 0.98 -7.825 0.98 -7.825 0.137 77.82
1248.5 0.139 77.703 0.98 -7.983 0.98 -7.983 0.139 77.703
1273.469 0.142 77.585 0.979 -8.141 0.979 -8.141 0.142 77.585
1298.438 0.145 77.465 0.979 -8.299 0.979 -8.299 0.145 77.465
1323.406 0.147 77.343 0.978 -8.457 0.978 -8.457 0.147 77.343
1348.375 0.15 77.221 0.978 -8.614 0.978 -8.614 0.15 77.221
1373.344 0.153 77.097 0.977 -8.772 0.977 -8.772 0.153 77.097
1398.313 0.156 76.972 0.977 -8.929 0.977 -8.929 0.156 76.972
1423.281 0.158 76.846 0.976 -9.086 0.976 -9.086 0.158 76.846
1448.25 0.161 76.719 0.976 -9.244 0.976 -9.244 0.161 76.719
1473.219 0.164 76.591 0.975 -9.401 0.975 -9.401 0.164 76.591
1498.188 0.166 76.463 0.975 -9.558 0.975 -9.558 0.166 76.463
1523.156 0.169 76.333 0.974 -9.715 0.974 -9.715 0.169 76.333
1548.125 0.172 76.202 0.973 -9.872 0.973 -9.872 0.172 76.202
1573.094 0.175 76.071 0.973 -10.028 0.973 -10.028 0.175 76.071
1598.063 0.177 75.939 0.972 -10.185 0.972 -10.185 0.177 75.939
1623.031 0.18 75.807 0.972 -10.342 0.972 -10.342 0.18 75.807
1648 0.183 75.674 0.971 -10.498 0.971 -10.498 0.183 75.674
1672.969 0.185 75.54 0.97 -10.655 0.97 -10.655 0.185 75.54
1697.938 0.188 75.405 0.97 -10.811 0.97 -10.811 0.188 75.405
1722.906 0.191 75.27 0.969 -10.967 0.969 -10.967 0.191 75.27
1747.875 0.193 75.135 0.969 -11.123 0.969 -11.123 0.193 75.135
1772.844 0.196 74.999 0.968 -11.279 0.968 -11.279 0.196 74.999
1797.813 0.199 74.862 0.967 -11.435 0.967 -11.435 0.199 74.862
1822.781 0.201 74.726 0.967 -11.591 0.967 -11.591 0.201 74.726
1847.75 0.204 74.588 0.966 -11.746 0.966 -11.746 0.204 74.588
1872.719 0.207 74.451 0.965 -11.902 0.965 -11.902 0.207 74.451
1897.688 0.209 74.312 0.965 -12.057 0.965 -12.057 0.209 74.312
1922.656 0.212 74.174 0.964 -12.212 0.964 -12.212 0.212 74.174
1947.625 0.215 74.035 0.963 -12.368 0.963 -12.368 0.215 74.035
1972.594 0.217 73.896 0.963 -12.523 0.963 -12.523 0.217 73.896
1997.563 0.22 73.757 0.962 -12.678 0.962 -12.678 0.22 73.757
2022.531 0.223 73.617 0.961 -12.833 0.961 -12.833 0.223 73.617
2047.5 0.225 73.477 0.961 -12.987 0.961 -12.987 0.225 73.477
2072.469 0.228 73.337 0.96 -13.142 0.96 -13.142 0.228 73.337
2097.438 0.23 73.196 0.959 -13.296 0.959 -13.296 0.23 73.196
2122.406 0.233 73.056 0.958 -13.451 0.958 -13.451 0.233 73.056
2147.375 0.236 72.915 0.958 -13.605 0.958 -13.605 0.236 72.915
2172.344 0.238 72.774 0.957 -13.759 0.957 -13.759 0.238 72.774
2197.313 0.241 72.632 0.956 -13.913 0.956 -13.913 0.241 72.632
2222.281 0.244 72.491 0.955 -14.067 0.955 -14.067 0.244 72.491
2247.25 0.246 72.349 0.955 -14.221 0.955 -14.221 0.246 72.349
2272.219 0.249 72.207 0.954 -14.375 0.954 -14.375 0.249 72.207
2297.188 0.251 72.065 0.953 -14.528 0.953 -14.528 0.251 72.065
2322.156 0.254 71.923 0.952 -14.682 0.952 -14.682 0.254 71.923
2347.125 0.256 71.781 0.952 -14.835 0.952 -14.835 0.256 71.781
2372.094 0.259 71.638 0.951 -14.988 0.951 -14.988 0.259 71.638
2397.063 0.262 71.496 0.95 -15.142 0.95 -15.142 0.262 71.496
2422.031 0.264 71.353 0.949 -15.295 0.949 -15.295 0.264 71.353
2447 0.267 71.21 0.948 -15.447 0.948 -15.447 0.267 71.21
2471.969 0.269 71.068 0.948 -15.6 0.948 -15.6 0.269 71.068
2496.938 0.272 70.925 0.947 -15.753 0.947 -15.753 0.272 70.925
2521.906 0.275 70.782 0.946 -15.905 0.946 -15.905 0.275 70.782
2546.875 0.277 70.638 0.945 -16.057 0.945 -16.057 0.277 70.638
2571.844 0.28 70.495 0.944 -16.21 0.944 -16.21 0.28 70.495
2596.813 0.282 70.352 0.943 -16.362 0.943 -16.362 0.282 70.352
2621.781 0.285 70.209 0.942 -16.514 0.942 -16.514 0.285 70.209
2646.75 0.287 70.065 0.942 -16.666 0.942 -16.666 0.287 70.065
2671.719 0.29 69.922 0.941 -16.817 0.941 -16.817 0.29 69.922
2696.688 0.292 69.779 0.94 -16.969 0.94 -16.969 0.292 69.779
2721.656 0.295 69.635 0.939 -17.12 0.939 -17.12 0.295 69.635
2746.625 0.297 69.492 0.938 -17.271 0.938 -17.271 0.297 69.492
2771.594 0.3 69.348 0.937 -17.423 0.937 -17.423 0.3 69.348
2796.563 0.302 69.205 0.936 -17.574 0.936 -17.574 0.302 69.205
2821.531 0.305 69.061 0.935 -17.724 0.935 -17.724 0.305 69.061
2846.5 0.307 68.918 0.935 -17.875 0.935 -17.875 0.307 68.918
2871.469 0.31 68.774 0.934 -18.026 0.934 -18.026 0.31 68.774
2896.438 0.312 68.63 0.933 -18.176 0.933 -18.176 0.312 68.63
2921.406 0.315 68.487 0.932 -18.327 0.932 -18.327 0.315 68.487
2946.375 0.317 68.343 0.931 -18.477 0.931 -18.477 0.317 68.343
2971.344 0.32 68.2 0.93 -18.627 0.93 -18.627 0.32 68.2
2996.313 0.322 68.056 0.929 -18.777 0.929 -18.777 0.322 68.056
3021.281 0.325 67.913 0.928 -18.927 0.928 -18.927 0.325 67.913
3046.25 0.327 67.769 0.927 -19.076 0.927 -19.076 0.327 67.769
3071.219 0.33 67.626 0.926 -19.226 0.926 -19.226 0.33 67.626
3096.188 0.332 67.482 0.925 -19.375 0.925 -19.375 0.332 67.482
3121.156 0.335 67.339 0.924 -19.524 0.924 -19.524 0.335 67.339
3146.125 0.337 67.195 0.923 -19.673 0.923 -19.673 0.337 67.195
3171.094 0.34 67.052 0.922 -19.822 0.922 -19.822 0.34 67.052
3196.063 0.342 66.909 0.921 -19.971 0.921 -19.971 0.342 66.909
3221.031 0.344 66.765 0.92 -20.12 0.92 -20.12 0.344 66.765
3246 0.347 66.622 0.919 -20.268 0.919 -20.268 0.347 66.622
3270.969 0.349 66.479 0.918 -20.416 0.918 -20.416 0.349 66.479
3295.938 0.352 66.336 0.917 -20.565 0.917 -20.565 0.352 66.336
3320.906 0.354 66.193 0.916 -20.713 0.916 -20.713 0.354 66.193
3345.875 0.357 66.05 0.915 -20.861 0.915 -20.861 0.357 66.05
3370.844 0.359 65.907 0.914 -21.008 0.914 -21.008 0.359 65.907
3395.813 0.361 65.764 0.913 -21.156 0.913 -21.156 0.361 65.764
3420.781 0.364 65.621 0.912 -21.303 0.912 -21.303 0.364 65.621
3445.75 0.366 65.478 0.911 -21.451 0.911 -21.451 0.366 65.478
3470.719 0.369 65.335 0.91 -21.598 0.91 -21.598 0.369 65.335
3495.688 0.371 65.192 0.909 -21.745 0.909 -21.745 0.371 65.192
3520.656 0.373 65.05 0.908 -21.892 0.908 -21.892 0.373 65.05
3545.625 0.376 64.907 0.907 -22.038 0.907 -22.038 0.376 64.907
3570.594 0.378 64.765 0.906 -22.185 0.906 -22.185 0.378 64.765
3595.563 0.38 64.623 0.905 -22.331 0.905 -22.331 0.38 64.623
3620.531 0.383 64.48 0.904 -22.477 0.904 -22.477 0.383 64.48
3645.5 0.385 64.338 0.903 -22.623 0.903 -22.623 0.385 64.338
3670.469 0.388 64.196 0.902 -22.769 0.902 -22.769 0.388 64.196
3695.438 0.39 64.054 0.9 -22.915 0.9 -22.915 0.39 64.054
3720.406 0.392 63.912 0.899 -23.061 0.899 -23.061 0.392 63.912
3745.375 0.395 63.77 0.898 -23.206 0.898 -23.206 0.395 63.77
3770.344 0.397 63.628 0.897 -23.351 0.897 -23.351 0.397 63.628
3795.313 0.399 63.486 0.896 -23.497 0.896 -23.497 0.399 63.486
3820.281 0.402 63.345 0.895 -23.642 0.895 -23.642 0.402 63.345
3845.25 0.404 63.203 0.894 -23.786 0.894 -23.786 0.404 63.203
3870.219 0.406 63.062 0.893 -23.931 0.893 -23.931 0.406 63.062
3895.188 0.409 62.92 0.892 -24.076 0.892 -24.076 0.409 62.92
3920.156 0.411 62.779 0.89 -24.22 0.89 -24.22 0.411 62.779
3945.125 0.413 62.638 0.889 -24.364 0.889 -24.364 0.413 62.638
3970.094 0.415 62.497 0.888 -24.508 0.888 -24.508 0.415 62.497
3995.063 0.418 62.356 0.887 -24.652 0.887 -24.652 0.418 62.356
4020.031 0.42 62.215 0.886 -24.796 0.886 -24.796 0.42 62.215
4045 0.422 62.075 0.885 -24.939 0.885 -24.939 0.422 62.075
4069.969 0.424 61.934 0.884 -25.083 0.884 -25.083 0.424 61.934
4094.938 0.427 61.793 0.882 -25.226 0.882 -25.226 0.427 61.793
4119.906 0.429 61.653 0.881 -25.369 0.881 -25.369 0.429 61.653
4144.875 0.431 61.513 0.88 -25.512 0.88 -25.512 0.431 61.513
4169.844 0.434 61.373 0.879 -25.654 0.879 -25.654 0.434 61.373
4194.813 0.436 61.232 0.878 -25.797 0.878 -25.797 0.436 61.232
4219.781 0.438 61.093 0.877 -25.939 0.877 -25.939 0.438 61.093
4244.75 0.44 60.953 0.875 -26.082 0.875 -26.082 0.44 60.953
4269.719 0.442 60.813 0.874 -26.224 0.874 -26.224 0.442 60.813
4294.688 0.445 60.673 0.873 -26.366 0.873 -26.366 0.445 60.673
4319.656 0.447 60.534 0.872 -26.507 0.872 -26.507 0.447 60.534
4344.625 0.449 60.394 0.871 -26.649 0.871 -26.649 0.449 60.394
4369.594 0.451 60.255 0.869 -26.79 0.869 -26.79 0.451 60.255
4394.563 0.454 60.116 0.868 -26.931 0.868 -26.931 0.454 60.116
4419.531 0.456 59.977 0.867 -27.072 0.867 -27.072 0.456 59.977
4444.5 0.458 59.838 0.866 -27.213 0.866 -27.213 0.458 59.838
4469.469 0.46 59.699 0.865 -27.354 0.865 -27.354 0.46 59.699
4494.438 0.462 59.561 0.863 -27.495 0.863 -27.495 0.462 59.561
4519.406 0.464 59.422 0.862 -27.635 0.862 -27.635 0.464 59.422
4544.375 0.467 59.284 0.861 -27.775 0.861 -27.775 0.467 59.284
4569.344 0.469 59.145 0.86 -27.915 0.86 -27.915 0.469 59.145
4594.313 0.471 59.007 0.858 -28.055 0.858 -28.055 0.471 59.007
4619.281 0.473 58.869 0.857 -28.195 0.857 -28.195 0.473 58.869
4644.25 0.475 58.731 0.856 -28.334 0.856 -28.334 0.475 58.731
4669.219 0.477 58.594 0.855 -28.474 0.855 -28.474 0.477 58.594
4694.188 0.48 58.456 0.853 -28.613 0.853 -28.613 0.48 58.456
4719.156 0.482 58.319 0.852 -28.752 0.852 -28.752 0.482 58.319
4744.125 0.484 58.181 0.851 -28.891 0.851 -28.891 0.484 58.181
4769.094 0.486 58.044 0.85 -29.03 0.85 -29.03 0.486 58.044
4794.063 0.488 57.907 0.848 -29.168 0.848 -29.168 0.488 57.907
4819.031 0.49 57.77 0.847 -29.306 0.847 -29.306 0.49 57.77
4844 0.492 57.633 0.846 -29.445 0.846 -29.445 0.492 57.633
4868.969 0.494 57.496 0.844 -29.583 0.844 -29.583 0.494 57.496
4893.938 0.496 57.36 0.843 -29.72 0.843 -29.72 0.496 57.36
4918.906 0.498 57.223 0.842 -29.858 0.842 -29.858 0.498 57.223
4943.875 0.501 57.087 0.841 -29.995 0.841 -29.995 0.501 57.087
4968.844 0.503 56.951 0.839 -30.133 0.839 -30.133 0.503 56.951
4993.813 0.505 56.815 0.838 -30.27 0.838 -30.27 0.505 56.815
5018.781 0.507 56.679 0.837 -30.407 0.837 -30.407 0.507 56.679
5043.75 0.509 56.543 0.835 -30.544 0.835 -30.544 0.509 56.543
5068.719 0.511 56.408 0.834 -30.68 0.834 -30.68 0.511 56.408
5093.688 0.513 56.272 0.833 -30.817 0.833 -30.817 0.513 56.272
5118.656 0.515 56.137 0.831 -30.953 0.831 -30.953 0.515 56.137
5143.625 0.517 56.002 0.83 -31.089 0.83 -31.089 0.517 56.002
5168.594 0.519 55.867 0.829 -31.225 0.829 -31.225 0.519 55.867
5193.563 0.521 55.732 0.827 -31.36 0.827 -31.36 0.521 55.732
5218.531 0.523 55.597 0.826 -31.496 0.826 -31.496 0.523 55.597
5243.5 0.525 55.463 0.825 -31.631 0.825 -31.631 0.525 55.463
5268.469 0.527 55.328 0.823 -31.767 0.823 -31.767 0.527 55.328
5293.438 0.529 55.194 0.822 -31.902 0.822 -31.902 0.529 55.194
5318.406 0.531 55.06 0.821 -32.036 0.821 -32.036 0.531 55.06
5343.375 0.533 54.926 0.819 -32.171 0.819 -32.171 0.533 54.926
5368.344 0.535 54.792 0.818 -32.306 0.818 -32.306 0.535 54.792
5393.313 0.537 54.658 0.817 -32.44 0.817 -32.44 0.537 54.658
5418.281 0.539 54.525 0.815 -32.574 0.815 -32.574 0.539 54.525
5443.25 0.541 54.391 0.814 -32.708 0.814 -32.708 0.541 54.391
5468.219 0.543 54.258 0.813 -32.842 0.813 -32.842 0.543 54.258
5493.188 0.545 54.125 0.811 -32.975 0.811 -32.975 0.545 54.125
5518.156 0.547 53.992 0.81 -33.109 0.81 -33.109 0.547 53.992
5543.125 0.549 53.859 0.809 -33.242 0.809 -33.242 0.549 53.859
5568.094 0.551 53.726 0.807 -33.375 0.807 -33.375 0.551 53.726
5593.063 0.553 53.594 0.806 -33.508 0.806 -33.508 0.553 53.594
5618.031 0.555 53.462 0.804 -33.64 0.804 -33.64 0.555 53.462
5643 0.557 53.329 0.803 -33.773 0.803 -33.773 0.557 53.329
5667.969 0.559 53.197 0.802 -33.905 0.802 -33.905 0.559 53.197
5692.938 0.56 53.065 0.8 -34.037 0.8 -34.037 0.56 53.065
5717.906 0.562 52.934 0.799 -34.169 0.799 -34.169 0.562 52.934
5742.875 0.564 52.802 0.798 -34.301 0.798 -34.301 0.564 52.802
5767.844 0.566 52.671 0.796 -34.433 0.796 -34.433 0.566 52.671
5792.813 0.568 52.539 0.795 -34.564 0.795 -34.564 0.568 52.539
5817.781 0.57 52.408 0.793 -34.695 0.793 -34.695 0.57 52.408
5842.75 0.572 52.277 0.792 -34.826 0.792 -34.826 0.572 52.277
5867.719 0.574 52.146 0.791 -34.957 0.791 -34.957 0.574 52.146
5892.688 0.576 52.016 0.789 -35.088 0.789 -35.088 0.576 52.016
5917.656 0.577 51.885 0.788 -35.218 0.788 -35.218 0.577 51.885
5942.625 0.579 51.755 0.786 -35.349 0.786 -35.349 0.579 51.755
5967.594 0.581 51.624 0.785 -35.479 0.785 -35.479 0.581 51.624
5992.563 0.583 51.494 0.784 -35.609 0.784 -35.609 0.583 51.494
6017.531 0.585 51.364 0.782 -35.739 0.782 -35.739 0.585 51.364
6042.5 0.587 51.235 0.781 -35.868 0.781 -35.868 0.587 51.235
6067.469 0.589 51.105 0.779 -35.998 0.779 -35.998 0.589 51.105
6092.438 0.59 50.976 0.778 -36.127 0.778 -36.127 0.59 50.976
6117.406 0.592 50.846 0.776 -36.256 0.776 -36.256 0.592 50.846
6142.375 0.594 50.717 0.775 -36.385 0.775 -36.385 0.594 50.717
6167.344 0.596 50.588 0.774 -36.514 0.774 -36.514 0.596 50.588
6192.313 0.598 50.459 0.772 -36.642 0.772 -36.642 0.598 50.459
6217.281 0.599 50.331 0.771 -36.77 0.771 -36.77 0.599 50.331
6242.25 0.601 50.202 0.769 -36.899 0.769 -36.899 0.601 50.202
6267.219 0.603 50.074 0.768 -37.027 0.768 -37.027 0.603 50.074
6292.188 0.605 49.946 0.766 -37.154 0.766 -37.154 0.605 49.946
6317.156 0.607 49.818 0.765 -37.282 0.765 -37.282 0.607 49.818
6342.125 0.608 49.69 0.764 -37.409 0.764 -37.409 0.608 49.69
6367.094 0.61 49.562 0.762 -37.537 0.762 -37.537 0.61 49.562
6392.063 0.612 49.435 0.761 -37.664 0.761 -37.664 0.612 49.435
6417.031 0.614 49.307 0.759 -37.79 0.759 -37.79 0.614 49.307
6442 0.615 49.18 0.758 -37.917 0.758 -37.917 0.615 49.18
6466.969 0.617 49.053 0.756 -38.044 0.756 -38.044 0.617 49.053
6491.938 0.619 48.926 0.755 -38.17 0.755 -38.17 0.619 48.926
6516.906 0.621 48.799 0.753 -38.296 0.753 -38.296 0.621 48.799
6541.875 0.622 48.673 0.752 -38.422 0.752 -38.422 0.622 48.673
6566.844 0.624 48.546 0.75 -38.548 0.75 -38.548 0.624 48.546
6591.813 0.626 48.42 0.749 -38.673 0.749 -38.673 0.626 48.42
6616.781 0.627 48.294 0.748 -38.799 0.748 -38.799 0.627 48.294
6641.75 0.629 48.168 0.746 -38.924 0.746 -38.924 0.629 48.168
6666.719 0.631 48.042 0.745 -39.049 0.745 -39.049 0.631 48.042
6691.688 0.632 47.917 0.743 -39.174 0.743 -39.174 0.632 47.917
6716.656 0.634 47.791 0.742 -39.298 0.742 -39.298 0.634 47.791
6741.625 0.636 47.666 0.74 -39.423 0.74 -39.423 0.636 47.666
6766.594 0.638 47.541 0.739 -39.547 0.739 -39.547 0.638 47.541
6791.563 0.639 47.416 0.737 -39.671 0.737 -39.671 0.639 47.416
6816.531 0.641 47.291 0.736 -39.795 0.736 -39.795 0.641 47.291
6841.5 0.643 47.166 0.734 -39.919 0.734 -39.919 0.643 47.166
6866.469 0.644 47.042 0.733 -40.043 0.733 -40.043 0.644 47.042
6891.438 0.646 46.917 0.731 -40.166 0.731 -40.166 0.646 46.917
6916.406 0.647 46.793 0.73 -40.289 0.73 -40.289 0.647 46.793
6941.375 0.649 46.669 0.728 -40.412 0.728 -40.412 0.649 46.669
6966.344 0.651 46.545 0.727 -40.535 0.727 -40.535 0.651 46.545
6991.313 0.652 46.421 0.725 -40.657 0.725 -40.657 0.652 46.421
7016.281 0.654 46.298 0.724 -40.78 0.724 -40.78 0.654 46.298
7041.25 0.656 46.175 0.722 -40.902 0.722 -40.902 0.656 46.175
7066.219 0.657 46.051 0.721 -41.024 0.721 -41.024 0.657 46.051
7091.188 0.659 45.928 0.719 -41.146 0.719 -41.146 0.659 45.928
7116.156 0.66 45.805 0.718 -41.268 0.718 -41.268 0.66 45.805
7141.125 0.662 45.683 0.716 -41.389 0.716 -41.389 0.662 45.683
7166.094 0.664 45.56 0.715 -41.511 0.715 -41.511 0.664 45.56
7191.063 0.665 45.438 0.713 -41.632 0.713 -41.632 0.665 45.438
7216.031 0.667 45.315 0.712 -41.753 0.712 -41.753 0.667 45.315
7241 0.668 45.193 0.71 -41.874 0.71 -41.874 0.668 45.193
7265.969 0.67 45.071 0.709 -41.994 0.709 -41.994 0.67 45.071
7290.938 0.671 44.95 0.707 -42.115 0.707 -42.115 0.671 44.95
7315.906 0.673 44.828 0.706 -42.235 0.706 -42.235 0.673 44.828
7340.875 0.675 44.707 0.704 -42.355 0.704 -42.355 0.675 44.707
7365.844 0.676 44.585 0.703 -42.475 0.703 -42.475 0.676 44.585
7390.813 0.678 44.464 0.701 -42.594 0.701 -42.594 0.678 44.464
7415.781 0.679 44.343 0.7 -42.714 0.7 -42.714 0.679 44.343
7440.75 0.681 44.222 0.698 -42.833 0.698 -42.833 0.681 44.222
7465.719 0.682 44.102 0.697 -42.952 0.697 -42.952 0.682 44.102
7490.688 0.684 43.981 0.695 -43.071 0.695 -43.071 0.684 43.981
7515.656 0.685 43.861 0.694 -43.19 0.694 -43.19 0.685 43.861
7540.625 0.687 43.741 0.692 -43.309 0.692 -43.309 0.687 43.741
7565.594 0.688 43.621 0.691 -43.427 0.691 -43.427 0.688 43.621
7590.563 0.69 43.501 0.689 -43.545 0.689 -43.545 0.69 43.501
7615.531 0.691 43.381 0.688 -43.663 0.688 -43.663 0.691 43.381
7640.5 0.693 43.262 0.686 -43.781 0.686 -43.781 0.693 43.262
7665.469 0.694 43.142 0.685 -43.899 0.685 -43.899 0.694 43.142
7690.438 0.696 43.023 0.683 -44.016 0.683 -44.016 0.696 43.023
7715.406 0.697 42.904 0.682 -44.133 0.682 -44.133 0.697 42.904
7740.375 0.699 42.785 0.68 -44.251 0.68 -44.251 0.699 42.785
7765.344 0.7 42.667 0.679 -44.368 0.679 -44.368 0.7 42.667
7790.313 0.702 42.548 0.677 -44.484 0.677 -44.484 0.702 42.548
7815.281 0.703 42.43 0.676 -44.601 0.676 -44.601 0.703 42.43
7840.25 0.705 42.311 0.674 -44.717 0.674 -44.717 0.705 42.311
7865.219 0.706 42.193 0.673 -44.833 0.673 -44.833 0.706 42.193
7890.188 0.707 42.076 0.671 -44.949 0.671 -44.949 0.707 42.076
7915.156 0.709 41.958 0.669 -45.065 0.669 -45.065 0.709 41.958
7940.125 0.71 41.84 0.668 -45.181 0.668 -45.181 0.71 41.84
7965.094 0.712 41.723 0.666 -45.296 0.666 -45.296 0.712 41.723
7990.063 0.713 41.606 0.665 -45.411 0.665 -45.411 0.713 41.606
8015.031 0.715 41.488 0.663 -45.527 0.663 -45.527 0.715 41.488
8040 0.716 41.371 0.662 -45.641 0.662 -45.641 0.716 41.371
8064.969 0.717 41.255 0.66 -45.756 0.66 -45.756 0.717 41.255
8089.938 0.719 41.138 0.659 -45.871 0.659 -45.871 0.719 41.138
8114.906 0.72 41.022 0.657 -45.985 0.657 -45.985 0.72 41.022
