# MHZ S MA R 50

50 2.973e-3 45.694 0.998 -0.122 0.998 -0.122 2.973e-3 45.694
74.969 3.83e-3 56.388 0.998 -0.183 0.998 -0.183 3.83e-3 56.388
99.938 4.771e-3 63.003 0.998 -0.244 0.998 -0.244 4.771e-3 63.003
124.906 5.756e-3 67.378 0.998 -0.305 0.998 -0.305 5.756e-3 67.378
149.875 6.765e-3 70.444 0.998 -0.366 0.998 -0.366 6.765e-3 70.444
174.844 7.789e-3 72.693 0.998 -0.427 0.998 -0.427 7.789e-3 72.693
199.813 8.823e-3 74.404 0.998 -0.488 0.998 -0.488 8.823e-3 74.404
224.781 9.863e-3 75.741 0.998 -0.549 0.998 -0.549 9.863e-3 75.741
249.75 0.011 76.812 0.998 -0.61 0.998 -0.61 0.011 76.812
274.719 0.012 77.684 0.998 -0.671 0.998 -0.671 0.012 77.684
299.688 0.013 78.405 0.997 -0.732 0.997 -0.732 0.013 78.405
324.656 0.014 79.01 0.997 -0.793 0.997 -0.793 0.014 79.01
349.625 0.015 79.521 0.997 -0.854 0.997 -0.854 0.015 79.521
374.594 0.016 79.958 0.997 -0.915 0.997 -0.915 0.016 79.958
399.563 0.017 80.334 0.997 -0.976 0.997 -0.976 0.017 80.334
424.531 0.018 80.659 0.997 -1.037 0.997 -1.037 0.018 80.659
449.5 0.019 80.942 0.997 -1.098 0.997 -1.098 0.019 80.942
474.469 0.02 81.189 0.997 -1.158 0.997 -1.158 0.02 81.189
499.438 0.021 81.406 0.997 -1.219 0.997 -1.219 0.021 81.406
524.406 0.023 81.597 0.997 -1.28 0.997 -1.28 0.023 81.597
549.375 0.024 81.765 0.997 -1.341 0.997 -1.341 0.024 81.765
574.344 0.025 81.913 0.997 -1.402 0.997 -1.402 0.025 81.913
599.313 0.026 82.044 0.997 -1.463 0.997 -1.463 0.026 82.044
624.281 0.027 82.16 0.997 -1.524 0.997 -1.524 0.027 82.16
649.25 0.028 82.263 0.997 -1.585 0.997 -1.585 0.028 82.263
674.219 0.029 82.353 0.997 -1.646 0.997 -1.646 0.029 82.353
699.188 0.03 82.432 0.996 -1.707 0.996 -1.707 0.03 82.432
724.156 0.031 82.502 0.996 -1.768 0.996 -1.768 0.031 82.502
749.125 0.032 82.564 0.996 -1.829 0.996 -1.829 0.032 82.564
774.094 0.033 82.617 0.996 -1.89 0.996 -1.89 0.033 82.617
799.063 0.034 82.664 0.996 -1.95 0.996 -1.95 0.034 82.664
824.031 0.035 82.704 0.996 -2.011 0.996 -2.011 0.035 82.704
849 0.036 82.738 0.996 -2.072 0.996 -2.072 0.036 82.738
873.969 0.037 82.766 0.996 -2.133 0.996 -2.133 0.037 82.766
898.938 0.038 82.79 0.996 -2.194 0.996 -2.194 0.038 82.79
923.906 0.039 82.809 0.996 -2.255 0.996 -2.255 0.039 82.809
948.875 0.041 82.824 0.996 -2.316 0.996 -2.316 0.041 82.824
973.844 0.042 82.835 0.996 -2.377 0.996 -2.377 0.042 82.835
998.813 0.043 82.842 0.996 -2.438 0.996 -2.438 0.043 82.842
1023.781 0.044 82.846 0.995 -2.499 0.995 -2.499 0.044 82.846
1048.75 0.045 82.847 0.995 -2.56 0.995 -2.56 0.045 82.847
1073.719 0.046 82.845 0.995 -2.62 0.995 -2.62 0.046 82.845
1098.688 0.047 82.841 0.995 -2.681 0.995 -2.681 0.047 82.841
1123.656 0.048 82.834 0.995 -2.742 0.995 -2.742 0.048 82.834
1148.625 0.049 82.825 0.995 -2.803 0.995 -2.803 0.049 82.825
1173.594 0.05 82.813 0.995 -2.864 0.995 -2.864 0.05 82.813
1198.563 0.051 82.799 0.995 -2.925 0.995 -2.925 0.051 82.799
1223.531 0.052 82.784 0.995 -2.986 0.995 -2.986 0.052 82.784
1248.5 0.053 82.766 0.995 -3.047 0.995 -3.047 0.053 82.766
1273.469 0.054 82.747 0.995 -3.108 0.995 -3.108 0.054 82.747
1298.438 0.055 82.727 0.995 -3.169 0.995 -3.169 0.055 82.727
1323.406 0.056 82.704 0.994 -3.23 0.994 -3.23 0.056 82.704
1348.375 0.058 82.681 0.994 -3.29 0.994 -3.29 0.058 82.681
1373.344 0.059 82.656 0.994 -3.351 0.994 -3.351 0.059 82.656
1398.313 0.06 82.629 0.994 -3.412 0.994 -3.412 0.06 82.629
1423.281 0.061 82.602 0.994 -3.473 0.994 -3.473 0.061 82.602
1448.25 0.062 82.573 0.994 -3.534 0.994 -3.534 0.062 82.573
1473.219 0.063 82.543 0.994 -3.595 0.994 -3.595 0.063 82.543
1498.188 0.064 82.513 0.994 -3.656 0.994 -3.656 0.064 82.513
1523.156 0.065 82.481 0.994 -3.717 0.994 -3.717 0.065 82.481
1548.125 0.066 82.448 0.993 -3.778 0.993 -3.778 0.066 82.448
1573.094 0.067 82.414 0.993 -3.839 0.993 -3.839 0.067 82.414
1598.063 0.068 82.38 0.993 -3.9 0.993 -3.9 0.068 82.38
1623.031 0.069 82.345 0.993 -3.961 0.993 -3.961 0.069 82.345
1648 0.07 82.308 0.993 -4.022 0.993 -4.022 0.07 82.308
1672.969 0.071 82.272 0.993 -4.082 0.993 -4.082 0.071 82.272
1697.938 0.072 82.234 0.993 -4.143 0.993 -4.143 0.072 82.234
1722.906 0.073 82.196 0.993 -4.204 0.993 -4.204 0.073 82.196
1747.875 0.075 82.157 0.993 -4.265 0.993 -4.265 0.075 82.157
1772.844 0.076 82.117 0.992 -4.326 0.992 -4.326 0.076 82.117
1797.813 0.077 82.077 0.992 -4.387 0.992 -4.387 0.077 82.077
1822.781 0.078 82.036 0.992 -4.448 0.992 -4.448 0.078 82.036
1847.75 0.079 81.995 0.992 -4.509 0.992 -4.509 0.079 81.995
1872.719 0.08 81.953 0.992 -4.57 0.992 -4.57 0.08 81.953
1897.688 0.081 81.911 0.992 -4.631 0.992 -4.631 0.081 81.911
1922.656 0.082 81.868 0.992 -4.692 0.992 -4.692 0.082 81.868
1947.625 0.083 81.825 0.992 -4.753 0.992 -4.753 0.083 81.825
1972.594 0.084 81.781 0.991 -4.814 0.991 -4.814 0.084 81.781
1997.563 0.085 81.737 0.991 -4.875 0.991 -4.875 0.085 81.737
2022.531 0.086 81.692 0.991 -4.936 0.991 -4.936 0.086 81.692
2047.5 0.087 81.647 0.991 -4.997 0.991 -4.997 0.087 81.647
2072.469 0.088 81.602 0.991 -5.058 0.991 -5.058 0.088 81.602
2097.438 0.089 81.556 0.991 -5.119 0.991 -5.119 0.089 81.556
2122.406 0.09 81.51 0.991 -5.18 0.991 -5.18 0.09 81.51
2147.375 0.091 81.463 0.991 -5.241 0.991 -5.241 0.091 81.463
2172.344 0.093 81.416 0.99 -5.302 0.99 -5.302 0.093 81.416
2197.313 0.094 81.369 0.99 -5.363 0.99 -5.363 0.094 81.369
2222.281 0.095 81.322 0.99 -5.424 0.99 -5.424 0.095 81.322
2247.25 0.096 81.274 0.99 -5.485 0.99 -5.485 0.096 81.274
2272.219 0.097 81.226 0.99 -5.546 0.99 -5.546 0.097 81.226
2297.188 0.098 81.177 0.99 -5.607 0.99 -5.607 0.098 81.177
2322.156 0.099 81.128 0.99 -5.668 0.99 -5.668 0.099 81.128
2347.125 0.1 81.079 0.989 -5.729 0.989 -5.729 0.1 81.079
2372.094 0.101 81.03 0.989 -5.79 0.989 -5.79 0.101 81.03
2397.063 0.102 80.981 0.989 -5.851 0.989 -5.851 0.102 80.981
2422.031 0.103 80.931 0.989 -5.912 0.989 -5.912 0.103 80.931
2447 0.104 80.881 0.989 -5.974 0.989 -5.974 0.104 80.881
2471.969 0.105 80.831 0.989 -6.035 0.989 -6.035 0.105 80.831
2496.938 0.106 80.78 0.989 -6.096 0.989 -6.096 0.106 80.78
2521.906 0.107 80.729 0.988 -6.157 0.988 -6.157 0.107 80.729
2546.875 0.108 80.679 0.988 -6.218 0.988 -6.218 0.108 80.679
2571.844 0.11 80.627 0.988 -6.279 0.988 -6.279 0.11 80.627
2596.813 0.111 80.576 0.988 -6.34 0.988 -6.34 0.111 80.576
2621.781 0.112 80.525 0.988 -6.401 0.988 -6.401 0.112 80.525
2646.75 0.113 80.473 0.988 -6.462 0.988 -6.462 0.113 80.473
2671.719 0.114 80.421 0.987 -6.524 0.987 -6.524 0.114 80.421
2696.688 0.115 80.369 0.987 -6.585 0.987 -6.585 0.115 80.369
2721.656 0.116 80.316 0.987 -6.646 0.987 -6.646 0.116 80.316
2746.625 0.117 80.264 0.987 -6.707 0.987 -6.707 0.117 80.264
2771.594 0.118 80.211 0.987 -6.768 0.987 -6.768 0.118 80.211
2796.563 0.119 80.159 0.987 -6.829 0.987 -6.829 0.119 80.159
2821.531 0.12 80.106 0.986 -6.891 0.986 -6.891 0.12 80.106
2846.5 0.121 80.052 0.986 -6.952 0.986 -6.952 0.121 80.052
2871.469 0.122 79.999 0.986 -7.013 0.986 -7.013 0.122 79.999
2896.438 0.123 79.946 0.986 -7.074 0.986 -7.074 0.123 79.946
2921.406 0.124 79.892 0.986 -7.135 0.986 -7.135 0.124 79.892
2946.375 0.125 79.838 0.986 -7.197 0.986 -7.197 0.125 79.838
2971.344 0.127 79.785 0.985 -7.258 0.985 -7.258 0.127 79.785
2996.313 0.128 79.731 0.985 -7.319 0.985 -7.319 0.128 79.731
3021.281 0.129 79.676 0.985 -7.38 0.985 -7.38 0.129 79.676
3046.25 0.13 79.622 0.985 -7.442 0.985 -7.442 0.13 79.622
3071.219 0.131 79.568 0.985 -7.503 0.985 -7.503 0.131 79.568
3096.188 0.132 79.513 0.985 -7.564 0.985 -7.564 0.132 79.513
3121.156 0.133 79.459 0.984 -7.625 0.984 -7.625 0.133 79.459
3146.125 0.134 79.404 0.984 -7.687 0.984 -7.687 0.134 79.404
3171.094 0.135 79.349 0.984 -7.748 0.984 -7.748 0.135 79.349
3196.063 0.136 79.294 0.984 -7.809 0.984 -7.809 0.136 79.294
3221.031 0.137 79.239 0.984 -7.871 0.984 -7.871 0.137 79.239
3246 0.138 79.184 0.983 -7.932 0.983 -7.932 0.138 79.184
3270.969 0.139 79.128 0.983 -7.993 0.983 -7.993 0.139 79.128
3295.938 0.14 79.073 0.983 -8.055 0.983 -8.055 0.14 79.073
3320.906 0.141 79.017 0.983 -8.116 0.983 -8.116 0.141 79.017
3345.875 0.142 78.961 0.983 -8.177 0.983 -8.177 0.142 78.961
3370.844 0.143 78.906 0.983 -8.239 0.983 -8.239 0.143 78.906
3395.813 0.145 78.85 0.982 -8.3 0.982 -8.3 0.145 78.85
3420.781 0.146 78.794 0.982 -8.361 0.982 -8.361 0.146 78.794
3445.75 0.147 78.738 0.982 -8.423 0.982 -8.423 0.147 78.738
3470.719 0.148 78.682 0.982 -8.484 0.982 -8.484 0.148 78.682
3495.688 0.149 78.625 0.982 -8.546 0.982 -8.546 0.149 78.625
3520.656 0.15 78.569 0.981 -8.607 0.981 -8.607 0.15 78.569
3545.625 0.151 78.513 0.981 -8.669 0.981 -8.669 0.151 78.513
3570.594 0.152 78.456 0.981 -8.73 0.981 -8.73 0.152 78.456
3595.563 0.153 78.4 0.981 -8.792 0.981 -8.792 0.153 78.4
3620.531 0.154 78.343 0.981 -8.853 0.981 -8.853 0.154 78.343
3645.5 0.155 78.286 0.98 -8.915 0.98 -8.915 0.155 78.286
3670.469 0.156 78.229 0.98 -8.976 0.98 -8.976 0.156 78.229
3695.438 0.157 78.172 0.98 -9.038 0.98 -9.038 0.157 78.172
3720.406 0.158 78.115 0.98 -9.099 0.98 -9.099 0.158 78.115
3745.375 0.159 78.058 0.98 -9.161 0.98 -9.161 0.159 78.058
3770.344 0.16 78.001 0.979 -9.222 0.979 -9.222 0.16 78.001
3795.313 0.162 77.944 0.979 -9.284 0.979 -9.284 0.162 77.944
3820.281 0.163 77.886 0.979 -9.345 0.979 -9.345 0.163 77.886
3845.25 0.164 77.829 0.979 -9.407 0.979 -9.407 0.164 77.829
3870.219 0.165 77.771 0.978 -9.468 0.978 -9.468 0.165 77.771
3895.188 0.166 77.714 0.978 -9.53 0.978 -9.53 0.166 77.714
3920.156 0.167 77.656 0.978 -9.592 0.978 -9.592 0.167 77.656
3945.125 0.168 77.599 0.978 -9.653 0.978 -9.653 0.168 77.599
3970.094 0.169 77.541 0.978 -9.715 0.978 -9.715 0.169 77.541
3995.063 0.17 77.483 0.977 -9.777 0.977 -9.777 0.17 77.483
4020.031 0.171 77.425 0.977 -9.838 0.977 -9.838 0.171 77.425
4045 0.172 77.367 0.977 -9.9 0.977 -9.9 0.172 77.367
4069.969 0.173 77.309 0.977 -9.962 0.977 -9.962 0.173 77.309
4094.938 0.174 77.251 0.976 -10.023 0.976 -10.023 0.174 77.251
4119.906 0.175 77.193 0.976 -10.085 0.976 -10.085 0.175 77.193
4144.875 0.176 77.135 0.976 -10.147 0.976 -10.147 0.176 77.135
4169.844 0.177 77.076 0.976 -10.209 0.976 -10.209 0.177 77.076
4194.813 0.178 77.018 0.976 -10.27 0.976 -10.27 0.178 77.018
4219.781 0.18 76.96 0.975 -10.332 0.975 -10.332 0.18 76.96
4244.75 0.181 76.901 0.975 -10.394 0.975 -10.394 0.181 76.901
4269.719 0.182 76.842 0.975 -10.456 0.975 -10.456 0.182 76.842
4294.688 0.183 76.784 0.975 -10.518 0.975 -10.518 0.183 76.784
4319.656 0.184 76.725 0.974 -10.579 0.974 -10.579 0.184 76.725
4344.625 0.185 76.667 0.974 -10.641 0.974 -10.641 0.185 76.667
4369.594 0.186 76.608 0.974 -10.703 0.974 -10.703 0.186 76.608
4394.563 0.187 76.549 0.974 -10.765 0.974 -10.765 0.187 76.549
4419.531 0.188 76.49 0.973 -10.827 0.973 -10.827 0.188 76.49
4444.5 0.189 76.431 0.973 -10.889 0.973 -10.889 0.189 76.431
4469.469 0.19 76.372 0.973 -10.951 0.973 -10.951 0.19 76.372
4494.438 0.191 76.313 0.973 -11.013 0.973 -11.013 0.191 76.313
4519.406 0.192 76.254 0.972 -11.074 0.972 -11.074 0.192 76.254
4544.375 0.193 76.195 0.972 -11.136 0.972 -11.136 0.193 76.195
4569.344 0.194 76.136 0.972 -11.198 0.972 -11.198 0.194 76.136
4594.313 0.195 76.076 0.972 -11.26 0.972 -11.26 0.195 76.076
4619.281 0.197 76.017 0.971 -11.322 0.971 -11.322 0.197 76.017
4644.25 0.198 75.958 0.971 -11.384 0.971 -11.384 0.198 75.958
4669.219 0.199 75.898 0.971 -11.446 0.971 -11.446 0.199 75.898
4694.188 0.2 75.839 0.971 -11.508 0.971 -11.508 0.2 75.839
4719.156 0.201 75.779 0.97 -11.571 0.97 -11.571 0.201 75.779
4744.125 0.202 75.72 0.97 -11.633 0.97 -11.633 0.202 75.72
4769.094 0.203 75.66 0.97 -11.695 0.97 -11.695 0.203 75.66
4794.063 0.204 75.6 0.97 -11.757 0.97 -11.757 0.204 75.6
4819.031 0.205 75.541 0.969 -11.819 0.969 -11.819 0.205 75.541
4844 0.206 75.481 0.969 -11.881 0.969 -11.881 0.206 75.481
4868.969 0.207 75.421 0.969 -11.943 0.969 -11.943 0.207 75.421
4893.938 0.208 75.361 0.969 -12.005 0.969 -12.005 0.208 75.361
4918.906 0.209 75.301 0.968 -12.068 0.968 -12.068 0.209 75.301
4943.875 0.21 75.241 0.968 -12.13 0.968 -12.13 0.21 75.241
4968.844 0.211 75.181 0.968 -12.192 0.968 -12.192 0.211 75.181
4993.813 0.212 75.121 0.967 -12.254 0.967 -12.254 0.212 75.121
5018.781 0.214 75.061 0.967 -12.316 0.967 -12.316 0.214 75.061
5043.75 0.215 75.001 0.967 -12.379 0.967 -12.379 0.215 75.001
5068.719 0.216 74.941 0.967 -12.441 0.967 -12.441 0.216 74.941
5093.688 0.217 74.88 0.966 -12.503 0.966 -12.503 0.217 74.88
5118.656 0.218 74.82 0.966 -12.566 0.966 -12.566 0.218 74.82
5143.625 0.219 74.76 0.966 -12.628 0.966 -12.628 0.219 74.76
5168.594 0.22 74.699 0.966 -12.69 0.966 -12.69 0.22 74.699
5193.563 0.221 74.639 0.965 -12.753 0.965 -12.753 0.221 74.639
5218.531 0.222 74.578 0.965 -12.815 0.965 -12.815 0.222 74.578
5243.5 0.223 74.518 0.965 -12.878 0.965 -12.878 0.223 74.518
5268.469 0.224 74.457 0.964 -12.94 0.964 -12.94 0.224 74.457
5293.438 0.225 74.397 0.964 -13.002 0.964 -13.002 0.225 74.397
5318.406 0.226 74.336 0.964 -13.065 0.964 -13.065 0.226 74.336
5343.375 0.227 74.275 0.964 -13.127 0.964 -13.127 0.227 74.275
5368.344 0.228 74.215 0.963 -13.19 0.963 -13.19 0.228 74.215
5393.313 0.229 74.154 0.963 -13.252 0.963 -13.252 0.229 74.154
5418.281 0.231 74.093 0.963 -13.315 0.963 -13.315 0.231 74.093
5443.25 0.232 74.032 0.962 -13.377 0.962 -13.377 0.232 74.032
5468.219 0.233 73.971 0.962 -13.44 0.962 -13.44 0.233 73.971
5493.188 0.234 73.91 0.962 -13.503 0.962 -13.503 0.234 73.91
5518.156 0.235 73.849 0.962 -13.565 0.962 -13.565 0.235 73.849
5543.125 0.236 73.788 0.961 -13.628 0.961 -13.628 0.236 73.788
5568.094 0.237 73.727 0.961 -13.69 0.961 -13.69 0.237 73.727
5593.063 0.238 73.666 0.961 -13.753 0.961 -13.753 0.238 73.666
5618.031 0.239 73.605 0.96 -13.816 0.96 -13.816 0.239 73.605
5643 0.24 73.544 0.96 -13.878 0.96 -13.878 0.24 73.544
5667.969 0.241 73.483 0.96 -13.941 0.96 -13.941 0.241 73.483
5692.938 0.242 73.421 0.959 -14.004 0.959 -14.004 0.242 73.421
5717.906 0.243 73.36 0.959 -14.067 0.959 -14.067 0.243 73.36
5742.875 0.244 73.299 0.959 -14.129 0.959 -14.129 0.244 73.299
5767.844 0.245 73.237 0.958 -14.192 0.958 -14.192 0.245 73.237
5792.813 0.246 73.176 0.958 -14.255 0.958 -14.255 0.246 73.176
5817.781 0.248 73.114 0.958 -14.318 0.958 -14.318 0.248 73.114
5842.75 0.249 73.053 0.958 -14.381 0.958 -14.381 0.249 73.053
5867.719 0.25 72.991 0.957 -14.444 0.957 -14.444 0.25 72.991
5892.688 0.251 72.93 0.957 -14.506 0.957 -14.506 0.251 72.93
5917.656 0.252 72.868 0.957 -14.569 0.957 -14.569 0.252 72.868
5942.625 0.253 72.806 0.956 -14.632 0.956 -14.632 0.253 72.806
5967.594 0.254 72.745 0.956 -14.695 0.956 -14.695 0.254 72.745
5992.563 0.255 72.683 0.956 -14.758 0.956 -14.758 0.255 72.683
6017.531 0.256 72.621 0.955 -14.821 0.955 -14.821 0.256 72.621
6042.5 0.257 72.559 0.955 -14.884 0.955 -14.884 0.257 72.559
6067.469 0.258 72.498 0.955 -14.947 0.955 -14.947 0.258 72.498
6092.438 0.259 72.436 0.954 -15.01 0.954 -15.01 0.259 72.436
6117.406 0.26 72.374 0.954 -15.073 0.954 -15.073 0.26 72.374
6142.375 0.261 72.312 0.954 -15.136 0.954 -15.136 0.261 72.312
6167.344 0.262 72.25 0.953 -15.199 0.953 -15.199 0.262 72.25
6192.313 0.264 72.188 0.953 -15.263 0.953 -15.263 0.264 72.188
6217.281 0.265 72.126 0.953 -15.326 0.953 -15.326 0.265 72.126
6242.25 0.266 72.063 0.952 -15.389 0.952 -15.389 0.266 72.063
6267.219 0.267 72.001 0.952 -15.452 0.952 -15.452 0.267 72.001
6292.188 0.268 71.939 0.952 -15.515 0.952 -15.515 0.268 71.939
6317.156 0.269 71.877 0.951 -15.579 0.951 -15.579 0.269 71.877
6342.125 0.27 71.814 0.951 -15.642 0.951 -15.642 0.27 71.814
6367.094 0.271 71.752 0.951 -15.705 0.951 -15.705 0.271 71.752
6392.063 0.272 71.69 0.95 -15.768 0.95 -15.768 0.272 71.69
6417.031 0.273 71.627 0.95 -15.832 0.95 -15.832 0.273 71.627
6442 0.274 71.565 0.95 -15.895 0.95 -15.895 0.274 71.565
6466.969 0.275 71.502 0.949 -15.958 0.949 -15.958 0.275 71.502
6491.938 0.276 71.44 0.949 -16.022 0.949 -16.022 0.276 71.44
6516.906 0.277 71.377 0.949 -16.085 0.949 -16.085 0.277 71.377
6541.875 0.278 71.315 0.948 -16.149 0.948 -16.149 0.278 71.315
6566.844 0.279 71.252 0.948 -16.212 0.948 -16.212 0.279 71.252
6591.813 0.281 71.189 0.948 -16.275 0.948 -16.275 0.281 71.189
6616.781 0.282 71.127 0.947 -16.339 0.947 -16.339 0.282 71.127
6641.75 0.283 71.064 0.947 -16.402 0.947 -16.402 0.283 71.064
6666.719 0.284 71.001 0.946 -16.466 0.946 -16.466 0.284 71.001
6691.688 0.285 70.938 0.946 -16.53 0.946 -16.53 0.285 70.938
6716.656 0.286 70.876 0.946 -16.593 0.946 -16.593 0.286 70.876
6741.625 0.287 70.813 0.945 -16.657 0.945 -16.657 0.287 70.813
6766.594 0.288 70.75 0.945 -16.72 0.945 -16.72 0.288 70.75
6791.563 0.289 70.687 0.945 -16.784 0.945 -16.784 0.289 70.687
6816.531 0.29 70.624 0.944 -16.848 0.944 -16.848 0.29 70.624
6841.5 0.291 70.561 0.944 -16.911 0.944 -16.911 0.291 70.561
6866.469 0.292 70.498 0.944 -16.975 0.944 -16.975 0.292 70.498
6891.438 0.293 70.435 0.943 -17.039 0.943 -17.039 0.293 70.435
6916.406 0.294 70.371 0.943 -17.103 0.943 -17.103 0.294 70.371
6941.375 0.295 70.308 0.942 -17.166 0.942 -17.166 0.295 70.308
6966.344 0.296 70.245 0.942 -17.23 0.942 -17.23 0.296 70.245
6991.313 0.298 70.182 0.942 -17.294 0.942 -17.294 0.298 70.182
7016.281 0.299 70.118 0.941 -17.358 0.941 -17.358 0.299 70.118
7041.25 0.3 70.055 0.941 -17.422 0.941 -17.422 0.3 70.055
7066.219 0.301 69.992 0.941 -17.486 0.941 -17.486 0.301 69.992
7091.188 0.302 69.928 0.94 -17.55 0.94 -17.55 0.302 69.928
7116.156 0.303 69.865 0.94 -17.614 0.94 -17.614 0.303 69.865
7141.125 0.304 69.801 0.939 -17.678 0.939 -17.678 0.304 69.801
7166.094 0.305 69.738 0.939 -17.742 0.939 -17.742 0.305 69.738
7191.063 0.306 69.674 0.939 -17.806 0.939 -17.806 0.306 69.674
7216.031 0.307 69.611 0.938 -17.87 0.938 -17.87 0.307 69.611
7241 0.308 69.547 0.938 -17.934 0.938 -17.934 0.308 69.547
7265.969 0.309 69.483 0.937 -17.998 0.937 -17.998 0.309 69.483
7290.938 0.31 69.42 0.937 -18.062 0.937 -18.062 0.31 69.42
7315.906 0.311 69.356 0.937 -18.126 0.937 -18.126 0.311 69.356
7340.875 0.312 69.292 0.936 -18.19 0.936 -18.19 0.312 69.292
7365.844 0.314 69.228 0.936 -18.254 0.936 -18.254 0.314 69.228
7390.813 0.315 69.164 0.936 -18.319 0.936 -18.319 0.315 69.164
7415.781 0.316 69.101 0.935 -18.383 0.935 -18.383 0.316 69.101
7440.75 0.317 69.037 0.935 -18.447 0.935 -18.447 0.317 69.037
7465.719 0.318 68.973 0.934 -18.511 0.934 -18.511 0.318 68.973
7490.688 0.319 68.909 0.934 -18.576 0.934 -18.576 0.319 68.909
7515.656 0.32 68.845 0.934 -18.64 0.934 -18.64 0.32 68.845
7540.625 0.321 68.781 0.933 -18.704 0.933 -18.704 0.321 68.781
7565.594 0.322 68.716 0.933 -18.769 0.933 -18.769 0.322 68.716
7590.563 0.323 68.652 0.932 -18.833 0.932 -18.833 0.323 68.652
7615.531 0.324 68.588 0.932 -18.898 0.932 -18.898 0.324 68.588
7640.5 0.325 68.524 0.931 -18.962 0.931 -18.962 0.325 68.524
7665.469 0.326 68.46 0.931 -19.027 0.931 -19.027 0.326 68.46
7690.438 0.327 68.395 0.931 -19.091 0.931 -19.091 0.327 68.395
7715.406 0.328 68.331 0.93 -19.156 0.93 -19.156 0.328 68.331
7740.375 0.33 68.267 0.93 -19.22 0.93 -19.22 0.33 68.267
7765.344 0.331 68.202 0.929 -19.285 0.929 -19.285 0.331 68.202
7790.313 0.332 68.138 0.929 -19.349 0.929 -19.349 0.332 68.138
7815.281 0.333 68.073 0.929 -19.414 0.929 -19.414 0.333 68.073
7840.25 0.334 68.009 0.928 -19.479 0.928 -19.479 0.334 68.009
7865.219 0.335 67.944 0.928 -19.543 0.928 -19.543 0.335 67.944
7890.188 0.336 67.88 0.927 -19.608 0.927 -19.608 0.336 67.88
7915.156 0.337 67.815 0.927 -19.673 0.927 -19.673 0.337 67.815
7940.125 0.338 67.75 0.926 -19.738 0.926 -19.738 0.338 67.75
7965.094 0.339 67.686 0.926 -19.802 0.926 -19.802 0.339 67.686
7990.063 0.34 67.621 0.926 -19.867 0.926 -19.867 0.34 67.621
8015.031 0.341 67.556 0.925 -19.932 0.925 -19.932 0.341 67.556
8040 0.342 67.491 0.925 -19.997 0.925 -19.997 0.342 67.491
8064.969 0.343 67.427 0.924 -20.062 0.924 -20.062 0.343 67.427
8089.938 0.344 67.362 0.924 -20.127 0.924 -20.127 0.344 67.362
8114.906 0.345 67.297 0.923 -20.192 0.923 -20.192 0.345 67.297
8139.875 0.347 67.232 0.923 -20.257 0.923 -20.257 0.347 67.232
8164.844 0.348 67.167 0.923 -20.322 0.923 -20.322 0.348 67.167
8189.813 0.349 67.102 0.922 -20.387 0.922 -20.387 0.349 67.102
