# MHZ S MA R 50

50 4.894e-3 49.949 0.997 -0.215 0.997 -0.215 4.894e-3 49.949
74.969 6.483e-3 60.029 0.997 -0.323 0.997 -0.323 6.483e-3 60.029
99.938 8.195e-3 65.984 0.997 -0.43 0.997 -0.43 8.195e-3 65.984
124.906 9.966e-3 69.816 0.997 -0.538 0.997 -0.538 9.966e-3 69.816
149.875 0.012 72.449 0.997 -0.645 0.997 -0.645 0.012 72.449
174.844 0.014 74.351 0.996 -0.753 0.996 -0.753 0.014 74.351
199.813 0.015 75.775 0.996 -0.86 0.996 -0.86 0.015 75.775
224.781 0.017 76.873 0.996 -0.968 0.996 -0.968 0.017 76.873
249.75 0.019 77.738 0.996 -1.075 0.996 -1.075 0.019 77.738
274.719 0.021 78.432 0.996 -1.182 0.996 -1.182 0.021 78.432
299.688 0.023 78.995 0.996 -1.29 0.996 -1.29 0.023 78.995
324.656 0.025 79.457 0.996 -1.397 0.996 -1.397 0.025 79.457
349.625 0.027 79.839 0.996 -1.504 0.996 -1.504 0.027 79.839
374.594 0.028 80.157 0.996 -1.612 0.996 -1.612 0.028 80.157
399.563 0.03 80.422 0.995 -1.719 0.995 -1.719 0.03 80.422
424.531 0.032 80.645 0.995 -1.826 0.995 -1.826 0.032 80.645
449.5 0.034 80.831 0.995 -1.933 0.995 -1.933 0.034 80.831
474.469 0.036 80.986 0.995 -2.041 0.995 -2.041 0.036 80.986
499.438 0.038 81.116 0.995 -2.148 0.995 -2.148 0.038 81.116
524.406 0.04 81.223 0.995 -2.255 0.995 -2.255 0.04 81.223
549.375 0.041 81.311 0.995 -2.362 0.995 -2.362 0.041 81.311
574.344 0.043 81.382 0.994 -2.47 0.994 -2.47 0.043 81.382
599.313 0.045 81.439 0.994 -2.577 0.994 -2.577 0.045 81.439
624.281 0.047 81.482 0.994 -2.684 0.994 -2.684 0.047 81.482
649.25 0.049 81.514 0.994 -2.791 0.994 -2.791 0.049 81.514
674.219 0.051 81.535 0.994 -2.898 0.994 -2.898 0.051 81.535
699.188 0.053 81.548 0.994 -3.005 0.994 -3.005 0.053 81.548
724.156 0.055 81.552 0.993 -3.112 0.993 -3.112 0.055 81.552
749.125 0.056 81.549 0.993 -3.219 0.993 -3.219 0.056 81.549
774.094 0.058 81.54 0.993 -3.326 0.993 -3.326 0.058 81.54
799.063 0.06 81.524 0.993 -3.433 0.993 -3.433 0.06 81.524
824.031 0.062 81.502 0.993 -3.54 0.993 -3.54 0.062 81.502
849 0.064 81.476 0.993 -3.647 0.993 -3.647 0.064 81.476
873.969 0.066 81.445 0.992 -3.754 0.992 -3.754 0.066 81.445
898.938 0.068 81.41 0.992 -3.861 0.992 -3.861 0.068 81.41
923.906 0.069 81.371 0.992 -3.968 0.992 -3.968 0.069 81.371
948.875 0.071 81.329 0.992 -4.075 0.992 -4.075 0.071 81.329
973.844 0.073 81.283 0.992 -4.182 0.992 -4.182 0.073 81.283
998.813 0.075 81.234 0.991 -4.289 0.991 -4.289 0.075 81.234
1023.781 0.077 81.183 0.991 -4.396 0.991 -4.396 0.077 81.183
1048.75 0.079 81.128 0.991 -4.503 0.991 -4.503 0.079 81.128
1073.719 0.081 81.072 0.991 -4.609 0.991 -4.609 0.081 81.072
1098.688 0.082 81.013 0.99 -4.716 0.99 -4.716 0.082 81.013
1123.656 0.084 80.952 0.99 -4.823 0.99 -4.823 0.084 80.952
1148.625 0.086 80.889 0.99 -4.93 0.99 -4.93 0.086 80.889
1173.594 0.088 80.824 0.99 -5.037 0.99 -5.037 0.088 80.824
1198.563 0.09 80.757 0.99 -5.143 0.99 -5.143 0.09 80.757
1223.531 0.092 80.689 0.989 -5.25 0.989 -5.25 0.092 80.689
1248.5 0.094 80.619 0.989 -5.357 0.989 -5.357 0.094 80.619
1273.469 0.095 80.548 0.989 -5.463 0.989 -5.463 0.095 80.548
1298.438 0.097 80.476 0.989 -5.57 0.989 -5.57 0.097 80.476
1323.406 0.099 80.402 0.988 -5.677 0.988 -5.677 0.099 80.402
1348.375 0.101 80.327 0.988 -5.783 0.988 -5.783 0.101 80.327
1373.344 0.103 80.251 0.988 -5.89 0.988 -5.89 0.103 80.251
1398.313 0.105 80.173 0.988 -5.996 0.988 -5.996 0.105 80.173
1423.281 0.107 80.095 0.987 -6.103 0.987 -6.103 0.107 80.095
1448.25 0.108 80.016 0.987 -6.21 0.987 -6.21 0.108 80.016
1473.219 0.11 79.936 0.987 -6.316 0.987 -6.316 0.11 79.936
1498.188 0.112 79.855 0.986 -6.423 0.986 -6.423 0.112 79.855
1523.156 0.114 79.773 0.986 -6.529 0.986 -6.529 0.114 79.773
1548.125 0.116 79.69 0.986 -6.636 0.986 -6.636 0.116 79.69
1573.094 0.118 79.607 0.986 -6.742 0.986 -6.742 0.118 79.607
1598.063 0.119 79.523 0.985 -6.848 0.985 -6.848 0.119 79.523
1623.031 0.121 79.438 0.985 -6.955 0.985 -6.955 0.121 79.438
1648 0.123 79.353 0.985 -7.061 0.985 -7.061 0.123 79.353
1672.969 0.125 79.267 0.984 -7.168 0.984 -7.168 0.125 79.267
1697.938 0.127 79.18 0.984 -7.274 0.984 -7.274 0.127 79.18
1722.906 0.129 79.093 0.984 -7.38 0.984 -7.38 0.129 79.093
1747.875 0.131 79.005 0.983 -7.487 0.983 -7.487 0.131 79.005
1772.844 0.132 78.917 0.983 -7.593 0.983 -7.593 0.132 78.917
1797.813 0.134 78.828 0.983 -7.699 0.983 -7.699 0.134 78.828
1822.781 0.136 78.739 0.983 -7.805 0.983 -7.805 0.136 78.739
1847.75 0.138 78.649 0.982 -7.912 0.982 -7.912 0.138 78.649
1872.719 0.14 78.559 0.982 -8.018 0.982 -8.018 0.14 78.559
1897.688 0.142 78.469 0.982 -8.124 0.982 -8.124 0.142 78.469
1922.656 0.143 78.378 0.981 -8.23 0.981 -8.23 0.143 78.378
1947.625 0.145 78.287 0.981 -8.336 0.981 -8.336 0.145 78.287
1972.594 0.147 78.195 0.981 -8.442 0.981 -8.442 0.147 78.195
1997.563 0.149 78.103 0.98 -8.549 0.98 -8.549 0.149 78.103
2022.531 0.151 78.011 0.98 -8.655 0.98 -8.655 0.151 78.011
2047.5 0.153 77.918 0.979 -8.761 0.979 -8.761 0.153 77.918
2072.469 0.154 77.825 0.979 -8.867 0.979 -8.867 0.154 77.825
2097.438 0.156 77.732 0.979 -8.973 0.979 -8.973 0.156 77.732
2122.406 0.158 77.638 0.978 -9.079 0.978 -9.079 0.158 77.638
2147.375 0.16 77.544 0.978 -9.185 0.978 -9.185 0.16 77.544
2172.344 0.162 77.45 0.978 -9.291 0.978 -9.291 0.162 77.45
2197.313 0.164 77.356 0.977 -9.397 0.977 -9.397 0.164 77.356
2222.281 0.165 77.261 0.977 -9.503 0.977 -9.503 0.165 77.261
2247.25 0.167 77.166 0.977 -9.608 0.977 -9.608 0.167 77.166
2272.219 0.169 77.071 0.976 -9.714 0.976 -9.714 0.169 77.071
2297.188 0.171 76.976 0.976 -9.82 0.976 -9.82 0.171 76.976
2322.156 0.173 76.88 0.975 -9.926 0.975 -9.926 0.173 76.88
2347.125 0.174 76.785 0.975 -10.032 0.975 -10.032 0.174 76.785
2372.094 0.176 76.689 0.975 -10.138 0.975 -10.138 0.176 76.689
2397.063 0.178 76.592 0.974 -10.243 0.974 -10.243 0.178 76.592
2422.031 0.18 76.496 0.974 -10.349 0.974 -10.349 0.18 76.496
2447 0.182 76.4 0.973 -10.455 0.973 -10.455 0.182 76.4
2471.969 0.184 76.303 0.973 -10.561 0.973 -10.561 0.184 76.303
2496.938 0.185 76.206 0.973 -10.666 0.973 -10.666 0.185 76.206
2521.906 0.187 76.109 0.972 -10.772 0.972 -10.772 0.187 76.109
2546.875 0.189 76.012 0.972 -10.878 0.972 -10.878 0.189 76.012
2571.844 0.191 75.914 0.971 -10.983 0.971 -10.983 0.191 75.914
2596.813 0.193 75.817 0.971 -11.089 0.971 -11.089 0.193 75.817
2621.781 0.194 75.719 0.971 -11.194 0.971 -11.194 0.194 75.719
2646.75 0.196 75.622 0.97 -11.3 0.97 -11.3 0.196 75.622
2671.719 0.198 75.524 0.97 -11.405 0.97 -11.405 0.198 75.524
2696.688 0.2 75.426 0.969 -11.511 0.969 -11.511 0.2 75.426
2721.656 0.202 75.327 0.969 -11.616 0.969 -11.616 0.202 75.327
2746.625 0.203 75.229 0.968 -11.722 0.968 -11.722 0.203 75.229
2771.594 0.205 75.131 0.968 -11.827 0.968 -11.827 0.205 75.131
2796.563 0.207 75.032 0.967 -11.933 0.967 -11.933 0.207 75.032
2821.531 0.209 74.934 0.967 -12.038 0.967 -12.038 0.209 74.934
2846.5 0.211 74.835 0.967 -12.143 0.967 -12.143 0.211 74.835
2871.469 0.212 74.736 0.966 -12.249 0.966 -12.249 0.212 74.736
2896.438 0.214 74.637 0.966 -12.354 0.966 -12.354 0.214 74.637
2921.406 0.216 74.538 0.965 -12.459 0.965 -12.459 0.216 74.538
2946.375 0.218 74.439 0.965 -12.565 0.965 -12.565 0.218 74.439
2971.344 0.22 74.339 0.964 -12.67 0.964 -12.67 0.22 74.339
2996.313 0.221 74.24 0.964 -12.775 0.964 -12.775 0.221 74.24
3021.281 0.223 74.141 0.963 -12.88 0.963 -12.88 0.223 74.141
3046.25 0.225 74.041 0.963 -12.986 0.963 -12.986 0.225 74.041
3071.219 0.227 73.942 0.962 -13.091 0.962 -13.091 0.227 73.942
3096.188 0.229 73.842 0.962 -13.196 0.962 -13.196 0.229 73.842
3121.156 0.23 73.742 0.961 -13.301 0.961 -13.301 0.23 73.742
3146.125 0.232 73.642 0.961 -13.406 0.961 -13.406 0.232 73.642
3171.094 0.234 73.543 0.96 -13.511 0.96 -13.511 0.234 73.543
3196.063 0.236 73.443 0.96 -13.616 0.96 -13.616 0.236 73.443
3221.031 0.238 73.343 0.959 -13.721 0.959 -13.721 0.238 73.343
3246 0.239 73.242 0.959 -13.826 0.959 -13.826 0.239 73.242
3270.969 0.241 73.142 0.958 -13.931 0.958 -13.931 0.241 73.142
3295.938 0.243 73.042 0.958 -14.036 0.958 -14.036 0.243 73.042
3320.906 0.245 72.942 0.957 -14.141 0.957 -14.141 0.245 72.942
3345.875 0.246 72.841 0.957 -14.246 0.957 -14.246 0.246 72.841
3370.844 0.248 72.741 0.956 -14.351 0.956 -14.351 0.248 72.741
3395.813 0.25 72.641 0.956 -14.456 0.956 -14.456 0.25 72.641
3420.781 0.252 72.54 0.955 -14.56 0.955 -14.56 0.252 72.54
3445.75 0.253 72.44 0.955 -14.665 0.955 -14.665 0.253 72.44
3470.719 0.255 72.339 0.954 -14.77 0.954 -14.77 0.255 72.339
3495.688 0.257 72.238 0.954 -14.875 0.954 -14.875 0.257 72.238
3520.656 0.259 72.138 0.953 -14.979 0.953 -14.979 0.259 72.138
3545.625 0.261 72.037 0.952 -15.084 0.952 -15.084 0.261 72.037
3570.594 0.262 71.936 0.952 -15.189 0.952 -15.189 0.262 71.936
3595.563 0.264 71.835 0.951 -15.293 0.951 -15.293 0.264 71.835
3620.531 0.266 71.734 0.951 -15.398 0.951 -15.398 0.266 71.734
3645.5 0.268 71.633 0.95 -15.503 0.95 -15.503 0.268 71.633
3670.469 0.269 71.532 0.95 -15.607 0.95 -15.607 0.269 71.532
3695.438 0.271 71.431 0.949 -15.712 0.949 -15.712 0.271 71.431
3720.406 0.273 71.33 0.949 -15.816 0.949 -15.816 0.273 71.33
3745.375 0.275 71.229 0.948 -15.921 0.948 -15.921 0.275 71.229
3770.344 0.276 71.128 0.947 -16.025 0.947 -16.025 0.276 71.128
3795.313 0.278 71.027 0.947 -16.13 0.947 -16.13 0.278 71.027
3820.281 0.28 70.926 0.946 -16.234 0.946 -16.234 0.28 70.926
3845.25 0.282 70.825 0.946 -16.339 0.946 -16.339 0.282 70.825
3870.219 0.283 70.724 0.945 -16.443 0.945 -16.443 0.283 70.724
3895.188 0.285 70.622 0.945 -16.547 0.945 -16.547 0.285 70.622
3920.156 0.287 70.521 0.944 -16.652 0.944 -16.652 0.287 70.521
3945.125 0.289 70.42 0.943 -16.756 0.943 -16.756 0.289 70.42
3970.094 0.29 70.318 0.943 -16.86 0.943 -16.86 0.29 70.318
3995.063 0.292 70.217 0.942 -16.964 0.942 -16.964 0.292 70.217
4020.031 0.294 70.116 0.942 -17.069 0.942 -17.069 0.294 70.116
4045 0.296 70.014 0.941 -17.173 0.941 -17.173 0.296 70.014
4069.969 0.297 69.913 0.94 -17.277 0.94 -17.277 0.297 69.913
4094.938 0.299 69.811 0.94 -17.381 0.94 -17.381 0.299 69.811
4119.906 0.301 69.71 0.939 -17.485 0.939 -17.485 0.301 69.71
4144.875 0.303 69.608 0.938 -17.589 0.938 -17.589 0.303 69.608
4169.844 0.304 69.507 0.938 -17.693 0.938 -17.693 0.304 69.507
4194.813 0.306 69.405 0.937 -17.797 0.937 -17.797 0.306 69.405
4219.781 0.308 69.304 0.937 -17.901 0.937 -17.901 0.308 69.304
4244.75 0.309 69.202 0.936 -18.005 0.936 -18.005 0.309 69.202
4269.719 0.311 69.101 0.935 -18.109 0.935 -18.109 0.311 69.101
4294.688 0.313 68.999 0.935 -18.213 0.935 -18.213 0.313 68.999
4319.656 0.315 68.898 0.934 -18.317 0.934 -18.317 0.315 68.898
4344.625 0.316 68.796 0.933 -18.421 0.933 -18.421 0.316 68.796
4369.594 0.318 68.694 0.933 -18.525 0.933 -18.525 0.318 68.694
4394.563 0.32 68.593 0.932 -18.628 0.932 -18.628 0.32 68.593
4419.531 0.322 68.491 0.931 -18.732 0.931 -18.732 0.322 68.491
4444.5 0.323 68.389 0.931 -18.836 0.931 -18.836 0.323 68.389
4469.469 0.325 68.288 0.93 -18.94 0.93 -18.94 0.325 68.288
4494.438 0.327 68.186 0.929 -19.043 0.929 -19.043 0.327 68.186
4519.406 0.328 68.084 0.929 -19.147 0.929 -19.147 0.328 68.084
4544.375 0.33 67.983 0.928 -19.251 0.928 -19.251 0.33 67.983
4569.344 0.332 67.881 0.927 -19.354 0.927 -19.354 0.332 67.881
4594.313 0.334 67.779 0.927 -19.458 0.927 -19.458 0.334 67.779
4619.281 0.335 67.678 0.926 -19.561 0.926 -19.561 0.335 67.678
4644.25 0.337 67.576 0.925 -19.665 0.925 -19.665 0.337 67.576
4669.219 0.339 67.474 0.925 -19.768 0.925 -19.768 0.339 67.474
4694.188 0.34 67.372 0.924 -19.872 0.924 -19.872 0.34 67.372
4719.156 0.342 67.271 0.923 -19.975 0.923 -19.975 0.342 67.271
4744.125 0.344 67.169 0.923 -20.079 0.923 -20.079 0.344 67.169
4769.094 0.345 67.067 0.922 -20.182 0.922 -20.182 0.345 67.067
4794.063 0.347 66.965 0.921 -20.285 0.921 -20.285 0.347 66.965
4819.031 0.349 66.864 0.921 -20.389 0.921 -20.389 0.349 66.864
4844 0.35 66.762 0.92 -20.492 0.92 -20.492 0.35 66.762
4868.969 0.352 66.66 0.919 -20.595 0.919 -20.595 0.352 66.66
4893.938 0.354 66.558 0.919 -20.699 0.919 -20.699 0.354 66.558
4918.906 0.356 66.457 0.918 -20.802 0.918 -20.802 0.356 66.457
4943.875 0.357 66.355 0.917 -20.905 0.917 -20.905 0.357 66.355
4968.844 0.359 66.253 0.916 -21.008 0.916 -21.008 0.359 66.253
4993.813 0.361 66.151 0.916 -21.111 0.916 -21.111 0.361 66.151
5018.781 0.362 66.05 0.915 -21.214 0.915 -21.214 0.362 66.05
5043.75 0.364 65.948 0.914 -21.317 0.914 -21.317 0.364 65.948
5068.719 0.366 65.846 0.913 -21.42 0.913 -21.42 0.366 65.846
5093.688 0.367 65.744 0.913 -21.523 0.913 -21.523 0.367 65.744
5118.656 0.369 65.643 0.912 -21.626 0.912 -21.626 0.369 65.643
5143.625 0.371 65.541 0.911 -21.729 0.911 -21.729 0.371 65.541
5168.594 0.372 65.439 0.911 -21.832 0.911 -21.832 0.372 65.439
5193.563 0.374 65.337 0.91 -21.935 0.91 -21.935 0.374 65.337
5218.531 0.376 65.236 0.909 -22.038 0.909 -22.038 0.376 65.236
5243.5 0.377 65.134 0.908 -22.141 0.908 -22.141 0.377 65.134
5268.469 0.379 65.032 0.908 -22.244 0.908 -22.244 0.379 65.032
5293.438 0.381 64.93 0.907 -22.346 0.907 -22.346 0.381 64.93
5318.406 0.382 64.829 0.906 -22.449 0.906 -22.449 0.382 64.829
5343.375 0.384 64.727 0.905 -22.552 0.905 -22.552 0.384 64.727
5368.344 0.386 64.625 0.905 -22.654 0.905 -22.654 0.386 64.625
5393.313 0.387 64.524 0.904 -22.757 0.904 -22.757 0.387 64.524
5418.281 0.389 64.422 0.903 -22.86 0.903 -22.86 0.389 64.422
5443.25 0.391 64.32 0.902 -22.962 0.902 -22.962 0.391 64.32
5468.219 0.392 64.219 0.901 -23.065 0.901 -23.065 0.392 64.219
5493.188 0.394 64.117 0.901 -23.167 0.901 -23.167 0.394 64.117
5518.156 0.396 64.015 0.9 -23.27 0.9 -23.27 0.396 64.015
5543.125 0.397 63.914 0.899 -23.372 0.899 -23.372 0.397 63.914
5568.094 0.399 63.812 0.898 -23.474 0.898 -23.474 0.399 63.812
5593.063 0.4 63.71 0.898 -23.577 0.898 -23.577 0.4 63.71
5618.031 0.402 63.609 0.897 -23.679 0.897 -23.679 0.402 63.609
5643 0.404 63.507 0.896 -23.782 0.896 -23.782 0.404 63.507
5667.969 0.405 63.406 0.895 -23.884 0.895 -23.884 0.405 63.406
5692.938 0.407 63.304 0.894 -23.986 0.894 -23.986 0.407 63.304
5717.906 0.409 63.202 0.894 -24.088 0.894 -24.088 0.409 63.202
5742.875 0.41 63.101 0.893 -24.19 0.893 -24.19 0.41 63.101
5767.844 0.412 62.999 0.892 -24.293 0.892 -24.293 0.412 62.999
5792.813 0.413 62.898 0.891 -24.395 0.891 -24.395 0.413 62.898
5817.781 0.415 62.796 0.89 -24.497 0.89 -24.497 0.415 62.796
5842.75 0.417 62.695 0.89 -24.599 0.89 -24.599 0.417 62.695
5867.719 0.418 62.593 0.889 -24.701 0.889 -24.701 0.418 62.593
5892.688 0.42 62.492 0.888 -24.803 0.888 -24.803 0.42 62.492
5917.656 0.422 62.39 0.887 -24.905 0.887 -24.905 0.422 62.39
5942.625 0.423 62.289 0.886 -25.007 0.886 -25.007 0.423 62.289
5967.594 0.425 62.187 0.885 -25.109 0.885 -25.109 0.425 62.187
5992.563 0.426 62.086 0.885 -25.21 0.885 -25.21 0.426 62.086
6017.531 0.428 61.984 0.884 -25.312 0.884 -25.312 0.428 61.984
6042.5 0.43 61.883 0.883 -25.414 0.883 -25.414 0.43 61.883
6067.469 0.431 61.781 0.882 -25.516 0.882 -25.516 0.431 61.781
6092.438 0.433 61.68 0.881 -25.618 0.881 -25.618 0.433 61.68
6117.406 0.434 61.579 0.88 -25.719 0.88 -25.719 0.434 61.579
6142.375 0.436 61.477 0.88 -25.821 0.88 -25.821 0.436 61.477
6167.344 0.438 61.376 0.879 -25.922 0.879 -25.922 0.438 61.376
6192.313 0.439 61.275 0.878 -26.024 0.878 -26.024 0.439 61.275
6217.281 0.441 61.173 0.877 -26.126 0.877 -26.126 0.441 61.173
6242.25 0.442 61.072 0.876 -26.227 0.876 -26.227 0.442 61.072
6267.219 0.444 60.971 0.875 -26.329 0.875 -26.329 0.444 60.971
6292.188 0.446 60.869 0.874 -26.43 0.874 -26.43 0.446 60.869
6317.156 0.447 60.768 0.874 -26.531 0.874 -26.531 0.447 60.768
6342.125 0.449 60.667 0.873 -26.633 0.873 -26.633 0.449 60.667
6367.094 0.45 60.566 0.872 -26.734 0.872 -26.734 0.45 60.566
6392.063 0.452 60.465 0.871 -26.835 0.871 -26.835 0.452 60.465
6417.031 0.454 60.363 0.87 -26.937 0.87 -26.937 0.454 60.363
6442 0.455 60.262 0.869 -27.038 0.869 -27.038 0.455 60.262
6466.969 0.457 60.161 0.868 -27.139 0.868 -27.139 0.457 60.161
6491.938 0.458 60.06 0.868 -27.24 0.868 -27.24 0.458 60.06
6516.906 0.46 59.959 0.867 -27.341 0.867 -27.341 0.46 59.959
6541.875 0.461 59.858 0.866 -27.443 0.866 -27.443 0.461 59.858
6566.844 0.463 59.757 0.865 -27.544 0.865 -27.544 0.463 59.757
6591.813 0.465 59.656 0.864 -27.645 0.864 -27.645 0.465 59.656
6616.781 0.466 59.554 0.863 -27.746 0.863 -27.746 0.466 59.554
6641.75 0.468 59.453 0.862 -27.847 0.862 -27.847 0.468 59.453
6666.719 0.469 59.352 0.861 -27.947 0.861 -27.947 0.469 59.352
6691.688 0.471 59.251 0.86 -28.048 0.86 -28.048 0.471 59.251
6716.656 0.472 59.15 0.859 -28.149 0.859 -28.149 0.472 59.15
6741.625 0.474 59.05 0.859 -28.25 0.859 -28.25 0.474 59.05
6766.594 0.475 58.949 0.858 -28.351 0.858 -28.351 0.475 58.949
6791.563 0.477 58.848 0.857 -28.451 0.857 -28.451 0.477 58.848
6816.531 0.478 58.747 0.856 -28.552 0.856 -28.552 0.478 58.747
6841.5 0.48 58.646 0.855 -28.653 0.855 -28.653 0.48 58.646
6866.469 0.482 58.545 0.854 -28.753 0.854 -28.753 0.482 58.545
6891.438 0.483 58.444 0.853 -28.854 0.853 -28.854 0.483 58.444
6916.406 0.485 58.343 0.852 -28.955 0.852 -28.955 0.485 58.343
6941.375 0.486 58.243 0.851 -29.055 0.851 -29.055 0.486 58.243
6966.344 0.488 58.142 0.85 -29.156 0.85 -29.156 0.488 58.142
6991.313 0.489 58.041 0.849 -29.256 0.849 -29.256 0.489 58.041
7016.281 0.491 57.94 0.848 -29.356 0.848 -29.356 0.491 57.94
7041.25 0.492 57.84 0.848 -29.457 0.848 -29.457 0.492 57.84
7066.219 0.494 57.739 0.847 -29.557 0.847 -29.557 0.494 57.739
7091.188 0.495 57.638 0.846 -29.657 0.846 -29.657 0.495 57.638
7116.156 0.497 57.538 0.845 -29.758 0.845 -29.758 0.497 57.538
7141.125 0.498 57.437 0.844 -29.858 0.844 -29.858 0.498 57.437
7166.094 0.5 57.337 0.843 -29.958 0.843 -29.958 0.5 57.337
7191.063 0.501 57.236 0.842 -30.058 0.842 -30.058 0.501 57.236
7216.031 0.503 57.136 0.841 -30.158 0.841 -30.158 0.503 57.136
7241 0.504 57.035 0.84 -30.258 0.84 -30.258 0.504 57.035
7265.969 0.506 56.935 0.839 -30.358 0.839 -30.358 0.506 56.935
7290.938 0.507 56.834 0.838 -30.458 0.838 -30.458 0.507 56.834
7315.906 0.509 56.734 0.837 -30.558 0.837 -30.558 0.509 56.734
7340.875 0.51 56.633 0.836 -30.658 0.836 -30.658 0.51 56.633
7365.844 0.512 56.533 0.835 -30.758 0.835 -30.758 0.512 56.533
7390.813 0.513 56.433 0.834 -30.858 0.834 -30.858 0.513 56.433
7415.781 0.515 56.332 0.833 -30.957 0.833 -30.957 0.515 56.332
7440.75 0.516 56.232 0.832 -31.057 0.832 -31.057 0.516 56.232
7465.719 0.518 56.132 0.831 -31.157 0.831 -31.157 0.518 56.132
7490.688 0.519 56.031 0.83 -31.256 0.83 -31.256 0.519 56.031
7515.656 0.521 55.931 0.829 -31.356 0.829 -31.356 0.521 55.931
7540.625 0.522 55.831 0.828 -31.456 0.828 -31.456 0.522 55.831
7565.594 0.524 55.731 0.827 -31.555 0.827 -31.555 0.524 55.731
7590.563 0.525 55.63 0.826 -31.655 0.826 -31.655 0.525 55.63
7615.531 0.527 55.53 0.825 -31.754 0.825 -31.754 0.527 55.53
7640.5 0.528 55.43 0.824 -31.854 0.824 -31.854 0.528 55.43
7665.469 0.53 55.33 0.823 -31.953 0.823 -31.953 0.53 55.33
7690.438 0.531 55.23 0.822 -32.052 0.822 -32.052 0.531 55.23
7715.406 0.533 55.13 0.821 -32.152 0.821 -32.152 0.533 55.13
7740.375 0.534 55.03 0.82 -32.251 0.82 -32.251 0.534 55.03
7765.344 0.536 54.93 0.819 -32.35 0.819 -32.35 0.536 54.93
7790.313 0.537 54.83 0.818 -32.449 0.818 -32.449 0.537 54.83
7815.281 0.539 54.73 0.817 -32.548 0.817 -32.548 0.539 54.73
7840.25 0.54 54.63 0.816 -32.647 0.816 -32.647 0.54 54.63
7865.219 0.542 54.53 0.815 -32.746 0.815 -32.746 0.542 54.53
7890.188 0.543 54.431 0.814 -32.845 0.814 -32.845 0.543 54.431
7915.156 0.544 54.331 0.813 -32.944 0.813 -32.944 0.544 54.331
7940.125 0.546 54.231 0.812 -33.043 0.812 -33.043 0.546 54.231
7965.094 0.547 54.131 0.811 -33.142 0.811 -33.142 0.547 54.131
7990.063 0.549 54.031 0.81 -33.241 0.81 -33.241 0.549 54.031
8015.031 0.55 53.932 0.809 -33.34 0.809 -33.34 0.55 53.932
8040 0.552 53.832 0.808 -33.438 0.808 -33.438 0.552 53.832
8064.969 0.553 53.732 0.807 -33.537 0.807 -33.537 0.553 53.732
8089.938 0.555 53.633 0.806 -33.636 0.806 -33.636 0.555 53.633
8114.906 0.556 53.533 0.805 -33.734 0.805 -33.734 0.556 53.533
8139.875 0.557 53.434 0.804 -33.833 0.804 -33.833 0.557 53.434
