# MHZ S MA R 50

50 0.015 44.127 0.99 -0.588 0.99 -0.588 0.015 44.127
74.969 0.019 54.562 0.989 -0.881 0.989 -0.881 0.019 54.562
99.938 0.023 60.991 0.989 -1.174 0.989 -1.174 0.023 60.991
124.906 0.028 65.19 0.989 -1.467 0.989 -1.467 0.028 65.19
149.875 0.033 68.076 0.988 -1.76 0.988 -1.76 0.033 68.076
174.844 0.038 70.138 0.988 -2.053 0.988 -2.053 0.038 70.138
199.813 0.043 71.653 0.987 -2.345 0.987 -2.345 0.043 71.653
224.781 0.048 72.79 0.987 -2.637 0.987 -2.637 0.048 72.79
249.75 0.053 73.656 0.987 -2.929 0.987 -2.929 0.053 73.656
274.719 0.058 74.319 0.986 -3.221 0.986 -3.221 0.058 74.319
299.688 0.063 74.829 0.985 -3.513 0.985 -3.513 0.063 74.829
324.656 0.068 75.22 0.985 -3.804 0.985 -3.804 0.068 75.22
349.625 0.073 75.516 0.984 -4.095 0.984 -4.095 0.073 75.516
374.594 0.078 75.736 0.984 -4.386 0.984 -4.386 0.078 75.736
399.563 0.083 75.894 0.983 -4.676 0.983 -4.676 0.083 75.894
424.531 0.088 76 0.982 -4.967 0.982 -4.967 0.088 76
449.5 0.093 76.063 0.982 -5.257 0.982 -5.257 0.093 76.063
474.469 0.098 76.09 0.981 -5.546 0.981 -5.546 0.098 76.09
499.438 0.103 76.085 0.98 -5.836 0.98 -5.836 0.103 76.085
524.406 0.108 76.055 0.98 -6.125 0.98 -6.125 0.108 76.055
549.375 0.113 76.001 0.979 -6.413 0.979 -6.413 0.113 76.001
574.344 0.118 75.928 0.978 -6.702 0.978 -6.702 0.118 75.928
599.313 0.123 75.837 0.977 -6.99 0.977 -6.99 0.123 75.837
624.281 0.128 75.731 0.976 -7.278 0.976 -7.278 0.128 75.731
649.25 0.133 75.611 0.976 -7.565 0.976 -7.565 0.133 75.611
674.219 0.138 75.479 0.975 -7.852 0.975 -7.852 0.138 75.479
699.188 0.142 75.337 0.974 -8.139 0.974 -8.139 0.142 75.337
724.156 0.147 75.185 0.973 -8.425 0.973 -8.425 0.147 75.185
749.125 0.152 75.024 0.972 -8.711 0.972 -8.711 0.152 75.024
774.094 0.157 74.856 0.971 -8.997 0.971 -8.997 0.157 74.856
799.063 0.162 74.681 0.97 -9.282 0.97 -9.282 0.162 74.681
824.031 0.167 74.5 0.969 -9.567 0.969 -9.567 0.167 74.5
849 0.172 74.313 0.968 -9.851 0.968 -9.851 0.172 74.313
873.969 0.177 74.121 0.967 -10.135 0.967 -10.135 0.177 74.121
898.938 0.182 73.924 0.966 -10.419 0.966 -10.419 0.182 73.924
923.906 0.187 73.723 0.964 -10.702 0.964 -10.702 0.187 73.723
948.875 0.191 73.517 0.963 -10.984 0.963 -10.984 0.191 73.517
973.844 0.196 73.309 0.962 -11.267 0.962 -11.267 0.196 73.309
998.813 0.201 73.097 0.961 -11.548 0.961 -11.548 0.201 73.097
1023.781 0.206 72.882 0.96 -11.83 0.96 -11.83 0.206 72.882
1048.75 0.211 72.665 0.959 -12.111 0.959 -12.111 0.211 72.665
1073.719 0.215 72.445 0.957 -12.391 0.957 -12.391 0.215 72.445
1098.688 0.22 72.222 0.956 -12.671 0.956 -12.671 0.22 72.222
1123.656 0.225 71.998 0.955 -12.95 0.955 -12.95 0.225 71.998
1148.625 0.23 71.771 0.953 -13.229 0.953 -13.229 0.23 71.771
1173.594 0.234 71.543 0.952 -13.508 0.952 -13.508 0.234 71.543
1198.563 0.239 71.313 0.951 -13.786 0.951 -13.786 0.239 71.313
1223.531 0.244 71.082 0.949 -14.063 0.949 -14.063 0.244 71.082
1248.5 0.249 70.849 0.948 -14.34 0.948 -14.34 0.249 70.849
1273.469 0.253 70.615 0.947 -14.617 0.947 -14.617 0.253 70.615
1298.438 0.258 70.38 0.945 -14.893 0.945 -14.893 0.258 70.38
1323.406 0.263 70.144 0.944 -15.168 0.944 -15.168 0.263 70.144
1348.375 0.267 69.907 0.942 -15.443 0.942 -15.443 0.267 69.907
1373.344 0.272 69.669 0.941 -15.717 0.941 -15.717 0.272 69.669
1398.313 0.276 69.43 0.939 -15.991 0.939 -15.991 0.276 69.43
1423.281 0.281 69.191 0.938 -16.264 0.938 -16.264 0.281 69.191
1448.25 0.286 68.951 0.936 -16.537 0.936 -16.537 0.286 68.951
1473.219 0.29 68.71 0.935 -16.809 0.935 -16.809 0.29 68.71
1498.188 0.295 68.469 0.933 -17.081 0.933 -17.081 0.295 68.469
1523.156 0.299 68.227 0.931 -17.352 0.931 -17.352 0.299 68.227
1548.125 0.304 67.985 0.93 -17.622 0.93 -17.622 0.304 67.985
1573.094 0.308 67.742 0.928 -17.892 0.928 -17.892 0.308 67.742
1598.063 0.313 67.499 0.927 -18.161 0.927 -18.161 0.313 67.499
1623.031 0.317 67.256 0.925 -18.43 0.925 -18.43 0.317 67.256
1648 0.321 67.013 0.923 -18.698 0.923 -18.698 0.321 67.013
1672.969 0.326 66.77 0.921 -18.966 0.921 -18.966 0.326 66.77
1697.938 0.33 66.526 0.92 -19.232 0.92 -19.232 0.33 66.526
1722.906 0.335 66.282 0.918 -19.499 0.918 -19.499 0.335 66.282
1747.875 0.339 66.038 0.916 -19.764 0.916 -19.764 0.339 66.038
1772.844 0.343 65.794 0.915 -20.029 0.915 -20.029 0.343 65.794
1797.813 0.348 65.55 0.913 -20.294 0.913 -20.294 0.348 65.55
1822.781 0.352 65.307 0.911 -20.558 0.911 -20.558 0.352 65.307
1847.75 0.356 65.063 0.909 -20.821 0.909 -20.821 0.356 65.063
1872.719 0.361 64.819 0.907 -21.083 0.907 -21.083 0.361 64.819
1897.688 0.365 64.575 0.905 -21.345 0.905 -21.345 0.365 64.575
1922.656 0.369 64.332 0.904 -21.607 0.904 -21.607 0.369 64.332
1947.625 0.373 64.088 0.902 -21.867 0.902 -21.867 0.373 64.088
1972.594 0.378 63.845 0.9 -22.127 0.9 -22.127 0.378 63.845
1997.563 0.382 63.602 0.898 -22.387 0.898 -22.387 0.382 63.602
2022.531 0.386 63.359 0.896 -22.645 0.896 -22.645 0.386 63.359
2047.5 0.39 63.116 0.894 -22.904 0.894 -22.904 0.39 63.116
2072.469 0.394 62.874 0.892 -23.161 0.892 -23.161 0.394 62.874
2097.438 0.398 62.631 0.89 -23.418 0.89 -23.418 0.398 62.631
2122.406 0.402 62.389 0.888 -23.674 0.888 -23.674 0.402 62.389
2147.375 0.407 62.148 0.886 -23.929 0.886 -23.929 0.407 62.148
2172.344 0.411 61.906 0.884 -24.184 0.884 -24.184 0.411 61.906
2197.313 0.415 61.665 0.882 -24.438 0.882 -24.438 0.415 61.665
2222.281 0.419 61.425 0.88 -24.691 0.88 -24.691 0.419 61.425
2247.25 0.423 61.184 0.878 -24.944 0.878 -24.944 0.423 61.184
2272.219 0.427 60.944 0.876 -25.196 0.876 -25.196 0.427 60.944
2297.188 0.431 60.704 0.874 -25.448 0.874 -25.448 0.431 60.704
2322.156 0.435 60.465 0.872 -25.698 0.872 -25.698 0.435 60.465
2347.125 0.439 60.226 0.87 -25.948 0.87 -25.948 0.439 60.226
2372.094 0.442 59.988 0.868 -26.198 0.868 -26.198 0.442 59.988
2397.063 0.446 59.75 0.866 -26.446 0.866 -26.446 0.446 59.75
2422.031 0.45 59.512 0.864 -26.694 0.864 -26.694 0.45 59.512
2447 0.454 59.275 0.862 -26.941 0.862 -26.941 0.454 59.275
2471.969 0.458 59.038 0.859 -27.188 0.859 -27.188 0.458 59.038
2496.938 0.462 58.801 0.857 -27.434 0.857 -27.434 0.462 58.801
2521.906 0.466 58.565 0.855 -27.679 0.855 -27.679 0.466 58.565
2546.875 0.469 58.33 0.853 -27.924 0.853 -27.924 0.469 58.33
2571.844 0.473 58.095 0.851 -28.167 0.851 -28.167 0.473 58.095
2596.813 0.477 57.86 0.849 -28.41 0.849 -28.41 0.477 57.86
2621.781 0.481 57.626 0.846 -28.653 0.846 -28.653 0.481 57.626
2646.75 0.484 57.393 0.844 -28.894 0.844 -28.894 0.484 57.393
2671.719 0.488 57.16 0.842 -29.135 0.842 -29.135 0.488 57.16
2696.688 0.492 56.927 0.84 -29.376 0.84 -29.376 0.492 56.927
2721.656 0.495 56.695 0.837 -29.615 0.837 -29.615 0.495 56.695
2746.625 0.499 56.464 0.835 -29.854 0.835 -29.854 0.499 56.464
2771.594 0.502 56.233 0.833 -30.092 0.833 -30.092 0.502 56.233
2796.563 0.506 56.002 0.831 -30.33 0.831 -30.33 0.506 56.002
2821.531 0.51 55.772 0.828 -30.566 0.828 -30.566 0.51 55.772
2846.5 0.513 55.543 0.826 -30.802 0.826 -30.802 0.513 55.543
2871.469 0.517 55.314 0.824 -31.038 0.824 -31.038 0.517 55.314
2896.438 0.52 55.085 0.822 -31.272 0.822 -31.272 0.52 55.085
2921.406 0.524 54.858 0.819 -31.506 0.819 -31.506 0.524 54.858
2946.375 0.527 54.63 0.817 -31.739 0.817 -31.739 0.527 54.63
2971.344 0.531 54.404 0.815 -31.972 0.815 -31.972 0.531 54.404
2996.313 0.534 54.177 0.812 -32.203 0.812 -32.203 0.534 54.177
3021.281 0.537 53.952 0.81 -32.434 0.81 -32.434 0.537 53.952
3046.25 0.541 53.727 0.808 -32.665 0.808 -32.665 0.541 53.727
3071.219 0.544 53.502 0.805 -32.894 0.805 -32.894 0.544 53.502
3096.188 0.548 53.279 0.803 -33.123 0.803 -33.123 0.548 53.279
3121.156 0.551 53.055 0.801 -33.351 0.801 -33.351 0.551 53.055
3146.125 0.554 52.832 0.798 -33.579 0.798 -33.579 0.554 52.832
3171.094 0.557 52.61 0.796 -33.806 0.796 -33.806 0.557 52.61
3196.063 0.561 52.389 0.794 -34.032 0.794 -34.032 0.561 52.389
3221.031 0.564 52.168 0.791 -34.257 0.791 -34.257 0.564 52.168
3246 0.567 51.947 0.789 -34.481 0.789 -34.481 0.567 51.947
3270.969 0.57 51.727 0.787 -34.705 0.787 -34.705 0.57 51.727
3295.938 0.574 51.508 0.784 -34.928 0.784 -34.928 0.574 51.508
3320.906 0.577 51.29 0.782 -35.151 0.782 -35.151 0.577 51.29
3345.875 0.58 51.072 0.779 -35.373 0.779 -35.373 0.58 51.072
3370.844 0.583 50.854 0.777 -35.594 0.777 -35.594 0.583 50.854
3395.813 0.586 50.637 0.775 -35.814 0.775 -35.814 0.586 50.637
3420.781 0.589 50.421 0.772 -36.033 0.772 -36.033 0.589 50.421
3445.75 0.592 50.205 0.77 -36.252 0.77 -36.252 0.592 50.205
3470.719 0.596 49.99 0.767 -36.47 0.767 -36.47 0.596 49.99
3495.688 0.599 49.776 0.765 -36.688 0.765 -36.688 0.599 49.776
3520.656 0.602 49.562 0.763 -36.905 0.763 -36.905 0.602 49.562
3545.625 0.605 49.349 0.76 -37.121 0.76 -37.121 0.605 49.349
3570.594 0.608 49.136 0.758 -37.336 0.758 -37.336 0.608 49.136
3595.563 0.611 48.924 0.755 -37.551 0.755 -37.551 0.611 48.924
3620.531 0.614 48.712 0.753 -37.764 0.753 -37.764 0.614 48.712
3645.5 0.617 48.502 0.75 -37.978 0.75 -37.978 0.617 48.502
3670.469 0.619 48.291 0.748 -38.19 0.748 -38.19 0.619 48.291
3695.438 0.622 48.082 0.746 -38.402 0.746 -38.402 0.622 48.082
3720.406 0.625 47.873 0.743 -38.613 0.743 -38.613 0.625 47.873
3745.375 0.628 47.664 0.741 -38.823 0.741 -38.823 0.628 47.664
3770.344 0.631 47.456 0.738 -39.033 0.738 -39.033 0.631 47.456
3795.313 0.634 47.249 0.736 -39.242 0.736 -39.242 0.634 47.249
3820.281 0.637 47.043 0.733 -39.45 0.733 -39.45 0.637 47.043
3845.25 0.639 46.837 0.731 -39.658 0.731 -39.658 0.639 46.837
3870.219 0.642 46.631 0.728 -39.865 0.728 -39.865 0.642 46.631
3895.188 0.645 46.426 0.726 -40.071 0.726 -40.071 0.645 46.426
3920.156 0.648 46.222 0.723 -40.276 0.723 -40.276 0.648 46.222
3945.125 0.65 46.019 0.721 -40.481 0.721 -40.481 0.65 46.019
3970.094 0.653 45.816 0.718 -40.685 0.718 -40.685 0.653 45.816
3995.063 0.656 45.613 0.716 -40.889 0.716 -40.889 0.656 45.613
4020.031 0.658 45.411 0.713 -41.091 0.713 -41.091 0.658 45.411
4045 0.661 45.21 0.711 -41.293 0.711 -41.293 0.661 45.21
4069.969 0.664 45.01 0.709 -41.495 0.709 -41.495 0.664 45.01
4094.938 0.666 44.81 0.706 -41.695 0.706 -41.695 0.666 44.81
4119.906 0.669 44.61 0.704 -41.895 0.704 -41.895 0.669 44.61
4144.875 0.672 44.412 0.701 -42.095 0.701 -42.095 0.672 44.412
4169.844 0.674 44.213 0.699 -42.293 0.699 -42.293 0.674 44.213
4194.813 0.677 44.016 0.696 -42.491 0.696 -42.491 0.677 44.016
4219.781 0.679 43.819 0.694 -42.688 0.694 -42.688 0.679 43.819
4244.75 0.682 43.623 0.691 -42.885 0.691 -42.885 0.682 43.623
4269.719 0.684 43.427 0.689 -43.081 0.689 -43.081 0.684 43.427
4294.688 0.687 43.232 0.686 -43.276 0.686 -43.276 0.687 43.232
4319.656 0.689 43.037 0.684 -43.47 0.684 -43.47 0.689 43.037
4344.625 0.692 42.843 0.681 -43.664 0.681 -43.664 0.692 42.843
4369.594 0.694 42.65 0.679 -43.857 0.679 -43.857 0.694 42.65
4394.563 0.697 42.457 0.676 -44.05 0.676 -44.05 0.697 42.457
4419.531 0.699 42.265 0.674 -44.242 0.674 -44.242 0.699 42.265
4444.5 0.701 42.073 0.671 -44.433 0.671 -44.433 0.701 42.073
4469.469 0.704 41.882 0.669 -44.624 0.669 -44.624 0.704 41.882
4494.438 0.706 41.692 0.666 -44.813 0.666 -44.813 0.706 41.692
4519.406 0.708 41.502 0.664 -45.003 0.664 -45.003 0.708 41.502
4544.375 0.711 41.312 0.661 -45.191 0.661 -45.191 0.711 41.312
4569.344 0.713 41.124 0.659 -45.379 0.659 -45.379 0.713 41.124
4594.313 0.715 40.936 0.656 -45.566 0.656 -45.566 0.715 40.936
4619.281 0.718 40.748 0.654 -45.753 0.654 -45.753 0.718 40.748
4644.25 0.72 40.561 0.651 -45.939 0.651 -45.939 0.72 40.561
4669.219 0.722 40.375 0.649 -46.124 0.649 -46.124 0.722 40.375
4694.188 0.724 40.189 0.647 -46.309 0.647 -46.309 0.724 40.189
4719.156 0.727 40.004 0.644 -46.492 0.644 -46.492 0.727 40.004
4744.125 0.729 39.819 0.642 -46.676 0.642 -46.676 0.729 39.819
4769.094 0.731 39.635 0.639 -46.858 0.639 -46.858 0.731 39.635
4794.063 0.733 39.451 0.637 -47.04 0.637 -47.04 0.733 39.451
4819.031 0.735 39.269 0.634 -47.222 0.634 -47.222 0.735 39.269
4844 0.738 39.086 0.632 -47.403 0.632 -47.403 0.738 39.086
4868.969 0.74 38.904 0.629 -47.583 0.629 -47.583 0.74 38.904
4893.938 0.742 38.723 0.627 -47.762 0.627 -47.762 0.742 38.723
4918.906 0.744 38.542 0.624 -47.941 0.624 -47.941 0.744 38.542
4943.875 0.746 38.362 0.622 -48.119 0.622 -48.119 0.746 38.362
4968.844 0.748 38.183 0.619 -48.297 0.619 -48.297 0.748 38.183
4993.813 0.75 38.004 0.617 -48.474 0.617 -48.474 0.75 38.004
5018.781 0.752 37.825 0.614 -48.65 0.614 -48.65 0.752 37.825
5043.75 0.754 37.647 0.612 -48.826 0.612 -48.826 0.754 37.647
5068.719 0.756 37.47 0.61 -49.001 0.61 -49.001 0.756 37.47
5093.688 0.758 37.293 0.607 -49.175 0.607 -49.175 0.758 37.293
5118.656 0.76 37.117 0.605 -49.349 0.605 -49.349 0.76 37.117
5143.625 0.762 36.941 0.602 -49.522 0.602 -49.522 0.762 36.941
5168.594 0.764 36.766 0.6 -49.695 0.6 -49.695 0.764 36.766
5193.563 0.766 36.591 0.597 -49.867 0.597 -49.867 0.766 36.591
5218.531 0.768 36.417 0.595 -50.038 0.595 -50.038 0.768 36.417
5243.5 0.77 36.244 0.592 -50.209 0.592 -50.209 0.77 36.244
5268.469 0.772 36.071 0.59 -50.379 0.59 -50.379 0.772 36.071
5293.438 0.774 35.898 0.587 -50.549 0.587 -50.549 0.774 35.898
5318.406 0.776 35.726 0.585 -50.718 0.585 -50.718 0.776 35.726
5343.375 0.777 35.555 0.583 -50.886 0.583 -50.886 0.777 35.555
5368.344 0.779 35.384 0.58 -51.054 0.58 -51.054 0.779 35.384
5393.313 0.781 35.214 0.578 -51.221 0.578 -51.221 0.781 35.214
5418.281 0.783 35.044 0.575 -51.387 0.575 -51.387 0.783 35.044
5443.25 0.785 34.875 0.573 -51.553 0.573 -51.553 0.785 34.875
5468.219 0.787 34.706 0.57 -51.719 0.57 -51.719 0.787 34.706
5493.188 0.788 34.538 0.568 -51.883 0.568 -51.883 0.788 34.538
5518.156 0.79 34.37 0.566 -52.047 0.566 -52.047 0.79 34.37
5543.125 0.792 34.203 0.563 -52.211 0.563 -52.211 0.792 34.203
5568.094 0.794 34.036 0.561 -52.374 0.561 -52.374 0.794 34.036
5593.063 0.795 33.87 0.558 -52.536 0.558 -52.536 0.795 33.87
5618.031 0.797 33.704 0.556 -52.698 0.556 -52.698 0.797 33.704
5643 0.799 33.539 0.554 -52.859 0.554 -52.859 0.799 33.539
5667.969 0.8 33.374 0.551 -53.02 0.551 -53.02 0.8 33.374
5692.938 0.802 33.21 0.549 -53.18 0.549 -53.18 0.802 33.21
5717.906 0.804 33.047 0.546 -53.339 0.546 -53.339 0.804 33.047
5742.875 0.805 32.883 0.544 -53.498 0.544 -53.498 0.805 32.883
5767.844 0.807 32.721 0.542 -53.657 0.542 -53.657 0.807 32.721
5792.813 0.809 32.559 0.539 -53.814 0.539 -53.814 0.809 32.559
5817.781 0.81 32.397 0.537 -53.971 0.537 -53.971 0.81 32.397
5842.75 0.812 32.236 0.534 -54.128 0.534 -54.128 0.812 32.236
5867.719 0.814 32.075 0.532 -54.284 0.532 -54.284 0.814 32.075
5892.688 0.815 31.915 0.53 -54.44 0.53 -54.44 0.815 31.915
5917.656 0.817 31.755 0.527 -54.594 0.527 -54.594 0.817 31.755
5942.625 0.818 31.596 0.525 -54.749 0.525 -54.749 0.818 31.596
5967.594 0.82 31.437 0.523 -54.903 0.523 -54.903 0.82 31.437
5992.563 0.821 31.279 0.52 -55.056 0.52 -55.056 0.821 31.279
6017.531 0.823 31.121 0.518 -55.208 0.518 -55.208 0.823 31.121
6042.5 0.824 30.964 0.516 -55.36 0.516 -55.36 0.824 30.964
6067.469 0.826 30.807 0.513 -55.512 0.513 -55.512 0.826 30.807
6092.438 0.827 30.651 0.511 -55.663 0.511 -55.663 0.827 30.651
6117.406 0.829 30.495 0.509 -55.813 0.509 -55.813 0.829 30.495
6142.375 0.83 30.34 0.506 -55.963 0.506 -55.963 0.83 30.34
6167.344 0.832 30.185 0.504 -56.113 0.504 -56.113 0.832 30.185
6192.313 0.833 30.03 0.502 -56.261 0.502 -56.261 0.833 30.03
6217.281 0.835 29.876 0.499 -56.409 0.499 -56.409 0.835 29.876
6242.25 0.836 29.723 0.497 -56.557 0.497 -56.557 0.836 29.723
6267.219 0.838 29.57 0.495 -56.704 0.495 -56.704 0.838 29.57
6292.188 0.839 29.417 0.492 -56.851 0.492 -56.851 0.839 29.417
6317.156 0.84 29.265 0.49 -56.997 0.49 -56.997 0.84 29.265
6342.125 0.842 29.113 0.488 -57.142 0.488 -57.142 0.842 29.113
6367.094 0.843 28.962 0.485 -57.287 0.485 -57.287 0.843 28.962
6392.063 0.845 28.811 0.483 -57.432 0.483 -57.432 0.845 28.811
6417.031 0.846 28.661 0.481 -57.576 0.481 -57.576 0.846 28.661
6442 0.847 28.511 0.478 -57.719 0.478 -57.719 0.847 28.511
6466.969 0.849 28.362 0.476 -57.862 0.476 -57.862 0.849 28.362
6491.938 0.85 28.213 0.474 -58.004 0.474 -58.004 0.85 28.213
6516.906 0.851 28.064 0.471 -58.146 0.471 -58.146 0.851 28.064
6541.875 0.853 27.916 0.469 -58.287 0.469 -58.287 0.853 27.916
6566.844 0.854 27.768 0.467 -58.428 0.467 -58.428 0.854 27.768
6591.813 0.855 27.621 0.465 -58.568 0.465 -58.568 0.855 27.621
6616.781 0.856 27.474 0.462 -58.707 0.462 -58.707 0.856 27.474
6641.75 0.858 27.328 0.46 -58.846 0.46 -58.846 0.858 27.328
6666.719 0.859 27.182 0.458 -58.985 0.458 -58.985 0.859 27.182
6691.688 0.86 27.036 0.456 -59.123 0.456 -59.123 0.86 27.036
6716.656 0.861 26.891 0.453 -59.261 0.453 -59.261 0.861 26.891
6741.625 0.863 26.746 0.451 -59.398 0.451 -59.398 0.863 26.746
6766.594 0.864 26.602 0.449 -59.534 0.449 -59.534 0.864 26.602
6791.563 0.865 26.458 0.447 -59.67 0.447 -59.67 0.865 26.458
6816.531 0.866 26.315 0.444 -59.805 0.444 -59.805 0.866 26.315
6841.5 0.867 26.172 0.442 -59.94 0.442 -59.94 0.867 26.172
6866.469 0.869 26.029 0.44 -60.075 0.44 -60.075 0.869 26.029
6891.438 0.87 25.887 0.438 -60.208 0.438 -60.208 0.87 25.887
6916.406 0.871 25.745 0.435 -60.342 0.435 -60.342 0.871 25.745
6941.375 0.872 25.604 0.433 -60.475 0.433 -60.475 0.872 25.604
6966.344 0.873 25.463 0.431 -60.607 0.431 -60.607 0.873 25.463
6991.313 0.874 25.323 0.429 -60.739 0.429 -60.739 0.874 25.323
7016.281 0.876 25.183 0.427 -60.87 0.427 -60.87 0.876 25.183
7041.25 0.877 25.043 0.424 -61.001 0.424 -61.001 0.877 25.043
7066.219 0.878 24.904 0.422 -61.131 0.422 -61.131 0.878 24.904
7091.188 0.879 24.765 0.42 -61.261 0.42 -61.261 0.879 24.765
7116.156 0.88 24.626 0.418 -61.39 0.418 -61.39 0.88 24.626
7141.125 0.881 24.488 0.416 -61.519 0.416 -61.519 0.881 24.488
7166.094 0.882 24.35 0.413 -61.647 0.413 -61.647 0.882 24.35
7191.063 0.883 24.213 0.411 -61.775 0.411 -61.775 0.883 24.213
7216.031 0.884 24.076 0.409 -61.902 0.409 -61.902 0.884 24.076
7241 0.885 23.939 0.407 -62.029 0.407 -62.029 0.885 23.939
7265.969 0.886 23.803 0.405 -62.155 0.405 -62.155 0.886 23.803
7290.938 0.887 23.667 0.402 -62.281 0.402 -62.281 0.887 23.667
7315.906 0.888 23.532 0.4 -62.406 0.4 -62.406 0.888 23.532
7340.875 0.89 23.397 0.398 -62.53 0.398 -62.53 0.89 23.397
7365.844 0.891 23.262 0.396 -62.655 0.396 -62.655 0.891 23.262
7390.813 0.892 23.128 0.394 -62.778 0.394 -62.778 0.892 23.128
7415.781 0.893 22.994 0.392 -62.901 0.392 -62.901 0.893 22.994
7440.75 0.893 22.861 0.389 -63.024 0.389 -63.024 0.893 22.861
7465.719 0.894 22.728 0.387 -63.146 0.387 -63.146 0.894 22.728
7490.688 0.895 22.595 0.385 -63.268 0.385 -63.268 0.895 22.595
7515.656 0.896 22.462 0.383 -63.389 0.383 -63.389 0.896 22.462
7540.625 0.897 22.33 0.381 -63.509 0.381 -63.509 0.897 22.33
7565.594 0.898 22.199 0.379 -63.63 0.379 -63.63 0.898 22.199
7590.563 0.899 22.067 0.377 -63.749 0.377 -63.749 0.899 22.067
7615.531 0.9 21.936 0.375 -63.868 0.375 -63.868 0.9 21.936
7640.5 0.901 21.806 0.372 -63.987 0.372 -63.987 0.901 21.806
7665.469 0.902 21.676 0.37 -64.105 0.37 -64.105 0.902 21.676
7690.438 0.903 21.546 0.368 -64.223 0.368 -64.223 0.903 21.546
7715.406 0.904 21.416 0.366 -64.34 0.366 -64.34 0.904 21.416
7740.375 0.905 21.287 0.364 -64.456 0.364 -64.456 0.905 21.287
7765.344 0.906 21.158 0.362 -64.572 0.362 -64.572 0.906 21.158
7790.313 0.907 21.03 0.36 -64.688 0.36 -64.688 0.907 21.03
7815.281 0.907 20.902 0.358 -64.803 0.358 -64.803 0.907 20.902
7840.25 0.908 20.774 0.356 -64.917 0.356 -64.917 0.908 20.774
7865.219 0.909 20.647 0.354 -65.031 0.354 -65.031 0.909 20.647
7890.188 0.91 20.52 0.352 -65.145 0.352 -65.145 0.91 20.52
7915.156 0.911 20.393 0.349 -65.258 0.349 -65.258 0.911 20.393
7940.125 0.912 20.267 0.347 -65.37 0.347 -65.37 0.912 20.267
7965.094 0.912 20.141 0.345 -65.482 0.345 -65.482 0.912 20.141
7990.063 0.913 20.015 0.343 -65.594 0.343 -65.594 0.913 20.015
8015.031 0.914 19.89 0.341 -65.705 0.341 -65.705 0.914 19.89
8040 0.915 19.765 0.339 -65.815 0.339 -65.815 0.915 19.765
8064.969 0.916 19.64 0.337 -65.925 0.337 -65.925 0.916 19.64
8089.938 0.917 19.516 0.335 -66.035 0.335 -66.035 0.917 19.516
8114.906 0.917 19.392 0.333 -66.144 0.333 -66.144 0.917 19.392
