# MHZ S MA R 50

50 6.968e-3 42.018 0.995 -0.269 0.995 -0.269 6.968e-3 42.018
74.969 8.769e-3 52.871 0.995 -0.403 0.995 -0.403 8.769e-3 52.871
99.938 0.011 59.81 0.995 -0.537 0.995 -0.537 0.011 59.81
124.906 0.013 64.476 0.995 -0.671 0.995 -0.671 0.013 64.476
149.875 0.015 67.769 0.994 -0.805 0.994 -0.805 0.015 67.769
174.844 0.017 70.187 0.994 -0.939 0.994 -0.939 0.017 70.187
199.813 0.02 72.02 0.994 -1.073 0.994 -1.073 0.02 72.02
224.781 0.022 73.446 0.994 -1.207 0.994 -1.207 0.022 73.446
249.75 0.024 74.577 0.994 -1.341 0.994 -1.341 0.024 74.577
274.719 0.026 75.488 0.994 -1.475 0.994 -1.475 0.026 75.488
299.688 0.029 76.232 0.994 -1.608 0.994 -1.608 0.029 76.232
324.656 0.031 76.846 0.993 -1.742 0.993 -1.742 0.031 76.846
349.625 0.033 77.356 0.993 -1.876 0.993 -1.876 0.033 77.356
374.594 0.036 77.783 0.993 -2.01 0.993 -2.01 0.036 77.783
399.563 0.038 78.141 0.993 -2.143 0.993 -2.143 0.038 78.141
424.531 0.04 78.443 0.993 -2.277 0.993 -2.277 0.04 78.443
449.5 0.043 78.697 0.993 -2.411 0.993 -2.411 0.043 78.697
474.469 0.045 78.911 0.992 -2.544 0.992 -2.544 0.045 78.911
499.438 0.047 79.091 0.992 -2.678 0.992 -2.678 0.047 79.091
524.406 0.05 79.242 0.992 -2.812 0.992 -2.812 0.05 79.242
549.375 0.052 79.367 0.992 -2.945 0.992 -2.945 0.052 79.367
574.344 0.054 79.47 0.992 -3.079 0.992 -3.079 0.054 79.47
599.313 0.056 79.553 0.991 -3.212 0.991 -3.212 0.056 79.553
624.281 0.059 79.619 0.991 -3.345 0.991 -3.345 0.059 79.619
649.25 0.061 79.671 0.991 -3.479 0.991 -3.479 0.061 79.671
674.219 0.063 79.708 0.991 -3.612 0.991 -3.612 0.063 79.708
699.188 0.066 79.734 0.99 -3.745 0.99 -3.745 0.066 79.734
724.156 0.068 79.748 0.99 -3.879 0.99 -3.879 0.068 79.748
749.125 0.07 79.753 0.99 -4.012 0.99 -4.012 0.07 79.753
774.094 0.073 79.75 0.99 -4.145 0.99 -4.145 0.073 79.75
799.063 0.075 79.738 0.989 -4.278 0.989 -4.278 0.075 79.738
824.031 0.077 79.719 0.989 -4.411 0.989 -4.411 0.077 79.719
849 0.08 79.693 0.989 -4.544 0.989 -4.544 0.08 79.693
873.969 0.082 79.661 0.989 -4.678 0.989 -4.678 0.082 79.661
898.938 0.084 79.624 0.988 -4.811 0.988 -4.811 0.084 79.624
923.906 0.087 79.581 0.988 -4.943 0.988 -4.943 0.087 79.581
948.875 0.089 79.534 0.988 -5.076 0.988 -5.076 0.089 79.534
973.844 0.091 79.483 0.987 -5.209 0.987 -5.209 0.091 79.483
998.813 0.093 79.427 0.987 -5.342 0.987 -5.342 0.093 79.427
1023.781 0.096 79.368 0.987 -5.475 0.987 -5.475 0.096 79.368
1048.75 0.098 79.305 0.987 -5.608 0.987 -5.608 0.098 79.305
1073.719 0.1 79.239 0.986 -5.74 0.986 -5.74 0.1 79.239
1098.688 0.103 79.171 0.986 -5.873 0.986 -5.873 0.103 79.171
1123.656 0.105 79.099 0.986 -6.005 0.986 -6.005 0.105 79.099
1148.625 0.107 79.025 0.985 -6.138 0.985 -6.138 0.107 79.025
1173.594 0.11 78.948 0.985 -6.27 0.985 -6.27 0.11 78.948
1198.563 0.112 78.869 0.985 -6.403 0.985 -6.403 0.112 78.869
1223.531 0.114 78.788 0.984 -6.535 0.984 -6.535 0.114 78.788
1248.5 0.116 78.705 0.984 -6.668 0.984 -6.668 0.116 78.705
1273.469 0.119 78.62 0.983 -6.8 0.983 -6.8 0.119 78.62
1298.438 0.121 78.533 0.983 -6.932 0.983 -6.932 0.121 78.533
1323.406 0.123 78.445 0.983 -7.064 0.983 -7.064 0.123 78.445
1348.375 0.126 78.355 0.982 -7.197 0.982 -7.197 0.126 78.355
1373.344 0.128 78.263 0.982 -7.329 0.982 -7.329 0.128 78.263
1398.313 0.13 78.17 0.982 -7.461 0.982 -7.461 0.13 78.17
1423.281 0.133 78.076 0.981 -7.593 0.981 -7.593 0.133 78.076
1448.25 0.135 77.98 0.981 -7.725 0.981 -7.725 0.135 77.98
1473.219 0.137 77.884 0.98 -7.857 0.98 -7.857 0.137 77.884
1498.188 0.139 77.786 0.98 -7.988 0.98 -7.988 0.139 77.786
1523.156 0.142 77.687 0.98 -8.12 0.98 -8.12 0.142 77.687
1548.125 0.144 77.587 0.979 -8.252 0.979 -8.252 0.144 77.587
1573.094 0.146 77.486 0.979 -8.384 0.979 -8.384 0.146 77.486
1598.063 0.148 77.385 0.978 -8.515 0.978 -8.515 0.148 77.385
1623.031 0.151 77.282 0.978 -8.647 0.978 -8.647 0.151 77.282
1648 0.153 77.178 0.977 -8.778 0.977 -8.778 0.153 77.178
1672.969 0.155 77.074 0.977 -8.91 0.977 -8.91 0.155 77.074
1697.938 0.158 76.969 0.977 -9.041 0.977 -9.041 0.158 76.969
1722.906 0.16 76.863 0.976 -9.172 0.976 -9.172 0.16 76.863
1747.875 0.162 76.757 0.976 -9.304 0.976 -9.304 0.162 76.757
1772.844 0.164 76.65 0.975 -9.435 0.975 -9.435 0.164 76.65
1797.813 0.167 76.542 0.975 -9.566 0.975 -9.566 0.167 76.542
1822.781 0.169 76.434 0.974 -9.697 0.974 -9.697 0.169 76.434
1847.75 0.171 76.325 0.974 -9.828 0.974 -9.828 0.171 76.325
1872.719 0.173 76.216 0.973 -9.959 0.973 -9.959 0.173 76.216
1897.688 0.176 76.106 0.973 -10.09 0.973 -10.09 0.176 76.106
1922.656 0.178 75.995 0.972 -10.221 0.972 -10.221 0.178 75.995
1947.625 0.18 75.884 0.972 -10.352 0.972 -10.352 0.18 75.884
1972.594 0.182 75.773 0.971 -10.483 0.971 -10.483 0.182 75.773
1997.563 0.185 75.661 0.971 -10.613 0.971 -10.613 0.185 75.661
2022.531 0.187 75.549 0.97 -10.744 0.97 -10.744 0.187 75.549
2047.5 0.189 75.436 0.97 -10.875 0.97 -10.875 0.189 75.436
2072.469 0.191 75.323 0.969 -11.005 0.969 -11.005 0.191 75.323
2097.438 0.194 75.21 0.969 -11.135 0.969 -11.135 0.194 75.21
2122.406 0.196 75.096 0.968 -11.266 0.968 -11.266 0.196 75.096
2147.375 0.198 74.982 0.968 -11.396 0.968 -11.396 0.198 74.982
2172.344 0.2 74.868 0.967 -11.526 0.967 -11.526 0.2 74.868
2197.313 0.202 74.753 0.967 -11.657 0.967 -11.657 0.202 74.753
2222.281 0.205 74.638 0.966 -11.787 0.966 -11.787 0.205 74.638
2247.25 0.207 74.523 0.966 -11.917 0.966 -11.917 0.207 74.523
2272.219 0.209 74.408 0.965 -12.047 0.965 -12.047 0.209 74.408
2297.188 0.211 74.292 0.964 -12.177 0.964 -12.177 0.211 74.292
2322.156 0.214 74.176 0.964 -12.306 0.964 -12.306 0.214 74.176
2347.125 0.216 74.06 0.963 -12.436 0.963 -12.436 0.216 74.06
2372.094 0.218 73.943 0.963 -12.566 0.963 -12.566 0.218 73.943
2397.063 0.22 73.826 0.962 -12.696 0.962 -12.696 0.22 73.826
2422.031 0.222 73.71 0.962 -12.825 0.962 -12.825 0.222 73.71
2447 0.225 73.592 0.961 -12.955 0.961 -12.955 0.225 73.592
2471.969 0.227 73.475 0.96 -13.084 0.96 -13.084 0.227 73.475
2496.938 0.229 73.358 0.96 -13.213 0.96 -13.213 0.229 73.358
2521.906 0.231 73.24 0.959 -13.343 0.959 -13.343 0.231 73.24
2546.875 0.233 73.122 0.959 -13.472 0.959 -13.472 0.233 73.122
2571.844 0.236 73.004 0.958 -13.601 0.958 -13.601 0.236 73.004
2596.813 0.238 72.886 0.957 -13.73 0.957 -13.73 0.238 72.886
2621.781 0.24 72.768 0.957 -13.859 0.957 -13.859 0.24 72.768
2646.75 0.242 72.649 0.956 -13.988 0.956 -13.988 0.242 72.649
2671.719 0.244 72.531 0.956 -14.117 0.956 -14.117 0.244 72.531
2696.688 0.247 72.412 0.955 -14.246 0.955 -14.246 0.247 72.412
2721.656 0.249 72.293 0.954 -14.374 0.954 -14.374 0.249 72.293
2746.625 0.251 72.174 0.954 -14.503 0.954 -14.503 0.251 72.174
2771.594 0.253 72.055 0.953 -14.632 0.953 -14.632 0.253 72.055
2796.563 0.255 71.936 0.952 -14.76 0.952 -14.76 0.255 71.936
2821.531 0.257 71.817 0.952 -14.889 0.952 -14.889 0.257 71.817
2846.5 0.26 71.697 0.951 -15.017 0.951 -15.017 0.26 71.697
2871.469 0.262 71.578 0.95 -15.145 0.95 -15.145 0.262 71.578
2896.438 0.264 71.458 0.95 -15.273 0.95 -15.273 0.264 71.458
2921.406 0.266 71.338 0.949 -15.401 0.949 -15.401 0.266 71.338
2946.375 0.268 71.219 0.948 -15.529 0.948 -15.529 0.268 71.219
2971.344 0.27 71.099 0.948 -15.657 0.948 -15.657 0.27 71.099
2996.313 0.272 70.979 0.947 -15.785 0.947 -15.785 0.272 70.979
3021.281 0.275 70.859 0.946 -15.913 0.946 -15.913 0.275 70.859
3046.25 0.277 70.739 0.946 -16.041 0.946 -16.041 0.277 70.739
3071.219 0.279 70.619 0.945 -16.168 0.945 -16.168 0.279 70.619
3096.188 0.281 70.499 0.944 -16.296 0.944 -16.296 0.281 70.499
3121.156 0.283 70.379 0.943 -16.423 0.943 -16.423 0.283 70.379
3146.125 0.285 70.258 0.943 -16.551 0.943 -16.551 0.285 70.258
3171.094 0.287 70.138 0.942 -16.678 0.942 -16.678 0.287 70.138
3196.063 0.29 70.018 0.941 -16.805 0.941 -16.805 0.29 70.018
3221.031 0.292 69.898 0.941 -16.933 0.941 -16.933 0.292 69.898
3246 0.294 69.777 0.94 -17.06 0.94 -17.06 0.294 69.777
3270.969 0.296 69.657 0.939 -17.187 0.939 -17.187 0.296 69.657
3295.938 0.298 69.536 0.938 -17.314 0.938 -17.314 0.298 69.536
3320.906 0.3 69.416 0.938 -17.44 0.938 -17.44 0.3 69.416
3345.875 0.302 69.295 0.937 -17.567 0.937 -17.567 0.302 69.295
3370.844 0.304 69.175 0.936 -17.694 0.936 -17.694 0.304 69.175
3395.813 0.306 69.054 0.935 -17.82 0.935 -17.82 0.306 69.054
3420.781 0.309 68.934 0.935 -17.947 0.935 -17.947 0.309 68.934
3445.75 0.311 68.813 0.934 -18.073 0.934 -18.073 0.311 68.813
3470.719 0.313 68.692 0.933 -18.2 0.933 -18.2 0.313 68.692
3495.688 0.315 68.572 0.932 -18.326 0.932 -18.326 0.315 68.572
3520.656 0.317 68.451 0.931 -18.452 0.931 -18.452 0.317 68.451
3545.625 0.319 68.33 0.931 -18.578 0.931 -18.578 0.319 68.33
3570.594 0.321 68.21 0.93 -18.704 0.93 -18.704 0.321 68.21
3595.563 0.323 68.089 0.929 -18.83 0.929 -18.83 0.323 68.089
3620.531 0.325 67.969 0.928 -18.956 0.928 -18.956 0.325 67.969
3645.5 0.327 67.848 0.928 -19.081 0.928 -19.081 0.327 67.848
3670.469 0.329 67.727 0.927 -19.207 0.927 -19.207 0.329 67.727
3695.438 0.332 67.607 0.926 -19.333 0.926 -19.333 0.332 67.607
3720.406 0.334 67.486 0.925 -19.458 0.925 -19.458 0.334 67.486
3745.375 0.336 67.365 0.924 -19.583 0.924 -19.583 0.336 67.365
3770.344 0.338 67.245 0.923 -19.709 0.923 -19.709 0.338 67.245
3795.313 0.34 67.124 0.923 -19.834 0.923 -19.834 0.34 67.124
3820.281 0.342 67.004 0.922 -19.959 0.922 -19.959 0.342 67.004
3845.25 0.344 66.883 0.921 -20.084 0.921 -20.084 0.344 66.883
3870.219 0.346 66.762 0.92 -20.209 0.92 -20.209 0.346 66.762
3895.188 0.348 66.642 0.919 -20.334 0.919 -20.334 0.348 66.642
3920.156 0.35 66.521 0.918 -20.459 0.918 -20.459 0.35 66.521
3945.125 0.352 66.401 0.918 -20.583 0.918 -20.583 0.352 66.401
3970.094 0.354 66.28 0.917 -20.708 0.917 -20.708 0.354 66.28
3995.063 0.356 66.16 0.916 -20.832 0.916 -20.832 0.356 66.16
4020.031 0.358 66.04 0.915 -20.957 0.915 -20.957 0.358 66.04
4045 0.36 65.919 0.914 -21.081 0.914 -21.081 0.36 65.919
4069.969 0.362 65.799 0.913 -21.205 0.913 -21.205 0.362 65.799
4094.938 0.364 65.678 0.912 -21.329 0.912 -21.329 0.364 65.678
4119.906 0.366 65.558 0.912 -21.453 0.912 -21.453 0.366 65.558
4144.875 0.368 65.438 0.911 -21.577 0.911 -21.577 0.368 65.438
4169.844 0.37 65.318 0.91 -21.701 0.91 -21.701 0.37 65.318
4194.813 0.372 65.197 0.909 -21.825 0.909 -21.825 0.372 65.197
4219.781 0.374 65.077 0.908 -21.948 0.908 -21.948 0.374 65.077
4244.75 0.376 64.957 0.907 -22.072 0.907 -22.072 0.376 64.957
4269.719 0.378 64.837 0.906 -22.195 0.906 -22.195 0.378 64.837
4294.688 0.38 64.717 0.905 -22.319 0.905 -22.319 0.38 64.717
4319.656 0.382 64.597 0.905 -22.442 0.905 -22.442 0.382 64.597
4344.625 0.384 64.477 0.904 -22.565 0.904 -22.565 0.384 64.477
4369.594 0.386 64.357 0.903 -22.688 0.903 -22.688 0.386 64.357
4394.563 0.388 64.237 0.902 -22.811 0.902 -22.811 0.388 64.237
4419.531 0.39 64.117 0.901 -22.934 0.901 -22.934 0.39 64.117
4444.5 0.392 63.998 0.9 -23.057 0.9 -23.057 0.392 63.998
4469.469 0.394 63.878 0.899 -23.18 0.899 -23.18 0.394 63.878
4494.438 0.396 63.758 0.898 -23.302 0.898 -23.302 0.396 63.758
4519.406 0.398 63.639 0.897 -23.425 0.897 -23.425 0.398 63.639
4544.375 0.4 63.519 0.896 -23.547 0.896 -23.547 0.4 63.519
4569.344 0.402 63.399 0.895 -23.669 0.895 -23.669 0.402 63.399
4594.313 0.404 63.28 0.894 -23.792 0.894 -23.792 0.404 63.28
4619.281 0.406 63.161 0.893 -23.914 0.893 -23.914 0.406 63.161
4644.25 0.408 63.041 0.892 -24.036 0.892 -24.036 0.408 63.041
4669.219 0.41 62.922 0.892 -24.158 0.892 -24.158 0.41 62.922
4694.188 0.412 62.803 0.891 -24.279 0.891 -24.279 0.412 62.803
4719.156 0.414 62.683 0.89 -24.401 0.89 -24.401 0.414 62.683
4744.125 0.416 62.564 0.889 -24.523 0.889 -24.523 0.416 62.564
4769.094 0.418 62.445 0.888 -24.644 0.888 -24.644 0.418 62.445
4794.063 0.419 62.326 0.887 -24.766 0.887 -24.766 0.419 62.326
4819.031 0.421 62.207 0.886 -24.887 0.886 -24.887 0.421 62.207
4844 0.423 62.088 0.885 -25.008 0.885 -25.008 0.423 62.088
4868.969 0.425 61.969 0.884 -25.129 0.884 -25.129 0.425 61.969
4893.938 0.427 61.85 0.883 -25.25 0.883 -25.25 0.427 61.85
4918.906 0.429 61.732 0.882 -25.371 0.882 -25.371 0.429 61.732
4943.875 0.431 61.613 0.881 -25.492 0.881 -25.492 0.431 61.613
4968.844 0.433 61.494 0.88 -25.613 0.88 -25.613 0.433 61.494
4993.813 0.435 61.376 0.879 -25.733 0.879 -25.733 0.435 61.376
5018.781 0.437 61.257 0.878 -25.854 0.878 -25.854 0.437 61.257
5043.75 0.439 61.139 0.877 -25.974 0.877 -25.974 0.439 61.139
5068.719 0.44 61.021 0.876 -26.094 0.876 -26.094 0.44 61.021
5093.688 0.442 60.902 0.875 -26.215 0.875 -26.215 0.442 60.902
5118.656 0.444 60.784 0.874 -26.335 0.874 -26.335 0.444 60.784
5143.625 0.446 60.666 0.873 -26.455 0.873 -26.455 0.446 60.666
5168.594 0.448 60.548 0.872 -26.575 0.872 -26.575 0.448 60.548
5193.563 0.45 60.43 0.871 -26.694 0.871 -26.694 0.45 60.43
5218.531 0.452 60.312 0.87 -26.814 0.87 -26.814 0.452 60.312
5243.5 0.454 60.194 0.869 -26.934 0.869 -26.934 0.454 60.194
5268.469 0.455 60.076 0.868 -27.053 0.868 -27.053 0.455 60.076
5293.438 0.457 59.958 0.867 -27.173 0.867 -27.173 0.457 59.958
5318.406 0.459 59.841 0.866 -27.292 0.866 -27.292 0.459 59.841
5343.375 0.461 59.723 0.865 -27.411 0.865 -27.411 0.461 59.723
5368.344 0.463 59.606 0.864 -27.53 0.864 -27.53 0.463 59.606
5393.313 0.465 59.488 0.863 -27.649 0.863 -27.649 0.465 59.488
5418.281 0.466 59.371 0.862 -27.768 0.862 -27.768 0.466 59.371
5443.25 0.468 59.254 0.861 -27.886 0.861 -27.886 0.468 59.254
5468.219 0.47 59.136 0.859 -28.005 0.859 -28.005 0.47 59.136
5493.188 0.472 59.019 0.858 -28.124 0.858 -28.124 0.472 59.019
5518.156 0.474 58.902 0.857 -28.242 0.857 -28.242 0.474 58.902
5543.125 0.476 58.785 0.856 -28.36 0.856 -28.36 0.476 58.785
5568.094 0.477 58.668 0.855 -28.479 0.855 -28.479 0.477 58.668
5593.063 0.479 58.551 0.854 -28.597 0.854 -28.597 0.479 58.551
5618.031 0.481 58.435 0.853 -28.715 0.853 -28.715 0.481 58.435
5643 0.483 58.318 0.852 -28.833 0.852 -28.833 0.483 58.318
5667.969 0.485 58.201 0.851 -28.95 0.851 -28.95 0.485 58.201
5692.938 0.486 58.085 0.85 -29.068 0.85 -29.068 0.486 58.085
5717.906 0.488 57.968 0.849 -29.186 0.849 -29.186 0.488 57.968
5742.875 0.49 57.852 0.848 -29.303 0.848 -29.303 0.49 57.852
5767.844 0.492 57.736 0.847 -29.42 0.847 -29.42 0.492 57.736
5792.813 0.494 57.62 0.846 -29.538 0.846 -29.538 0.494 57.62
5817.781 0.495 57.503 0.844 -29.655 0.844 -29.655 0.495 57.503
5842.75 0.497 57.387 0.843 -29.772 0.843 -29.772 0.497 57.387
5867.719 0.499 57.271 0.842 -29.889 0.842 -29.889 0.499 57.271
5892.688 0.501 57.156 0.841 -30.005 0.841 -30.005 0.501 57.156
5917.656 0.502 57.04 0.84 -30.122 0.84 -30.122 0.502 57.04
5942.625 0.504 56.924 0.839 -30.239 0.839 -30.239 0.504 56.924
5967.594 0.506 56.809 0.838 -30.355 0.838 -30.355 0.506 56.809
5992.563 0.508 56.693 0.837 -30.471 0.837 -30.471 0.508 56.693
6017.531 0.509 56.578 0.836 -30.588 0.836 -30.588 0.509 56.578
6042.5 0.511 56.462 0.835 -30.704 0.835 -30.704 0.511 56.462
6067.469 0.513 56.347 0.833 -30.82 0.833 -30.82 0.513 56.347
6092.438 0.515 56.232 0.832 -30.936 0.832 -30.936 0.515 56.232
6117.406 0.516 56.117 0.831 -31.052 0.831 -31.052 0.516 56.117
6142.375 0.518 56.002 0.83 -31.167 0.83 -31.167 0.518 56.002
6167.344 0.52 55.887 0.829 -31.283 0.829 -31.283 0.52 55.887
6192.313 0.522 55.772 0.828 -31.398 0.828 -31.398 0.522 55.772
6217.281 0.523 55.657 0.827 -31.514 0.827 -31.514 0.523 55.657
6242.25 0.525 55.542 0.826 -31.629 0.826 -31.629 0.525 55.542
6267.219 0.527 55.428 0.824 -31.744 0.824 -31.744 0.527 55.428
6292.188 0.528 55.313 0.823 -31.859 0.823 -31.859 0.528 55.313
6317.156 0.53 55.199 0.822 -31.974 0.822 -31.974 0.53 55.199
6342.125 0.532 55.084 0.821 -32.089 0.821 -32.089 0.532 55.084
6367.094 0.534 54.97 0.82 -32.204 0.82 -32.204 0.534 54.97
6392.063 0.535 54.856 0.819 -32.318 0.819 -32.318 0.535 54.856
6417.031 0.537 54.742 0.818 -32.433 0.818 -32.433 0.537 54.742
6442 0.539 54.628 0.816 -32.547 0.816 -32.547 0.539 54.628
6466.969 0.54 54.514 0.815 -32.661 0.815 -32.661 0.54 54.514
6491.938 0.542 54.4 0.814 -32.775 0.814 -32.775 0.542 54.4
6516.906 0.544 54.287 0.813 -32.889 0.813 -32.889 0.544 54.287
6541.875 0.545 54.173 0.812 -33.003 0.812 -33.003 0.545 54.173
6566.844 0.547 54.06 0.811 -33.117 0.811 -33.117 0.547 54.06
6591.813 0.549 53.946 0.809 -33.231 0.809 -33.231 0.549 53.946
6616.781 0.55 53.833 0.808 -33.344 0.808 -33.344 0.55 53.833
6641.75 0.552 53.72 0.807 -33.458 0.807 -33.458 0.552 53.72
6666.719 0.554 53.607 0.806 -33.571 0.806 -33.571 0.554 53.607
6691.688 0.555 53.493 0.805 -33.684 0.805 -33.684 0.555 53.493
6716.656 0.557 53.381 0.804 -33.797 0.804 -33.797 0.557 53.381
6741.625 0.559 53.268 0.802 -33.91 0.802 -33.91 0.559 53.268
6766.594 0.56 53.155 0.801 -34.023 0.801 -34.023 0.56 53.155
6791.563 0.562 53.042 0.8 -34.136 0.8 -34.136 0.562 53.042
6816.531 0.563 52.93 0.799 -34.249 0.799 -34.249 0.563 52.93
6841.5 0.565 52.817 0.798 -34.361 0.798 -34.361 0.565 52.817
6866.469 0.567 52.705 0.796 -34.474 0.796 -34.474 0.567 52.705
6891.438 0.568 52.592 0.795 -34.586 0.795 -34.586 0.568 52.592
6916.406 0.57 52.48 0.794 -34.698 0.794 -34.698 0.57 52.48
6941.375 0.572 52.368 0.793 -34.81 0.793 -34.81 0.572 52.368
6966.344 0.573 52.256 0.792 -34.922 0.792 -34.922 0.573 52.256
6991.313 0.575 52.144 0.791 -35.034 0.791 -35.034 0.575 52.144
7016.281 0.576 52.032 0.789 -35.146 0.789 -35.146 0.576 52.032
7041.25 0.578 51.921 0.788 -35.258 0.788 -35.258 0.578 51.921
7066.219 0.58 51.809 0.787 -35.369 0.787 -35.369 0.58 51.809
7091.188 0.581 51.697 0.786 -35.48 0.786 -35.48 0.581 51.697
7116.156 0.583 51.586 0.784 -35.592 0.784 -35.592 0.583 51.586
7141.125 0.584 51.475 0.783 -35.703 0.783 -35.703 0.584 51.475
7166.094 0.586 51.363 0.782 -35.814 0.782 -35.814 0.586 51.363
7191.063 0.587 51.252 0.781 -35.925 0.781 -35.925 0.587 51.252
7216.031 0.589 51.141 0.78 -36.036 0.78 -36.036 0.589 51.141
7241 0.591 51.03 0.778 -36.146 0.778 -36.146 0.591 51.03
7265.969 0.592 50.919 0.777 -36.257 0.777 -36.257 0.592 50.919
7290.938 0.594 50.809 0.776 -36.367 0.776 -36.367 0.594 50.809
7315.906 0.595 50.698 0.775 -36.478 0.775 -36.478 0.595 50.698
7340.875 0.597 50.587 0.774 -36.588 0.774 -36.588 0.597 50.587
7365.844 0.598 50.477 0.772 -36.698 0.772 -36.698 0.598 50.477
7390.813 0.6 50.367 0.771 -36.808 0.771 -36.808 0.6 50.367
7415.781 0.601 50.256 0.77 -36.918 0.77 -36.918 0.601 50.256
7440.75 0.603 50.146 0.769 -37.028 0.769 -37.028 0.603 50.146
7465.719 0.604 50.036 0.767 -37.137 0.767 -37.137 0.604 50.036
7490.688 0.606 49.926 0.766 -37.247 0.766 -37.247 0.606 49.926
7515.656 0.608 49.816 0.765 -37.356 0.765 -37.356 0.608 49.816
7540.625 0.609 49.706 0.764 -37.465 0.764 -37.465 0.609 49.706
7565.594 0.611 49.597 0.762 -37.575 0.762 -37.575 0.611 49.597
7590.563 0.612 49.487 0.761 -37.684 0.761 -37.684 0.612 49.487
7615.531 0.614 49.378 0.76 -37.793 0.76 -37.793 0.614 49.378
7640.5 0.615 49.268 0.759 -37.901 0.759 -37.901 0.615 49.268
7665.469 0.617 49.159 0.757 -38.01 0.757 -38.01 0.617 49.159
7690.438 0.618 49.05 0.756 -38.119 0.756 -38.119 0.618 49.05
7715.406 0.62 48.941 0.755 -38.227 0.755 -38.227 0.62 48.941
7740.375 0.621 48.832 0.754 -38.336 0.754 -38.336 0.621 48.832
7765.344 0.623 48.723 0.752 -38.444 0.752 -38.444 0.623 48.723
7790.313 0.624 48.614 0.751 -38.552 0.751 -38.552 0.624 48.614
7815.281 0.625 48.505 0.75 -38.66 0.75 -38.66 0.625 48.505
7840.25 0.627 48.397 0.749 -38.768 0.749 -38.768 0.627 48.397
7865.219 0.628 48.288 0.747 -38.875 0.747 -38.875 0.628 48.288
7890.188 0.63 48.18 0.746 -38.983 0.746 -38.983 0.63 48.18
7915.156 0.631 48.072 0.745 -39.091 0.745 -39.091 0.631 48.072
7940.125 0.633 47.963 0.744 -39.198 0.744 -39.198 0.633 47.963
7965.094 0.634 47.855 0.742 -39.305 0.742 -39.305 0.634 47.855
7990.063 0.636 47.747 0.741 -39.412 0.741 -39.412 0.636 47.747
8015.031 0.637 47.639 0.74 -39.519 0.74 -39.519 0.637 47.639
8040 0.639 47.532 0.739 -39.626 0.739 -39.626 0.639 47.532
8064.969 0.64 47.424 0.737 -39.733 0.737 -39.733 0.64 47.424
8089.938 0.641 47.316 0.736 -39.84 0.736 -39.84 0.641 47.316
8114.906 0.643 47.209 0.735 -39.946 0.735 -39.946 0.643 47.209
8139.875 0.644 47.102 0.733 -40.053 0.733 -40.053 0.644 47.102
