# MHZ S MA R 50

50 3.312e-3 50.773 0.998 -0.147 0.998 -0.147 3.312e-3 50.773
74.969 4.405e-3 60.814 0.998 -0.221 0.998 -0.221 4.405e-3 60.814
99.938 5.581e-3 66.722 0.998 -0.294 0.998 -0.294 5.581e-3 66.722
124.906 6.796e-3 70.521 0.998 -0.368 0.998 -0.368 6.796e-3 70.521
149.875 8.032e-3 73.138 0.998 -0.441 0.998 -0.441 8.032e-3 73.138
174.844 9.281e-3 75.033 0.998 -0.515 0.998 -0.515 9.281e-3 75.033
199.813 0.011 76.46 0.998 -0.588 0.998 -0.588 0.011 76.46
224.781 0.012 77.566 0.998 -0.662 0.998 -0.662 0.012 77.566
249.75 0.013 78.444 0.997 -0.735 0.997 -0.735 0.013 78.444
274.719 0.014 79.153 0.997 -0.809 0.997 -0.809 0.014 79.153
299.688 0.016 79.735 0.997 -0.882 0.997 -0.882 0.016 79.735
324.656 0.017 80.218 0.997 -0.956 0.997 -0.956 0.017 80.218
349.625 0.018 80.623 0.997 -1.029 0.997 -1.029 0.018 80.623
374.594 0.019 80.965 0.997 -1.103 0.997 -1.103 0.019 80.965
399.563 0.021 81.256 0.997 -1.176 0.997 -1.176 0.021 81.256
424.531 0.022 81.504 0.997 -1.25 0.997 -1.25 0.022 81.504
449.5 0.023 81.718 0.997 -1.323 0.997 -1.323 0.023 81.718
474.469 0.025 81.901 0.997 -1.397 0.997 -1.397 0.025 81.901
499.438 0.026 82.059 0.997 -1.47 0.997 -1.47 0.026 82.059
524.406 0.027 82.195 0.997 -1.544 0.997 -1.544 0.027 82.195
549.375 0.028 82.312 0.997 -1.617 0.997 -1.617 0.028 82.312
574.344 0.03 82.412 0.997 -1.691 0.997 -1.691 0.03 82.412
599.313 0.031 82.499 0.996 -1.764 0.996 -1.764 0.031 82.499
624.281 0.032 82.572 0.996 -1.837 0.996 -1.837 0.032 82.572
649.25 0.033 82.635 0.996 -1.911 0.996 -1.911 0.033 82.635
674.219 0.035 82.687 0.996 -1.984 0.996 -1.984 0.035 82.687
699.188 0.036 82.73 0.996 -2.058 0.996 -2.058 0.036 82.73
724.156 0.037 82.766 0.996 -2.131 0.996 -2.131 0.037 82.766
749.125 0.039 82.794 0.996 -2.204 0.996 -2.204 0.039 82.794
774.094 0.04 82.815 0.996 -2.278 0.996 -2.278 0.04 82.815
799.063 0.041 82.831 0.996 -2.351 0.996 -2.351 0.041 82.831
824.031 0.042 82.841 0.996 -2.425 0.996 -2.425 0.042 82.841
849 0.044 82.847 0.996 -2.498 0.996 -2.498 0.044 82.847
873.969 0.045 82.848 0.995 -2.571 0.995 -2.571 0.045 82.848
898.938 0.046 82.845 0.995 -2.645 0.995 -2.645 0.046 82.845
923.906 0.048 82.838 0.995 -2.718 0.995 -2.718 0.048 82.838
948.875 0.049 82.827 0.995 -2.792 0.995 -2.792 0.049 82.827
973.844 0.05 82.813 0.995 -2.865 0.995 -2.865 0.05 82.813
998.813 0.051 82.797 0.995 -2.938 0.995 -2.938 0.051 82.797
1023.781 0.053 82.777 0.995 -3.012 0.995 -3.012 0.053 82.777
1048.75 0.054 82.755 0.995 -3.085 0.995 -3.085 0.054 82.755
1073.719 0.055 82.731 0.995 -3.158 0.995 -3.158 0.055 82.731
1098.688 0.057 82.704 0.994 -3.232 0.994 -3.232 0.057 82.704
1123.656 0.058 82.676 0.994 -3.305 0.994 -3.305 0.058 82.676
1148.625 0.059 82.645 0.994 -3.379 0.994 -3.379 0.059 82.645
1173.594 0.06 82.613 0.994 -3.452 0.994 -3.452 0.06 82.613
1198.563 0.062 82.578 0.994 -3.525 0.994 -3.525 0.062 82.578
1223.531 0.063 82.543 0.994 -3.599 0.994 -3.599 0.063 82.543
1248.5 0.064 82.505 0.994 -3.672 0.994 -3.672 0.064 82.505
1273.469 0.065 82.467 0.994 -3.745 0.994 -3.745 0.065 82.467
1298.438 0.067 82.427 0.993 -3.819 0.993 -3.819 0.067 82.427
1323.406 0.068 82.386 0.993 -3.892 0.993 -3.892 0.068 82.386
1348.375 0.069 82.343 0.993 -3.965 0.993 -3.965 0.069 82.343
1373.344 0.071 82.299 0.993 -4.039 0.993 -4.039 0.071 82.299
1398.313 0.072 82.255 0.993 -4.112 0.993 -4.112 0.072 82.255
1423.281 0.073 82.209 0.993 -4.185 0.993 -4.185 0.073 82.209
1448.25 0.074 82.163 0.993 -4.259 0.993 -4.259 0.074 82.163
1473.219 0.076 82.115 0.992 -4.332 0.992 -4.332 0.076 82.115
1498.188 0.077 82.067 0.992 -4.405 0.992 -4.405 0.077 82.067
1523.156 0.078 82.017 0.992 -4.479 0.992 -4.479 0.078 82.017
1548.125 0.08 81.967 0.992 -4.552 0.992 -4.552 0.08 81.967
1573.094 0.081 81.917 0.992 -4.625 0.992 -4.625 0.081 81.917
1598.063 0.082 81.865 0.992 -4.699 0.992 -4.699 0.082 81.865
1623.031 0.083 81.813 0.992 -4.772 0.992 -4.772 0.083 81.813
1648 0.085 81.76 0.991 -4.846 0.991 -4.846 0.085 81.76
1672.969 0.086 81.707 0.991 -4.919 0.991 -4.919 0.086 81.707
1697.938 0.087 81.653 0.991 -4.992 0.991 -4.992 0.087 81.653
1722.906 0.088 81.598 0.991 -5.066 0.991 -5.066 0.088 81.598
1747.875 0.09 81.543 0.991 -5.139 0.991 -5.139 0.09 81.543
1772.844 0.091 81.487 0.991 -5.212 0.991 -5.212 0.091 81.487
1797.813 0.092 81.431 0.99 -5.286 0.99 -5.286 0.092 81.431
1822.781 0.094 81.375 0.99 -5.359 0.99 -5.359 0.094 81.375
1847.75 0.095 81.318 0.99 -5.432 0.99 -5.432 0.095 81.318
1872.719 0.096 81.26 0.99 -5.506 0.99 -5.506 0.096 81.26
1897.688 0.097 81.202 0.99 -5.579 0.99 -5.579 0.097 81.202
1922.656 0.099 81.144 0.99 -5.652 0.99 -5.652 0.099 81.144
1947.625 0.1 81.085 0.989 -5.726 0.989 -5.726 0.1 81.085
1972.594 0.101 81.026 0.989 -5.799 0.989 -5.799 0.101 81.026
1997.563 0.102 80.966 0.989 -5.872 0.989 -5.872 0.102 80.966
2022.531 0.104 80.907 0.989 -5.946 0.989 -5.946 0.104 80.907
2047.5 0.105 80.846 0.989 -6.019 0.989 -6.019 0.105 80.846
2072.469 0.106 80.786 0.989 -6.092 0.989 -6.092 0.106 80.786
2097.438 0.108 80.725 0.988 -6.166 0.988 -6.166 0.108 80.725
2122.406 0.109 80.664 0.988 -6.239 0.988 -6.239 0.109 80.664
2147.375 0.11 80.602 0.988 -6.313 0.988 -6.313 0.11 80.602
2172.344 0.111 80.541 0.988 -6.386 0.988 -6.386 0.111 80.541
2197.313 0.113 80.479 0.988 -6.459 0.988 -6.459 0.113 80.479
2222.281 0.114 80.417 0.987 -6.533 0.987 -6.533 0.114 80.417
2247.25 0.115 80.354 0.987 -6.606 0.987 -6.606 0.115 80.354
2272.219 0.116 80.291 0.987 -6.679 0.987 -6.679 0.116 80.291
2297.188 0.118 80.228 0.987 -6.753 0.987 -6.753 0.118 80.228
2322.156 0.119 80.165 0.987 -6.826 0.987 -6.826 0.119 80.165
2347.125 0.12 80.102 0.986 -6.899 0.986 -6.899 0.12 80.102
2372.094 0.122 80.038 0.986 -6.973 0.986 -6.973 0.122 80.038
2397.063 0.123 79.974 0.986 -7.046 0.986 -7.046 0.123 79.974
2422.031 0.124 79.91 0.986 -7.12 0.986 -7.12 0.124 79.91
2447 0.125 79.846 0.986 -7.193 0.986 -7.193 0.125 79.846
2471.969 0.127 79.781 0.985 -7.266 0.985 -7.266 0.127 79.781
2496.938 0.128 79.716 0.985 -7.34 0.985 -7.34 0.128 79.716
2521.906 0.129 79.652 0.985 -7.413 0.985 -7.413 0.129 79.652
2546.875 0.13 79.587 0.985 -7.487 0.985 -7.487 0.13 79.587
2571.844 0.132 79.521 0.985 -7.56 0.985 -7.56 0.132 79.521
2596.813 0.133 79.456 0.984 -7.633 0.984 -7.633 0.133 79.456
2621.781 0.134 79.39 0.984 -7.707 0.984 -7.707 0.134 79.39
2646.75 0.136 79.325 0.984 -7.78 0.984 -7.78 0.136 79.325
2671.719 0.137 79.259 0.984 -7.854 0.984 -7.854 0.137 79.259
2696.688 0.138 79.193 0.984 -7.927 0.984 -7.927 0.138 79.193
2721.656 0.139 79.127 0.983 -8.001 0.983 -8.001 0.139 79.127
2746.625 0.141 79.06 0.983 -8.074 0.983 -8.074 0.141 79.06
2771.594 0.142 78.994 0.983 -8.147 0.983 -8.147 0.142 78.994
2796.563 0.143 78.927 0.983 -8.221 0.983 -8.221 0.143 78.927
2821.531 0.144 78.861 0.982 -8.294 0.982 -8.294 0.144 78.861
2846.5 0.146 78.794 0.982 -8.368 0.982 -8.368 0.146 78.794
2871.469 0.147 78.727 0.982 -8.441 0.982 -8.441 0.147 78.727
2896.438 0.148 78.66 0.982 -8.515 0.982 -8.515 0.148 78.66
2921.406 0.15 78.592 0.981 -8.588 0.981 -8.588 0.15 78.592
2946.375 0.151 78.525 0.981 -8.662 0.981 -8.662 0.151 78.525
2971.344 0.152 78.458 0.981 -8.735 0.981 -8.735 0.152 78.458
2996.313 0.153 78.39 0.981 -8.809 0.981 -8.809 0.153 78.39
3021.281 0.155 78.322 0.98 -8.882 0.98 -8.882 0.155 78.322
3046.25 0.156 78.254 0.98 -8.956 0.98 -8.956 0.156 78.254
3071.219 0.157 78.186 0.98 -9.029 0.98 -9.029 0.157 78.186
3096.188 0.158 78.118 0.98 -9.103 0.98 -9.103 0.158 78.118
3121.156 0.16 78.05 0.979 -9.176 0.979 -9.176 0.16 78.05
3146.125 0.161 77.982 0.979 -9.25 0.979 -9.25 0.161 77.982
3171.094 0.162 77.914 0.979 -9.323 0.979 -9.323 0.162 77.914
3196.063 0.163 77.845 0.979 -9.397 0.979 -9.397 0.163 77.845
3221.031 0.165 77.777 0.978 -9.47 0.978 -9.47 0.165 77.777
3246 0.166 77.708 0.978 -9.544 0.978 -9.544 0.166 77.708
3270.969 0.167 77.64 0.978 -9.617 0.978 -9.617 0.167 77.64
3295.938 0.169 77.571 0.978 -9.691 0.978 -9.691 0.169 77.571
3320.906 0.17 77.502 0.977 -9.764 0.977 -9.764 0.17 77.502
3345.875 0.171 77.433 0.977 -9.838 0.977 -9.838 0.171 77.433
3370.844 0.172 77.364 0.977 -9.912 0.977 -9.912 0.172 77.364
3395.813 0.174 77.295 0.977 -9.985 0.977 -9.985 0.174 77.295
3420.781 0.175 77.226 0.976 -10.059 0.976 -10.059 0.175 77.226
3445.75 0.176 77.156 0.976 -10.132 0.976 -10.132 0.176 77.156
3470.719 0.177 77.087 0.976 -10.206 0.976 -10.206 0.177 77.087
3495.688 0.179 77.018 0.976 -10.28 0.976 -10.28 0.179 77.018
3520.656 0.18 76.948 0.975 -10.353 0.975 -10.353 0.18 76.948
3545.625 0.181 76.879 0.975 -10.427 0.975 -10.427 0.181 76.879
3570.594 0.182 76.809 0.975 -10.5 0.975 -10.5 0.182 76.809
3595.563 0.184 76.739 0.974 -10.574 0.974 -10.574 0.184 76.739
3620.531 0.185 76.669 0.974 -10.648 0.974 -10.648 0.185 76.669
3645.5 0.186 76.599 0.974 -10.721 0.974 -10.721 0.186 76.599
3670.469 0.187 76.53 0.974 -10.795 0.974 -10.795 0.187 76.53
3695.438 0.189 76.46 0.973 -10.869 0.973 -10.869 0.189 76.46
3720.406 0.19 76.389 0.973 -10.942 0.973 -10.942 0.19 76.389
3745.375 0.191 76.319 0.973 -11.016 0.973 -11.016 0.191 76.319
3770.344 0.193 76.249 0.972 -11.09 0.972 -11.09 0.193 76.249
3795.313 0.194 76.179 0.972 -11.163 0.972 -11.163 0.194 76.179
3820.281 0.195 76.109 0.972 -11.237 0.972 -11.237 0.195 76.109
3845.25 0.196 76.038 0.971 -11.311 0.971 -11.311 0.196 76.038
3870.219 0.198 75.968 0.971 -11.384 0.971 -11.384 0.198 75.968
3895.188 0.199 75.897 0.971 -11.458 0.971 -11.458 0.199 75.897
3920.156 0.2 75.827 0.971 -11.532 0.971 -11.532 0.2 75.827
3945.125 0.201 75.756 0.97 -11.606 0.97 -11.606 0.201 75.756
3970.094 0.203 75.685 0.97 -11.679 0.97 -11.679 0.203 75.685
3995.063 0.204 75.615 0.97 -11.753 0.97 -11.753 0.204 75.615
4020.031 0.205 75.544 0.969 -11.827 0.969 -11.827 0.205 75.544
4045 0.206 75.473 0.969 -11.901 0.969 -11.901 0.206 75.473
4069.969 0.208 75.402 0.969 -11.975 0.969 -11.975 0.208 75.402
4094.938 0.209 75.331 0.968 -12.048 0.968 -12.048 0.209 75.331
4119.906 0.21 75.26 0.968 -12.122 0.968 -12.122 0.21 75.26
4144.875 0.211 75.189 0.968 -12.196 0.968 -12.196 0.211 75.189
4169.844 0.213 75.118 0.967 -12.27 0.967 -12.27 0.213 75.118
4194.813 0.214 75.047 0.967 -12.344 0.967 -12.344 0.214 75.047
4219.781 0.215 74.976 0.967 -12.417 0.967 -12.417 0.215 74.976
4244.75 0.217 74.904 0.966 -12.491 0.966 -12.491 0.217 74.904
4269.719 0.218 74.833 0.966 -12.565 0.966 -12.565 0.218 74.833
4294.688 0.219 74.762 0.966 -12.639 0.966 -12.639 0.219 74.762
4319.656 0.22 74.69 0.966 -12.713 0.966 -12.713 0.22 74.69
4344.625 0.222 74.619 0.965 -12.787 0.965 -12.787 0.222 74.619
4369.594 0.223 74.547 0.965 -12.861 0.965 -12.861 0.223 74.547
4394.563 0.224 74.476 0.965 -12.935 0.965 -12.935 0.224 74.476
4419.531 0.225 74.404 0.964 -13.009 0.964 -13.009 0.225 74.404
4444.5 0.227 74.333 0.964 -13.082 0.964 -13.082 0.227 74.333
4469.469 0.228 74.261 0.963 -13.156 0.963 -13.156 0.228 74.261
4494.438 0.229 74.189 0.963 -13.23 0.963 -13.23 0.229 74.189
4519.406 0.23 74.117 0.963 -13.304 0.963 -13.304 0.23 74.117
4544.375 0.232 74.046 0.962 -13.378 0.962 -13.378 0.232 74.046
4569.344 0.233 73.974 0.962 -13.452 0.962 -13.452 0.233 73.974
4594.313 0.234 73.902 0.962 -13.526 0.962 -13.526 0.234 73.902
4619.281 0.235 73.83 0.961 -13.6 0.961 -13.6 0.235 73.83
4644.25 0.237 73.758 0.961 -13.674 0.961 -13.674 0.237 73.758
4669.219 0.238 73.686 0.961 -13.748 0.961 -13.748 0.238 73.686
4694.188 0.239 73.614 0.96 -13.822 0.96 -13.822 0.239 73.614
4719.156 0.24 73.542 0.96 -13.896 0.96 -13.896 0.24 73.542
4744.125 0.242 73.47 0.96 -13.97 0.96 -13.97 0.242 73.47
4769.094 0.243 73.397 0.959 -14.044 0.959 -14.044 0.243 73.397
4794.063 0.244 73.325 0.959 -14.119 0.959 -14.119 0.244 73.325
4819.031 0.245 73.253 0.959 -14.193 0.959 -14.193 0.245 73.253
4844 0.247 73.18 0.958 -14.267 0.958 -14.267 0.247 73.18
4868.969 0.248 73.108 0.958 -14.341 0.958 -14.341 0.248 73.108
4893.938 0.249 73.036 0.957 -14.415 0.957 -14.415 0.249 73.036
4918.906 0.25 72.963 0.957 -14.489 0.957 -14.489 0.25 72.963
4943.875 0.252 72.891 0.957 -14.563 0.957 -14.563 0.252 72.891
4968.844 0.253 72.818 0.956 -14.637 0.956 -14.637 0.253 72.818
4993.813 0.254 72.746 0.956 -14.712 0.956 -14.712 0.254 72.746
5018.781 0.255 72.673 0.956 -14.786 0.956 -14.786 0.255 72.673
5043.75 0.257 72.601 0.955 -14.86 0.955 -14.86 0.257 72.601
5068.719 0.258 72.528 0.955 -14.934 0.955 -14.934 0.258 72.528
5093.688 0.259 72.455 0.954 -15.008 0.954 -15.008 0.259 72.455
5118.656 0.26 72.382 0.954 -15.083 0.954 -15.083 0.26 72.382
5143.625 0.262 72.31 0.954 -15.157 0.954 -15.157 0.262 72.31
5168.594 0.263 72.237 0.953 -15.231 0.953 -15.231 0.263 72.237
5193.563 0.264 72.164 0.953 -15.305 0.953 -15.305 0.264 72.164
5218.531 0.265 72.091 0.952 -15.38 0.952 -15.38 0.265 72.091
5243.5 0.267 72.018 0.952 -15.454 0.952 -15.454 0.267 72.018
5268.469 0.268 71.945 0.952 -15.528 0.952 -15.528 0.268 71.945
5293.438 0.269 71.872 0.951 -15.602 0.951 -15.602 0.269 71.872
5318.406 0.27 71.799 0.951 -15.677 0.951 -15.677 0.27 71.799
5343.375 0.272 71.726 0.95 -15.751 0.95 -15.751 0.272 71.726
5368.344 0.273 71.653 0.95 -15.825 0.95 -15.825 0.273 71.653
5393.313 0.274 71.58 0.95 -15.9 0.95 -15.9 0.274 71.58
5418.281 0.275 71.507 0.949 -15.974 0.949 -15.974 0.275 71.507
5443.25 0.277 71.434 0.949 -16.049 0.949 -16.049 0.277 71.434
5468.219 0.278 71.36 0.948 -16.123 0.948 -16.123 0.278 71.36
5493.188 0.279 71.287 0.948 -16.197 0.948 -16.197 0.279 71.287
5518.156 0.28 71.214 0.948 -16.272 0.948 -16.272 0.28 71.214
5543.125 0.282 71.141 0.947 -16.346 0.947 -16.346 0.282 71.141
5568.094 0.283 71.067 0.947 -16.421 0.947 -16.421 0.283 71.067
5593.063 0.284 70.994 0.946 -16.495 0.946 -16.495 0.284 70.994
5618.031 0.285 70.92 0.946 -16.57 0.946 -16.57 0.285 70.92
5643 0.287 70.847 0.946 -16.644 0.946 -16.644 0.287 70.847
5667.969 0.288 70.773 0.945 -16.719 0.945 -16.719 0.288 70.773
5692.938 0.289 70.7 0.945 -16.793 0.945 -16.793 0.289 70.7
5717.906 0.29 70.626 0.944 -16.868 0.944 -16.868 0.29 70.626
5742.875 0.292 70.553 0.944 -16.942 0.944 -16.942 0.292 70.553
5767.844 0.293 70.479 0.943 -17.017 0.943 -17.017 0.293 70.479
5792.813 0.294 70.405 0.943 -17.091 0.943 -17.091 0.294 70.405
5817.781 0.295 70.332 0.943 -17.166 0.943 -17.166 0.295 70.332
5842.75 0.297 70.258 0.942 -17.241 0.942 -17.241 0.297 70.258
5867.719 0.298 70.184 0.942 -17.315 0.942 -17.315 0.298 70.184
5892.688 0.299 70.111 0.941 -17.39 0.941 -17.39 0.299 70.111
5917.656 0.3 70.037 0.941 -17.464 0.941 -17.464 0.3 70.037
5942.625 0.302 69.963 0.94 -17.539 0.94 -17.539 0.302 69.963
5967.594 0.303 69.889 0.94 -17.614 0.94 -17.614 0.303 69.889
5992.563 0.304 69.815 0.939 -17.688 0.939 -17.688 0.304 69.815
6017.531 0.305 69.741 0.939 -17.763 0.939 -17.763 0.305 69.741
6042.5 0.307 69.667 0.939 -17.838 0.939 -17.838 0.307 69.667
6067.469 0.308 69.593 0.938 -17.913 0.938 -17.913 0.308 69.593
6092.438 0.309 69.519 0.938 -17.987 0.938 -17.987 0.309 69.519
6117.406 0.31 69.445 0.937 -18.062 0.937 -18.062 0.31 69.445
6142.375 0.312 69.371 0.937 -18.137 0.937 -18.137 0.312 69.371
6167.344 0.313 69.297 0.936 -18.212 0.936 -18.212 0.313 69.297
6192.313 0.314 69.223 0.936 -18.286 0.936 -18.286 0.314 69.223
6217.281 0.315 69.148 0.935 -18.361 0.935 -18.361 0.315 69.148
6242.25 0.317 69.074 0.935 -18.436 0.935 -18.436 0.317 69.074
6267.219 0.318 69 0.934 -18.511 0.934 -18.511 0.318 69
6292.188 0.319 68.926 0.934 -18.586 0.934 -18.586 0.319 68.926
6317.156 0.32 68.851 0.934 -18.661 0.934 -18.661 0.32 68.851
6342.125 0.322 68.777 0.933 -18.736 0.933 -18.736 0.322 68.777
6367.094 0.323 68.703 0.933 -18.81 0.933 -18.81 0.323 68.703
6392.063 0.324 68.628 0.932 -18.885 0.932 -18.885 0.324 68.628
6417.031 0.325 68.554 0.932 -18.96 0.932 -18.96 0.325 68.554
6442 0.326 68.479 0.931 -19.035 0.931 -19.035 0.326 68.479
6466.969 0.328 68.405 0.931 -19.11 0.931 -19.11 0.328 68.405
6491.938 0.329 68.33 0.93 -19.185 0.93 -19.185 0.329 68.33
6516.906 0.33 68.256 0.93 -19.26 0.93 -19.26 0.33 68.256
6541.875 0.331 68.181 0.929 -19.335 0.929 -19.335 0.331 68.181
6566.844 0.333 68.107 0.929 -19.41 0.929 -19.41 0.333 68.107
6591.813 0.334 68.032 0.928 -19.485 0.928 -19.485 0.334 68.032
6616.781 0.335 67.957 0.928 -19.56 0.928 -19.56 0.335 67.957
6641.75 0.336 67.883 0.927 -19.635 0.927 -19.635 0.336 67.883
6666.719 0.338 67.808 0.927 -19.71 0.927 -19.71 0.338 67.808
6691.688 0.339 67.733 0.926 -19.786 0.926 -19.786 0.339 67.733
6716.656 0.34 67.658 0.926 -19.861 0.926 -19.861 0.34 67.658
6741.625 0.341 67.584 0.925 -19.936 0.925 -19.936 0.341 67.584
6766.594 0.343 67.509 0.925 -20.011 0.925 -20.011 0.343 67.509
6791.563 0.344 67.434 0.924 -20.086 0.924 -20.086 0.344 67.434
6816.531 0.345 67.359 0.924 -20.161 0.924 -20.161 0.345 67.359
6841.5 0.346 67.284 0.923 -20.236 0.923 -20.236 0.346 67.284
6866.469 0.347 67.209 0.923 -20.312 0.923 -20.312 0.347 67.209
6891.438 0.349 67.134 0.922 -20.387 0.922 -20.387 0.349 67.134
6916.406 0.35 67.059 0.922 -20.462 0.922 -20.462 0.35 67.059
6941.375 0.351 66.984 0.921 -20.537 0.921 -20.537 0.351 66.984
6966.344 0.352 66.909 0.921 -20.613 0.921 -20.613 0.352 66.909
6991.313 0.354 66.834 0.92 -20.688 0.92 -20.688 0.354 66.834
7016.281 0.355 66.759 0.92 -20.763 0.92 -20.763 0.355 66.759
7041.25 0.356 66.684 0.919 -20.839 0.919 -20.839 0.356 66.684
7066.219 0.357 66.608 0.919 -20.914 0.919 -20.914 0.357 66.608
7091.188 0.359 66.533 0.918 -20.989 0.918 -20.989 0.359 66.533
7116.156 0.36 66.458 0.918 -21.065 0.918 -21.065 0.36 66.458
7141.125 0.361 66.383 0.917 -21.14 0.917 -21.14 0.361 66.383
7166.094 0.362 66.307 0.917 -21.215 0.917 -21.215 0.362 66.307
7191.063 0.363 66.232 0.916 -21.291 0.916 -21.291 0.363 66.232
7216.031 0.365 66.157 0.916 -21.366 0.916 -21.366 0.365 66.157
7241 0.366 66.081 0.915 -21.442 0.915 -21.442 0.366 66.081
7265.969 0.367 66.006 0.914 -21.517 0.914 -21.517 0.367 66.006
7290.938 0.368 65.93 0.914 -21.593 0.914 -21.593 0.368 65.93
7315.906 0.37 65.855 0.913 -21.668 0.913 -21.668 0.37 65.855
7340.875 0.371 65.779 0.913 -21.744 0.913 -21.744 0.371 65.779
7365.844 0.372 65.704 0.912 -21.819 0.912 -21.819 0.372 65.704
7390.813 0.373 65.628 0.912 -21.895 0.912 -21.895 0.373 65.628
7415.781 0.374 65.553 0.911 -21.97 0.911 -21.97 0.374 65.553
7440.75 0.376 65.477 0.911 -22.046 0.911 -22.046 0.376 65.477
7465.719 0.377 65.401 0.91 -22.121 0.91 -22.121 0.377 65.401
7490.688 0.378 65.326 0.91 -22.197 0.91 -22.197 0.378 65.326
7515.656 0.379 65.25 0.909 -22.273 0.909 -22.273 0.379 65.25
7540.625 0.381 65.174 0.908 -22.348 0.908 -22.348 0.381 65.174
7565.594 0.382 65.099 0.908 -22.424 0.908 -22.424 0.382 65.099
7590.563 0.383 65.023 0.907 -22.5 0.907 -22.5 0.383 65.023
7615.531 0.384 64.947 0.907 -22.575 0.907 -22.575 0.384 64.947
7640.5 0.385 64.871 0.906 -22.651 0.906 -22.651 0.385 64.871
7665.469 0.387 64.795 0.906 -22.727 0.906 -22.727 0.387 64.795
7690.438 0.388 64.719 0.905 -22.803 0.905 -22.803 0.388 64.719
7715.406 0.389 64.643 0.905 -22.878 0.905 -22.878 0.389 64.643
7740.375 0.39 64.568 0.904 -22.954 0.904 -22.954 0.39 64.568
7765.344 0.392 64.492 0.903 -23.03 0.903 -23.03 0.392 64.492
7790.313 0.393 64.416 0.903 -23.106 0.903 -23.106 0.393 64.416
7815.281 0.394 64.339 0.902 -23.182 0.902 -23.182 0.394 64.339
7840.25 0.395 64.263 0.902 -23.258 0.902 -23.258 0.395 64.263
7865.219 0.396 64.187 0.901 -23.333 0.901 -23.333 0.396 64.187
7890.188 0.398 64.111 0.9 -23.409 0.9 -23.409 0.398 64.111
7915.156 0.399 64.035 0.9 -23.485 0.9 -23.485 0.399 64.035
7940.125 0.4 63.959 0.899 -23.561 0.899 -23.561 0.4 63.959
7965.094 0.401 63.883 0.899 -23.637 0.899 -23.637 0.401 63.883
7990.063 0.403 63.806 0.898 -23.713 0.898 -23.713 0.403 63.806
8015.031 0.404 63.73 0.898 -23.789 0.898 -23.789 0.404 63.73
8040 0.405 63.654 0.897 -23.865 0.897 -23.865 0.405 63.654
8064.969 0.406 63.578 0.896 -23.941 0.896 -23.941 0.406 63.578
8089.938 0.407 63.501 0.896 -24.017 0.896 -24.017 0.407 63.501
8114.906 0.409 63.425 0.895 -24.093 0.895 -24.093 0.409 63.425
8139.875 0.41 63.348 0.895 -24.169 0.895 -24.169 0.41 63.348
8164.844 0.411 63.272 0.894 -24.245 0.894 -24.245 0.411 63.272
8189.813 0.412 63.196 0.893 -24.321 0.893 -24.321 0.412 63.196
