# MHZ S MA R 50

50 0.011 48.472 0.993 -0.482 0.993 -0.482 0.011 48.472
74.969 0.015 58.489 0.992 -0.723 0.992 -0.723 0.015 58.489
99.938 0.019 64.413 0.992 -0.964 0.992 -0.964 0.019 64.413
124.906 0.022 68.2 0.992 -1.204 0.992 -1.204 0.022 68.2
149.875 0.026 70.772 0.992 -1.445 0.992 -1.445 0.026 70.772
174.844 0.031 72.597 0.991 -1.685 0.991 -1.685 0.031 72.597
199.813 0.035 73.934 0.991 -1.925 0.991 -1.925 0.035 73.934
224.781 0.039 74.937 0.991 -2.165 0.991 -2.165 0.039 74.937
249.75 0.043 75.7 0.99 -2.405 0.99 -2.405 0.043 75.7
274.719 0.047 76.287 0.99 -2.645 0.99 -2.645 0.047 76.287
299.688 0.051 76.739 0.99 -2.885 0.99 -2.885 0.051 76.739
324.656 0.055 77.088 0.989 -3.125 0.989 -3.125 0.055 77.088
349.625 0.059 77.354 0.989 -3.364 0.989 -3.364 0.059 77.354
374.594 0.064 77.555 0.988 -3.603 0.988 -3.603 0.064 77.555
399.563 0.068 77.701 0.988 -3.842 0.988 -3.842 0.068 77.701
424.531 0.072 77.803 0.987 -4.081 0.987 -4.081 0.072 77.803
449.5 0.076 77.868 0.987 -4.32 0.987 -4.32 0.076 77.868
474.469 0.08 77.901 0.986 -4.559 0.986 -4.559 0.08 77.901
499.438 0.084 77.907 0.986 -4.797 0.986 -4.797 0.084 77.907
524.406 0.088 77.891 0.985 -5.036 0.985 -5.036 0.088 77.891
549.375 0.093 77.854 0.985 -5.274 0.985 -5.274 0.093 77.854
574.344 0.097 77.801 0.984 -5.512 0.984 -5.512 0.097 77.801
599.313 0.101 77.732 0.984 -5.749 0.984 -5.749 0.101 77.732
624.281 0.105 77.65 0.983 -5.987 0.983 -5.987 0.105 77.65
649.25 0.109 77.557 0.982 -6.224 0.982 -6.224 0.109 77.557
674.219 0.113 77.452 0.982 -6.462 0.982 -6.462 0.113 77.452
699.188 0.117 77.339 0.981 -6.699 0.981 -6.699 0.117 77.339
724.156 0.121 77.217 0.98 -6.936 0.98 -6.936 0.121 77.217
749.125 0.125 77.088 0.98 -7.172 0.98 -7.172 0.125 77.088
774.094 0.13 76.953 0.979 -7.409 0.979 -7.409 0.13 76.953
799.063 0.134 76.811 0.978 -7.645 0.978 -7.645 0.134 76.811
824.031 0.138 76.663 0.977 -7.881 0.977 -7.881 0.138 76.663
849 0.142 76.511 0.977 -8.117 0.977 -8.117 0.142 76.511
873.969 0.146 76.354 0.976 -8.352 0.976 -8.352 0.146 76.354
898.938 0.15 76.193 0.975 -8.588 0.975 -8.588 0.15 76.193
923.906 0.154 76.028 0.974 -8.823 0.974 -8.823 0.154 76.028
948.875 0.158 75.859 0.974 -9.058 0.974 -9.058 0.158 75.859
973.844 0.162 75.688 0.973 -9.292 0.973 -9.292 0.162 75.688
998.813 0.166 75.513 0.972 -9.527 0.972 -9.527 0.166 75.513
1023.781 0.17 75.336 0.971 -9.761 0.971 -9.761 0.17 75.336
1048.75 0.174 75.156 0.97 -9.995 0.97 -9.995 0.174 75.156
1073.719 0.178 74.974 0.969 -10.229 0.969 -10.229 0.178 74.974
1098.688 0.182 74.79 0.968 -10.462 0.968 -10.462 0.182 74.79
1123.656 0.186 74.603 0.967 -10.695 0.967 -10.695 0.186 74.603
1148.625 0.19 74.415 0.966 -10.928 0.966 -10.928 0.19 74.415
1173.594 0.194 74.226 0.965 -11.161 0.965 -11.161 0.194 74.226
1198.563 0.198 74.034 0.964 -11.394 0.964 -11.394 0.198 74.034
1223.531 0.202 73.842 0.964 -11.626 0.964 -11.626 0.202 73.842
1248.5 0.206 73.648 0.963 -11.858 0.963 -11.858 0.206 73.648
1273.469 0.21 73.452 0.961 -12.089 0.961 -12.089 0.21 73.452
1298.438 0.214 73.256 0.96 -12.321 0.96 -12.321 0.214 73.256
1323.406 0.218 73.058 0.959 -12.552 0.959 -12.552 0.218 73.058
1348.375 0.222 72.86 0.958 -12.783 0.958 -12.783 0.222 72.86
1373.344 0.226 72.66 0.957 -13.013 0.957 -13.013 0.226 72.66
1398.313 0.23 72.46 0.956 -13.244 0.956 -13.244 0.23 72.46
1423.281 0.234 72.259 0.955 -13.474 0.955 -13.474 0.234 72.259
1448.25 0.238 72.057 0.954 -13.703 0.954 -13.703 0.238 72.057
1473.219 0.241 71.854 0.953 -13.933 0.953 -13.933 0.241 71.854
1498.188 0.245 71.651 0.952 -14.162 0.952 -14.162 0.245 71.651
1523.156 0.249 71.447 0.951 -14.391 0.951 -14.391 0.249 71.447
1548.125 0.253 71.243 0.949 -14.619 0.949 -14.619 0.253 71.243
1573.094 0.257 71.038 0.948 -14.848 0.948 -14.848 0.257 71.038
1598.063 0.261 70.833 0.947 -15.076 0.947 -15.076 0.261 70.833
1623.031 0.265 70.627 0.946 -15.303 0.946 -15.303 0.265 70.627
1648 0.268 70.421 0.945 -15.53 0.945 -15.53 0.268 70.421
1672.969 0.272 70.214 0.943 -15.757 0.943 -15.757 0.272 70.214
1697.938 0.276 70.007 0.942 -15.984 0.942 -15.984 0.276 70.007
1722.906 0.28 69.8 0.941 -16.211 0.941 -16.211 0.28 69.8
1747.875 0.284 69.593 0.939 -16.437 0.939 -16.437 0.284 69.593
1772.844 0.287 69.385 0.938 -16.662 0.938 -16.662 0.287 69.385
1797.813 0.291 69.177 0.937 -16.888 0.937 -16.888 0.291 69.177
1822.781 0.295 68.969 0.936 -17.113 0.936 -17.113 0.295 68.969
1847.75 0.299 68.761 0.934 -17.338 0.934 -17.338 0.299 68.761
1872.719 0.302 68.552 0.933 -17.562 0.933 -17.562 0.302 68.552
1897.688 0.306 68.344 0.932 -17.786 0.932 -17.786 0.306 68.344
1922.656 0.31 68.135 0.93 -18.01 0.93 -18.01 0.31 68.135
1947.625 0.314 67.926 0.929 -18.233 0.929 -18.233 0.314 67.926
1972.594 0.317 67.718 0.927 -18.456 0.927 -18.456 0.317 67.718
1997.563 0.321 67.509 0.926 -18.679 0.926 -18.679 0.321 67.509
2022.531 0.325 67.3 0.925 -18.901 0.925 -18.901 0.325 67.3
2047.5 0.328 67.091 0.923 -19.123 0.923 -19.123 0.328 67.091
2072.469 0.332 66.882 0.922 -19.345 0.922 -19.345 0.332 66.882
2097.438 0.336 66.673 0.92 -19.566 0.92 -19.566 0.336 66.673
2122.406 0.339 66.464 0.919 -19.787 0.919 -19.787 0.339 66.464
2147.375 0.343 66.255 0.917 -20.008 0.917 -20.008 0.343 66.255
2172.344 0.346 66.046 0.916 -20.228 0.916 -20.228 0.346 66.046
2197.313 0.35 65.837 0.914 -20.448 0.914 -20.448 0.35 65.837
2222.281 0.354 65.629 0.913 -20.668 0.913 -20.668 0.354 65.629
2247.25 0.357 65.42 0.911 -20.887 0.911 -20.887 0.357 65.42
2272.219 0.361 65.211 0.91 -21.106 0.91 -21.106 0.361 65.211
2297.188 0.364 65.003 0.908 -21.324 0.908 -21.324 0.364 65.003
2322.156 0.368 64.795 0.907 -21.542 0.907 -21.542 0.368 64.795
2347.125 0.371 64.586 0.905 -21.76 0.905 -21.76 0.371 64.586
2372.094 0.375 64.378 0.903 -21.977 0.903 -21.977 0.375 64.378
2397.063 0.379 64.17 0.902 -22.194 0.902 -22.194 0.379 64.17
2422.031 0.382 63.962 0.9 -22.411 0.9 -22.411 0.382 63.962
2447 0.386 63.755 0.899 -22.627 0.899 -22.627 0.386 63.755
2471.969 0.389 63.547 0.897 -22.843 0.897 -22.843 0.389 63.547
2496.938 0.392 63.34 0.895 -23.058 0.895 -23.058 0.392 63.34
2521.906 0.396 63.133 0.894 -23.274 0.894 -23.274 0.396 63.133
2546.875 0.399 62.926 0.892 -23.488 0.892 -23.488 0.399 62.926
2571.844 0.403 62.719 0.891 -23.703 0.891 -23.703 0.403 62.719
2596.813 0.406 62.512 0.889 -23.916 0.889 -23.916 0.406 62.512
2621.781 0.41 62.306 0.887 -24.13 0.887 -24.13 0.41 62.306
2646.75 0.413 62.099 0.885 -24.343 0.885 -24.343 0.413 62.099
2671.719 0.416 61.893 0.884 -24.556 0.884 -24.556 0.416 61.893
2696.688 0.42 61.688 0.882 -24.768 0.882 -24.768 0.42 61.688
2721.656 0.423 61.482 0.88 -24.98 0.88 -24.98 0.423 61.482
2746.625 0.426 61.277 0.879 -25.192 0.879 -25.192 0.426 61.277
2771.594 0.43 61.071 0.877 -25.403 0.877 -25.403 0.43 61.071
2796.563 0.433 60.867 0.875 -25.614 0.875 -25.614 0.433 60.867
2821.531 0.436 60.662 0.873 -25.824 0.873 -25.824 0.436 60.662
2846.5 0.44 60.458 0.872 -26.034 0.872 -26.034 0.44 60.458
2871.469 0.443 60.253 0.87 -26.244 0.87 -26.244 0.443 60.253
2896.438 0.446 60.05 0.868 -26.453 0.868 -26.453 0.446 60.05
2921.406 0.45 59.846 0.866 -26.662 0.866 -26.662 0.45 59.846
2946.375 0.453 59.643 0.864 -26.87 0.864 -26.87 0.453 59.643
2971.344 0.456 59.439 0.863 -27.078 0.863 -27.078 0.456 59.439
2996.313 0.459 59.237 0.861 -27.286 0.861 -27.286 0.459 59.237
3021.281 0.462 59.034 0.859 -27.493 0.859 -27.493 0.462 59.034
3046.25 0.466 58.832 0.857 -27.699 0.857 -27.699 0.466 58.832
3071.219 0.469 58.63 0.855 -27.906 0.855 -27.906 0.469 58.63
3096.188 0.472 58.428 0.854 -28.112 0.854 -28.112 0.472 58.428
3121.156 0.475 58.227 0.852 -28.317 0.852 -28.317 0.475 58.227
3146.125 0.478 58.026 0.85 -28.522 0.85 -28.522 0.478 58.026
3171.094 0.482 57.825 0.848 -28.727 0.848 -28.727 0.482 57.825
3196.063 0.485 57.624 0.846 -28.931 0.846 -28.931 0.485 57.624
3221.031 0.488 57.424 0.844 -29.135 0.844 -29.135 0.488 57.424
3246 0.491 57.224 0.842 -29.338 0.842 -29.338 0.491 57.224
3270.969 0.494 57.025 0.84 -29.542 0.84 -29.542 0.494 57.025
3295.938 0.497 56.826 0.839 -29.744 0.839 -29.744 0.497 56.826
3320.906 0.5 56.627 0.837 -29.946 0.837 -29.946 0.5 56.627
3345.875 0.503 56.428 0.835 -30.148 0.835 -30.148 0.503 56.428
3370.844 0.506 56.23 0.833 -30.349 0.833 -30.349 0.506 56.23
3395.813 0.509 56.032 0.831 -30.55 0.831 -30.55 0.509 56.032
3420.781 0.512 55.834 0.829 -30.751 0.829 -30.751 0.512 55.834
3445.75 0.515 55.637 0.827 -30.951 0.827 -30.951 0.515 55.637
3470.719 0.518 55.44 0.825 -31.151 0.825 -31.151 0.518 55.44
3495.688 0.521 55.243 0.823 -31.35 0.823 -31.35 0.521 55.243
3520.656 0.524 55.047 0.821 -31.549 0.821 -31.549 0.524 55.047
3545.625 0.527 54.851 0.819 -31.747 0.819 -31.747 0.527 54.851
3570.594 0.53 54.655 0.817 -31.945 0.817 -31.945 0.53 54.655
3595.563 0.533 54.46 0.815 -32.142 0.815 -32.142 0.533 54.46
3620.531 0.536 54.265 0.813 -32.34 0.813 -32.34 0.536 54.265
3645.5 0.539 54.07 0.811 -32.536 0.811 -32.536 0.539 54.07
3670.469 0.542 53.875 0.809 -32.732 0.809 -32.732 0.542 53.875
3695.438 0.545 53.682 0.807 -32.928 0.807 -32.928 0.545 53.682
3720.406 0.547 53.488 0.805 -33.124 0.805 -33.124 0.547 53.488
3745.375 0.55 53.295 0.803 -33.319 0.803 -33.319 0.55 53.295
3770.344 0.553 53.102 0.801 -33.513 0.801 -33.513 0.553 53.102
3795.313 0.556 52.909 0.799 -33.707 0.799 -33.707 0.556 52.909
3820.281 0.559 52.717 0.797 -33.901 0.797 -33.901 0.559 52.717
3845.25 0.562 52.525 0.795 -34.094 0.795 -34.094 0.562 52.525
3870.219 0.564 52.333 0.793 -34.287 0.793 -34.287 0.564 52.333
3895.188 0.567 52.142 0.791 -34.479 0.791 -34.479 0.567 52.142
3920.156 0.57 51.951 0.789 -34.671 0.789 -34.671 0.57 51.951
3945.125 0.573 51.761 0.787 -34.863 0.787 -34.863 0.573 51.761
3970.094 0.575 51.571 0.785 -35.054 0.785 -35.054 0.575 51.571
3995.063 0.578 51.381 0.783 -35.245 0.783 -35.245 0.578 51.381
4020.031 0.581 51.192 0.781 -35.435 0.781 -35.435 0.581 51.192
4045 0.583 51.003 0.779 -35.625 0.779 -35.625 0.583 51.003
4069.969 0.586 50.814 0.776 -35.814 0.776 -35.814 0.586 50.814
4094.938 0.589 50.626 0.774 -36.003 0.774 -36.003 0.589 50.626
4119.906 0.592 50.438 0.772 -36.191 0.772 -36.191 0.592 50.438
4144.875 0.594 50.25 0.77 -36.38 0.77 -36.38 0.594 50.25
4169.844 0.597 50.063 0.768 -36.567 0.768 -36.567 0.597 50.063
4194.813 0.599 49.876 0.766 -36.754 0.766 -36.754 0.599 49.876
4219.781 0.602 49.689 0.764 -36.941 0.764 -36.941 0.602 49.689
4244.75 0.605 49.503 0.762 -37.127 0.762 -37.127 0.605 49.503
4269.719 0.607 49.318 0.76 -37.313 0.76 -37.313 0.607 49.318
4294.688 0.61 49.132 0.758 -37.499 0.758 -37.499 0.61 49.132
4319.656 0.612 48.947 0.755 -37.684 0.755 -37.684 0.612 48.947
4344.625 0.615 48.762 0.753 -37.868 0.753 -37.868 0.615 48.762
4369.594 0.617 48.578 0.751 -38.053 0.751 -38.053 0.617 48.578
4394.563 0.62 48.394 0.749 -38.236 0.749 -38.236 0.62 48.394
4419.531 0.622 48.211 0.747 -38.42 0.747 -38.42 0.622 48.211
4444.5 0.625 48.028 0.745 -38.603 0.745 -38.603 0.625 48.028
4469.469 0.627 47.845 0.743 -38.785 0.743 -38.785 0.627 47.845
4494.438 0.63 47.662 0.74 -38.967 0.74 -38.967 0.63 47.662
4519.406 0.632 47.48 0.738 -39.149 0.738 -39.149 0.632 47.48
4544.375 0.635 47.299 0.736 -39.33 0.736 -39.33 0.635 47.299
4569.344 0.637 47.117 0.734 -39.51 0.734 -39.51 0.637 47.117
4594.313 0.64 46.936 0.732 -39.691 0.732 -39.691 0.64 46.936
4619.281 0.642 46.756 0.73 -39.871 0.73 -39.871 0.642 46.756
4644.25 0.645 46.575 0.728 -40.05 0.728 -40.05 0.645 46.575
4669.219 0.647 46.396 0.725 -40.229 0.725 -40.229 0.647 46.396
4694.188 0.649 46.216 0.723 -40.407 0.723 -40.407 0.649 46.216
4719.156 0.652 46.037 0.721 -40.586 0.721 -40.586 0.652 46.037
4744.125 0.654 45.858 0.719 -40.763 0.719 -40.763 0.654 45.858
4769.094 0.656 45.68 0.717 -40.94 0.717 -40.94 0.656 45.68
4794.063 0.659 45.502 0.715 -41.117 0.715 -41.117 0.659 45.502
4819.031 0.661 45.324 0.712 -41.294 0.712 -41.294 0.661 45.324
4844 0.663 45.147 0.71 -41.47 0.71 -41.47 0.663 45.147
4868.969 0.666 44.97 0.708 -41.645 0.708 -41.645 0.666 44.97
4893.938 0.668 44.794 0.706 -41.82 0.706 -41.82 0.668 44.794
4918.906 0.67 44.618 0.704 -41.995 0.704 -41.995 0.67 44.618
4943.875 0.672 44.442 0.701 -42.169 0.701 -42.169 0.672 44.442
4968.844 0.675 44.267 0.699 -42.343 0.699 -42.343 0.675 44.267
4993.813 0.677 44.092 0.697 -42.516 0.697 -42.516 0.677 44.092
5018.781 0.679 43.917 0.695 -42.689 0.695 -42.689 0.679 43.917
5043.75 0.681 43.743 0.693 -42.862 0.693 -42.862 0.681 43.743
5068.719 0.684 43.569 0.69 -43.034 0.69 -43.034 0.684 43.569
5093.688 0.686 43.395 0.688 -43.205 0.688 -43.205 0.686 43.395
5118.656 0.688 43.222 0.686 -43.377 0.686 -43.377 0.688 43.222
5143.625 0.69 43.049 0.684 -43.547 0.684 -43.547 0.69 43.049
5168.594 0.692 42.877 0.682 -43.718 0.682 -43.718 0.692 42.877
5193.563 0.694 42.705 0.679 -43.888 0.679 -43.888 0.694 42.705
5218.531 0.697 42.533 0.677 -44.057 0.677 -44.057 0.697 42.533
5243.5 0.699 42.362 0.675 -44.226 0.675 -44.226 0.699 42.362
5268.469 0.701 42.191 0.673 -44.395 0.673 -44.395 0.701 42.191
5293.438 0.703 42.021 0.671 -44.563 0.671 -44.563 0.703 42.021
5318.406 0.705 41.85 0.668 -44.731 0.668 -44.731 0.705 41.85
5343.375 0.707 41.681 0.666 -44.898 0.666 -44.898 0.707 41.681
5368.344 0.709 41.511 0.664 -45.065 0.664 -45.065 0.709 41.511
5393.313 0.711 41.342 0.662 -45.232 0.662 -45.232 0.711 41.342
5418.281 0.713 41.173 0.66 -45.398 0.66 -45.398 0.713 41.173
5443.25 0.715 41.005 0.657 -45.564 0.657 -45.564 0.715 41.005
5468.219 0.717 40.837 0.655 -45.729 0.655 -45.729 0.717 40.837
5493.188 0.719 40.669 0.653 -45.894 0.653 -45.894 0.719 40.669
5518.156 0.721 40.502 0.651 -46.058 0.651 -46.058 0.721 40.502
5543.125 0.723 40.335 0.648 -46.222 0.648 -46.222 0.723 40.335
5568.094 0.725 40.169 0.646 -46.386 0.646 -46.386 0.725 40.169
5593.063 0.727 40.003 0.644 -46.549 0.644 -46.549 0.727 40.003
5618.031 0.729 39.837 0.642 -46.712 0.642 -46.712 0.729 39.837
5643 0.731 39.671 0.64 -46.874 0.64 -46.874 0.731 39.671
5667.969 0.733 39.506 0.637 -47.036 0.637 -47.036 0.733 39.506
5692.938 0.735 39.342 0.635 -47.197 0.635 -47.197 0.735 39.342
5717.906 0.737 39.177 0.633 -47.358 0.633 -47.358 0.737 39.177
5742.875 0.739 39.013 0.631 -47.519 0.631 -47.519 0.739 39.013
5767.844 0.741 38.85 0.628 -47.679 0.628 -47.679 0.741 38.85
5792.813 0.743 38.687 0.626 -47.839 0.626 -47.839 0.743 38.687
5817.781 0.744 38.524 0.624 -47.998 0.624 -47.998 0.744 38.524
5842.75 0.746 38.361 0.622 -48.157 0.622 -48.157 0.746 38.361
5867.719 0.748 38.199 0.62 -48.316 0.62 -48.316 0.748 38.199
5892.688 0.75 38.037 0.617 -48.474 0.617 -48.474 0.75 38.037
5917.656 0.752 37.876 0.615 -48.632 0.615 -48.632 0.752 37.876
5942.625 0.754 37.715 0.613 -48.789 0.613 -48.789 0.754 37.715
5967.594 0.755 37.554 0.611 -48.946 0.611 -48.946 0.755 37.554
5992.563 0.757 37.393 0.608 -49.102 0.608 -49.102 0.757 37.393
6017.531 0.759 37.233 0.606 -49.258 0.606 -49.258 0.759 37.233
6042.5 0.761 37.074 0.604 -49.414 0.604 -49.414 0.761 37.074
6067.469 0.763 36.914 0.602 -49.569 0.602 -49.569 0.763 36.914
6092.438 0.764 36.755 0.6 -49.724 0.6 -49.724 0.764 36.755
6117.406 0.766 36.597 0.597 -49.878 0.597 -49.878 0.766 36.597
6142.375 0.768 36.438 0.595 -50.032 0.595 -50.032 0.768 36.438
6167.344 0.77 36.281 0.593 -50.186 0.593 -50.186 0.77 36.281
6192.313 0.771 36.123 0.591 -50.339 0.591 -50.339 0.771 36.123
6217.281 0.773 35.966 0.588 -50.492 0.588 -50.492 0.773 35.966
6242.25 0.775 35.809 0.586 -50.644 0.586 -50.644 0.775 35.809
6267.219 0.776 35.652 0.584 -50.796 0.584 -50.796 0.776 35.652
6292.188 0.778 35.496 0.582 -50.947 0.582 -50.947 0.778 35.496
6317.156 0.78 35.34 0.58 -51.098 0.58 -51.098 0.78 35.34
6342.125 0.781 35.185 0.577 -51.249 0.577 -51.249 0.781 35.185
6367.094 0.783 35.03 0.575 -51.399 0.575 -51.399 0.783 35.03
6392.063 0.785 34.875 0.573 -51.549 0.573 -51.549 0.785 34.875
6417.031 0.786 34.72 0.571 -51.699 0.571 -51.699 0.786 34.72
6442 0.788 34.566 0.568 -51.848 0.568 -51.848 0.788 34.566
6466.969 0.79 34.413 0.566 -51.996 0.566 -51.996 0.79 34.413
6491.938 0.791 34.259 0.564 -52.145 0.564 -52.145 0.791 34.259
6516.906 0.793 34.106 0.562 -52.292 0.562 -52.292 0.793 34.106
6541.875 0.794 33.953 0.56 -52.44 0.56 -52.44 0.794 33.953
6566.844 0.796 33.801 0.557 -52.587 0.557 -52.587 0.796 33.801
6591.813 0.797 33.649 0.555 -52.733 0.555 -52.733 0.797 33.649
6616.781 0.799 33.497 0.553 -52.88 0.553 -52.88 0.799 33.497
6641.75 0.801 33.346 0.551 -53.025 0.551 -53.025 0.801 33.346
6666.719 0.802 33.195 0.549 -53.171 0.549 -53.171 0.802 33.195
6691.688 0.804 33.044 0.546 -53.316 0.546 -53.316 0.804 33.044
6716.656 0.805 32.894 0.544 -53.46 0.544 -53.46 0.805 32.894
6741.625 0.807 32.743 0.542 -53.605 0.542 -53.605 0.807 32.743
6766.594 0.808 32.594 0.54 -53.748 0.54 -53.748 0.808 32.594
6791.563 0.81 32.444 0.538 -53.892 0.538 -53.892 0.81 32.444
6816.531 0.811 32.295 0.535 -54.035 0.535 -54.035 0.811 32.295
6841.5 0.813 32.147 0.533 -54.177 0.533 -54.177 0.813 32.147
6866.469 0.814 31.998 0.531 -54.319 0.531 -54.319 0.814 31.998
6891.438 0.815 31.85 0.529 -54.461 0.529 -54.461 0.815 31.85
6916.406 0.817 31.702 0.527 -54.602 0.527 -54.602 0.817 31.702
6941.375 0.818 31.555 0.524 -54.743 0.524 -54.743 0.818 31.555
6966.344 0.82 31.408 0.522 -54.884 0.522 -54.884 0.82 31.408
6991.313 0.821 31.261 0.52 -55.024 0.52 -55.024 0.821 31.261
7016.281 0.823 31.115 0.518 -55.164 0.518 -55.164 0.823 31.115
7041.25 0.824 30.969 0.516 -55.303 0.516 -55.303 0.824 30.969
7066.219 0.825 30.823 0.513 -55.442 0.513 -55.442 0.825 30.823
7091.188 0.827 30.677 0.511 -55.581 0.511 -55.581 0.827 30.677
7116.156 0.828 30.532 0.509 -55.719 0.509 -55.719 0.828 30.532
7141.125 0.829 30.387 0.507 -55.857 0.507 -55.857 0.829 30.387
7166.094 0.831 30.243 0.505 -55.994 0.505 -55.994 0.831 30.243
7191.063 0.832 30.099 0.503 -56.131 0.503 -56.131 0.832 30.099
7216.031 0.833 29.955 0.5 -56.267 0.5 -56.267 0.833 29.955
7241 0.835 29.811 0.498 -56.404 0.498 -56.404 0.835 29.811
7265.969 0.836 29.668 0.496 -56.539 0.496 -56.539 0.836 29.668
7290.938 0.837 29.525 0.494 -56.675 0.494 -56.675 0.837 29.525
7315.906 0.839 29.383 0.492 -56.81 0.492 -56.81 0.839 29.383
7340.875 0.84 29.24 0.49 -56.944 0.49 -56.944 0.84 29.24
7365.844 0.841 29.098 0.487 -57.078 0.487 -57.078 0.841 29.098
7390.813 0.843 28.957 0.485 -57.212 0.485 -57.212 0.843 28.957
7415.781 0.844 28.815 0.483 -57.345 0.483 -57.345 0.844 28.815
7440.75 0.845 28.674 0.481 -57.478 0.481 -57.478 0.845 28.674
7465.719 0.846 28.534 0.479 -57.611 0.479 -57.611 0.846 28.534
7490.688 0.848 28.393 0.477 -57.743 0.477 -57.743 0.848 28.393
7515.656 0.849 28.253 0.474 -57.875 0.474 -57.875 0.849 28.253
7540.625 0.85 28.113 0.472 -58.006 0.472 -58.006 0.85 28.113
7565.594 0.851 27.974 0.47 -58.137 0.47 -58.137 0.851 27.974
7590.563 0.852 27.835 0.468 -58.268 0.468 -58.268 0.852 27.835
7615.531 0.854 27.696 0.466 -58.398 0.466 -58.398 0.854 27.696
7640.5 0.855 27.557 0.464 -58.527 0.464 -58.527 0.855 27.557
7665.469 0.856 27.419 0.462 -58.657 0.462 -58.657 0.856 27.419
7690.438 0.857 27.281 0.459 -58.786 0.459 -58.786 0.857 27.281
7715.406 0.858 27.143 0.457 -58.914 0.457 -58.914 0.858 27.143
7740.375 0.86 27.006 0.455 -59.042 0.455 -59.042 0.86 27.006
7765.344 0.861 26.869 0.453 -59.17 0.453 -59.17 0.861 26.869
7790.313 0.862 26.732 0.451 -59.298 0.451 -59.298 0.862 26.732
7815.281 0.863 26.596 0.449 -59.424 0.449 -59.424 0.863 26.596
7840.25 0.864 26.46 0.447 -59.551 0.447 -59.551 0.864 26.46
7865.219 0.865 26.324 0.445 -59.677 0.445 -59.677 0.865 26.324
7890.188 0.866 26.188 0.442 -59.803 0.442 -59.803 0.866 26.188
7915.156 0.868 26.053 0.44 -59.928 0.44 -59.928 0.868 26.053
7940.125 0.869 25.918 0.438 -60.053 0.438 -60.053 0.869 25.918
7965.094 0.87 25.783 0.436 -60.178 0.436 -60.178 0.87 25.783
7990.063 0.871 25.649 0.434 -60.302 0.434 -60.302 0.871 25.649
8015.031 0.872 25.515 0.432 -60.426 0.432 -60.426 0.872 25.515
8040 0.873 25.381 0.43 -60.549 0.43 -60.549 0.873 25.381
8064.969 0.874 25.247 0.428 -60.672 0.428 -60.672 0.874 25.247
8089.938 0.875 25.114 0.426 -60.794 0.426 -60.794 0.875 25.114
8114.906 0.876 24.981 0.423 -60.917 0.423 -60.917 0.876 24.981
