!	AVX Thin Film Operation            
!	Date:		5 January 2004																															
!	Description: 	Accu-L®  L0402 Series Thin Film RF Inductors																														
!	Part Number:	L04024R7AHNTR																																		
!	50 MHz-20GHz Serial Measurements																																			
!																																	
#	mhz	S	db	R	50																												
!	S11	S11	S21	S21	S12	S12	S22	S22																									
!	dB	Phase	dB	Phase	dB	Phase	dB	Phase																									
50	-37.73980172	82.66148472	-0.013464385	-0.84504685	-0.013464385	-0.84504685	-37.73979302	82.67158955																									
100	-32.06679427	83.29319534	-0.021806696	-1.635840766	-0.021806696	-1.635840766	-32.06676828	83.31209098																									
150	-28.71573006	83.17919985	-0.03023661	-2.414488714	-0.03023661	-2.414488714	-28.71573452	83.21037156																									
200	-26.32743234	82.81798318	-0.03922543	-3.185930917	-0.03922543	-3.185930917	-26.32744313	82.85956554																									
250	-24.47036375	82.3385202	-0.048953141	-3.952213807	-0.048953141	-3.952213807	-24.47038163	82.39052263																									
300	-22.95096123	81.79203123	-0.059510578	-4.714424264	-0.059510578	-4.714424264	-22.95098673	81.85446157																									
350	-21.66548859	81.20339184	-0.070950483	-5.473216687	-0.070950483	-5.473216687	-21.66552205	81.27625403																									
400	-20.5518106	80.58635584	-0.083306125	-6.229015574	-0.083306125	-6.229015574	-20.55185235	80.66966023																									
450	-19.56974046	79.94925243	-0.096599594	-6.982109478	-0.096599594	-6.982109478	-19.56979066	80.0430005																									
500	-18.69177802	79.29745938	-0.110846025	-7.732700567	-0.110846025	-7.732700567	-18.6918369	79.40166346																									
550	-17.89827207	78.634646	-0.126055947	-8.480932893	-0.126055947	-8.480932893	-17.89833971	78.74930815																									
600	-17.17468917	77.96340787	-0.1422367	-9.226909936	-0.1422367	-9.226909936	-17.17476567	78.08853569																									
650	-16.50997656	77.28565307	-0.159393322	-9.970705871	-0.159393322	-9.970705871	-16.51006198	77.42124905																									
700	-15.8955316	76.6028158	-0.177529138	-10.71237299	-0.177529138	-10.71237299	-15.89562601	76.7488892																									
750	-15.32452639	75.91601069	-0.196646171	-11.45194727	-0.196646171	-11.45194727	-15.32462979	76.07256303																									
800	-14.79145031	75.22611226	-0.216745424	-12.18945194	-0.216745424	-12.18945194	-14.79156271	75.39314912																									
850	-14.29179273	74.53377481	-0.237827002	-12.92489824	-0.237827002	-12.92489824	-14.29191483	74.7114061																									
900	-13.8218076	73.8397225	-0.259890697	-13.65829819	-0.259890697	-13.65829819	-13.82193804	74.02774797																									
950	-13.3783643	73.14434263	-0.282935145	-14.38964225	-0.282935145	-14.38964225	-13.378503	73.34275834																									
1000	-12.95879705	72.44790691	-0.306959337	-15.11893502	-0.306959337	-15.11893502	-12.95894548	72.65694653																									
1050	-12.56084429	71.75096469	-0.331961045	-15.84615794	-0.331961045	-15.84615794	-12.56100133	71.97046075																									
1100	-12.18254601	71.05367186	-0.357938395	-16.57130353	-0.357938395	-16.57130353	-12.18271213	71.28371892																									
1150	-11.82220546	70.35632793	-0.384889101	-17.29435875	-0.384889101	-17.29435875	-11.8223806	70.5969237																									
1200	-11.47834607	69.6591906	-0.412810236	-18.01530055	-0.412810236	-18.01530055	-11.47852977	69.91027129																									
1250	-11.14966177	68.96236845	-0.441699406	-18.73411743	-0.441699406	-18.73411743	-11.14985448	69.22402924																									
1300	-10.83500685	68.2661059	-0.471553408	-19.45078532	-0.471553408	-19.45078532	-10.83520827	68.53830766																									
1350	-10.53335989	67.57053316	-0.502369276	-20.16528556	-0.502369276	-20.16528556	-10.53356996	67.85328167																									
1400	-10.24381082	66.87578868	-0.534143851	-20.87759737	-0.534143851	-20.87759737	-10.24402948	67.16908981																									
1450	-9.965544346	66.18199746	-0.566873887	-21.58769963	-0.566873887	-21.58769963	-9.965771528	66.48585715																									
1500	-9.69782712	65.48927287	-0.600556077	-22.29557103	-0.600556077	-22.29557103	-9.698062761	65.80369717																									
1550	-9.43999701	64.79771805	-0.635187062	-23.00119023	-0.635187062	-23.00119023	-9.440241042	65.12271338																									
1600	-9.191454037	64.10742787	-0.670763458	-23.70453611	-0.670763458	-23.70453611	-9.191706383	64.44299969																									
1650	-8.951652821	63.41848832	-0.707281855	-24.40558764	-0.707281855	-24.40558764	-8.951913412	63.7646435																									
1700	-8.720095986	62.73097929	-0.744738848	-25.10432425	-0.744738848	-25.10432425	-8.720364746	63.08772426																									
1750	-8.496328646	62.04497409	-0.783131038	-25.80072575	-0.783131038	-25.80072575	-8.496605499	62.41231555																									
1800	-8.279933627	61.36054077	-0.822455049	-26.49477248	-0.822455049	-26.49477248	-8.280218493	61.7384851																									
1850	-8.070527327	60.67774213	-0.862707544	-27.18644535	-0.862707544	-27.18644535	-8.070820122	61.06629569																									
1900	-7.867756214	59.99663587	-0.903885218	-27.87572573	-0.903885218	-27.87572573	-7.868056861	60.39580635																									
1950	-7.671293628	59.3172756	-0.945984826	-28.56259572	-0.945984826	-28.56259572	-7.671602052	59.72707165																									
2000	-7.480836929	58.63971396	-0.989003235	-29.2470387	-0.989003235	-29.2470387	-7.481153019	59.06013833																									
2050	-7.296105603	57.96399449	-1.032937308	-29.9290377	-1.032937308	-29.9290377	-7.29642929	58.39505716																									
2100	-7.116838618	57.29016178	-1.077784057	-30.60857729	-1.077784057	-30.60857729	-7.11716981	57.73186977																									
2150	-6.942792877	56.61825509	-1.123540567	-31.28564261	-1.123540567	-31.28564261	-6.943131495	57.07061745																									
2200	-6.773741516	55.94831398	-1.170204039	-31.96021954	-1.170204039	-31.96021954	-6.774087453	56.41133548																									
2250	-6.609472324	55.28037148	-1.217771819	-32.63229529	-1.217771819	-32.63229529	-6.609825487	55.7540594																									
2300	-6.449786989	54.61445839	-1.266241256	-33.30185635	-1.266241256	-33.30185635	-6.450147307	55.09882488																									
2350	-6.294498932	53.95060717	-1.315610023	-33.96889227	-1.315610023	-33.96889227	-6.294866293	54.44565682																									
2400	-6.143433494	53.28884177	-1.365875732	-34.63339113	-1.365875732	-34.63339113	-6.143807833	53.79458868																									
2450	-5.996425759	52.62919161	-1.41703637	-35.29534428	-1.41703637	-35.29534428	-5.996806956	53.14563939																									
2500	-5.853320693	51.97167942	-1.469089975	-35.95474267	-1.469089975	-35.95474267	-5.853708632	52.49883298																									
2550	-5.713972297	51.31632429	-1.522034657	-36.61157708	-1.522034657	-36.61157708	-5.714366895	51.85419517																									
2600	-5.578242554	50.66314537	-1.57586875	-37.26583966	-1.57586875	-37.26583966	-5.578643734	51.211747																									
2650	-5.446000344	50.01216393	-1.630591043	-37.91752602	-1.630591043	-37.91752602	-5.446407974	50.57149858																									
2700	-5.317122694	49.36339365	-1.686200011	-38.56662747	-1.686200011	-38.56662747	-5.317536691	49.9334744																									
2750	-5.191492003	48.71685008	-1.742694799	-39.21314084	-1.742694799	-39.21314084	-5.191912258	49.29768457																									
2800	-5.068997246	48.07254441	-1.800074506	-39.85706117	-1.800074506	-39.85706117	-5.069423672	48.66414551																									
2850	-4.949532425	47.43049323	-1.858338739	-40.49838685	-1.858338739	-40.49838685	-4.949964868	48.03286026																									
2900	-4.832997919	46.7907015	-1.917486717	-41.13711154	-1.917486717	-41.13711154	-4.833436309	47.40385155																									
2950	-4.719297651	46.15317682	-1.977518563	-41.77323575	-1.977518563	-41.77323575	-4.719741904	46.77712462																									
3000	-4.608340608	45.51793045	-2.038434396	-42.40675825	-2.038434396	-42.40675825	-4.608790603	46.15268334																									
3050	-4.500040312	44.88497111	-2.100234411	-43.03767698	-2.100234411	-43.03767698	-4.500495921	45.53053473																									
3100	-4.39431368	44.25429842	-2.162919379	-43.66599357	-2.162919379	-43.66599357	-4.394774808	44.91068644																									
3150	-4.291081802	43.62591928	-2.226490096	-44.29170794	-2.226490096	-44.29170794	-4.291548334	44.29314134																									
3200	-4.190269113	42.9998365	-2.29094772	-44.9148215	-2.29094772	-44.9148215	-4.190740934	43.6779025																									
3250	-4.091803154	42.37604846	-2.35629381	-45.53533728	-2.35629381	-45.53533728	-4.092280169	43.06497323																									
3300	-3.995615098	41.75456279	-2.422529882	-46.15325582	-2.422529882	-46.15325582	-3.996097169	42.45435179																									
3350	-3.901638384	41.13537357	-2.489658164	-46.76858205	-2.489658164	-46.76858205	-3.902125406	41.8460404																									
3400	-3.809809582	40.51848138	-2.557680956	-47.38131917	-2.557680956	-47.38131917	-3.81030144	41.24003741																									
3450	-3.72006777	39.90388418	-2.626600933	-47.99147146	-2.626600933	-47.99147146	-3.720564346	40.63634095																									
3500	-3.632354476	39.29157905	-2.696421102	-48.59904369	-2.696421102	-48.59904369	-3.632855653	40.03494828																									
3550	-3.54661355	38.68156223	-2.767144809	-49.20404113	-2.767144809	-49.20404113	-3.547119208	39.43585583																									
3600	-3.462791035	38.07382917	-2.838775749	-49.80646949	-2.838775749	-49.80646949	-3.463301055	38.83905923																									
3650	-3.380835057	37.46837454	-2.911317976	-50.40633495	-2.911317976	-50.40633495	-3.381349316	38.24455331																									
3700	-3.300695713	36.8651923	-2.984775912	-51.00364406	-2.984775912	-51.00364406	-3.301214091	37.65233222																									
3750	-3.222324974	36.26427565	-3.059154361	-51.59840379	-3.059154361	-51.59840379	-3.222847346	37.06238935																									
3800	-3.145676589	35.66561714	-3.134458517	-52.19062147	-3.134458517	-52.19062147	-3.14620283	36.47471744																									
3850	-3.070706	35.06920868	-3.210693972	-52.78030476	-3.210693972	-52.78030476	-3.071235985	35.88930859																									
3900	-2.997370255	34.47504153	-3.287866737	-53.36746165	-3.287866737	-53.36746165	-2.997903857	35.30615419																									
3950	-2.925627942	33.88310636	-3.365983239	-53.9521004	-3.365983239	-53.9521004	-2.926165032	34.7252452																									
4000	-2.855439101	33.29339329	-3.445050349	-54.53422954	-3.445050349	-54.53422954	-2.85597955	34.14657185																									
4050	-2.78676517	32.70589186	-3.525075384	-55.11385785	-3.525075384	-55.11385785	-2.787308848	33.57012393																									
4100	-2.719568912	32.12059113	-3.606066127	-55.69099433	-3.606066127	-55.69099433	-2.720115687	32.99589062																									
4150	-2.653814367	31.5374796	-3.688030828	-56.26564813	-3.688030828	-56.26564813	-2.654364107	32.42386074																									
4200	-2.58946678	30.95654538	-3.77097824	-56.83782861	-3.77097824	-56.83782861	-2.590019349	31.85402248																									
4250	-2.526492557	30.37777606	-3.854917616	-57.40754524	-3.854917616	-57.40754524	-2.52704782	31.28636365																									
4300	-2.464859222	29.80115881	-3.939858721	-57.97480756	-3.939858721	-57.97480756	-2.465417043	30.72087174																									
4350	-2.404535352	29.22668042	-4.025811871	-58.53962528	-4.025811871	-58.53962528	-2.405095593	30.15753367																									
4400	-2.34549054	28.65432729	-4.112787938	-59.10200814	-4.112787938	-59.10200814	-2.346053061	29.59633593																									
4450	-2.287695329	28.0840856	-4.200798411	-59.66196612	-4.200798411	-59.66196612	-2.288259984	29.03726415																									
4500	-2.231121342	27.51594048	-4.289855132	-60.21950816	-4.289855132	-60.21950816	-2.231687999	28.48030637																									
4550	-2.175740873	26.94987782	-4.379970926	-60.77464479	-4.379970926	-60.77464479	-2.176309384	27.92544595																									
4600	-2.121527228	26.38588248	-4.471159002	-61.32738544	-4.471159002	-61.32738544	-2.122097447	27.37266882																									
4650	-2.068454509	25.82393917	-4.563433274	-61.87773965	-4.563433274	-61.87773965	-2.069026291	26.82196																									
4700	-2.016497608	25.26403235	-4.656808342	-62.4257169	-4.656808342	-62.4257169	-2.017070806	26.27330414																									
4750	-1.965632183	24.70614608	-4.751299509	-62.97132657	-4.751299509	-62.97132657	-1.966206647	25.72668567																									
4800	-1.915834646	24.1502648	-4.84692276	-63.51457762	-4.84692276	-63.51457762	-1.916410226	25.18208867																									
4850	-1.867082094	23.59637171	-4.943694884	-64.05547911	-4.943694884	-64.05547911	-1.867658637	24.63949731																									
4900	-1.819352311	23.04445052	-5.041633433	-64.59403975	-5.041633433	-64.59403975	-1.819929664	24.09889513																									
4950	-1.772623749	22.49448455	-5.140756754	-65.13026792	-5.140756754	-65.13026792	-1.773201757	23.56026573																									
5000	-1.726875491	21.94645686	-5.241084032	-65.66417169	-5.241084032	-65.66417169	-1.727453997	23.02359257																									
5050	-1.682087228	21.40035054	-5.342635333	-66.19575881	-5.342635333	-66.19575881	-1.682666076	22.48885873																									
5100	-1.638239233	20.8561483	-5.445431653	-66.72503676	-5.445431653	-66.72503676	-1.638818261	21.95604714																									
5150	-1.595312374	20.31383282	-5.549494861	-67.2520123	-5.549494861	-67.2520123	-1.595891421	21.42514099																									
5200	-1.553288037	19.77338658	-5.654847889	-67.77669204	-5.654847889	-67.77669204	-1.55386694	20.89612282																									
5250	-1.512148167	19.23479203	-5.761514618	-68.29908181	-5.761514618	-68.29908181	-1.512726762	20.36897551																									
5300	-1.471875169	18.6980316	-5.869520141	-68.81918736	-5.869520141	-68.81918736	-1.472453286	19.84368078																									
5350	-1.432452033	18.16308698	-5.978890412	-69.33701307	-5.978890412	-69.33701307	-1.433029509	19.32022246																									
5400	-1.39386215	17.62994087	-6.089652775	-69.85256328	-6.089652775	-69.85256328	-1.394438814	18.79858191																									
5450	-1.356089407	17.09857513	-6.201835692	-70.36584141	-6.201835692	-70.36584141	-1.356665085	18.2787417																									
5500	-1.319118133	16.56897161	-6.315468901	-70.87685012	-6.315468901	-70.87685012	-1.319692655	17.76068419																									
5550	-1.28293307	16.04111221	-6.430583562	-71.38559152	-6.430583562	-71.38559152	-1.283506258	17.2443911																									
5600	-1.247519418	15.51497887	-6.547212089	-71.8920664	-6.547212089	-71.8920664	-1.248091096	16.7298449																									
5650	-1.21286277	14.99055326	-6.6653884	-72.39627477	-6.6653884	-72.39627477	-1.213432761	16.21702789																									
5700	-1.178949075	14.46781748	-6.785148092	-72.89821596	-6.785148092	-72.89821596	-1.179517195	15.70592122																									
5750	-1.145764765	13.94675303	-6.906527994	-73.39788724	-6.906527994	-73.39788724	-1.146330835	15.19650856																									
5800	-1.113296464	13.42734151	-7.029567288	-73.8952865	-7.029567288	-73.8952865	-1.113860297	14.68876981																									
5850	-1.081531342	12.90956514	-7.154306246	-74.39040837	-7.154306246	-74.39040837	-1.082092749	14.18268826																									
5900	-1.050456834	12.39340525	-7.280787302	-74.8832471	-7.280787302	-74.8832471	-1.05101563	13.6782462																									
5950	-1.020060669	11.87884372	-7.409055061	-75.37379583	-7.409055061	-75.37379583	-1.020616661	13.1754246																									
6000	-0.990331021	11.36586234	-7.539155709	-75.86204495	-7.539155709	-75.86204495	-0.990884021	12.67420704																									
6050	-0.961256217	10.85444275	-7.671138361	-76.34798494	-7.671138361	-76.34798494	-0.961806024	12.17457363																									
6100	-0.932825077	10.34456677	-7.805053594	-76.83160241	-7.805053594	-76.83160241	-0.933371501	11.67650861																									
6150	-0.905026539	9.836216439	-7.940955328	-77.31288405	-7.940955328	-77.31288405	-0.905569375	11.17999193																									
6200	-0.877849944	9.329373195	-8.078899528	-77.79181327	-8.078899528	-77.79181327	-0.87838899	10.68500661																									
6250	-0.851284982	8.824019762	-8.21894456	-78.26837026	-8.21894456	-78.26837026	-0.851820041	10.19153649																									
6300	-0.825321389	8.320137375	-8.361152913	-78.74253564	-8.361152913	-78.74253564	-0.825852249	9.699561106																									
6350	-0.799949353	7.817708089	-8.50558921	-79.21428514	-8.50558921	-79.21428514	-0.800475805	9.209063919																									
6400	-0.775159318	7.31671429	-8.652321356	-79.68359163	-8.652321356	-79.68359163	-0.775681156	8.720028247																									
6450	-0.750941843	6.817137706	-8.801421594	-80.15042667	-8.801421594	-80.15042667	-0.751458848	8.23243456																									
6500	-0.727287909	6.318960492	-8.952964814	-80.61475627	-8.952964814	-80.61475627	-0.727799873	7.74626761																									
6550	-0.704188624	5.822166233	-9.107030619	-81.07654396	-9.107030619	-81.07654396	-0.704695324	7.261508494																									
6600	-0.681635319	5.326735391	-9.263702896	-81.53575001	-9.263702896	-81.53575001	-0.682136537	6.778140298																									
6650	-0.659619588	4.832651143	-9.423069898	-81.99232951	-9.423069898	-81.99232951	-0.660115099	6.29614535																									
6700	-0.638133283	4.339896158	-9.585224424	-82.4462325	-9.585224424	-82.4462325	-0.638622864	5.815507576																									
6750	-0.617168384	3.848453073	-9.750265146	-82.89740507	-9.750265146	-82.89740507	-0.617651807	5.336208771																									
6800	-0.596717123	3.358303972	-9.91829603	-83.34578733	-9.91829603	-83.34578733	-0.597194157	4.858232326																									
6850	-0.576771928	2.869432176	-10.08942713	-83.79131323	-10.08942713	-83.79131323	-0.577242336	4.381560874																									
6900	-0.557325467	2.381820279	-10.26377459	-84.23390962	-10.26377459	-84.23390962	-0.557789018	3.906178923																									
6950	-0.538370522	1.895451544	-10.44146223	-84.67349703	-10.44146223	-84.67349703	-0.538826974	3.432068436																									
7000	-0.519900087	1.410308197	-10.62262124	-85.10998783	-10.62262124	-85.10998783	-0.520349198	2.959212917																									
7050	-0.501907403	0.926374128	-10.80739031	-85.54328439	-10.80739031	-85.54328439	-0.502348932	2.48759689																									
7100	-0.484385798	0.443632345	-10.99591788	-85.97328076	-10.99591788	-85.97328076	-0.484819494	2.017202897																									
7150	-0.467328812	-0.037933811	-11.18836156	-86.39985957	-11.18836156	-86.39985957	-0.467754424	1.548014641																									
7200	-0.450730193	-0.518340697	-11.38488892	-86.82289091	-11.38488892	-86.82289091	-0.45114747	1.080017015																									
7250	-0.434583769	-0.997605456	-11.58567983	-87.24223289	-11.58567983	-87.24223289	-0.434992454	0.613192883																									
7300	-0.418883611	-1.475743718	-11.79092553	-87.65772735	-11.79092553	-87.65772735	-0.419283446	0.147527042																									
7350	-0.40362387	-1.952771914	-12.00083174	-88.06920079	-12.00083174	-88.06920079	-0.404014588	-0.316997585																									
7400	-0.388798928	-2.428706205	-12.21561786	-88.47646001	-12.21561786	-88.47646001	-0.389180263	-0.780395482																									
