!	AVX Thin Film Operation            
!	Date:		5 January 2004																															
!	Description: 	Accu-L®  L0402 Series Thin Film RF Inductors																														
!	Part Number:	L04021R8AHNTR																																		
!	50 MHz-20GHz Serial Measurements																																			
!																																					
#	mhz	S	db	R	50																																
!	S11	S11	S21	S21	S12	S12	S22	S22																													
!	dB	Phase	dB	Phase	dB	Phase	dB	Phase																													
50	-49.2724	89.0293	-0.0004	-0.3115	-0.0004	-0.3115	-49.2724	89.0369																													
100	-43.2514	88.7093	-0.0009	-0.6230	-0.0009	-0.6230	-43.2514	88.7259																													
150	-39.7292	88.3894	-0.0015	-0.9346	-0.0015	-0.9346	-39.7292	88.4148																													
200	-37.2301	88.0696	-0.0022	-1.2461	-0.0022	-1.2461	-37.2301	88.1037																													
250	-35.2917	87.7499	-0.0030	-1.5577	-0.0030	-1.5577	-35.2917	87.7925																													
300	-33.7080	87.4301	-0.0040	-1.8693	-0.0040	-1.8693	-33.7080	87.4814																													
350	-32.3690	87.1104	-0.0050	-2.1809	-0.0050	-2.1809	-32.3690	87.1703																													
400	-31.2092	86.7908	-0.0061	-2.4925	-0.0061	-2.4925	-31.2091	86.8593																													
450	-30.1862	86.4712	-0.0074	-2.8041	-0.0074	-2.8041	-30.1862	86.5483																													
500	-29.2712	86.1516	-0.0087	-3.1157	-0.0087	-3.1157	-29.2712	86.2373																													
550	-28.4436	85.8321	-0.0102	-3.4273	-0.0102	-3.4273	-28.4436	85.9263																													
600	-27.6881	85.5126	-0.0118	-3.7389	-0.0118	-3.7389	-27.6881	85.6154																													
650	-26.9932	85.1931	-0.0134	-4.0504	-0.0134	-4.0504	-26.9932	85.3045																													
700	-26.3500	84.8737	-0.0152	-4.3620	-0.0152	-4.3620	-26.3500	84.9937																													
750	-25.7512	84.5544	-0.0171	-4.6736	-0.0171	-4.6736	-25.7512	84.6829																													
800	-25.1913	84.2351	-0.0191	-4.9851	-0.0191	-4.9851	-25.1912	84.3722																													
850	-24.6653	83.9158	-0.0212	-5.2966	-0.0212	-5.2966	-24.6653	84.0616																													
900	-24.1696	83.5966	-0.0234	-5.6081	-0.0234	-5.6081	-24.1696	83.7509																													
950	-23.7008	83.2775	-0.0257	-5.9196	-0.0257	-5.9196	-23.7008	83.4404																													
1000	-23.2561	82.9584	-0.0281	-6.2311	-0.0281	-6.2311	-23.2561	83.1299																													
1050	-22.8333	82.6394	-0.0307	-6.5425	-0.0307	-6.5425	-22.8333	82.8194																													
1100	-22.4303	82.3204	-0.0333	-6.8539	-0.0333	-6.8539	-22.4302	82.5090																													
1150	-22.0452	82.0015	-0.0360	-7.1652	-0.0360	-7.1652	-22.0452	82.1987																													
1200	-21.6767	81.6827	-0.0389	-7.4766	-0.0389	-7.4766	-21.6767	81.8885																													
1250	-21.3234	81.3639	-0.0418	-7.7879	-0.0418	-7.7879	-21.3233	81.5783																													
1300	-20.9840	81.0452	-0.0449	-8.0991	-0.0449	-8.0991	-20.9840	81.2682																													
1350	-20.6576	80.7266	-0.0480	-8.4103	-0.0480	-8.4103	-20.6575	80.9582																													
1400	-20.3431	80.4080	-0.0513	-8.7214	-0.0513	-8.7214	-20.3431	80.6482																													
1450	-20.0398	80.0896	-0.0547	-9.0326	-0.0547	-9.0326	-20.0398	80.3383																													
1500	-19.7470	79.7712	-0.0582	-9.3436	-0.0582	-9.3436	-19.7469	80.0285																													
1550	-19.4638	79.4529	-0.0617	-9.6546	-0.0617	-9.6546	-19.4637	79.7188																													
1600	-19.1897	79.1346	-0.0654	-9.9656	-0.0654	-9.9656	-19.1897	79.4091																													
1650	-18.9242	78.8165	-0.0692	-10.2765	-0.0692	-10.2765	-18.9242	79.0996																													
1700	-18.6668	78.4984	-0.0731	-10.5873	-0.0731	-10.5873	-18.6667	78.7901																													
1750	-18.4169	78.1804	-0.0771	-10.8981	-0.0771	-10.8981	-18.4169	78.4807																													
1800	-18.1742	77.8626	-0.0812	-11.2088	-0.0812	-11.2088	-18.1742	78.1714																													
1850	-17.9383	77.5448	-0.0854	-11.5194	-0.0854	-11.5194	-17.9382	77.8622																													
1900	-17.7088	77.2270	-0.0898	-11.8300	-0.0898	-11.8300	-17.7087	77.5530																													
1950	-17.4854	76.9094	-0.0942	-12.1405	-0.0942	-12.1405	-17.4853	77.2440																													
2000	-17.2677	76.5919	-0.0987	-12.4509	-0.0987	-12.4509	-17.2676	76.9351																													
2050	-17.0556	76.2745	-0.1033	-12.7613	-0.1033	-12.7613	-17.0555	76.6262																													
2100	-16.8486	75.9571	-0.1081	-13.0715	-0.1081	-13.0715	-16.8486	76.3175																													
2150	-16.6467	75.6399	-0.1129	-13.3817	-0.1129	-13.3817	-16.6466	76.0088																													
2200	-16.4496	75.3228	-0.1179	-13.6918	-0.1179	-13.6918	-16.4495	75.7003																													
2250	-16.2569	75.0057	-0.1229	-14.0019	-0.1229	-14.0019	-16.2569	75.3919																													
2300	-16.0687	74.6888	-0.1281	-14.3118	-0.1281	-14.3118	-16.0686	75.0835																													
2350	-15.8846	74.3720	-0.1333	-14.6217	-0.1333	-14.6217	-15.8845	74.7753																													
2400	-15.7045	74.0553	-0.1387	-14.9315	-0.1387	-14.9315	-15.7044	74.4672																													
2450	-15.5283	73.7386	-0.1442	-15.2411	-0.1442	-15.2411	-15.5282	74.1591																													
2500	-15.3557	73.4221	-0.1498	-15.5507	-0.1498	-15.5507	-15.3556	73.8512																													
2550	-15.1867	73.1057	-0.1554	-15.8602	-0.1554	-15.8602	-15.1866	73.5434																													
2600	-15.0211	72.7895	-0.1612	-16.1696	-0.1612	-16.1696	-15.0210	73.2357																													
2650	-14.8587	72.4733	-0.1671	-16.4789	-0.1671	-16.4789	-14.8586	72.9282																													
2700	-14.6995	72.1572	-0.1731	-16.7881	-0.1731	-16.7881	-14.6994	72.6207																													
2750	-14.5434	71.8413	-0.1792	-17.0972	-0.1792	-17.0972	-14.5433	72.3133																													
2800	-14.3902	71.5255	-0.1854	-17.4062	-0.1854	-17.4062	-14.3901	72.0061																													
2850	-14.2398	71.2097	-0.1917	-17.7150	-0.1917	-17.7150	-14.2397	71.6990																													
2900	-14.0921	70.8941	-0.1981	-18.0238	-0.1981	-18.0238	-14.0920	71.3920																													
2950	-13.9471	70.5787	-0.2046	-18.3325	-0.2046	-18.3325	-13.9470	71.0851																													
3000	-13.8047	70.2633	-0.2112	-18.6410	-0.2112	-18.6410	-13.8046	70.7784																													
3050	-13.6647	69.9481	-0.2179	-18.9495	-0.2179	-18.9495	-13.6646	70.4717																													
3100	-13.5272	69.6330	-0.2247	-19.2578	-0.2247	-19.2578	-13.5270	70.1652																													
3150	-13.3919	69.3180	-0.2317	-19.5660	-0.2317	-19.5660	-13.3918	69.8588																													
3200	-13.2589	69.0031	-0.2387	-19.8741	-0.2387	-19.8741	-13.2588	69.5526																													
3250	-13.1281	68.6884	-0.2458	-20.1820	-0.2458	-20.1820	-13.1280	69.2465																													
3300	-12.9994	68.3738	-0.2531	-20.4899	-0.2531	-20.4899	-12.9993	68.9405																													
3350	-12.8727	68.0593	-0.2604	-20.7976	-0.2604	-20.7976	-12.8726	68.6346																													
3400	-12.7481	67.7450	-0.2678	-21.1052	-0.2678	-21.1052	-12.7479	68.3288																													
3450	-12.6254	67.4308	-0.2754	-21.4127	-0.2754	-21.4127	-12.6252	68.0232																													
3500	-12.5045	67.1167	-0.2830	-21.7200	-0.2830	-21.7200	-12.5044	67.7178																													
3550	-12.3855	66.8027	-0.2908	-22.0272	-0.2908	-22.0272	-12.3854	67.4124																													
3600	-12.2683	66.4889	-0.2986	-22.3343	-0.2986	-22.3343	-12.2682	67.1072																													
3650	-12.1528	66.1752	-0.3066	-22.6412	-0.3066	-22.6412	-12.1527	66.8021																													
3700	-12.0390	65.8617	-0.3146	-22.9480	-0.3146	-22.9480	-12.0389	66.4972																													
3750	-11.9269	65.5483	-0.3228	-23.2547	-0.3228	-23.2547	-11.9267	66.1924																													
3800	-11.8163	65.2350	-0.3310	-23.5612	-0.3310	-23.5612	-11.8162	65.8877																													
3850	-11.7073	64.9218	-0.3394	-23.8676	-0.3394	-23.8676	-11.7072	65.5832																													
3900	-11.5999	64.6089	-0.3478	-24.1739	-0.3478	-24.1739	-11.5997	65.2788																													
3950	-11.4939	64.2960	-0.3564	-24.4800	-0.3564	-24.4800	-11.4937	64.9746																													
4000	-11.3894	63.9833	-0.3651	-24.7860	-0.3651	-24.7860	-11.3892	64.6705																													
4050	-11.2862	63.6707	-0.3738	-25.0918	-0.3738	-25.0918	-11.2861	64.3666																													
4100	-11.1845	63.3583	-0.3827	-25.3975	-0.3827	-25.3975	-11.1843	64.0628																													
4150	-11.0841	63.0460	-0.3917	-25.7030	-0.3917	-25.7030	-11.0839	63.7591																													
4200	-10.9850	62.7339	-0.4008	-26.0084	-0.4008	-26.0084	-10.9849	63.4556																													
4250	-10.8872	62.4219	-0.4099	-26.3136	-0.4099	-26.3136	-10.8871	63.1522																													
4300	-10.7907	62.1101	-0.4192	-26.6187	-0.4192	-26.6187	-10.7905	62.8490																													
4350	-10.6954	61.7984	-0.4286	-26.9236	-0.4286	-26.9236	-10.6952	62.5459																													
4400	-10.6013	61.4868	-0.4381	-27.2284	-0.4381	-27.2284	-10.6011	62.2430																													
4450	-10.5084	61.1754	-0.4477	-27.5330	-0.4477	-27.5330	-10.5082	61.9403																													
4500	-10.4166	60.8642	-0.4574	-27.8375	-0.4574	-27.8375	-10.4164	61.6377																													
4550	-10.3260	60.5531	-0.4672	-28.1417	-0.4672	-28.1417	-10.3258	61.3352																													
4600	-10.2364	60.2422	-0.4770	-28.4459	-0.4770	-28.4459	-10.2362	61.0329																													
4650	-10.1480	59.9314	-0.4870	-28.7499	-0.4870	-28.7499	-10.1478	60.7307																													
4700	-10.0606	59.6208	-0.4971	-29.0537	-0.4971	-29.0537	-10.0604	60.4288																													
4750	-9.9742	59.3103	-0.5073	-29.3573	-0.5073	-29.3573	-9.9740	60.1269																													
4800	-9.8889	59.0000	-0.5176	-29.6608	-0.5176	-29.6608	-9.8887	59.8252																													
4850	-9.8045	58.6898	-0.5280	-29.9641	-0.5280	-29.9641	-9.8043	59.5237																													
4900	-9.7211	58.3798	-0.5385	-30.2673	-0.5385	-30.2673	-9.7209	59.2224																													
4950	-9.6387	58.0700	-0.5491	-30.5703	-0.5491	-30.5703	-9.6385	58.9212																													
5000	-9.5572	57.7603	-0.5598	-30.8731	-0.5598	-30.8731	-9.5570	58.6201																													
5050	-9.4767	57.4508	-0.5706	-31.1757	-0.5706	-31.1757	-9.4764	58.3193																													
5100	-9.3970	57.1414	-0.5815	-31.4782	-0.5815	-31.4782	-9.3968	58.0186																													
5150	-9.3182	56.8323	-0.5925	-31.7805	-0.5925	-31.7805	-9.3180	57.7180																													
5200	-9.2403	56.5232	-0.6036	-32.0826	-0.6036	-32.0826	-9.2401	57.4176																													
5250	-9.1633	56.2144	-0.6148	-32.3845	-0.6148	-32.3845	-9.1630	57.1174																													
5300	-9.0870	55.9057	-0.6262	-32.6863	-0.6262	-32.6863	-9.0868	56.8174																													
5350	-9.0117	55.5971	-0.6376	-32.9879	-0.6376	-32.9879	-9.0114	56.5175																													
5400	-8.9371	55.2888	-0.6491	-33.2893	-0.6491	-33.2893	-8.9368	56.2178																													
5450	-8.8633	54.9806	-0.6607	-33.5905	-0.6607	-33.5905	-8.8630	55.9182																													
5500	-8.7903	54.6725	-0.6724	-33.8916	-0.6724	-33.8916	-8.7900	55.6188																													
5550	-8.7180	54.3647	-0.6842	-34.1924	-0.6842	-34.1924	-8.7178	55.3196																													
5600	-8.6466	54.0570	-0.6961	-34.4931	-0.6961	-34.4931	-8.6463	55.0206																													
5650	-8.5758	53.7494	-0.7081	-34.7936	-0.7081	-34.7936	-8.5755	54.7217																													
5700	-8.5058	53.4421	-0.7203	-35.0940	-0.7203	-35.0940	-8.5055	54.4230																													
5750	-8.4365	53.1349	-0.7325	-35.3941	-0.7325	-35.3941	-8.4362	54.1245																													
5800	-8.3679	52.8279	-0.7448	-35.6940	-0.7448	-35.6940	-8.3676	53.8262																													
5850	-8.3000	52.5211	-0.7572	-35.9938	-0.7572	-35.9938	-8.2997	53.5280																													
5900	-8.2328	52.2144	-0.7697	-36.2933	-0.7697	-36.2933	-8.2325	53.2300																													
5950	-8.1663	51.9079	-0.7823	-36.5927	-0.7823	-36.5927	-8.1660	52.9322																													
6000	-8.1004	51.6016	-0.7951	-36.8919	-0.7951	-36.8919	-8.1001	52.6346																													
6050	-8.0351	51.2955	-0.8079	-37.1909	-0.8079	-37.1909	-8.0348	52.3371																													
6100	-7.9706	50.9895	-0.8208	-37.4897	-0.8208	-37.4897	-7.9702	52.0398																													
6150	-7.9066	50.6837	-0.8338	-37.7883	-0.8338	-37.7883	-7.9063	51.7427																													
6200	-7.8433	50.3781	-0.8469	-38.0867	-0.8469	-38.0867	-7.8429	51.4458																													
6250	-7.7805	50.0727	-0.8602	-38.3849	-0.8602	-38.3849	-7.7802	51.1491																													
6300	-7.7184	49.7674	-0.8735	-38.6829	-0.8735	-38.6829	-7.7181	50.8525																													
6350	-7.6569	49.4624	-0.8869	-38.9808	-0.8869	-38.9808	-7.6565	50.5561																													
6400	-7.5959	49.1575	-0.9004	-39.2784	-0.9004	-39.2784	-7.5956	50.2599																													
6450	-7.5355	48.8528	-0.9141	-39.5758	-0.9141	-39.5758	-7.5352	49.9639																													
6500	-7.4757	48.5483	-0.9278	-39.8730	-0.9278	-39.8730	-7.4754	49.6681																													
6550	-7.4165	48.2439	-0.9416	-40.1701	-0.9416	-40.1701	-7.4161	49.3725																													
6600	-7.3578	47.9398	-0.9555	-40.4669	-0.9555	-40.4669	-7.3574	49.0770																													
6650	-7.2996	47.6358	-0.9696	-40.7635	-0.9696	-40.7635	-7.2993	48.7817																													
6700	-7.2420	47.3320	-0.9837	-41.0599	-0.9837	-41.0599	-7.2417	48.4866																													
6750	-7.1849	47.0284	-0.9979	-41.3561	-0.9979	-41.3561	-7.1846	48.1917																													
6800	-7.1284	46.7250	-1.0123	-41.6521	-1.0123	-41.6521	-7.1280	47.8970																													
6850	-7.0723	46.4217	-1.0267	-41.9479	-1.0267	-41.9479	-7.0719	47.6025																													
6900	-7.0168	46.1187	-1.0412	-42.2435	-1.0412	-42.2435	-7.0164	47.3082																													
6950	-6.9617	45.8158	-1.0558	-42.5389	-1.0558	-42.5389	-6.9613	47.0140																													
7000	-6.9072	45.5132	-1.0706	-42.8341	-1.0706	-42.8341	-6.9068	46.7201																													
7050	-6.8531	45.2107	-1.0854	-43.1291	-1.0854	-43.1291	-6.8527	46.4263																													
7100	-6.7995	44.9084	-1.1003	-43.4239	-1.1003	-43.4239	-6.7991	46.1327																													
7150	-6.7464	44.6063	-1.1154	-43.7184	-1.1154	-43.7184	-6.7460	45.8394																													
7200	-6.6937	44.3043	-1.1305	-44.0128	-1.1305	-44.0128	-6.6933	45.5462																													
7250	-6.6415	44.0026	-1.1457	-44.3069	-1.1457	-44.3069	-6.6411	45.2532																													
7300	-6.5898	43.7011	-1.1611	-44.6008	-1.1611	-44.6008	-6.5894	44.9604																													
7350	-6.5385	43.3997	-1.1765	-44.8945	-1.1765	-44.8945	-6.5381	44.6678																													
7400	-6.4877	43.0986	-1.1921	-45.1880	-1.1921	-45.1880	-6.4872	44.3753																													
7450	-6.4373	42.7976	-1.2077	-45.4813	-1.2077	-45.4813	-6.4368	44.0831																													
7500	-6.3873	42.4968	-1.2234	-45.7744	-1.2234	-45.7744	-6.3868	43.7911																													
7550	-6.3377	42.1963	-1.2393	-46.0672	-1.2393	-46.0672	-6.3373	43.4993																													
7600	-6.2886	41.8959	-1.2552	-46.3599	-1.2552	-46.3599	-6.2882	43.2076																													
7650	-6.2399	41.5957	-1.2713	-46.6523	-1.2713	-46.6523	-6.2395	42.9162																													
7700	-6.1916	41.2957	-1.2874	-46.9445	-1.2874	-46.9445	-6.1912	42.6249																													
7750	-6.1437	40.9959	-1.3036	-47.2365	-1.3036	-47.2365	-6.1433	42.3339																													
7800	-6.0962	40.6963	-1.3200	-47.5283	-1.3200	-47.5283	-6.0958	42.0430																													
7850	-6.0491	40.3968	-1.3364	-47.8198	-1.3364	-47.8198	-6.0487	41.7524																													
7900	-6.0024	40.0976	-1.3530	-48.1111	-1.3530	-48.1111	-6.0020	41.4619																													
7950	-5.9561	39.7986	-1.3696	-48.4023	-1.3696	-48.4023	-5.9556	41.1717																													
8000	-5.9102	39.4998	-1.3864	-48.6932	-1.3864	-48.6932	-5.9097	40.8816																													
8050	-5.8646	39.2011	-1.4032	-48.9838	-1.4032	-48.9838	-5.8641	40.5918																													
8100	-5.8195	38.9027	-1.4202	-49.2743	-1.4202	-49.2743	-5.8190	40.3021																													
8150	-5.7747	38.6045	-1.4372	-49.5645	-1.4372	-49.5645	-5.7741	40.0126																													
8200	-5.7302	38.3064	-1.4544	-49.8545	-1.4544	-49.8545	-5.7297	39.7234																													
8250	-5.6861	38.0086	-1.4716	-50.1443	-1.4716	-50.1443	-5.6856	39.4343																													
8300	-5.6424	37.7109	-1.4890	-50.4339	-1.4890	-50.4339	-5.6419	39.1455																													
8350	-5.5990	37.4134	-1.5065	-50.7233	-1.5065	-50.7233	-5.5985	38.8568																													
8400	-5.5560	37.1162	-1.5240	-51.0124	-1.5240	-51.0124	-5.5554	38.5684																													
8450	-5.5133	36.8191	-1.5417	-51.3013	-1.5417	-51.3013	-5.5128	38.2801																													
8500	-5.4710	36.5223	-1.5595	-51.5899	-1.5595	-51.5899	-5.4704	37.9920																													
8550	-5.4290	36.2256	-1.5773	-51.8784	-1.5773	-51.8784	-5.4284	37.7042																													
8600	-5.3873	35.9291	-1.5953	-52.1666	-1.5953	-52.1666	-5.3867	37.4165																													
8650	-5.3460	35.6329	-1.6134	-52.4546	-1.6134	-52.4546	-5.3454	37.1291																													
8700	-5.3049	35.3368	-1.6316	-52.7424	-1.6316	-52.7424	-5.3044	36.8418																													
8750	-5.2643	35.0409	-1.6498	-53.0300	-1.6498	-53.0300	-5.2637	36.5548																													
8800	-5.2239	34.7453	-1.6682	-53.3173	-1.6682	-53.3173	-5.2233	36.2680																													
8850	-5.1838	34.4498	-1.6867	-53.6044	-1.6867	-53.6044	-5.1832	35.9813																													
8900	-5.1441	34.1545	-1.7053	-53.8913	-1.7053	-53.8913	-5.1435	35.6949																													
8950	-5.1046	33.8594	-1.7240	-54.1779	-1.7240	-54.1779	-5.1040	35.4086																													
9000	-5.0655	33.5646	-1.7428	-54.4643	-1.7428	-54.4643	-5.0649	35.1226																													
9050	-5.0267	33.2699	-1.7617	-54.7505	-1.7617	-54.7505	-5.0260	34.8368																													
9100	-4.9882	32.9754	-1.7807	-55.0365	-1.7807	-55.0365	-4.9875	34.5512																													
9150	-4.9499	32.6811	-1.7998	-55.3222	-1.7998	-55.3222	-4.9493	34.2657																													
9200	-4.9120	32.3870	-1.8190	-55.6077	-1.8190	-55.6077	-4.9113	33.9805																													
9250	-4.8743	32.0932	-1.8383	-55.8930	-1.8383	-55.8930	-4.8737	33.6955																													
9300	-4.8370	31.7995	-1.8577	-56.1780	-1.8577	-56.1780	-4.8363	33.4107																													
9350	-4.7999	31.5060	-1.8773	-56.4629	-1.8773	-56.4629	-4.7992	33.1261																													
9400	-4.7631	31.2127	-1.8969	-56.7475	-1.8969	-56.7475	-4.7624	32.8417																													
9450	-4.7266	30.9196	-1.9166	-57.0318	-1.9166	-57.0318	-4.7259	32.5575																													
9500	-4.6903	30.6267	-1.9365	-57.3160	-1.9365	-57.3160	-4.6896	32.2735																													
9550	-4.6544	30.3340	-1.9564	-57.5999	-1.9564	-57.5999	-4.6536	31.9897																													
9600	-4.6187	30.0415	-1.9764	-57.8835	-1.9764	-57.8835	-4.6179	31.7061																													
9650	-4.5833	29.7492	-1.9966	-58.1670	-1.9966	-58.1670	-4.5825	31.4227																													
