!	AVX Thin Film Operation            
!	Date:		5 January 2004																															
!	Description: 	Accu-L®  L0402 Series Thin Film RF Inductors																														
!	Part Number:	L04021R0AHNTR																																		
!	50 MHz-20GHz Serial Measurements																																			
!																																					
#	mhz	S	db	R	50																																
!	S11	S11	S21	S21	S12	S12	S22	S22																													
!	dB	Phase	dB	Phase	dB	Phase	dB	Phase																													
50	-55.7704	89.4274	-0.0001	-0.1990	-0.0001	-0.1990	-55.7704	89.4297																													
100	-49.7494	89.2228	-0.0002	-0.3980	-0.0002	-0.3980	-49.7494	89.2318																													
150	-46.2273	89.0188	-0.0004	-0.5970	-0.0004	-0.5970	-46.2273	89.0334																													
200	-43.7283	88.8149	-0.0006	-0.7961	-0.0006	-0.7961	-43.7283	88.8350																													
250	-41.7898	88.6111	-0.0008	-0.9951	-0.0008	-0.9951	-41.7898	88.6365																													
300	-40.2060	88.4072	-0.0010	-1.1941	-0.0010	-1.1941	-40.2060	88.4380																													
350	-38.8668	88.2035	-0.0012	-1.3932	-0.0012	-1.3932	-38.8668	88.2394																													
400	-37.7068	87.9997	-0.0015	-1.5922	-0.0015	-1.5922	-37.7068	88.0409																													
450	-36.6836	87.7960	-0.0018	-1.7913	-0.0018	-1.7913	-36.6836	87.8425																													
500	-35.7683	87.5923	-0.0021	-1.9903	-0.0021	-1.9903	-35.7683	87.6440																													
550	-34.9403	87.3886	-0.0025	-2.1894	-0.0025	-2.1894	-34.9403	87.4455																													
600	-34.1845	87.1849	-0.0028	-2.3884	-0.0028	-2.3884	-34.1845	87.2471																													
650	-33.4891	86.9813	-0.0032	-2.5875	-0.0032	-2.5875	-33.4892	87.0486																													
700	-32.8454	86.7777	-0.0036	-2.7865	-0.0036	-2.7865	-32.8454	86.8502																													
750	-32.2461	86.5741	-0.0041	-2.9856	-0.0041	-2.9856	-32.2461	86.6518																													
800	-31.6855	86.3705	-0.0045	-3.1847	-0.0045	-3.1847	-31.6856	86.4535																													
850	-31.1590	86.1670	-0.0050	-3.3837	-0.0050	-3.3837	-31.1590	86.2551																													
900	-30.6625	85.9634	-0.0055	-3.5828	-0.0055	-3.5828	-30.6626	86.0568																													
950	-30.1930	85.7599	-0.0061	-3.7818	-0.0061	-3.7818	-30.1930	85.8585																													
1000	-29.7476	85.5564	-0.0066	-3.9809	-0.0066	-3.9809	-29.7476	85.6602																													
1050	-29.3239	85.3529	-0.0072	-4.1799	-0.0072	-4.1799	-29.3239	85.4619																													
1100	-28.9199	85.1495	-0.0078	-4.3789	-0.0078	-4.3789	-28.9200	85.2637																													
1150	-28.5340	84.9461	-0.0085	-4.5780	-0.0085	-4.5780	-28.5340	85.0654																													
1200	-28.1645	84.7427	-0.0091	-4.7770	-0.0091	-4.7770	-28.1645	84.8672																													
1250	-27.8101	84.5393	-0.0098	-4.9760	-0.0098	-4.9760	-27.8102	84.6691																													
1300	-27.4697	84.3360	-0.0105	-5.1751	-0.0105	-5.1751	-27.4697	84.4709																													
1350	-27.1421	84.1327	-0.0112	-5.3741	-0.0112	-5.3741	-27.1422	84.2728																													
1400	-26.8265	83.9294	-0.0120	-5.5731	-0.0120	-5.5731	-26.8266	84.0747																													
1450	-26.5220	83.7261	-0.0127	-5.7721	-0.0127	-5.7721	-26.5220	83.8766																													
1500	-26.2279	83.5228	-0.0135	-5.9711	-0.0135	-5.9711	-26.2279	83.6785																													
1550	-25.9434	83.3196	-0.0144	-6.1701	-0.0144	-6.1701	-25.9434	83.4805																													
1600	-25.6680	83.1164	-0.0152	-6.3691	-0.0152	-6.3691	-25.6680	83.2825																													
1650	-25.4011	82.9133	-0.0161	-6.5680	-0.0161	-6.5680	-25.4011	83.0845																													
1700	-25.1422	82.7101	-0.0170	-6.7670	-0.0170	-6.7670	-25.1422	82.8866																													
1750	-24.8908	82.5070	-0.0179	-6.9659	-0.0179	-6.9659	-24.8909	82.6886																													
1800	-24.6466	82.3039	-0.0188	-7.1649	-0.0188	-7.1649	-24.6466	82.4907																													
1850	-24.4091	82.1009	-0.0198	-7.3638	-0.0198	-7.3638	-24.4091	82.2929																													
1900	-24.1779	81.8979	-0.0208	-7.5627	-0.0208	-7.5627	-24.1780	82.0950																													
1950	-23.9528	81.6949	-0.0218	-7.7616	-0.0218	-7.7616	-23.9529	81.8972																													
2000	-23.7334	81.4919	-0.0228	-7.9605	-0.0228	-7.9605	-23.7335	81.6994																													
2050	-23.5195	81.2890	-0.0239	-8.1594	-0.0239	-8.1594	-23.5196	81.5016																													
2100	-23.3108	81.0860	-0.0249	-8.3582	-0.0249	-8.3582	-23.3108	81.3039																													
2150	-23.1070	80.8832	-0.0261	-8.5571	-0.0261	-8.5571	-23.1070	81.1062																													
2200	-22.9079	80.6803	-0.0272	-8.7559	-0.0272	-8.7559	-22.9080	80.9085																													
2250	-22.7134	80.4775	-0.0283	-8.9547	-0.0283	-8.9547	-22.7134	80.7109																													
2300	-22.5231	80.2747	-0.0295	-9.1535	-0.0295	-9.1535	-22.5232	80.5132																													
2350	-22.3370	80.0719	-0.0307	-9.3523	-0.0307	-9.3523	-22.3371	80.3157																													
2400	-22.1548	79.8692	-0.0319	-9.5511	-0.0319	-9.5511	-22.1549	80.1181																													
2450	-21.9765	79.6665	-0.0332	-9.7499	-0.0332	-9.7499	-21.9765	79.9206																													
2500	-21.8017	79.4638	-0.0344	-9.9486	-0.0344	-9.9486	-21.8018	79.7230																													
2550	-21.6305	79.2612	-0.0357	-10.1473	-0.0357	-10.1473	-21.6306	79.5256																													
2600	-21.4626	79.0585	-0.0370	-10.3460	-0.0370	-10.3460	-21.4627	79.3281																													
2650	-21.2980	78.8560	-0.0384	-10.5447	-0.0384	-10.5447	-21.2980	79.1307																													
2700	-21.1364	78.6534	-0.0397	-10.7434	-0.0397	-10.7434	-21.1365	78.9333																													
2750	-20.9779	78.4509	-0.0411	-10.9420	-0.0411	-10.9420	-20.9780	78.7360																													
2800	-20.8223	78.2484	-0.0425	-11.1406	-0.0425	-11.1406	-20.8223	78.5386																													
2850	-20.6694	78.0459	-0.0440	-11.3392	-0.0440	-11.3392	-20.6695	78.3413																													
2900	-20.5193	77.8435	-0.0454	-11.5378	-0.0454	-11.5378	-20.5193	78.1441																													
2950	-20.3717	77.6411	-0.0469	-11.7364	-0.0469	-11.7364	-20.3718	77.9468																													
3000	-20.2267	77.4387	-0.0484	-11.9349	-0.0484	-11.9349	-20.2268	77.7496																													
3050	-20.0841	77.2364	-0.0499	-12.1335	-0.0499	-12.1335	-20.0842	77.5524																													
3100	-19.9438	77.0341	-0.0515	-12.3320	-0.0515	-12.3320	-19.9439	77.3553																													
3150	-19.8059	76.8318	-0.0531	-12.5304	-0.0531	-12.5304	-19.8059	77.1582																													
3200	-19.6701	76.6296	-0.0546	-12.7289	-0.0546	-12.7289	-19.6702	76.9611																													
3250	-19.5365	76.4274	-0.0563	-12.9273	-0.0563	-12.9273	-19.5366	76.7640																													
3300	-19.4049	76.2252	-0.0579	-13.1257	-0.0579	-13.1257	-19.4050	76.5670																													
3350	-19.2754	76.0231	-0.0596	-13.3241	-0.0596	-13.3241	-19.2755	76.3700																													
3400	-19.1478	75.8210	-0.0613	-13.5225	-0.0613	-13.5225	-19.1479	76.1730																													
3450	-19.0222	75.6189	-0.0630	-13.7208	-0.0630	-13.7208	-19.0223	75.9761																													
3500	-18.8983	75.4169	-0.0647	-13.9191	-0.0647	-13.9191	-18.8984	75.7792																													
3550	-18.7763	75.2149	-0.0665	-14.1174	-0.0665	-14.1174	-18.7764	75.5823																													
3600	-18.6560	75.0129	-0.0682	-14.3156	-0.0682	-14.3156	-18.6561	75.3855																													
3650	-18.5374	74.8109	-0.0700	-14.5139	-0.0700	-14.5139	-18.5375	75.1887																													
3700	-18.4204	74.6090	-0.0719	-14.7120	-0.0719	-14.7120	-18.4205	74.9919																													
3750	-18.3051	74.4072	-0.0737	-14.9102	-0.0737	-14.9102	-18.3052	74.7952																													
3800	-18.1913	74.2053	-0.0756	-15.1084	-0.0756	-15.1084	-18.1914	74.5985																													
3850	-18.0790	74.0035	-0.0775	-15.3065	-0.0775	-15.3065	-18.0792	74.4018																													
3900	-17.9683	73.8017	-0.0794	-15.5046	-0.0794	-15.5046	-17.9684	74.2052																													
3950	-17.8589	73.6000	-0.0813	-15.7026	-0.0813	-15.7026	-17.8591	74.0086																													
4000	-17.7510	73.3983	-0.0833	-15.9007	-0.0833	-15.9007	-17.7511	73.8120																													
4050	-17.6445	73.1966	-0.0853	-16.0987	-0.0853	-16.0987	-17.6446	73.6154																													
4100	-17.5393	72.9950	-0.0873	-16.2966	-0.0873	-16.2966	-17.5394	73.4189																													
4150	-17.4354	72.7934	-0.0893	-16.4946	-0.0893	-16.4946	-17.4355	73.2224																													
4200	-17.3328	72.5918	-0.0914	-16.6925	-0.0914	-16.6925	-17.3329	73.0260																													
4250	-17.2314	72.3903	-0.0935	-16.8904	-0.0935	-16.8904	-17.2315	72.8296																													
4300	-17.1313	72.1888	-0.0956	-17.0882	-0.0956	-17.0882	-17.1314	72.6332																													
4350	-17.0323	71.9874	-0.0977	-17.2860	-0.0977	-17.2860	-17.0325	72.4369																													
4400	-16.9345	71.7859	-0.0998	-17.4838	-0.0998	-17.4838	-16.9347	72.2406																													
4450	-16.8379	71.5846	-0.1020	-17.6815	-0.1020	-17.6815	-16.8380	72.0443																													
4500	-16.7424	71.3832	-0.1042	-17.8793	-0.1042	-17.8793	-16.7425	71.8480																													
4550	-16.6479	71.1819	-0.1064	-18.0769	-0.1064	-18.0769	-16.6481	71.6518																													
4600	-16.5546	70.9806	-0.1087	-18.2746	-0.1087	-18.2746	-16.5547	71.4557																													
4650	-16.4623	70.7794	-0.1109	-18.4722	-0.1109	-18.4722	-16.4624	71.2595																													
4700	-16.3710	70.5782	-0.1132	-18.6698	-0.1132	-18.6698	-16.3711	71.0634																													
4750	-16.2807	70.3770	-0.1155	-18.8673	-0.1155	-18.8673	-16.2808	70.8674																													
4800	-16.1913	70.1759	-0.1178	-19.0648	-0.1178	-19.0648	-16.1915	70.6713																													
4850	-16.1030	69.9748	-0.1202	-19.2623	-0.1202	-19.2623	-16.1031	70.4754																													
4900	-16.0156	69.7738	-0.1226	-19.4598	-0.1226	-19.4598	-16.0157	70.2794																													
4950	-15.9291	69.5727	-0.1250	-19.6572	-0.1250	-19.6572	-15.9292	70.0835																													
5000	-15.8435	69.3718	-0.1274	-19.8545	-0.1274	-19.8545	-15.8436	69.8876																													
5050	-15.7588	69.1708	-0.1298	-20.0519	-0.1298	-20.0519	-15.7589	69.6917																													
5100	-15.6749	68.9699	-0.1323	-20.2492	-0.1323	-20.2492	-15.6751	69.4959																													
5150	-15.5920	68.7691	-0.1348	-20.4464	-0.1348	-20.4464	-15.5921	69.3002																													
5200	-15.5098	68.5683	-0.1373	-20.6436	-0.1373	-20.6436	-15.5100	69.1044																													
5250	-15.4285	68.3675	-0.1398	-20.8408	-0.1398	-20.8408	-15.4287	68.9087																													
5300	-15.3480	68.1668	-0.1424	-21.0380	-0.1424	-21.0380	-15.3482	68.7131																													
5350	-15.2683	67.9661	-0.1450	-21.2351	-0.1450	-21.2351	-15.2684	68.5174																													
5400	-15.1893	67.7654	-0.1476	-21.4321	-0.1476	-21.4321	-15.1895	68.3218																													
5450	-15.1111	67.5648	-0.1502	-21.6291	-0.1502	-21.6291	-15.1113	68.1263																													
5500	-15.0337	67.3642	-0.1528	-21.8261	-0.1528	-21.8261	-15.0339	67.9308																													
5550	-14.9570	67.1637	-0.1555	-22.0231	-0.1555	-22.0231	-14.9572	67.7353																													
5600	-14.8810	66.9632	-0.1582	-22.2200	-0.1582	-22.2200	-14.8812	67.5399																													
5650	-14.8057	66.7627	-0.1609	-22.4168	-0.1609	-22.4168	-14.8059	67.3445																													
5700	-14.7311	66.5623	-0.1636	-22.6136	-0.1636	-22.6136	-14.7313	67.1491																													
5750	-14.6572	66.3619	-0.1664	-22.8104	-0.1664	-22.8104	-14.6574	66.9538																													
5800	-14.5840	66.1616	-0.1692	-23.0072	-0.1692	-23.0072	-14.5842	66.7585																													
5850	-14.5115	65.9613	-0.1720	-23.2039	-0.1720	-23.2039	-14.5117	66.5633																													
5900	-14.4396	65.7611	-0.1748	-23.4005	-0.1748	-23.4005	-14.4398	66.3681																													
5950	-14.3683	65.5609	-0.1777	-23.5971	-0.1777	-23.5971	-14.3685	66.1730																													
6000	-14.2977	65.3607	-0.1805	-23.7937	-0.1805	-23.7937	-14.2979	65.9779																													
6050	-14.2277	65.1606	-0.1834	-23.9902	-0.1834	-23.9902	-14.2279	65.7828																													
6100	-14.1583	64.9606	-0.1863	-24.1867	-0.1863	-24.1867	-14.1585	65.5878																													
6150	-14.0895	64.7606	-0.1893	-24.3831	-0.1893	-24.3831	-14.0897	65.3928																													
6200	-14.0213	64.5606	-0.1922	-24.5795	-0.1922	-24.5795	-14.0215	65.1978																													
6250	-13.9537	64.3606	-0.1952	-24.7758	-0.1952	-24.7758	-13.9539	65.0029																													
6300	-13.8866	64.1608	-0.1982	-24.9721	-0.1982	-24.9721	-13.8868	64.8081																													
6350	-13.8201	63.9609	-0.2012	-25.1684	-0.2012	-25.1684	-13.8203	64.6133																													
6400	-13.7542	63.7611	-0.2043	-25.3646	-0.2043	-25.3646	-13.7544	64.4185																													
6450	-13.6888	63.5614	-0.2074	-25.5607	-0.2074	-25.5607	-13.6890	64.2238																													
6500	-13.6240	63.3617	-0.2105	-25.7568	-0.2105	-25.7568	-13.6242	64.0291																													
6550	-13.5597	63.1620	-0.2136	-25.9529	-0.2136	-25.9529	-13.5599	63.8344																													
6600	-13.4959	62.9624	-0.2167	-26.1489	-0.2167	-26.1489	-13.4961	63.6398																													
6650	-13.4326	62.7629	-0.2199	-26.3449	-0.2199	-26.3449	-13.4328	63.4453																													
6700	-13.3698	62.5633	-0.2230	-26.5408	-0.2230	-26.5408	-13.3701	63.2508																													
6750	-13.3076	62.3639	-0.2262	-26.7367	-0.2262	-26.7367	-13.3078	63.0563																													
6800	-13.2458	62.1645	-0.2295	-26.9325	-0.2295	-26.9325	-13.2460	62.8619																													
6850	-13.1845	61.9651	-0.2327	-27.1283	-0.2327	-27.1283	-13.1847	62.6675																													
6900	-13.1237	61.7658	-0.2360	-27.3240	-0.2360	-27.3240	-13.1239	62.4732																													
6950	-13.0634	61.5665	-0.2393	-27.5197	-0.2393	-27.5197	-13.0636	62.2789																													
7000	-13.0035	61.3673	-0.2426	-27.7153	-0.2426	-27.7153	-13.0037	62.0847																													
7050	-12.9441	61.1681	-0.2459	-27.9109	-0.2459	-27.9109	-12.9443	61.8905																													
7100	-12.8851	60.9690	-0.2493	-28.1064	-0.2493	-28.1064	-12.8854	61.6964																													
7150	-12.8266	60.7699	-0.2527	-28.3019	-0.2527	-28.3019	-12.8269	61.5023																													
7200	-12.7685	60.5709	-0.2561	-28.4973	-0.2561	-28.4973	-12.7688	61.3083																													
7250	-12.7109	60.3720	-0.2595	-28.6927	-0.2595	-28.6927	-12.7112	61.1143																													
7300	-12.6537	60.1731	-0.2629	-28.8880	-0.2629	-28.8880	-12.6540	60.9203																													
7350	-12.5969	59.9742	-0.2664	-29.0832	-0.2664	-29.0832	-12.5972	60.7265																													
7400	-12.5406	59.7754	-0.2699	-29.2784	-0.2699	-29.2784	-12.5408	60.5326																													
7450	-12.4846	59.5766	-0.2734	-29.4736	-0.2734	-29.4736	-12.4849	60.3388																													
7500	-12.4291	59.3779	-0.2769	-29.6687	-0.2769	-29.6687	-12.4294	60.1451																													
7550	-12.3740	59.1793	-0.2805	-29.8638	-0.2805	-29.8638	-12.3742	59.9514																													
7600	-12.3192	58.9807	-0.2840	-30.0588	-0.2840	-30.0588	-12.3195	59.7577																													
7650	-12.2649	58.7821	-0.2876	-30.2537	-0.2876	-30.2537	-12.2652	59.5642																													
7700	-12.2109	58.5837	-0.2912	-30.4486	-0.2912	-30.4486	-12.2112	59.3706																													
7750	-12.1574	58.3852	-0.2949	-30.6434	-0.2949	-30.6434	-12.1576	59.1771																													
7800	-12.1042	58.1869	-0.2985	-30.8382	-0.2985	-30.8382	-12.1044	58.9837																													
7850	-12.0513	57.9885	-0.3022	-31.0329	-0.3022	-31.0329	-12.0516	58.7903																													
7900	-11.9989	57.7903	-0.3059	-31.2276	-0.3059	-31.2276	-11.9992	58.5970																													
7950	-11.9468	57.5921	-0.3097	-31.4222	-0.3097	-31.4222	-11.9471	58.4037																													
8000	-11.8951	57.3939	-0.3134	-31.6167	-0.3134	-31.6167	-11.8953	58.2105																													
8050	-11.8437	57.1958	-0.3172	-31.8112	-0.3172	-31.8112	-11.8440	58.0173																													
8100	-11.7927	56.9978	-0.3209	-32.0057	-0.3209	-32.0057	-11.7930	57.8242																													
8150	-11.7420	56.7998	-0.3248	-32.2000	-0.3248	-32.2000	-11.7423	57.6311																													
8200	-11.6916	56.6019	-0.3286	-32.3944	-0.3286	-32.3944	-11.6919	57.4381																													
8250	-11.6417	56.4040	-0.3324	-32.5886	-0.3324	-32.5886	-11.6420	57.2452																													
8300	-11.5920	56.2062	-0.3363	-32.7828	-0.3363	-32.7828	-11.5923	57.0523																													
8350	-11.5427	56.0085	-0.3402	-32.9770	-0.3402	-32.9770	-11.5430	56.8594																													
8400	-11.4937	55.8108	-0.3441	-33.1710	-0.3441	-33.1710	-11.4940	56.6667																													
8450	-11.4450	55.6132	-0.3481	-33.3651	-0.3481	-33.3651	-11.4453	56.4739																													
8500	-11.3966	55.4156	-0.3520	-33.5590	-0.3520	-33.5590	-11.3969	56.2813																													
8550	-11.3486	55.2181	-0.3560	-33.7529	-0.3560	-33.7529	-11.3489	56.0886																													
8600	-11.3009	55.0206	-0.3600	-33.9468	-0.3600	-33.9468	-11.3012	55.8961																													
8650	-11.2535	54.8233	-0.3640	-34.1406	-0.3640	-34.1406	-11.2538	55.7036																													
8700	-11.2063	54.6259	-0.3681	-34.3343	-0.3681	-34.3343	-11.2067	55.5112																													
8750	-11.1595	54.4287	-0.3721	-34.5279	-0.3721	-34.5279	-11.1599	55.3188																													
8800	-11.1130	54.2315	-0.3762	-34.7215	-0.3762	-34.7215	-11.1134	55.1264																													
8850	-11.0668	54.0343	-0.3803	-34.9151	-0.3803	-34.9151	-11.0671	54.9342																													
8900	-11.0209	53.8373	-0.3844	-35.1085	-0.3844	-35.1085	-11.0212	54.7420																													
8950	-10.9753	53.6403	-0.3886	-35.3020	-0.3886	-35.3020	-10.9756	54.5498																													
9000	-10.9299	53.4433	-0.3927	-35.4953	-0.3927	-35.4953	-10.9303	54.3577																													
9050	-10.8849	53.2464	-0.3969	-35.6886	-0.3969	-35.6886	-10.8852	54.1657																													
9100	-10.8401	53.0496	-0.4011	-35.8818	-0.4011	-35.8818	-10.8404	53.9738																													
9150	-10.7956	52.8529	-0.4054	-36.0750	-0.4054	-36.0750	-10.7959	53.7819																													
9200	-10.7514	52.6562	-0.4096	-36.2680	-0.4096	-36.2680	-10.7517	53.5900																													
9250	-10.7074	52.4596	-0.4139	-36.4611	-0.4139	-36.4611	-10.7078	53.3982																													
9300	-10.6637	52.2630	-0.4182	-36.6540	-0.4182	-36.6540	-10.6641	53.2065																													
9350	-10.6203	52.0665	-0.4225	-36.8469	-0.4225	-36.8469	-10.6207	53.0149																													
9400	-10.5772	51.8701	-0.4268	-37.0398	-0.4268	-37.0398	-10.5775	52.8233																													
9450	-10.5343	51.6737	-0.4312	-37.2325	-0.4312	-37.2325	-10.5346	52.6317																													
9500	-10.4917	51.4774	-0.4355	-37.4252	-0.4355	-37.4252	-10.4920	52.4403																													
9550	-10.4493	51.2812	-0.4399	-37.6178	-0.4399	-37.6178	-10.4496	52.2489																													
9600	-10.4072	51.0851	-0.4443	-37.8104	-0.4443	-37.8104	-10.4075	52.0575																													
