!	AVX Thin Film Operation            
!	Date:		5 January 2004																															
!	Description: 	Accu-L®  L0402 Series Thin Film RF Inductors																														
!	Part Number:	L0402R82AHNTR																																		
!	50 MHz-20GHz Serial Measurements																																			
!																																					
#	mhz	S	db	R	50																																
!	S11	S11	S21	S21	S12	S12	S22	S22																													
!	dB	Phase	dB	Phase	dB	Phase	dB	Phase																													
50	-56.4105	89.4610	-0.0001	-0.1935	-0.0001	-0.1935	-56.4105	89.4675																													
100	-50.3896	89.2627	-0.0002	-0.3869	-0.0002	-0.3869	-50.3896	89.2746																													
150	-46.8675	89.0643	-0.0003	-0.5804	-0.0003	-0.5804	-46.8675	89.0819																													
200	-44.3685	88.8659	-0.0005	-0.7739	-0.0005	-0.7739	-44.3685	88.8892																													
250	-42.4300	88.6675	-0.0007	-0.9674	-0.0007	-0.9674	-42.4300	88.6965																													
300	-40.8462	88.4691	-0.0008	-1.1609	-0.0008	-1.1609	-40.8462	88.5038																													
350	-39.5070	88.2707	-0.0011	-1.3543	-0.0011	-1.3543	-39.5070	88.3112																													
400	-38.3470	88.0723	-0.0013	-1.5478	-0.0013	-1.5478	-38.3470	88.1186																													
450	-37.3238	87.8739	-0.0015	-1.7413	-0.0015	-1.7413	-37.3238	87.9260																													
500	-36.4085	87.6756	-0.0018	-1.9348	-0.0018	-1.9348	-36.4085	87.7334																													
550	-35.5805	87.4772	-0.0021	-2.1283	-0.0021	-2.1283	-35.5805	87.5408																													
600	-34.8246	87.2789	-0.0024	-2.3219	-0.0024	-2.3219	-34.8246	87.3483																													
650	-34.1292	87.0806	-0.0028	-2.5154	-0.0028	-2.5154	-34.1293	87.1557																													
700	-33.4855	86.8823	-0.0031	-2.7089	-0.0031	-2.7089	-33.4855	86.9632																													
750	-32.8861	86.6841	-0.0035	-2.9024	-0.0035	-2.9024	-32.8862	86.7707																													
800	-32.3255	86.4858	-0.0039	-3.0959	-0.0039	-3.0959	-32.3255	86.5783																													
850	-31.7989	86.2876	-0.0043	-3.2894	-0.0043	-3.2894	-31.7989	86.3858																													
900	-31.3024	86.0894	-0.0048	-3.4829	-0.0048	-3.4829	-31.3025	86.1934																													
950	-30.8328	85.8912	-0.0052	-3.6764	-0.0052	-3.6764	-30.8329	86.0009																													
1000	-30.3873	85.6930	-0.0057	-3.8699	-0.0057	-3.8699	-30.3874	85.8085																													
1050	-29.9636	85.4949	-0.0062	-4.0634	-0.0062	-4.0634	-29.9636	85.6162																													
1100	-29.5596	85.2967	-0.0067	-4.2569	-0.0067	-4.2569	-29.5596	85.4238																													
1150	-29.1736	85.0986	-0.0073	-4.4504	-0.0073	-4.4504	-29.1736	85.2315																													
1200	-28.8040	84.9005	-0.0078	-4.6439	-0.0078	-4.6439	-28.8040	85.0391																													
1250	-28.4495	84.7025	-0.0084	-4.8374	-0.0084	-4.8374	-28.4496	84.8469																													
1300	-28.1090	84.5044	-0.0090	-5.0309	-0.0090	-5.0309	-28.1091	84.6546																													
1350	-27.7814	84.3064	-0.0097	-5.2244	-0.0097	-5.2244	-27.7814	84.4623																													
1400	-27.4657	84.1084	-0.0103	-5.4179	-0.0103	-5.4179	-27.4657	84.2701																													
1450	-27.1611	83.9105	-0.0110	-5.6114	-0.0110	-5.6114	-27.1611	84.0779																													
1500	-26.8668	83.7125	-0.0117	-5.8049	-0.0117	-5.8049	-26.8669	83.8857																													
1550	-26.5822	83.5146	-0.0124	-5.9983	-0.0124	-5.9983	-26.5823	83.6935																													
1600	-26.3067	83.3167	-0.0131	-6.1918	-0.0131	-6.1918	-26.3068	83.5014																													
1650	-26.0397	83.1188	-0.0139	-6.3853	-0.0139	-6.3853	-26.0398	83.3093																													
1700	-25.7807	82.9209	-0.0146	-6.5787	-0.0146	-6.5787	-25.7807	83.1172																													
1750	-25.5292	82.7231	-0.0154	-6.7722	-0.0154	-6.7722	-25.5293	82.9251																													
1800	-25.2848	82.5253	-0.0162	-6.9656	-0.0162	-6.9656	-25.2849	82.7330																													
1850	-25.0472	82.3275	-0.0171	-7.1590	-0.0171	-7.1590	-25.0472	82.5410																													
1900	-24.8159	82.1297	-0.0179	-7.3524	-0.0179	-7.3524	-24.8160	82.3490																													
1950	-24.5906	81.9320	-0.0188	-7.5459	-0.0188	-7.5459	-24.5907	82.1570																													
2000	-24.3711	81.7343	-0.0197	-7.7393	-0.0197	-7.7393	-24.3712	81.9650																													
2050	-24.1570	81.5366	-0.0206	-7.9326	-0.0206	-7.9326	-24.1571	81.7731																													
2100	-23.9482	81.3389	-0.0215	-8.1260	-0.0215	-8.1260	-23.9482	81.5812																													
2150	-23.7442	81.1413	-0.0225	-8.3194	-0.0225	-8.3194	-23.7443	81.3893																													
2200	-23.5450	80.9437	-0.0235	-8.5128	-0.0235	-8.5128	-23.5451	81.1974																													
2250	-23.3503	80.7461	-0.0244	-8.7061	-0.0244	-8.7061	-23.3504	81.0056																													
2300	-23.1599	80.5485	-0.0255	-8.8995	-0.0255	-8.8995	-23.1600	80.8138																													
2350	-22.9736	80.3509	-0.0265	-9.0928	-0.0265	-9.0928	-22.9737	80.6220																													
2400	-22.7912	80.1534	-0.0276	-9.2861	-0.0276	-9.2861	-22.7913	80.4302																													
2450	-22.6127	79.9559	-0.0286	-9.4794	-0.0286	-9.4794	-22.6128	80.2384																													
2500	-22.4378	79.7585	-0.0297	-9.6727	-0.0297	-9.6727	-22.4379	80.0467																													
2550	-22.2663	79.5610	-0.0308	-9.8660	-0.0308	-9.8660	-22.2664	79.8550																													
2600	-22.0983	79.3636	-0.0320	-10.0593	-0.0320	-10.0593	-22.0984	79.6633																													
2650	-21.9334	79.1662	-0.0331	-10.2525	-0.0331	-10.2525	-21.9335	79.4717																													
2700	-21.7717	78.9688	-0.0343	-10.4458	-0.0343	-10.4458	-21.7718	79.2801																													
2750	-21.6130	78.7715	-0.0355	-10.6390	-0.0355	-10.6390	-21.6131	79.0884																													
2800	-21.4571	78.5742	-0.0367	-10.8322	-0.0367	-10.8322	-21.4572	78.8969																													
2850	-21.3041	78.3769	-0.0380	-11.0254	-0.0380	-11.0254	-21.3042	78.7053																													
2900	-21.1537	78.1796	-0.0392	-11.2186	-0.0392	-11.2186	-21.1538	78.5138																													
2950	-21.0059	77.9824	-0.0405	-11.4118	-0.0405	-11.4118	-21.0060	78.3223																													
3000	-20.8607	77.7851	-0.0418	-11.6049	-0.0418	-11.6049	-20.8608	78.1308																													
3050	-20.7178	77.5879	-0.0431	-11.7981	-0.0431	-11.7981	-20.7180	77.9393																													
3100	-20.5774	77.3908	-0.0445	-11.9912	-0.0445	-11.9912	-20.5775	77.7479																													
3150	-20.4392	77.1936	-0.0458	-12.1843	-0.0458	-12.1843	-20.4393	77.5565																													
3200	-20.3032	76.9965	-0.0472	-12.3774	-0.0472	-12.3774	-20.3033	77.3651																													
3250	-20.1693	76.7994	-0.0486	-12.5705	-0.0486	-12.5705	-20.1694	77.1737																													
3300	-20.0375	76.6024	-0.0500	-12.7635	-0.0500	-12.7635	-20.0376	76.9824																													
3350	-19.9077	76.4053	-0.0514	-12.9566	-0.0514	-12.9566	-19.9079	76.7910																													
3400	-19.7799	76.2083	-0.0529	-13.1496	-0.0529	-13.1496	-19.7800	76.5997																													
3450	-19.6540	76.0113	-0.0544	-13.3426	-0.0544	-13.3426	-19.6541	76.4085																													
3500	-19.5299	75.8144	-0.0559	-13.5356	-0.0559	-13.5356	-19.5300	76.2172																													
3550	-19.4076	75.6174	-0.0574	-13.7286	-0.0574	-13.7286	-19.4077	76.0260																													
3600	-19.2870	75.4205	-0.0589	-13.9215	-0.0589	-13.9215	-19.2872	75.8348																													
3650	-19.1681	75.2236	-0.0605	-14.1144	-0.0605	-14.1144	-19.1683	75.6436																													
3700	-19.0509	75.0268	-0.0621	-14.3073	-0.0621	-14.3073	-19.0511	75.4525																													
3750	-18.9353	74.8300	-0.0637	-14.5002	-0.0637	-14.5002	-18.9354	75.2614																													
3800	-18.8212	74.6332	-0.0653	-14.6931	-0.0653	-14.6931	-18.8214	75.0703																													
3850	-18.7087	74.4364	-0.0669	-14.8859	-0.0669	-14.8859	-18.7088	74.8792																													
3900	-18.5976	74.2396	-0.0686	-15.0788	-0.0686	-15.0788	-18.5978	74.6881																													
3950	-18.4880	74.0429	-0.0703	-15.2716	-0.0703	-15.2716	-18.4881	74.4971																													
4000	-18.3798	73.8462	-0.0720	-15.4644	-0.0720	-15.4644	-18.3799	74.3061																													
4050	-18.2729	73.6495	-0.0737	-15.6571	-0.0737	-15.6571	-18.2731	74.1151																													
4100	-18.1674	73.4529	-0.0754	-15.8499	-0.0754	-15.8499	-18.1676	73.9242																													
4150	-18.0632	73.2563	-0.0772	-16.0426	-0.0772	-16.0426	-18.0634	73.7333																													
4200	-17.9603	73.0597	-0.0790	-16.2353	-0.0790	-16.2353	-17.9605	73.5424																													
4250	-17.8586	72.8631	-0.0808	-16.4280	-0.0808	-16.4280	-17.8588	73.3515																													
4300	-17.7582	72.6666	-0.0826	-16.6206	-0.0826	-16.6206	-17.7583	73.1606																													
4350	-17.6589	72.4701	-0.0845	-16.8132	-0.0845	-16.8132	-17.6591	72.9698																													
4400	-17.5608	72.2736	-0.0863	-17.0058	-0.0863	-17.0058	-17.5610	72.7790																													
4450	-17.4638	72.0771	-0.0882	-17.1984	-0.0882	-17.1984	-17.4640	72.5882																													
4500	-17.3679	71.8807	-0.0901	-17.3910	-0.0901	-17.3910	-17.3681	72.3975																													
4550	-17.2732	71.6843	-0.0920	-17.5835	-0.0920	-17.5835	-17.2734	72.2068																													
4600	-17.1795	71.4879	-0.0940	-17.7760	-0.0940	-17.7760	-17.1797	72.0161																													
4650	-17.0868	71.2916	-0.0959	-17.9685	-0.0959	-17.9685	-17.0870	71.8254																													
4700	-16.9951	71.0953	-0.0979	-18.1610	-0.0979	-18.1610	-16.9954	71.6348																													
4750	-16.9045	70.8990	-0.0999	-18.3534	-0.0999	-18.3534	-16.9047	71.4441																													
4800	-16.8148	70.7027	-0.1019	-18.5458	-0.1019	-18.5458	-16.8150	71.2535																													
4850	-16.7261	70.5065	-0.1040	-18.7382	-0.1040	-18.7382	-16.7263	71.0630																													
4900	-16.6383	70.3103	-0.1060	-18.9305	-0.1060	-18.9305	-16.6386	70.8724																													
4950	-16.5515	70.1141	-0.1081	-19.1229	-0.1081	-19.1229	-16.5517	70.6819																													
5000	-16.4655	69.9180	-0.1102	-19.3152	-0.1102	-19.3152	-16.4657	70.4914																													
5050	-16.3804	69.7219	-0.1123	-19.5074	-0.1123	-19.5074	-16.3807	70.3010																													
5100	-16.2962	69.5258	-0.1144	-19.6997	-0.1144	-19.6997	-16.2965	70.1105																													
5150	-16.2129	69.3297	-0.1166	-19.8919	-0.1166	-19.8919	-16.2131	69.9201																													
5200	-16.1303	69.1337	-0.1188	-20.0841	-0.1188	-20.0841	-16.1306	69.7297																													
5250	-16.0486	68.9377	-0.1210	-20.2763	-0.1210	-20.2763	-16.0489	69.5394																													
5300	-15.9677	68.7417	-0.1232	-20.4684	-0.1232	-20.4684	-15.9680	69.3491																													
5350	-15.8876	68.5458	-0.1254	-20.6605	-0.1254	-20.6605	-15.8879	69.1588																													
5400	-15.8083	68.3499	-0.1277	-20.8526	-0.1277	-20.8526	-15.8085	68.9685																													
5450	-15.7297	68.1540	-0.1300	-21.0446	-0.1300	-21.0446	-15.7299	68.7782																													
5500	-15.6518	67.9582	-0.1323	-21.2366	-0.1323	-21.2366	-15.6521	68.5880																													
5550	-15.5747	67.7623	-0.1346	-21.4286	-0.1346	-21.4286	-15.5750	68.3978																													
5600	-15.4983	67.5666	-0.1369	-21.6206	-0.1369	-21.6206	-15.4986	68.2077																													
5650	-15.4226	67.3708	-0.1393	-21.8125	-0.1393	-21.8125	-15.4229	68.0176																													
5700	-15.3476	67.1751	-0.1417	-22.0044	-0.1417	-22.0044	-15.3479	67.8275																													
5750	-15.2733	66.9794	-0.1441	-22.1963	-0.1441	-22.1963	-15.2736	67.6374																													
5800	-15.1997	66.7837	-0.1465	-22.3881	-0.1465	-22.3881	-15.2000	67.4473																													
5850	-15.1267	66.5881	-0.1489	-22.5799	-0.1489	-22.5799	-15.1270	67.2573																													
5900	-15.0544	66.3925	-0.1514	-22.7717	-0.1514	-22.7717	-15.0547	67.0673																													
5950	-14.9827	66.1969	-0.1538	-22.9634	-0.1538	-22.9634	-14.9830	66.8774																													
6000	-14.9116	66.0014	-0.1563	-23.1552	-0.1563	-23.1552	-14.9119	66.6875																													
6050	-14.8412	65.8059	-0.1588	-23.3468	-0.1588	-23.3468	-14.8415	66.4976																													
6100	-14.7713	65.6104	-0.1614	-23.5385	-0.1614	-23.5385	-14.7716	66.3077																													
6150	-14.7021	65.4150	-0.1639	-23.7301	-0.1639	-23.7301	-14.7024	66.1179																													
6200	-14.6334	65.2196	-0.1665	-23.9217	-0.1665	-23.9217	-14.6337	65.9280																													
6250	-14.5654	65.0242	-0.1691	-24.1132	-0.1691	-24.1132	-14.5657	65.7383																													
6300	-14.4979	64.8289	-0.1717	-24.3047	-0.1717	-24.3047	-14.4982	65.5485																													
6350	-14.4309	64.6336	-0.1743	-24.4962	-0.1743	-24.4962	-14.4312	65.3588																													
6400	-14.3645	64.4383	-0.1770	-24.6877	-0.1770	-24.6877	-14.3648	65.1691																													
6450	-14.2987	64.2431	-0.1797	-24.8791	-0.1797	-24.8791	-14.2990	64.9795																													
6500	-14.2334	64.0479	-0.1824	-25.0704	-0.1824	-25.0704	-14.2337	64.7899																													
6550	-14.1686	63.8528	-0.1851	-25.2618	-0.1851	-25.2618	-14.1689	64.6003																													
6600	-14.1043	63.6576	-0.1878	-25.4531	-0.1878	-25.4531	-14.1046	64.4107																													
6650	-14.0406	63.4625	-0.1906	-25.6444	-0.1906	-25.6444	-14.0409	64.2212																													
6700	-13.9773	63.2675	-0.1933	-25.8356	-0.1933	-25.8356	-13.9776	64.0317																													
6750	-13.9146	63.0725	-0.1961	-26.0268	-0.1961	-26.0268	-13.9149	63.8423																													
6800	-13.8523	62.8775	-0.1989	-26.2180	-0.1989	-26.2180	-13.8526	63.6528																													
6850	-13.7905	62.6826	-0.2017	-26.4091	-0.2017	-26.4091	-13.7909	63.4635																													
6900	-13.7292	62.4876	-0.2046	-26.6002	-0.2046	-26.6002	-13.7296	63.2741																													
6950	-13.6684	62.2928	-0.2075	-26.7912	-0.2075	-26.7912	-13.6687	63.0848																													
7000	-13.6080	62.0979	-0.2104	-26.9822	-0.2104	-26.9822	-13.6084	62.8955																													
7050	-13.5481	61.9031	-0.2133	-27.1732	-0.2133	-27.1732	-13.5485	62.7062																													
7100	-13.4887	61.7084	-0.2162	-27.3642	-0.2162	-27.3642	-13.4890	62.5170																													
7150	-13.4296	61.5137	-0.2191	-27.5551	-0.2191	-27.5551	-13.4300	62.3278																													
7200	-13.3711	61.3190	-0.2221	-27.7459	-0.2221	-27.7459	-13.3714	62.1387																													
7250	-13.3129	61.1243	-0.2251	-27.9368	-0.2251	-27.9368	-13.3133	61.9496																													
7300	-13.2552	60.9297	-0.2281	-28.1275	-0.2281	-28.1275	-13.2556	61.7605																													
7350	-13.1979	60.7352	-0.2311	-28.3183	-0.2311	-28.3183	-13.1983	61.5715																													
7400	-13.1410	60.5406	-0.2341	-28.5090	-0.2341	-28.5090	-13.1414	61.3825																													
7450	-13.0846	60.3462	-0.2372	-28.6997	-0.2372	-28.6997	-13.0849	61.1935																													
7500	-13.0285	60.1517	-0.2403	-28.8903	-0.2403	-28.8903	-13.0289	61.0046																													
7550	-12.9728	59.9573	-0.2434	-29.0809	-0.2434	-29.0809	-12.9732	60.8157																													
7600	-12.9176	59.7629	-0.2465	-29.2714	-0.2465	-29.2714	-12.9179	60.6268																													
7650	-12.8627	59.5686	-0.2496	-29.4619	-0.2496	-29.4619	-12.8631	60.4380																													
7700	-12.8082	59.3743	-0.2528	-29.6524	-0.2528	-29.6524	-12.8086	60.2492																													
7750	-12.7541	59.1801	-0.2560	-29.8428	-0.2560	-29.8428	-12.7545	60.0605																													
7800	-12.7003	58.9859	-0.2592	-30.0332	-0.2592	-30.0332	-12.7007	59.8717																													
7850	-12.6469	58.7917	-0.2624	-30.2235	-0.2624	-30.2235	-12.6473	59.6831																													
7900	-12.5939	58.5976	-0.2656	-30.4138	-0.2656	-30.4138	-12.5943	59.4944																													
7950	-12.5413	58.4035	-0.2689	-30.6041	-0.2689	-30.6041	-12.5417	59.3059																													
8000	-12.4890	58.2095	-0.2721	-30.7943	-0.2721	-30.7943	-12.4894	59.1173																													
8050	-12.4371	58.0155	-0.2754	-30.9845	-0.2754	-30.9845	-12.4375	58.9288																													
8100	-12.3855	57.8216	-0.2787	-31.1746	-0.2787	-31.1746	-12.3859	58.7403																													
8150	-12.3342	57.6277	-0.2821	-31.3647	-0.2821	-31.3647	-12.3347	58.5519																													
8200	-12.2833	57.4338	-0.2854	-31.5547	-0.2854	-31.5547	-12.2838	58.3635																													
8250	-12.2328	57.2400	-0.2888	-31.7447	-0.2888	-31.7447	-12.2332	58.1751																													
8300	-12.1825	57.0462	-0.2922	-31.9347	-0.2922	-31.9347	-12.1830	57.9868																													
8350	-12.1326	56.8525	-0.2956	-32.1246	-0.2956	-32.1246	-12.1331	57.7986																													
8400	-12.0831	56.6588	-0.2990	-32.3145	-0.2990	-32.3145	-12.0835	57.6103																													
8450	-12.0338	56.4652	-0.3024	-32.5043	-0.3024	-32.5043	-12.0342	57.4221																													
8500	-11.9849	56.2716	-0.3059	-32.6941	-0.3059	-32.6941	-11.9853	57.2340																													
8550	-11.9362	56.0781	-0.3094	-32.8838	-0.3094	-32.8838	-11.9367	57.0459																													
8600	-11.8879	55.8846	-0.3129	-33.0735	-0.3129	-33.0735	-11.8884	56.8578																													
8650	-11.8399	55.6911	-0.3164	-33.2631	-0.3164	-33.2631	-11.8404	56.6698																													
8700	-11.7922	55.4977	-0.3199	-33.4527	-0.3199	-33.4527	-11.7927	56.4818																													
8750	-11.7448	55.3044	-0.3235	-33.6423	-0.3235	-33.6423	-11.7452	56.2939																													
8800	-11.6977	55.1111	-0.3271	-33.8318	-0.3271	-33.8318	-11.6981	56.1060																													
8850	-11.6509	54.9178	-0.3307	-34.0212	-0.3307	-34.0212	-11.6513	55.9182																													
8900	-11.6043	54.7246	-0.3343	-34.2106	-0.3343	-34.2106	-11.6048	55.7304																													
8950	-11.5581	54.5314	-0.3379	-34.4000	-0.3379	-34.4000	-11.5586	55.5426																													
9000	-11.5122	54.3383	-0.3416	-34.5893	-0.3416	-34.5893	-11.5126	55.3549																													
9050	-11.4665	54.1453	-0.3452	-34.7785	-0.3452	-34.7785	-11.4670	55.1673																													
9100	-11.4211	53.9523	-0.3489	-34.9677	-0.3489	-34.9677	-11.4216	54.9796																													
9150	-11.3760	53.7593	-0.3526	-35.1569	-0.3526	-35.1569	-11.3765	54.7921																													
9200	-11.3311	53.5664	-0.3564	-35.3460	-0.3564	-35.3460	-11.3316	54.6045																													
9250	-11.2866	53.3735	-0.3601	-35.5351	-0.3601	-35.5351	-11.2870	54.4171																													
9300	-11.2422	53.1807	-0.3639	-35.7241	-0.3639	-35.7241	-11.2427	54.2296																													
9350	-11.1982	52.9879	-0.3677	-35.9131	-0.3677	-35.9131	-11.1987	54.0422																													
9400	-11.1544	52.7952	-0.3715	-36.1020	-0.3715	-36.1020	-11.1549	53.8549																													
9450	-11.1109	52.6025	-0.3753	-36.2909	-0.3753	-36.2909	-11.1114	53.6676																													
9500	-11.0676	52.4099	-0.3791	-36.4797	-0.3791	-36.4797	-11.0681	53.4803																													
9550	-11.0246	52.2174	-0.3830	-36.6684	-0.3830	-36.6684	-11.0251	53.2931																													
9600	-10.9819	52.0249	-0.3868	-36.8572	-0.3868	-36.8572	-10.9824	53.1060																													
