!	AVX Thin Film Operation            
!	Date:		5 January 2004																															
!	Description: 	Accu-L®  L0402 Series Thin Film RF Inductors																														
!	Part Number:	L04021R2AHNTR																																		
!	50 MHz-20GHz Serial Measurements																																			
!																																																																																																																																																													
#	mhz	S	db	R	50																																																																																																																																																								
!	S11	S11	S21	S21	S12	S12	S22	S22																																																																																																																																																					
!	dB	Phase	dB	Phase	dB	Phase	dB	Phase																																																																																																																																																					
50	-51.6854	89.1888	-0.0003	-0.2329	-0.0003	-0.2329	-51.6854	89.1905																																																																																																																																																					
100	-45.6644	88.9515	-0.0006	-0.4657	-0.0006	-0.4657	-45.6644	88.9555																																																																																																																																																					
150	-42.1423	88.7144	-0.0010	-0.6986	-0.0010	-0.6986	-42.1423	88.7205																																																																																																																																																					
200	-39.6433	88.4772	-0.0014	-0.9315	-0.0014	-0.9315	-39.6433	88.4854																																																																																																																																																					
250	-37.7050	88.2400	-0.0019	-1.1644	-0.0019	-1.1644	-37.7050	88.2504																																																																																																																																																					
300	-36.1212	88.0028	-0.0025	-1.3973	-0.0025	-1.3973	-36.1212	88.0153																																																																																																																																																					
350	-34.7823	87.7657	-0.0031	-1.6302	-0.0031	-1.6302	-34.7823	87.7803																																																																																																																																																					
400	-33.6224	87.5285	-0.0038	-1.8631	-0.0038	-1.8631	-33.6225	87.5452																																																																																																																																																					
450	-32.5995	87.2914	-0.0045	-2.0960	-0.0045	-2.0960	-32.5995	87.3102																																																																																																																																																					
500	-31.6845	87.0544	-0.0053	-2.3289	-0.0053	-2.3289	-31.6845	87.0752																																																																																																																																																					
550	-30.8569	86.8173	-0.0062	-2.5618	-0.0062	-2.5618	-30.8569	86.8403																																																																																																																																																					
600	-30.1014	86.5803	-0.0071	-2.7947	-0.0071	-2.7947	-30.1014	86.6054																																																																																																																																																					
650	-29.4065	86.3434	-0.0081	-3.0275	-0.0081	-3.0275	-29.4065	86.3705																																																																																																																																																					
700	-28.7632	86.1065	-0.0092	-3.2604	-0.0092	-3.2604	-28.7632	86.1357																																																																																																																																																					
750	-28.1645	85.8696	-0.0103	-3.4932	-0.0103	-3.4932	-28.1645	85.9009																																																																																																																																																					
800	-27.6044	85.6328	-0.0115	-3.7260	-0.0115	-3.7260	-27.6044	85.6662																																																																																																																																																					
850	-27.0785	85.3960	-0.0127	-3.9588	-0.0127	-3.9588	-27.0785	85.4315																																																																																																																																																					
900	-26.5827	85.1593	-0.0140	-4.1916	-0.0140	-4.1916	-26.5827	85.1969																																																																																																																																																					
950	-26.1138	84.9226	-0.0154	-4.4243	-0.0154	-4.4243	-26.1138	84.9623																																																																																																																																																					
1000	-25.6691	84.6860	-0.0168	-4.6570	-0.0168	-4.6570	-25.6691	84.7278																																																																																																																																																					
1050	-25.2462	84.4495	-0.0183	-4.8897	-0.0183	-4.8897	-25.2462	84.4934																																																																																																																																																					
1100	-24.8430	84.2130	-0.0198	-5.1223	-0.0198	-5.1223	-24.8431	84.2590																																																																																																																																																					
1150	-24.4579	83.9766	-0.0214	-5.3550	-0.0214	-5.3550	-24.4580	84.0246																																																																																																																																																					
1200	-24.0893	83.7402	-0.0231	-5.5875	-0.0231	-5.5875	-24.0894	83.7904																																																																																																																																																					
1250	-23.7359	83.5039	-0.0248	-5.8201	-0.0248	-5.8201	-23.7359	83.5562																																																																																																																																																					
1300	-23.3964	83.2677	-0.0266	-6.0525	-0.0266	-6.0525	-23.3965	83.3220																																																																																																																																																					
1350	-23.0699	83.0316	-0.0285	-6.2850	-0.0285	-6.2850	-23.0699	83.0880																																																																																																																																																					
1400	-22.7553	82.7955	-0.0304	-6.5174	-0.0304	-6.5174	-22.7554	82.8540																																																																																																																																																					
1450	-22.4519	82.5595	-0.0323	-6.7497	-0.0323	-6.7497	-22.4519	82.6201																																																																																																																																																					
1500	-22.1589	82.3236	-0.0344	-6.9820	-0.0344	-6.9820	-22.1589	82.3862																																																																																																																																																					
1550	-21.8756	82.0877	-0.0364	-7.2143	-0.0364	-7.2143	-21.8756	82.1525																																																																																																																																																					
1600	-21.6014	81.8520	-0.0386	-7.4465	-0.0386	-7.4465	-21.6015	81.9188																																																																																																																																																					
1650	-21.3358	81.6163	-0.0408	-7.6786	-0.0408	-7.6786	-21.3358	81.6852																																																																																																																																																					
1700	-21.0782	81.3807	-0.0431	-7.9107	-0.0431	-7.9107	-21.0782	81.4517																																																																																																																																																					
1750	-20.8282	81.1452	-0.0454	-8.1427	-0.0454	-8.1427	-20.8282	81.2183																																																																																																																																																					
1800	-20.5853	80.9098	-0.0478	-8.3746	-0.0478	-8.3746	-20.5853	80.9850																																																																																																																																																					
1850	-20.3492	80.6744	-0.0502	-8.6065	-0.0502	-8.6065	-20.3493	80.7517																																																																																																																																																					
1900	-20.1195	80.4392	-0.0527	-8.8383	-0.0527	-8.8383	-20.1196	80.5186																																																																																																																																																					
1950	-19.8959	80.2041	-0.0553	-9.0700	-0.0553	-9.0700	-19.8960	80.2855																																																																																																																																																					
2000	-19.6781	79.9690	-0.0579	-9.3017	-0.0579	-9.3017	-19.6781	80.0525																																																																																																																																																					
2050	-19.4658	79.7341	-0.0606	-9.5333	-0.0606	-9.5333	-19.4658	79.8197																																																																																																																																																					
2100	-19.2587	79.4992	-0.0633	-9.7648	-0.0633	-9.7648	-19.2587	79.5869																																																																																																																																																					
2150	-19.0565	79.2645	-0.0661	-9.9962	-0.0661	-9.9962	-19.0566	79.3542																																																																																																																																																					
2200	-18.8592	79.0298	-0.0690	-10.2276	-0.0690	-10.2276	-18.8592	79.1216																																																																																																																																																					
2250	-18.6664	78.7953	-0.0719	-10.4589	-0.0719	-10.4589	-18.6664	78.8892																																																																																																																																																					
2300	-18.4779	78.5608	-0.0749	-10.6900	-0.0749	-10.6900	-18.4779	78.6568																																																																																																																																																					
2350	-18.2936	78.3265	-0.0779	-10.9211	-0.0779	-10.9211	-18.2936	78.4245																																																																																																																																																					
2400	-18.1133	78.0922	-0.0810	-11.1522	-0.0810	-11.1522	-18.1133	78.1924																																																																																																																																																					
2450	-17.9368	77.8581	-0.0841	-11.3831	-0.0841	-11.3831	-17.9369	77.9603																																																																																																																																																					
2500	-17.7640	77.6241	-0.0873	-11.6139	-0.0873	-11.6139	-17.7641	77.7284																																																																																																																																																					
2550	-17.5948	77.3902	-0.0906	-11.8446	-0.0906	-11.8446	-17.5948	77.4966																																																																																																																																																					
2600	-17.4289	77.1564	-0.0939	-12.0753	-0.0939	-12.0753	-17.4289	77.2649																																																																																																																																																					
2650	-17.2663	76.9227	-0.0973	-12.3058	-0.0973	-12.3058	-17.2663	77.0333																																																																																																																																																					
2700	-17.1069	76.6892	-0.1007	-12.5363	-0.1007	-12.5363	-17.1069	76.8018																																																																																																																																																					
2750	-16.9505	76.4558	-0.1042	-12.7666	-0.1042	-12.7666	-16.9505	76.5704																																																																																																																																																					
2800	-16.7970	76.2224	-0.1078	-12.9968	-0.1078	-12.9968	-16.7970	76.3392																																																																																																																																																					
2850	-16.6463	75.9892	-0.1114	-13.2269	-0.1114	-13.2269	-16.6464	76.1080																																																																																																																																																					
2900	-16.4984	75.7562	-0.1150	-13.4570	-0.1150	-13.4570	-16.4985	75.8770																																																																																																																																																					
2950	-16.3532	75.5232	-0.1188	-13.6869	-0.1188	-13.6869	-16.3532	75.6461																																																																																																																																																					
3000	-16.2104	75.2904	-0.1225	-13.9167	-0.1225	-13.9167	-16.2105	75.4154																																																																																																																																																					
3050	-16.0702	75.0577	-0.1264	-14.1464	-0.1264	-14.1464	-16.0703	75.1848																																																																																																																																																					
3100	-15.9323	74.8251	-0.1303	-14.3759	-0.1303	-14.3759	-15.9324	74.9542																																																																																																																																																					
3150	-15.7968	74.5927	-0.1342	-14.6054	-0.1342	-14.6054	-15.7969	74.7239																																																																																																																																																					
3200	-15.6635	74.3604	-0.1382	-14.8347	-0.1382	-14.8347	-15.6636	74.4936																																																																																																																																																					
3250	-15.5324	74.1282	-0.1423	-15.0639	-0.1423	-15.0639	-15.5324	74.2635																																																																																																																																																					
3300	-15.4034	73.8961	-0.1464	-15.2930	-0.1464	-15.2930	-15.4034	74.0335																																																																																																																																																					
3350	-15.2764	73.6642	-0.1505	-15.5220	-0.1505	-15.5220	-15.2765	73.8037																																																																																																																																																					
3400	-15.1515	73.4324	-0.1548	-15.7508	-0.1548	-15.7508	-15.1515	73.5739																																																																																																																																																					
3450	-15.0284	73.2008	-0.1590	-15.9796	-0.1590	-15.9796	-15.0285	73.3444																																																																																																																																																					
3500	-14.9073	72.9693	-0.1634	-16.2082	-0.1634	-16.2082	-14.9073	73.1149																																																																																																																																																					
3550	-14.7880	72.7379	-0.1678	-16.4366	-0.1678	-16.4366	-14.7880	72.8856																																																																																																																																																					
3600	-14.6704	72.5067	-0.1722	-16.6649	-0.1722	-16.6649	-14.6705	72.6564																																																																																																																																																					
3650	-14.5546	72.2756	-0.1767	-16.8931	-0.1767	-16.8931	-14.5547	72.4274																																																																																																																																																					
3700	-14.4405	72.0446	-0.1813	-17.1212	-0.1813	-17.1212	-14.4405	72.1985																																																																																																																																																					
3750	-14.3280	71.8138	-0.1859	-17.3491	-0.1859	-17.3491	-14.3280	71.9698																																																																																																																																																					
3800	-14.2171	71.5832	-0.1905	-17.5769	-0.1905	-17.5769	-14.2172	71.7412																																																																																																																																																					
3850	-14.1078	71.3527	-0.1953	-17.8046	-0.1953	-17.8046	-14.1078	71.5127																																																																																																																																																					
3900	-13.9999	71.1223	-0.2000	-18.0321	-0.2000	-18.0321	-14.0000	71.2844																																																																																																																																																					
3950	-13.8936	70.8921	-0.2049	-18.2594	-0.2049	-18.2594	-13.8937	71.0563																																																																																																																																																					
4000	-13.7887	70.6621	-0.2097	-18.4866	-0.2097	-18.4866	-13.7888	70.8282																																																																																																																																																					
4050	-13.6852	70.4321	-0.2147	-18.7137	-0.2147	-18.7137	-13.6853	70.6004																																																																																																																																																					
4100	-13.5831	70.2024	-0.2197	-18.9406	-0.2197	-18.9406	-13.5832	70.3727																																																																																																																																																					
4150	-13.4824	69.9728	-0.2247	-19.1674	-0.2247	-19.1674	-13.4824	70.1451																																																																																																																																																					
4200	-13.3829	69.7433	-0.2298	-19.3940	-0.2298	-19.3940	-13.3830	69.9177																																																																																																																																																					
4250	-13.2848	69.5140	-0.2349	-19.6205	-0.2349	-19.6205	-13.2848	69.6905																																																																																																																																																					
4300	-13.1878	69.2849	-0.2401	-19.8468	-0.2401	-19.8468	-13.1879	69.4634																																																																																																																																																					
