# MHZ S MA R 50

50 1.76e-3 88.467 1 -0.101 1 -0.101 1.76e-3 88.467
100.125 3.524e-3 88.366 1 -0.202 1 -0.202 3.524e-3 88.366
150.251 5.288e-3 88.265 1 -0.303 1 -0.303 5.288e-3 88.265
200.376 7.051e-3 88.164 1 -0.404 1 -0.404 7.051e-3 88.164
250.501 8.815e-3 88.063 1 -0.505 1 -0.505 8.815e-3 88.063
300.627 0.011 87.962 1 -0.606 1 -0.606 0.011 87.962
350.752 0.012 87.861 1 -0.707 1 -0.707 0.012 87.861
400.877 0.014 87.76 1 -0.808 1 -0.808 0.014 87.76
451.003 0.016 87.659 0.999 -0.909 0.999 -0.909 0.016 87.659
501.128 0.018 87.558 0.999 -1.01 0.999 -1.01 0.018 87.558
551.253 0.019 87.457 0.999 -1.111 0.999 -1.111 0.019 87.457
601.378 0.021 87.356 0.999 -1.212 0.999 -1.212 0.021 87.356
651.504 0.023 87.255 0.999 -1.313 0.999 -1.313 0.023 87.255
701.629 0.025 87.154 0.999 -1.414 0.999 -1.414 0.025 87.154
751.754 0.026 87.053 0.999 -1.514 0.999 -1.514 0.026 87.053
801.88 0.028 86.952 0.999 -1.615 0.999 -1.615 0.028 86.952
852.005 0.03 86.851 0.999 -1.716 0.999 -1.716 0.03 86.851
902.13 0.032 86.75 0.999 -1.817 0.999 -1.817 0.032 86.75
952.256 0.033 86.649 0.999 -1.918 0.999 -1.918 0.033 86.649
1002.381 0.035 86.549 0.998 -2.019 0.998 -2.019 0.035 86.549
1052.506 0.037 86.448 0.998 -2.12 0.998 -2.12 0.037 86.448
1102.632 0.039 86.347 0.998 -2.221 0.998 -2.221 0.039 86.347
1152.757 0.041 86.246 0.998 -2.321 0.998 -2.321 0.041 86.246
1202.882 0.042 86.145 0.998 -2.422 0.998 -2.422 0.042 86.145
1253.008 0.044 86.044 0.998 -2.523 0.998 -2.523 0.044 86.044
1303.133 0.046 85.943 0.998 -2.624 0.998 -2.624 0.046 85.943
1353.258 0.048 85.842 0.998 -2.725 0.998 -2.725 0.048 85.842
1403.383 0.049 85.742 0.998 -2.825 0.998 -2.825 0.049 85.742
1453.509 0.051 85.641 0.997 -2.926 0.997 -2.926 0.051 85.641
1503.634 0.053 85.54 0.997 -3.027 0.997 -3.027 0.053 85.54
1553.759 0.055 85.439 0.997 -3.128 0.997 -3.128 0.055 85.439
1603.885 0.056 85.338 0.997 -3.228 0.997 -3.228 0.056 85.338
1654.01 0.058 85.238 0.997 -3.329 0.997 -3.329 0.058 85.238
1704.135 0.06 85.137 0.997 -3.43 0.997 -3.43 0.06 85.137
1754.261 0.062 85.036 0.997 -3.53 0.997 -3.53 0.062 85.036
1804.386 0.063 84.935 0.996 -3.631 0.996 -3.631 0.063 84.935
1854.511 0.065 84.834 0.996 -3.732 0.996 -3.732 0.065 84.834
1904.637 0.067 84.734 0.996 -3.832 0.996 -3.832 0.067 84.734
1954.762 0.069 84.633 0.996 -3.933 0.996 -3.933 0.069 84.633
2004.887 0.07 84.532 0.996 -4.034 0.996 -4.034 0.07 84.532
2055.013 0.072 84.432 0.996 -4.134 0.996 -4.134 0.072 84.432
2105.138 0.074 84.331 0.995 -4.235 0.995 -4.235 0.074 84.331
2155.263 0.076 84.23 0.995 -4.335 0.995 -4.335 0.076 84.23
2205.388 0.077 84.13 0.995 -4.436 0.995 -4.436 0.077 84.13
2255.514 0.079 84.029 0.995 -4.536 0.995 -4.536 0.079 84.029
2305.639 0.081 83.928 0.995 -4.637 0.995 -4.637 0.081 83.928
2355.764 0.083 83.828 0.995 -4.738 0.995 -4.738 0.083 83.828
2405.89 0.084 83.727 0.994 -4.838 0.994 -4.838 0.084 83.727
2456.015 0.086 83.626 0.994 -4.939 0.994 -4.939 0.086 83.626
2506.14 0.088 83.526 0.994 -5.039 0.994 -5.039 0.088 83.526
2556.266 0.09 83.425 0.994 -5.14 0.994 -5.14 0.09 83.425
2606.391 0.091 83.324 0.994 -5.24 0.994 -5.24 0.091 83.324
2656.516 0.093 83.224 0.993 -5.34 0.993 -5.34 0.093 83.224
2706.642 0.095 83.123 0.993 -5.441 0.993 -5.441 0.095 83.123
2756.767 0.097 83.023 0.993 -5.541 0.993 -5.541 0.097 83.023
2806.892 0.098 82.922 0.993 -5.642 0.993 -5.642 0.098 82.922
2857.018 0.1 82.822 0.992 -5.742 0.992 -5.742 0.1 82.822
2907.143 0.102 82.721 0.992 -5.842 0.992 -5.842 0.102 82.721
2957.268 0.104 82.621 0.992 -5.943 0.992 -5.943 0.104 82.621
3007.393 0.105 82.52 0.992 -6.043 0.992 -6.043 0.105 82.52
3057.519 0.107 82.42 0.992 -6.143 0.992 -6.143 0.107 82.42
3107.644 0.109 82.319 0.991 -6.244 0.991 -6.244 0.109 82.319
3157.769 0.111 82.219 0.991 -6.344 0.991 -6.344 0.111 82.219
3207.895 0.112 82.118 0.991 -6.444 0.991 -6.444 0.112 82.118
3258.02 0.114 82.018 0.991 -6.545 0.991 -6.545 0.114 82.018
3308.145 0.116 81.918 0.99 -6.645 0.99 -6.645 0.116 81.918
3358.271 0.117 81.817 0.99 -6.745 0.99 -6.745 0.117 81.817
3408.396 0.119 81.717 0.99 -6.845 0.99 -6.845 0.119 81.717
3458.521 0.121 81.616 0.99 -6.945 0.99 -6.945 0.121 81.616
3508.647 0.123 81.516 0.989 -7.046 0.989 -7.046 0.123 81.516
3558.772 0.124 81.416 0.989 -7.146 0.989 -7.146 0.124 81.416
3608.897 0.126 81.315 0.989 -7.246 0.989 -7.246 0.126 81.315
3659.023 0.128 81.215 0.989 -7.346 0.989 -7.346 0.128 81.215
3709.148 0.13 81.115 0.988 -7.446 0.988 -7.446 0.13 81.115
3759.273 0.131 81.014 0.988 -7.546 0.988 -7.546 0.131 81.014
3809.398 0.133 80.914 0.988 -7.646 0.988 -7.646 0.133 80.914
3859.524 0.135 80.814 0.987 -7.746 0.987 -7.746 0.135 80.814
3909.649 0.137 80.714 0.987 -7.846 0.987 -7.846 0.137 80.714
3959.774 0.138 80.613 0.987 -7.946 0.987 -7.946 0.138 80.613
4009.9 0.14 80.513 0.987 -8.047 0.987 -8.047 0.14 80.513
4060.025 0.142 80.413 0.986 -8.147 0.986 -8.147 0.142 80.413
4110.15 0.143 80.313 0.986 -8.246 0.986 -8.246 0.143 80.313
4160.276 0.145 80.213 0.986 -8.346 0.986 -8.346 0.145 80.213
4210.401 0.147 80.113 0.985 -8.446 0.985 -8.446 0.147 80.113
4260.526 0.149 80.012 0.985 -8.546 0.985 -8.546 0.149 80.012
4310.652 0.15 79.912 0.985 -8.646 0.985 -8.646 0.15 79.912
4360.777 0.152 79.812 0.985 -8.746 0.985 -8.746 0.152 79.812
4410.902 0.154 79.712 0.984 -8.846 0.984 -8.846 0.154 79.712
4461.028 0.156 79.612 0.984 -8.946 0.984 -8.946 0.156 79.612
4511.153 0.157 79.512 0.984 -9.046 0.984 -9.046 0.157 79.512
4561.278 0.159 79.412 0.983 -9.146 0.983 -9.146 0.159 79.412
4611.404 0.161 79.312 0.983 -9.245 0.983 -9.245 0.161 79.312
4661.529 0.162 79.212 0.983 -9.345 0.983 -9.345 0.162 79.212
4711.654 0.164 79.112 0.982 -9.445 0.982 -9.445 0.164 79.112
4761.779 0.166 79.012 0.982 -9.545 0.982 -9.545 0.166 79.012
4811.905 0.168 78.912 0.982 -9.644 0.982 -9.644 0.168 78.912
4862.03 0.169 78.812 0.981 -9.744 0.981 -9.744 0.169 78.812
4912.155 0.171 78.712 0.981 -9.844 0.981 -9.844 0.171 78.712
4962.281 0.173 78.612 0.981 -9.943 0.981 -9.943 0.173 78.612
5012.406 0.174 78.512 0.98 -10.043 0.98 -10.043 0.174 78.512
5062.531 0.176 78.412 0.98 -10.143 0.98 -10.143 0.176 78.412
5112.657 0.178 78.312 0.98 -10.242 0.98 -10.242 0.178 78.312
5162.782 0.18 78.212 0.979 -10.342 0.979 -10.342 0.18 78.212
5212.907 0.181 78.113 0.979 -10.441 0.979 -10.441 0.181 78.113
5263.033 0.183 78.013 0.979 -10.541 0.979 -10.541 0.183 78.013
5313.158 0.185 77.913 0.978 -10.641 0.978 -10.641 0.185 77.913
5363.283 0.186 77.813 0.978 -10.74 0.978 -10.74 0.186 77.813
5413.409 0.188 77.713 0.977 -10.84 0.977 -10.84 0.188 77.713
5463.534 0.19 77.614 0.977 -10.939 0.977 -10.939 0.19 77.614
5513.659 0.192 77.514 0.977 -11.038 0.977 -11.038 0.192 77.514
5563.784 0.193 77.414 0.976 -11.138 0.976 -11.138 0.193 77.414
5613.91 0.195 77.315 0.976 -11.237 0.976 -11.237 0.195 77.315
5664.035 0.197 77.215 0.976 -11.337 0.976 -11.337 0.197 77.215
5714.16 0.198 77.115 0.975 -11.436 0.975 -11.436 0.198 77.115
5764.286 0.2 77.016 0.975 -11.535 0.975 -11.535 0.2 77.016
5814.411 0.202 76.916 0.974 -11.635 0.974 -11.635 0.202 76.916
5864.536 0.203 76.816 0.974 -11.734 0.974 -11.734 0.203 76.816
5914.662 0.205 76.717 0.974 -11.833 0.974 -11.833 0.205 76.717
5964.787 0.207 76.617 0.973 -11.933 0.973 -11.933 0.207 76.617
6014.912 0.209 76.518 0.973 -12.032 0.973 -12.032 0.209 76.518
6065.038 0.21 76.418 0.972 -12.131 0.972 -12.131 0.21 76.418
6115.163 0.212 76.318 0.972 -12.23 0.972 -12.23 0.212 76.318
6165.288 0.214 76.219 0.972 -12.33 0.972 -12.33 0.214 76.219
6215.414 0.215 76.119 0.971 -12.429 0.971 -12.429 0.215 76.119
6265.539 0.217 76.02 0.971 -12.528 0.971 -12.528 0.217 76.02
6315.664 0.219 75.921 0.97 -12.627 0.97 -12.627 0.219 75.921
6365.789 0.22 75.821 0.97 -12.726 0.97 -12.726 0.22 75.821
6415.915 0.222 75.722 0.969 -12.825 0.969 -12.825 0.222 75.722
6466.04 0.224 75.622 0.969 -12.924 0.969 -12.924 0.224 75.622
6516.165 0.225 75.523 0.969 -13.023 0.969 -13.023 0.225 75.523
6566.291 0.227 75.424 0.968 -13.122 0.968 -13.122 0.227 75.424
6616.416 0.229 75.324 0.968 -13.221 0.968 -13.221 0.229 75.324
6666.541 0.23 75.225 0.967 -13.32 0.967 -13.32 0.23 75.225
6716.667 0.232 75.126 0.967 -13.419 0.967 -13.419 0.232 75.126
6766.792 0.234 75.026 0.966 -13.518 0.966 -13.518 0.234 75.026
6816.917 0.236 74.927 0.966 -13.617 0.966 -13.617 0.236 74.927
6867.043 0.237 74.828 0.965 -13.716 0.965 -13.716 0.237 74.828
6917.168 0.239 74.729 0.965 -13.815 0.965 -13.815 0.239 74.729
6967.293 0.241 74.63 0.965 -13.913 0.965 -13.913 0.241 74.63
7017.419 0.242 74.53 0.964 -14.012 0.964 -14.012 0.242 74.53
7067.544 0.244 74.431 0.964 -14.111 0.964 -14.111 0.244 74.431
7117.669 0.246 74.332 0.963 -14.21 0.963 -14.21 0.246 74.332
7167.794 0.247 74.233 0.963 -14.309 0.963 -14.309 0.247 74.233
7217.92 0.249 74.134 0.962 -14.407 0.962 -14.407 0.249 74.134
7268.045 0.251 74.035 0.962 -14.506 0.962 -14.506 0.251 74.035
7318.17 0.252 73.936 0.961 -14.605 0.961 -14.605 0.252 73.936
7368.296 0.254 73.837 0.961 -14.703 0.961 -14.703 0.254 73.837
7418.421 0.256 73.738 0.96 -14.802 0.96 -14.802 0.256 73.738
7468.546 0.257 73.639 0.96 -14.9 0.96 -14.9 0.257 73.639
7518.672 0.259 73.54 0.959 -14.999 0.959 -14.999 0.259 73.54
7568.797 0.261 73.441 0.959 -15.098 0.959 -15.098 0.261 73.441
7618.922 0.262 73.342 0.958 -15.196 0.958 -15.196 0.262 73.342
7669.048 0.264 73.243 0.958 -15.295 0.958 -15.295 0.264 73.243
7719.173 0.266 73.144 0.957 -15.393 0.957 -15.393 0.266 73.144
7769.298 0.267 73.045 0.957 -15.491 0.957 -15.491 0.267 73.045
7819.424 0.269 72.947 0.956 -15.59 0.956 -15.59 0.269 72.947
7869.549 0.27 72.848 0.956 -15.688 0.956 -15.688 0.27 72.848
7919.674 0.272 72.749 0.955 -15.787 0.955 -15.787 0.272 72.749
7969.799 0.274 72.65 0.955 -15.885 0.955 -15.885 0.274 72.65
8019.925 0.275 72.551 0.954 -15.983 0.954 -15.983 0.275 72.551
8070.05 0.277 72.453 0.954 -16.082 0.954 -16.082 0.277 72.453
8120.175 0.279 72.354 0.953 -16.18 0.953 -16.18 0.279 72.354
8170.301 0.28 72.255 0.953 -16.278 0.953 -16.278 0.28 72.255
8220.426 0.282 72.157 0.952 -16.376 0.952 -16.376 0.282 72.157
8270.551 0.284 72.058 0.952 -16.475 0.952 -16.475 0.284 72.058
8320.677 0.285 71.959 0.951 -16.573 0.951 -16.573 0.285 71.959
8370.802 0.287 71.861 0.951 -16.671 0.951 -16.671 0.287 71.861
8420.927 0.289 71.762 0.95 -16.769 0.95 -16.769 0.289 71.762
8471.053 0.29 71.664 0.95 -16.867 0.95 -16.867 0.29 71.664
8521.178 0.292 71.565 0.949 -16.965 0.949 -16.965 0.292 71.565
8571.303 0.294 71.467 0.948 -17.063 0.948 -17.063 0.294 71.467
8621.429 0.295 71.368 0.948 -17.161 0.948 -17.161 0.295 71.368
8671.554 0.297 71.27 0.947 -17.259 0.947 -17.259 0.297 71.27
8721.679 0.298 71.171 0.947 -17.357 0.947 -17.357 0.298 71.171
8771.805 0.3 71.073 0.946 -17.455 0.946 -17.455 0.3 71.073
8821.93 0.302 70.975 0.946 -17.553 0.946 -17.553 0.302 70.975
8872.055 0.303 70.876 0.945 -17.651 0.945 -17.651 0.303 70.876
8922.18 0.305 70.778 0.945 -17.749 0.945 -17.749 0.305 70.778
8972.306 0.307 70.68 0.944 -17.847 0.944 -17.847 0.307 70.68
9022.431 0.308 70.581 0.943 -17.944 0.943 -17.944 0.308 70.581
9072.556 0.31 70.483 0.943 -18.042 0.943 -18.042 0.31 70.483
9122.682 0.311 70.385 0.942 -18.14 0.942 -18.14 0.311 70.385
9172.807 0.313 70.287 0.942 -18.238 0.942 -18.238 0.313 70.287
9222.932 0.315 70.189 0.941 -18.335 0.941 -18.335 0.315 70.189
9273.058 0.316 70.09 0.941 -18.433 0.941 -18.433 0.316 70.09
9323.183 0.318 69.992 0.94 -18.531 0.94 -18.531 0.318 69.992
9373.308 0.32 69.894 0.939 -18.628 0.939 -18.628 0.32 69.894
9423.434 0.321 69.796 0.939 -18.726 0.939 -18.726 0.321 69.796
9473.559 0.323 69.698 0.938 -18.823 0.938 -18.823 0.323 69.698
9523.684 0.324 69.6 0.938 -18.921 0.938 -18.921 0.324 69.6
9573.81 0.326 69.502 0.937 -19.018 0.937 -19.018 0.326 69.502
9623.935 0.328 69.404 0.936 -19.116 0.936 -19.116 0.328 69.404
9674.06 0.329 69.306 0.936 -19.213 0.936 -19.213 0.329 69.306
9724.185 0.331 69.208 0.935 -19.311 0.935 -19.311 0.331 69.208
9774.311 0.332 69.11 0.935 -19.408 0.935 -19.408 0.332 69.11
9824.436 0.334 69.012 0.934 -19.505 0.934 -19.505 0.334 69.012
9874.561 0.336 68.914 0.933 -19.603 0.933 -19.603 0.336 68.914
9924.687 0.337 68.817 0.933 -19.7 0.933 -19.7 0.337 68.817
9974.812 0.339 68.719 0.932 -19.797 0.932 -19.797 0.339 68.719
10024.937 0.34 68.621 0.932 -19.894 0.932 -19.894 0.34 68.621
10075.063 0.342 68.523 0.931 -19.992 0.931 -19.992 0.342 68.523
10125.188 0.344 68.426 0.93 -20.089 0.93 -20.089 0.344 68.426
10175.313 0.345 68.328 0.93 -20.186 0.93 -20.186 0.345 68.328
10225.439 0.347 68.23 0.929 -20.283 0.929 -20.283 0.347 68.23
10275.564 0.348 68.133 0.928 -20.38 0.928 -20.38 0.348 68.133
10325.689 0.35 68.035 0.928 -20.477 0.928 -20.477 0.35 68.035
10375.815 0.352 67.937 0.927 -20.574 0.927 -20.574 0.352 67.937
10425.94 0.353 67.84 0.926 -20.671 0.926 -20.671 0.353 67.84
10476.065 0.355 67.742 0.926 -20.768 0.926 -20.768 0.355 67.742
10526.19 0.356 67.645 0.925 -20.865 0.925 -20.865 0.356 67.645
10576.316 0.358 67.547 0.925 -20.962 0.925 -20.962 0.358 67.547
10626.441 0.359 67.45 0.924 -21.059 0.924 -21.059 0.359 67.45
10676.566 0.361 67.352 0.923 -21.156 0.923 -21.156 0.361 67.352
10726.692 0.363 67.255 0.923 -21.253 0.923 -21.253 0.363 67.255
10776.817 0.364 67.158 0.922 -21.349 0.922 -21.349 0.364 67.158
10826.942 0.366 67.06 0.921 -21.446 0.921 -21.446 0.366 67.06
10877.068 0.367 66.963 0.921 -21.543 0.921 -21.543 0.367 66.963
10927.193 0.369 66.866 0.92 -21.64 0.92 -21.64 0.369 66.866
10977.318 0.37 66.768 0.919 -21.736 0.919 -21.736 0.37 66.768
11027.444 0.372 66.671 0.919 -21.833 0.919 -21.833 0.372 66.671
11077.569 0.374 66.574 0.918 -21.929 0.918 -21.929 0.374 66.574
11127.694 0.375 66.477 0.917 -22.026 0.917 -22.026 0.375 66.477
11177.82 0.377 66.38 0.917 -22.123 0.917 -22.123 0.377 66.38
11227.945 0.378 66.282 0.916 -22.219 0.916 -22.219 0.378 66.282
11278.07 0.38 66.185 0.915 -22.316 0.915 -22.316 0.38 66.185
11328.195 0.381 66.088 0.914 -22.412 0.914 -22.412 0.381 66.088
11378.321 0.383 65.991 0.914 -22.508 0.914 -22.508 0.383 65.991
11428.446 0.385 65.894 0.913 -22.605 0.913 -22.605 0.385 65.894
11478.571 0.386 65.797 0.912 -22.701 0.912 -22.701 0.386 65.797
11528.697 0.388 65.7 0.912 -22.797 0.912 -22.797 0.388 65.7
11578.822 0.389 65.603 0.911 -22.894 0.911 -22.894 0.389 65.603
11628.947 0.391 65.506 0.91 -22.99 0.91 -22.99 0.391 65.506
11679.073 0.392 65.41 0.91 -23.086 0.91 -23.086 0.392 65.41
11729.198 0.394 65.313 0.909 -23.182 0.909 -23.182 0.394 65.313
11779.323 0.395 65.216 0.908 -23.279 0.908 -23.279 0.395 65.216
11829.449 0.397 65.119 0.907 -23.375 0.907 -23.375 0.397 65.119
11879.574 0.398 65.022 0.907 -23.471 0.907 -23.471 0.398 65.022
11929.699 0.4 64.926 0.906 -23.567 0.906 -23.567 0.4 64.926
11979.825 0.401 64.829 0.905 -23.663 0.905 -23.663 0.401 64.829
12029.95 0.403 64.732 0.905 -23.759 0.905 -23.759 0.403 64.732
12080.075 0.405 64.636 0.904 -23.855 0.904 -23.855 0.405 64.636
12130.201 0.406 64.539 0.903 -23.951 0.903 -23.951 0.406 64.539
12180.326 0.408 64.442 0.902 -24.047 0.902 -24.047 0.408 64.442
12230.451 0.409 64.346 0.902 -24.143 0.902 -24.143 0.409 64.346
12280.576 0.411 64.249 0.901 -24.238 0.901 -24.238 0.411 64.249
12330.702 0.412 64.153 0.9 -24.334 0.9 -24.334 0.412 64.153
12380.827 0.414 64.056 0.9 -24.43 0.9 -24.43 0.414 64.056
12430.952 0.415 63.96 0.899 -24.526 0.899 -24.526 0.415 63.96
12481.078 0.417 63.864 0.898 -24.621 0.898 -24.621 0.417 63.864
12531.203 0.418 63.767 0.897 -24.717 0.897 -24.717 0.418 63.767
12581.328 0.42 63.671 0.897 -24.813 0.897 -24.813 0.42 63.671
12631.454 0.421 63.575 0.896 -24.908 0.896 -24.908 0.421 63.575
12681.579 0.423 63.478 0.895 -25.004 0.895 -25.004 0.423 63.478
12731.704 0.424 63.382 0.894 -25.099 0.894 -25.099 0.424 63.382
12781.83 0.426 63.286 0.894 -25.195 0.894 -25.195 0.426 63.286
12831.955 0.427 63.19 0.893 -25.29 0.893 -25.29 0.427 63.19
12882.08 0.429 63.094 0.892 -25.386 0.892 -25.386 0.429 63.094
12932.206 0.43 62.997 0.891 -25.481 0.891 -25.481 0.43 62.997
12982.331 0.432 62.901 0.891 -25.576 0.891 -25.576 0.432 62.901
13032.456 0.433 62.805 0.89 -25.672 0.89 -25.672 0.433 62.805
13082.581 0.435 62.709 0.889 -25.767 0.889 -25.767 0.435 62.709
13132.707 0.436 62.613 0.888 -25.862 0.888 -25.862 0.436 62.613
13182.832 0.438 62.517 0.887 -25.957 0.887 -25.957 0.438 62.517
13232.957 0.439 62.421 0.887 -26.053 0.887 -26.053 0.439 62.421
13283.083 0.441 62.325 0.886 -26.148 0.886 -26.148 0.441 62.325
13333.208 0.442 62.23 0.885 -26.243 0.885 -26.243 0.442 62.23
13383.333 0.444 62.134 0.884 -26.338 0.884 -26.338 0.444 62.134
13433.459 0.445 62.038 0.884 -26.433 0.884 -26.433 0.445 62.038
13483.584 0.447 61.942 0.883 -26.528 0.883 -26.528 0.447 61.942
13533.709 0.448 61.846 0.882 -26.623 0.882 -26.623 0.448 61.846
13583.835 0.45 61.751 0.881 -26.718 0.881 -26.718 0.45 61.751
13633.96 0.451 61.655 0.88 -26.813 0.88 -26.813 0.451 61.655
13684.085 0.453 61.559 0.88 -26.908 0.88 -26.908 0.453 61.559
13734.211 0.454 61.464 0.879 -27.002 0.879 -27.002 0.454 61.464
13784.336 0.456 61.368 0.878 -27.097 0.878 -27.097 0.456 61.368
13834.461 0.457 61.273 0.877 -27.192 0.877 -27.192 0.457 61.273
13884.586 0.459 61.177 0.876 -27.287 0.876 -27.287 0.459 61.177
13934.712 0.46 61.082 0.876 -27.381 0.876 -27.381 0.46 61.082
13984.837 0.462 60.986 0.875 -27.476 0.875 -27.476 0.462 60.986
14034.962 0.463 60.891 0.874 -27.571 0.874 -27.571 0.463 60.891
14085.088 0.464 60.796 0.873 -27.665 0.873 -27.665 0.464 60.796
14135.213 0.466 60.7 0.872 -27.76 0.872 -27.76 0.466 60.7
14185.338 0.467 60.605 0.872 -27.854 0.872 -27.854 0.467 60.605
14235.464 0.469 60.51 0.871 -27.949 0.871 -27.949 0.469 60.51
14285.589 0.47 60.414 0.87 -28.043 0.87 -28.043 0.47 60.414
14335.714 0.472 60.319 0.869 -28.137 0.869 -28.137 0.472 60.319
14385.84 0.473 60.224 0.868 -28.232 0.868 -28.232 0.473 60.224
14435.965 0.475 60.129 0.867 -28.326 0.867 -28.326 0.475 60.129
14486.09 0.476 60.034 0.867 -28.42 0.867 -28.42 0.476 60.034
14536.216 0.478 59.939 0.866 -28.514 0.866 -28.514 0.478 59.939
14586.341 0.479 59.844 0.865 -28.609 0.865 -28.609 0.479 59.844
14636.466 0.48 59.749 0.864 -28.703 0.864 -28.703 0.48 59.749
14686.591 0.482 59.654 0.863 -28.797 0.863 -28.797 0.482 59.654
14736.717 0.483 59.559 0.862 -28.891 0.862 -28.891 0.483 59.559
14786.842 0.485 59.464 0.862 -28.985 0.862 -28.985 0.485 59.464
14836.967 0.486 59.369 0.861 -29.079 0.861 -29.079 0.486 59.369
14887.093 0.488 59.274 0.86 -29.173 0.86 -29.173 0.488 59.274
14937.218 0.489 59.179 0.859 -29.267 0.859 -29.267 0.489 59.179
14987.343 0.49 59.084 0.858 -29.361 0.858 -29.361 0.49 59.084
15037.469 0.492 58.99 0.857 -29.455 0.857 -29.455 0.492 58.99
15087.594 0.493 58.895 0.857 -29.548 0.857 -29.548 0.493 58.895
15137.719 0.495 58.8 0.856 -29.642 0.856 -29.642 0.495 58.8
15187.845 0.496 58.706 0.855 -29.736 0.855 -29.736 0.496 58.706
15237.97 0.498 58.611 0.854 -29.83 0.854 -29.83 0.498 58.611
15288.095 0.499 58.517 0.853 -29.923 0.853 -29.923 0.499 58.517
15338.221 0.5 58.422 0.852 -30.017 0.852 -30.017 0.5 58.422
15388.346 0.502 58.328 0.851 -30.11 0.851 -30.11 0.502 58.328
15438.471 0.503 58.233 0.851 -30.204 0.851 -30.204 0.503 58.233
15488.596 0.505 58.139 0.85 -30.298 0.85 -30.298 0.505 58.139
15538.722 0.506 58.044 0.849 -30.391 0.849 -30.391 0.506 58.044
15588.847 0.507 57.95 0.848 -30.484 0.848 -30.484 0.507 57.95
15638.972 0.509 57.856 0.847 -30.578 0.847 -30.578 0.509 57.856
15689.098 0.51 57.761 0.846 -30.671 0.846 -30.671 0.51 57.761
15739.223 0.512 57.667 0.845 -30.764 0.845 -30.764 0.512 57.667
15789.348 0.513 57.573 0.844 -30.858 0.844 -30.858 0.513 57.573
15839.474 0.514 57.479 0.844 -30.951 0.844 -30.951 0.514 57.479
15889.599 0.516 57.385 0.843 -31.044 0.843 -31.044 0.516 57.385
15939.724 0.517 57.29 0.842 -31.137 0.842 -31.137 0.517 57.29
15989.85 0.519 57.196 0.841 -31.23 0.841 -31.23 0.519 57.196
16039.975 0.52 57.102 0.84 -31.323 0.84 -31.323 0.52 57.102
16090.1 0.521 57.008 0.839 -31.416 0.839 -31.416 0.521 57.008
16140.226 0.523 56.914 0.838 -31.509 0.838 -31.509 0.523 56.914
16190.351 0.524 56.821 0.837 -31.602 0.837 -31.602 0.524 56.821
16240.476 0.526 56.727 0.836 -31.695 0.836 -31.695 0.526 56.727
