!	AVX Thin Film Operation            
!	Date:		5 January 2004																															
!	Description: 	Accu-L®  L0402 Series Thin Film RF Inductors																														
!	Part Number:	L04026R8BHNTR																																		
!	50 MHz-20GHz Serial Measurements																																			
!																																												
#	mhz	S	db	R	50																																								
!	S11	S11	S21	S21	S12	S12	S22	S22																																					
!	dB	Phase	dB	Phase	dB	Phase	dB	Phase																																					
50	-33.7124	83.0278	-0.0196	-1.2695	-0.0196	-1.2695	-33.7124	83.0353																																					
100	-28.0048	83.0348	-0.0340	-2.4605	-0.0340	-2.4605	-28.0048	83.0493																																					
150	-24.6430	82.4196	-0.0499	-3.6320	-0.0499	-3.6320	-24.6431	82.4418																																					
200	-22.2525	81.6020	-0.0680	-4.7909	-0.0680	-4.7909	-22.2525	81.6316																																					
250	-20.3977	80.6905	-0.0885	-5.9401	-0.0885	-5.9401	-20.3978	80.7276																																					
300	-18.8838	79.7277	-0.1115	-7.0811	-0.1115	-7.0811	-18.8838	79.7722																																					
350	-17.6061	78.7343	-0.1369	-8.2144	-0.1369	-8.2144	-17.6062	78.7863																																					
400	-16.5022	77.7218	-0.1649	-9.3406	-0.1649	-9.3406	-16.5023	77.7813																																					
450	-15.5317	76.6971	-0.1955	-10.4599	-0.1955	-10.4599	-15.5317	76.7641																																					
500	-14.6668	75.6649	-0.2285	-11.5723	-0.2285	-11.5723	-14.6669	75.7394																																					
550	-13.8878	74.6282	-0.2641	-12.6779	-0.2641	-12.6779	-13.8879	74.7102																																					
600	-13.1801	73.5895	-0.3022	-13.7767	-0.3022	-13.7767	-13.1802	73.6790																																					
650	-12.5325	72.5503	-0.3427	-14.8686	-0.3427	-14.8686	-12.5327	72.6474																																					
700	-11.9364	71.5121	-0.3857	-15.9535	-0.3857	-15.9535	-11.9366	71.6167																																					
750	-11.3849	70.4759	-0.4312	-17.0312	-0.4312	-17.0312	-11.3851	70.5880																																					
800	-10.8724	69.4425	-0.4790	-18.1018	-0.4790	-18.1018	-10.8726	69.5622																																					
850	-10.3944	68.4127	-0.5292	-19.1650	-0.5292	-19.1650	-10.3946	68.5400																																					
900	-9.9470	67.3870	-0.5817	-20.2208	-0.5817	-20.2208	-9.9472	67.5219																																					
950	-9.5272	66.3660	-0.6366	-21.2690	-0.6366	-21.2690	-9.5274	66.5085																																					
1000	-9.1321	65.3501	-0.6937	-22.3095	-0.6937	-22.3095	-9.1323	65.5003																																					
1050	-8.7594	64.3398	-0.7530	-23.3423	-0.7530	-23.3423	-8.7597	64.4974																																					
1100	-8.4073	63.3352	-0.8146	-24.3672	-0.8146	-24.3672	-8.4076	63.5005																																					
1150	-8.0739	62.3367	-0.8784	-25.3841	-0.8784	-25.3841	-8.0742	62.5096																																					
1200	-7.7577	61.3445	-0.9443	-26.3930	-0.9443	-26.3930	-7.7580	61.5252																																					
1250	-7.4574	60.3590	-1.0123	-27.3937	-1.0123	-27.3937	-7.4577	60.5472																																					
1300	-7.1718	59.3802	-1.0824	-28.3862	-1.0824	-28.3862	-7.1721	59.5761																																					
1350	-6.8999	58.4083	-1.1545	-29.3705	-1.1545	-29.3705	-6.9002	58.6120																																					
1400	-6.6406	57.4436	-1.2287	-30.3464	-1.2287	-30.3464	-6.6409	57.6549																																					
1450	-6.3932	56.4860	-1.3048	-31.3140	-1.3048	-31.3140	-6.3935	56.7051																																					
1500	-6.1568	55.5358	-1.3829	-32.2731	-1.3829	-32.2731	-6.1572	55.7626																																					
1550	-5.9308	54.5930	-1.4629	-33.2239	-1.4629	-33.2239	-5.9312	54.8275																																					
1600	-5.7146	53.6577	-1.5449	-34.1661	-1.5449	-34.1661	-5.7150	53.9000																																					
1650	-5.5075	52.7300	-1.6287	-35.0999	-1.6287	-35.0999	-5.5079	52.9800																																					
1700	-5.3091	51.8098	-1.7143	-36.0253	-1.7143	-36.0253	-5.3095	52.0677																																					
1750	-5.1188	50.8973	-1.8018	-36.9421	-1.8018	-36.9421	-5.1192	51.1630																																					
1800	-4.9362	49.9925	-1.8911	-37.8505	-1.8911	-37.8505	-4.9366	50.2660																																					
1850	-4.7609	49.0954	-1.9821	-38.7505	-1.9821	-38.7505	-4.7613	49.3767																																					
1900	-4.5925	48.2060	-2.0749	-39.6420	-2.0749	-39.6420	-4.5929	48.4951																																					
1950	-4.4306	47.3242	-2.1695	-40.5252	-2.1695	-40.5252	-4.4311	47.6213																																					
2000	-4.2750	46.4502	-2.2657	-41.3999	-2.2657	-41.3999	-4.2754	46.7551																																					
2050	-4.1253	45.5838	-2.3637	-42.2664	-2.3637	-42.2664	-4.1257	45.8966																																					
2100	-3.9812	44.7251	-2.4633	-43.1245	-2.4633	-43.1245	-3.9816	45.0458																																					
2150	-3.8425	43.8739	-2.5646	-43.9745	-2.5646	-43.9745	-3.8429	44.2026																																					
2200	-3.7088	43.0304	-2.6675	-44.8162	-2.6675	-44.8162	-3.7093	43.3670																																					
2250	-3.5801	42.1943	-2.7721	-45.6498	-2.7721	-45.6498	-3.5806	42.5390																																					
2300	-3.4560	41.3657	-2.8784	-46.4754	-2.8784	-46.4754	-3.4565	41.7184																																					
2350	-3.3364	40.5446	-2.9862	-47.2929	-2.9862	-47.2929	-3.3369	40.9052																																					
2400	-3.2210	39.7308	-3.0956	-48.1026	-3.0956	-48.1026	-3.2215	40.0995																																					
2450	-3.1097	38.9242	-3.2067	-48.9043	-3.2067	-48.9043	-3.1102	39.3010																																					
2500	-3.0022	38.1249	-3.3194	-49.6983	-3.3194	-49.6983	-3.0028	38.5098																																					
2550	-2.8985	37.3328	-3.4337	-50.4845	-3.4337	-50.4845	-2.8991	37.7258																																					
2600	-2.7984	36.5477	-3.5495	-51.2631	-3.5495	-51.2631	-2.7990	36.9489																																					
2650	-2.7018	35.7697	-3.6670	-52.0341	-3.6670	-52.0341	-2.7023	36.1789																																					
2700	-2.6084	34.9985	-3.7861	-52.7976	-3.7861	-52.7976	-2.6090	35.4160																																					
2750	-2.5182	34.2342	-3.9068	-53.5538	-3.9068	-53.5538	-2.5187	34.6599																																					
2800	-2.4310	33.4767	-4.0291	-54.3026	-4.0291	-54.3026	-2.4316	33.9106																																					
2850	-2.3467	32.7258	-4.1531	-55.0441	-4.1531	-55.0441	-2.3473	33.1679																																					
2900	-2.2653	31.9815	-4.2787	-55.7785	-4.2787	-55.7785	-2.2659	32.4319																																					
2950	-2.1865	31.2437	-4.4060	-56.5058	-4.4060	-56.5058	-2.1871	31.7024																																					
3000	-2.1103	30.5123	-4.5349	-57.2260	-4.5349	-57.2260	-2.1110	30.9793																																					
3050	-2.0367	29.7872	-4.6655	-57.9394	-4.6655	-57.9394	-2.0373	30.2626																																					
3100	-1.9654	29.0683	-4.7978	-58.6459	-4.7978	-58.6459	-1.9661	29.5521																																					
3150	-1.8965	28.3556	-4.9318	-59.3456	-4.9318	-59.3456	-1.8972	28.8478																																					
3200	-1.8298	27.6489	-5.0676	-60.0387	-5.0676	-60.0387	-1.8305	28.1496																																					
3250	-1.7653	26.9482	-5.2051	-60.7251	-5.2051	-60.7251	-1.7660	27.4573																																					
3300	-1.7028	26.2533	-5.3445	-61.4050	-5.3445	-61.4050	-1.7035	26.7709																																					
3350	-1.6424	25.5642	-5.4857	-62.0785	-5.4857	-62.0785	-1.6431	26.0903																																					
3400	-1.5839	24.8808	-5.6287	-62.7456	-5.6287	-62.7456	-1.5846	25.4155																																					
3450	-1.5273	24.2029	-5.7737	-63.4063	-5.7737	-63.4063	-1.5280	24.7462																																					
3500	-1.4725	23.5306	-5.9206	-64.0608	-5.9206	-64.0608	-1.4732	24.0824																																					
3550	-1.4194	22.8636	-6.0694	-64.7092	-6.0694	-64.7092	-1.4201	23.4241																																					
3600	-1.3680	22.2019	-6.2203	-65.3514	-6.2203	-65.3514	-1.3687	22.7712																																					
3650	-1.3183	21.5455	-6.3733	-65.9876	-6.3733	-65.9876	-1.3190	22.1234																																					
3700	-1.2701	20.8942	-6.5283	-66.6177	-6.5283	-66.6177	-1.2708	21.4809																																					
3750	-1.2235	20.2479	-6.6856	-67.2420	-6.6856	-67.2420	-1.2242	20.8434																																					
3800	-1.1783	19.6066	-6.8450	-67.8604	-6.8450	-67.8604	-1.1791	20.2109																																					
3850	-1.1346	18.9702	-7.0068	-68.4729	-7.0068	-68.4729	-1.1354	19.5833																																					
3900	-1.0923	18.3385	-7.1709	-69.0797	-7.1709	-69.0797	-1.0930	18.9605																																					
3950	-1.0513	17.7115	-7.3374	-69.6807	-7.3374	-69.6807	-1.0521	18.3425																																					
4000	-1.0117	17.0892	-7.5065	-70.2760	-7.5065	-70.2760	-1.0124	17.7291																																					
4050	-0.9733	16.4714	-7.6781	-70.8657	-7.6781	-70.8657	-0.9740	17.1202																																					
4100	-0.9361	15.8580	-7.8523	-71.4497	-7.8523	-71.4497	-0.9368	16.5159																																					
4150	-0.9001	15.2490	-8.0293	-72.0281	-8.0293	-72.0281	-0.9009	15.9159																																					
4200	-0.8653	14.6442	-8.2092	-72.6010	-8.2092	-72.6010	-0.8660	15.3203																																					
4250	-0.8316	14.0437	-8.3919	-73.1682	-8.3919	-73.1682	-0.8323	14.7289																																					
4300	-0.7990	13.4473	-8.5777	-73.7299	-8.5777	-73.7299	-0.7997	14.1417																																					
4350	-0.7674	12.8550	-8.7667	-74.2860	-8.7667	-74.2860	-0.7682	13.5586																																					
4400	-0.7369	12.2666	-8.9589	-74.8365	-8.9589	-74.8365	-0.7377	12.9795																																					
4450	-0.7074	11.6821	-9.1545	-75.3814	-9.1545	-75.3814	-0.7082	12.4043																																					
4500	-0.6788	11.1015	-9.3536	-75.9207	-9.3536	-75.9207	-0.6796	11.8330																																					
4550	-0.6512	10.5246	-9.5564	-76.4543	-9.5564	-76.4543	-0.6520	11.2655																																					
4600	-0.6246	9.9514	-9.7631	-76.9823	-9.7631	-76.9823	-0.6253	10.7017																																					
4650	-0.5988	9.3818	-9.9737	-77.5045	-9.9737	-77.5045	-0.5995	10.1416																																					
4700	-0.5739	8.8158	-10.1885	-78.0208	-10.1885	-78.0208	-0.5746	9.5851																																					
4750	-0.5498	8.2532	-10.4077	-78.5313	-10.4077	-78.5313	-0.5506	9.0321																																					
4800	-0.5266	7.6940	-10.6314	-79.0357	-10.6314	-79.0357	-0.5273	8.4825																																					
4850	-0.5041	7.1382	-10.8598	-79.5340	-10.8598	-79.5340	-0.5049	7.9364																																					
4900	-0.4825	6.5857	-11.0933	-80.0261	-11.0933	-80.0261	-0.4833	7.3935																																					
4950	-0.4616	6.0363	-11.3321	-80.5117	-11.3321	-80.5117	-0.4624	6.8539																																					
5000	-0.4415	5.4902	-11.5763	-80.9907	-11.5763	-80.9907	-0.4423	6.3176																																					
5050	-0.4221	4.9471	-11.8264	-81.4630	-11.8264	-81.4630	-0.4229	5.7843																																					
5100	-0.4034	4.4070	-12.0826	-81.9282	-12.0826	-81.9282	-0.4042	5.2542																																					
5150	-0.3855	3.8699	-12.3453	-82.3861	-12.3453	-82.3861	-0.3862	4.7270																																					
5200	-0.3682	3.3358	-12.6148	-82.8363	-12.6148	-82.8363	-0.3689	4.2028																																					
5250	-0.3515	2.8044	-12.8916	-83.2786	-12.8916	-83.2786	-0.3523	3.6816																																					
5300	-0.3355	2.2759	-13.1761	-83.7124	-13.1761	-83.7124	-0.3363	3.1631																																					
5350	-0.3202	1.7501	-13.4687	-84.1374	-13.4687	-84.1374	-0.3209	2.6475																																					
5400	-0.3054	1.2270	-13.7701	-84.5529	-13.7701	-84.5529	-0.3062	2.1346																																					
5450	-0.2913	0.7066	-14.0807	-84.9585	-14.0807	-84.9585	-0.2920	1.6244																																					
5500	-0.2778	0.1887	-14.4013	-85.3532	-14.4013	-85.3532	-0.2785	1.1168																																					
5550	-0.2648	-0.3266	-14.7325	-85.7363	-14.7325	-85.7363	-0.2655	0.6119																																					
5600	-0.2524	-0.8395	-15.0752	-86.1069	-15.0752	-86.1069	-0.2531	0.1094																																					
5650	-0.2406	-1.3499	-15.4301	-86.4638	-15.4301	-86.4638	-0.2413	-0.3905																																					
5700	-0.2293	-1.8580	-15.7984	-86.8056	-15.7984	-86.8056	-0.2300	-0.8880																																					
5750	-0.2186	-2.3637	-16.1810	-87.1308	-16.1810	-87.1308	-0.2193	-1.3831																																					
5800	-0.2084	-2.8671	-16.5793	-87.4376	-16.5793	-87.4376	-0.2090	-1.8759																																					
5850	-0.1986	-3.3683	-16.9947	-87.7238	-16.9947	-87.7238	-0.1993	-2.3664																																					
5900	-0.1894	-3.8673	-17.4287	-87.9866	-17.4287	-87.9866	-0.1901	-2.8546																																					
5950	-0.1807	-4.3641	-17.8833	-88.2230	-17.8833	-88.2230	-0.1814	-3.3406																																					
6000	-0.1725	-4.8588	-18.3606	-88.4291	-18.3606	-88.4291	-0.1732	-3.8244																																					
6050	-0.1648	-5.3515	-18.8630	-88.5999	-18.8630	-88.5999	-0.1654	-4.3061																																					
6100	-0.1575	-5.8421	-19.3935	-88.7297	-19.3935	-88.7297	-0.1582	-4.7857																																					
6150	-0.1507	-6.3308	-19.9556	-88.8109	-19.9556	-88.8109	-0.1513	-5.2633																																					
6200	-0.1444	-6.8175	-20.5532	-88.8340	-20.5532	-88.8340	-0.1450	-5.7389																																					
6250	-0.1384	-7.3023	-21.1914	-88.7865	-21.1914	-88.7865	-0.1391	-6.2124																																					
6300	-0.1330	-7.7852	-21.8762	-88.6523	-21.8762	-88.6523	-0.1336	-6.6841																																					
6350	-0.1279	-8.2664	-22.6150	-88.4095	-22.6150	-88.4095	-0.1285	-7.1539																																					
6400	-0.1233	-8.7457	-23.4171	-88.0282	-23.4171	-88.0282	-0.1239	-7.6218																																					
6450	-0.1191	-9.2233	-24.2943	-87.4659	-24.2943	-87.4659	-0.1197	-8.0879																																					
6500	-0.1154	-9.6991	-25.2618	-86.6613	-25.2618	-86.6613	-0.1159	-8.5522																																					
6550	-0.1120	-10.1733	-26.3396	-85.5220	-26.3396	-85.5220	-0.1125	-9.0147																																					
6600	-0.1090	-10.6459	-27.5546	-83.9022	-27.5546	-83.9022	-0.1095	-9.4756																																					
6650	-0.1064	-11.1168	-28.9430	-81.5611	-28.9430	-81.5611	-0.1069	-9.9347																																					
6700	-0.1042	-11.5862	-30.5533	-78.0739	-30.5533	-78.0739	-0.1047	-10.3922																																					
6750	-0.1024	-12.0540	-32.4453	-72.6391	-32.4453	-72.6391	-0.1029	-10.8481																																					
6800	-0.1010	-12.5203	-34.6624	-63.6450	-34.6624	-63.6450	-0.1014	-11.3024																																					
6850	-0.0999	-12.9851	-37.0699	-47.9226	-37.0699	-47.9226	-0.1004	-11.7552																																					
6900	-0.0992	-13.4485	-38.7903	-21.8625	-38.7903	-21.8625	-0.0997	-12.2064																																					
6950	-0.0989	-13.9105	-38.2928	8.4736	-38.2928	8.4736	-0.0993	-12.6561																																					
7000	-0.0990	-14.3711	-36.1353	30.0785	-36.1353	30.0785	-0.0993	-13.1044																																					
7050	-0.0994	-14.8303	-33.7969	42.5043	-33.7969	42.5043	-0.0997	-13.5512																																					
7100	-0.1001	-15.2882	-31.7505	49.7519	-31.7505	49.7519	-0.1004	-13.9966																																					
7150	-0.1012	-15.7448	-30.0179	54.2546	-30.0179	54.2546	-0.1015	-14.4406																																					
7200	-0.1026	-16.2001	-28.5414	57.2115	-28.5414	57.2115	-0.1029	-14.8833																																					
7250	-0.1044	-16.6542	-27.2651	59.2328	-27.2651	59.2328	-0.1047	-15.3246																																					
7300	-0.1065	-17.1070	-26.1457	60.6516	-26.1457	60.6516	-0.1068	-15.7646																																					
7350	-0.1090	-17.5587	-25.1514	61.6619	-25.1514	61.6619	-0.1092	-16.2034																																					
7400	-0.1118	-18.0092	-24.2585	62.3837	-24.2585	62.3837	-0.1120	-16.6409																																					
7450	-0.1149	-18.4585	-23.4491	62.8946	-23.4491	62.8946	-0.1151	-17.0772																																					
7500	-0.1183	-18.9068	-22.7096	63.2471	-22.7096	63.2471	-0.1185	-17.5122																																					
7550	-0.1221	-19.3539	-22.0292	63.4776	-22.0292	63.4776	-0.1222	-17.9461																																					
7600	-0.1261	-19.8000	-21.3995	63.6124	-21.3995	63.6124	-0.1263	-18.3788																																					
7650	-0.1305	-20.2451	-20.8138	63.6708	-20.8138	63.6708	-0.1306	-18.8104																																					
7700	-0.1353	-20.6891	-20.2666	63.6673	-20.2666	63.6673	-0.1353	-19.2408																																					
7750	-0.1403	-21.1321	-19.7531	63.6129	-19.7531	63.6129	-0.1403	-19.6702																																					
7800	-0.1456	-21.5741	-19.2697	63.5164	-19.2697	63.5164	-0.1456	-20.0985																																					
7850	-0.1512	-22.0152	-18.8132	63.3845	-18.8132	63.3845	-0.1512	-20.5257																																					
7900	-0.1572	-22.4554	-18.3807	63.2227	-18.3807	63.2227	-0.1572	-20.9519																																					
7950	-0.1634	-22.8946	-17.9701	63.0354	-17.9701	63.0354	-0.1634	-21.3771																																					
8000	-0.1700	-23.3330	-17.5792	62.8261	-17.5792	62.8261	-0.1699	-21.8013																																					
8050	-0.1768	-23.7705	-17.2063	62.5980	-17.2063	62.5980	-0.1767	-22.2246																																					
8100	-0.1840	-24.2071	-16.8498	62.3533	-16.8498	62.3533	-0.1838	-22.6468																																					
8150	-0.1914	-24.6429	-16.5086	62.0943	-16.5086	62.0943	-0.1912	-23.0682																																					
8200	-0.1992	-25.0779	-16.1813	61.8227	-16.1813	61.8227	-0.1990	-23.4886																																					
8250	-0.2072	-25.5121	-15.8668	61.5398	-15.8668	61.5398	-0.2070	-23.9081																																					
8300	-0.2156	-25.9456	-15.5644	61.2471	-15.5644	61.2471	-0.2152	-24.3267																																					
8350	-0.2242	-26.3782	-15.2731	60.9457	-15.2731	60.9457	-0.2238	-24.7445																																					
8400	-0.2331	-26.8102	-14.9921	60.6363	-14.9921	60.6363	-0.2327	-25.1614																																					
8450	-0.2423	-27.2414	-14.7208	60.3200	-14.7208	60.3200	-0.2419	-25.5774																																					
8500	-0.2518	-27.6719	-14.4586	59.9974	-14.4586	59.9974	-0.2513	-25.9927																																					
8550	-0.2616	-28.1017	-14.2049	59.6691	-14.2049	59.6691	-0.2611	-26.4071																																					
8600	-0.2716	-28.5309	-13.9592	59.3356	-13.9592	59.3356	-0.2711	-26.8208																																					
8650	-0.2820	-28.9594	-13.7211	58.9976	-13.7211	58.9976	-0.2814	-27.2336																																					
8700	-0.2926	-29.3873	-13.4900	58.6553	-13.4900	58.6553	-0.2920	-27.6458																																					
8750	-0.3035	-29.8145	-13.2657	58.3092	-13.2657	58.3092	-0.3029	-28.0571																																					
8800	-0.3147	-30.2412	-13.0477	57.9596	-13.0477	57.9596	-0.3140	-28.4678																																					
8850	-0.3262	-30.6672	-12.8357	57.6069	-12.8357	57.6069	-0.3255	-28.8777																																					
8900	-0.3380	-31.0927	-12.6295	57.2513	-12.6295	57.2513	-0.3372	-29.2869																																					
