!	AVX Thin Film Operation            
!	Date:		5 January 2004																															
!	Description: 	Accu-L®  L0402 Series Thin Film RF Inductors																														
!	Part Number:	L04023R3BHNTR																																		
!	50 MHz-20GHz Serial Measurements																																			
!																																																																																																																																																																																																																																													
#	mhz	S	db	R	50																																																																																																																																																																																																																																								
!	S11	S11	S21	S21	S12	S12	S22	S22																																																																																																																																																																																																																																					
!	dB	Phase	dB	Phase	dB	Phase	dB	Phase																																																																																																																																																																																																																																					
50	-40.02052503	83.06460758	-0.009895059	-0.660445562	-0.009895059	-0.660445562	-40.02052108	83.0764794																																																																																																																																																																																																																																					
100	-34.34023172	83.71263143	-0.016117299	-1.279675053	-0.016117299	-1.279675053	-34.34020095	83.73408608																																																																																																																																																																																																																																					
150	-30.98863215	83.69353517	-0.022272634	-1.889123511	-0.022272634	-1.889123511	-30.98862912	83.72847008																																																																																																																																																																																																																																					
200	-28.60088958	83.45472803	-0.028686644	-2.492742394	-0.028686644	-2.492742394	-28.60089101	83.50131489																																																																																																																																																																																																																																					
250	-26.74439884	83.11087618	-0.035485165	-3.092211507	-0.035485165	-3.092211507	-26.7444054	83.16911991																																																																																																																																																																																																																																					
300	-25.22530058	82.70737443	-0.042732617	-3.688444635	-0.042732617	-3.688444635	-25.22531279	82.77728678																																																																																																																																																																																																																																					
350	-23.93976617	82.26622388	-0.050467051	-4.282006397	-0.050467051	-4.282006397	-23.93978433	82.347807																																																																																																																																																																																																																																					
400	-22.82563482	81.79956756	-0.058712978	-4.873273996	-0.058712978	-4.873273996	-22.82565918	81.89282831																																																																																																																																																																																																																																					
450	-21.84271839	81.31474379	-0.067487114	-5.46251298	-0.067487114	-5.46251298	-21.84274914	81.41968934																																																																																																																																																																																																																																					
500	-20.96352462	80.8164906	-0.076801315	-6.049917384	-0.076801315	-6.049917384	-20.96356191	80.93312744																																																																																																																																																																																																																																					
550	-20.16841322	80.30802768	-0.086664222	-6.635632797	-0.086664222	-6.635632797	-20.16845713	80.43635998																																																																																																																																																																																																																																					
600	-19.44286263	79.79162402	-0.097082242	-7.219770592	-0.097082242	-7.219770592	-19.44291337	79.93167175																																																																																																																																																																																																																																					
650	-18.77583147	79.26896467	-0.108060192	-7.802417545	-0.108060192	-7.802417545	-18.77588886	79.42070698																																																																																																																																																																																																																																					
700	-18.15872824	78.74128075	-0.119601686	-8.383641261	-0.119601686	-8.383641261	-18.15879244	78.9047377																																																																																																																																																																																																																																					
750	-17.5847352	78.20954212	-0.131709445	-8.963495393	-0.131709445	-8.963495393	-17.58480625	78.38471961																																																																																																																																																																																																																																					
800	-17.04835137	77.67450764	-0.144385488	-9.542022362	-0.144385488	-9.542022362	-17.04842921	77.86140566																																																																																																																																																																																																																																					
850	-16.5450736	77.13676923	-0.157631276	-10.11925555	-0.157631276	-10.11925555	-16.54515839	77.3354123																																																																																																																																																																																																																																					
900	-16.07116844	76.59683107	-0.171447835	-10.69522164	-0.171447835	-10.69522164	-16.0712601	76.80721521																																																																																																																																																																																																																																					
950	-15.62350637	76.0550949	-0.185835823	-11.26994125	-0.185835823	-11.26994125	-15.62360482	76.27721932																																																																																																																																																																																																																																					
1000	-15.19943779	75.51189933	-0.200795602	-11.84343039	-0.200795602	-11.84343039	-15.19954292	75.7457578																																																																																																																																																																																																																																					
1050	-14.79670002	74.96752388	-0.216327266	-12.41570065	-0.216327266	-12.41570065	-14.79681177	75.21311794																																																																																																																																																																																																																																					
1100	-14.41334559	74.42222964	-0.232430681	-12.98675982	-0.232430681	-12.98675982	-14.41346367	74.67952213																																																																																																																																																																																																																																					
1150	-14.0476804	73.87611855	-0.249105749	-13.55661841	-0.249105749	-13.55661841	-14.04780583	74.14527369																																																																																																																																																																																																																																					
1200	-13.69823489	73.3294993	-0.266351853	-14.12527528	-0.266351853	-14.12527528	-13.69836699	73.61043154																																																																																																																																																																																																																																					
1250	-13.36371472	72.78253778	-0.284168397	-14.69273136	-0.284168397	-14.69273136	-13.36385274	73.07514436																																																																																																																																																																																																																																					
1300	-13.04296942	72.23519898	-0.302555063	-15.25899473	-0.302555063	-15.25899473	-13.04311476	72.53970717																																																																																																																																																																																																																																					
1350	-12.73499175	71.68777703	-0.321510753	-15.82405637	-0.321510753	-15.82405637	-12.73514364	72.00408434																																																																																																																																																																																																																																					
1400	-12.43887495	71.14032271	-0.341034745	-16.38791658	-0.341034745	-16.38791658	-12.43903333	71.46843686																																																																																																																																																																																																																																					
1450	-12.1538093	70.5929331	-0.361126133	-16.95057208	-0.361126133	-16.95057208	-12.15397412	70.93286183																																																																																																																																																																																																																																					
1500	-11.87906694	70.0456954	-0.381783953	-17.51201873	-0.381783953	-17.51201873	-11.87923816	70.39744684																																																																																																																																																																																																																																					
1550	-11.61399116	69.4986886	-0.403007188	-18.07225172	-0.403007188	-18.07225172	-11.61416871	69.86227109																																																																																																																																																																																																																																					
1600	-11.35798733	68.95198448	-0.42479478	-18.63126567	-0.42479478	-18.63126567	-11.35817116	69.32740648																																																																																																																																																																																																																																					
1650	-11.11051531	68.40564853	-0.447145633	-19.18905473	-0.447145633	-19.18905473	-11.11070535	68.79291863																																																																																																																																																																																																																																					
1700	-10.87108292	67.85974075	-0.470058623	-19.74561267	-0.470058623	-19.74561267	-10.87127911	68.25886763																																																																																																																																																																																																																																					
1750	-10.63924044	67.31431597	-0.493532601	-20.30093291	-0.493532601	-20.30093291	-10.63944273	67.72530908																																																																																																																																																																																																																																					
1800	-10.41457578	66.76942521	-0.517566401	-20.85500868	-0.517566401	-20.85500868	-10.41478409	67.19229369																																																																																																																																																																																																																																					
1850	-10.19671039	66.2251154	-0.542158844	-21.40783303	-0.542158844	-21.40783303	-10.19692466	66.65986863																																																																																																																																																																																																																																					
1900	-9.985295685	65.68142986	-0.567308739	-21.95939881	-0.567308739	-21.95939881	-9.985515852	66.12807791																																																																																																																																																																																																																																					
1950	-9.780009899	65.13840956	-0.593014897	-22.50969894	-0.593014897	-22.50969894	-9.780235888	65.59696149																																																																																																																																																																																																																																					
2000	-9.580555475	64.59609139	-0.61927612	-23.05872608	-0.61927612	-23.05872608	-9.580787221	65.06655826																																																																																																																																																																																																																																					
2050	-9.386656535	64.05451112	-0.646091221	-23.60647311	-0.646091221	-23.60647311	-9.386893963	64.53690277																																																																																																																																																																																																																																					
2100	-9.198056783	63.51370358	-0.673459038	-24.15293316	-0.673459038	-24.15293316	-9.198299798	64.00802545																																																																																																																																																																																																																																					
2150	-9.014518238	62.9736927	-0.701378336	-24.69809805	-0.701378336	-24.69809805	-9.014766815	63.47996617																																																																																																																																																																																																																																					
2200	-8.835818321	62.43451435	-0.729848024	-25.24196184	-0.729848024	-25.24196184	-8.836072359	62.95274475																																																																																																																																																																																																																																					
2250	-8.661749721	61.896193	-0.758866938	-25.78451719	-0.758866938	-25.78451719	-8.662009145	62.42639182																																																																																																																																																																																																																																					
2300	-8.492118438	61.35875367	-0.788433957	-26.32575725	-0.788433957	-26.32575725	-8.492383177	61.90093348																																																																																																																																																																																																																																					
2350	-8.326742635	60.82222121	-0.818548004	-26.86567573	-0.818548004	-26.86567573	-8.327012602	61.37639214																																																																																																																																																																																																																																					
2400	-8.165452084	60.28661615	-0.849207962	-27.40426523	-0.849207962	-27.40426523	-8.165727222	60.85279428																																																																																																																																																																																																																																					
2450	-8.008086229	59.75196365	-0.880412876	-27.94152079	-0.880412876	-27.94152079	-8.008366427	60.33015447																																																																																																																																																																																																																																					
2500	-7.854494758	59.2182825	-0.912161667	-28.47743509	-0.912161667	-28.47743509	-7.854779932	59.80849642																																																																																																																																																																																																																																					
2550	-7.704535422	58.68558531	-0.944453437	-29.01200353	-0.944453437	-29.01200353	-7.704825514	59.28784248																																																																																																																																																																																																																																					
2600	-7.558074792	58.15389424	-0.977287161	-29.5452188	-0.977287161	-29.5452188	-7.558369729	58.76820934																																																																																																																																																																																																																																					
2650	-7.414986065	57.62322789	-1.010662046	-30.07707684	-1.010662046	-30.07707684	-7.415285741	58.24960891																																																																																																																																																																																																																																					
2700	-7.275149946	57.09359837	-1.044577199	-30.60757189	-1.044577199	-30.60757189	-7.275454282	57.73206153																																																																																																																																																																																																																																					
2750	-7.138453286	56.56502415	-1.079031829	-31.1366985	-1.079031829	-31.1366985	-7.138762198	57.21557936																																																																																																																																																																																																																																					
