!	AVX Thin Film Operation            
!	Date:		5 January 2004																															
!	Description: 	Accu-L®  L0402 Series Thin Film RF Inductors																														
!	Part Number:	L04025R6BHNTR																																		
!	50 MHz-20GHz Serial Measurements																																			
!																																																																					
#	mhz	S	db	R	50																																																																
!	S11	S11	S21	S21	S12	S12	S22	S22																																																													
!	dB	Phase	dB	Phase	dB	Phase	dB	Phase																																																													
50	-35.44685935	83.06435444	-0.016255941	-1.056788522	-0.016255941	-1.056788522	-35.44685716	83.07432106																																																													
100	-29.75020817	83.25371865	-0.02772606	-2.046873121	-0.02772606	-2.046873121	-29.75020627	83.2734877																																																													
150	-26.39390038	82.83081504	-0.040000247	-3.020289636	-0.040000247	-3.020289636	-26.39390193	82.86050923																																																													
200	-24.00583595	82.20750051	-0.053568057	-3.983325107	-0.053568057	-3.983325107	-24.00584141	82.24709067																																																													
250	-22.15158279	81.49018965	-0.068611727	-4.938579047	-0.068611727	-4.938579047	-22.15159291	81.53969481																																																													
300	-20.63655708	80.72060168	-0.085218964	-5.887407198	-0.085218964	-5.887407198	-20.63657229	80.78002881																																																													
350	-19.35657352	79.91894761	-0.103436773	-6.830599161	-0.103436773	-6.830599161	-19.35659415	79.98830158																																																													
400	-18.24926815	79.09640864	-0.123291153	-7.768642401	-0.123291153	-7.768642401	-18.24929444	79.17569444																																																													
450	-17.27432415	78.25976582	-0.144795896	-8.701845833	-0.144795896	-8.701845833	-17.27435634	78.34899499																																																													
500	-16.40416081	77.41343111	-0.167957077	-9.630405496	-0.167957077	-9.630405496	-16.40419905	77.51260911																																																													
550	-15.61907273	76.56042706	-0.192775563	-10.55444222	-0.192775563	-10.55444222	-15.61911713	76.66956024																																																													
600	-14.90448754	75.70291764	-0.219248533	-11.47402514	-0.219248533	-11.47402514	-14.9045382	75.82201297																																																													
650	-14.24932276	74.84250652	-0.247370427	-12.3891866	-0.247370427	-12.3891866	-14.24937979	74.97157622																																																													
700	-13.64495105	73.98042766	-0.277133629	-13.29993328	-0.277133629	-13.29993328	-13.64501442	74.11947216																																																													
750	-13.08452396	73.11764191	-0.308528857	-14.20625194	-0.308528857	-14.20625194	-13.08459373	73.26666942																																																													
800	-12.56251262	72.25491606	-0.341545524	-15.10811535	-0.341545524	-15.10811535	-12.56258893	72.41395036																																																													
850	-12.07438741	71.39289433	-0.376172029	-16.00548739	-0.376172029	-16.00548739	-12.07447021	71.56193674																																																													
900	-11.6163907	70.53210229	-0.412395872	-16.89832395	-0.412395872	-16.89832395	-11.61647996	70.71115805																																																													
950	-11.18537023	69.67297354	-0.450203773	-17.78657478	-0.450203773	-17.78657478	-11.18546609	69.86207426																																																													
1000	-10.77865234	68.81593864	-0.489582115	-18.67019132	-0.489582115	-18.67019132	-10.77875421	69.01501019																																																													
1050	-10.39395473	67.9612307	-0.530516275	-19.54911309	-0.530516275	-19.54911309	-10.39406342	68.17040442																																																													
1100	-10.02930301	67.10922285	-0.572992169	-20.42329609	-0.572992169	-20.42329609	-10.02941797	67.32843821																																																													
1150	-9.682991263	66.26013467	-0.616994243	-21.29267579	-0.616994243	-21.29267579	-9.683112573	66.48941767																																																													
1200	-9.353523965	65.41422377	-0.662507256	-22.15719871	-0.662507256	-22.15719871	-9.353651266	65.65353282																																																													
1250	-9.039581022	64.5716004	-0.709516429	-23.0168219	-0.709516429	-23.0168219	-9.039714891	64.82105364																																																													
1300	-8.740003697	63.73253175	-0.758005608	-23.87148539	-0.758005608	-23.87148539	-8.740143764	63.99208838																																																													
1350	-8.453755922	62.89714795	-0.807959413	-24.721144	-0.807959413	-24.721144	-8.453902126	63.16682064																																																													
1400	-8.179913477	62.0655926	-0.859362244	-25.56575191	-0.859362244	-25.56575191	-8.180065751	62.34539444																																																													
1450	-7.917646992	61.23799507	-0.912198532	-26.40526599	-0.912198532	-26.40526599	-7.917805267	61.52793948																																																													
1500	-7.666209114	60.41447181	-0.966452788	-27.23964609	-0.966452788	-27.23964609	-7.666373315	60.71457265																																																													
1550	-7.424923801	59.59512761	-1.022109647	-28.06885508	-1.022109647	-28.06885508	-7.42509385	59.90539932																																																													
1600	-7.193177314	58.7800571	-1.0791539	-28.89285898	-1.0791539	-28.89285898	-7.193353127	59.10051406																																																													
1650	-6.970410575	57.96934483	-1.137570543	-29.71162707	-1.137570543	-29.71162707	-6.970592067	58.30000212																																																													
1700	-6.756112709	57.16306675	-1.197344804	-30.52513184	-1.197344804	-30.52513184	-6.75629979	57.50393977																																																													
1750	-6.549815466	56.3612904	-1.258462183	-31.33334916	-1.258462183	-31.33334916	-6.550008043	56.71239509																																																													
1800	-6.35108848	55.56407625	-1.320908486	-32.13625815	-1.320908486	-32.13625815	-6.351286453	55.92542806																																																													
1850	-6.159535246	54.77147613	-1.384669819	-32.9338409	-1.384669819	-32.9338409	-6.159738527	55.14309373																																																													
1900	-5.974789316	53.98353748	-1.449732708	-33.72608329	-1.449732708	-33.72608329	-5.974997798	54.36543708																																																													
1950	-5.796511539	53.20030161	-1.516084005	-34.51297369	-1.516084005	-34.51297369	-5.796725104	53.59249824																																																													
2000	-5.624386813	52.42179846	-1.583711116	-35.29450518	-1.583711116	-35.29450518	-5.624605369	52.8243137																																																													
2050	-5.458122667	51.64806043	-1.652601667	-36.0706713	-1.652601667	-36.0706713	-5.4583461	52.06091181																																																													
2100	-5.29744613	50.87911004	-1.722743932	-36.84147063	-1.722743932	-36.84147063	-5.297674325	51.30231625																																																													
2150	-5.142102522	50.11496616	-1.794126606	-37.60690384	-1.794126606	-37.60690384	-5.142335361	50.5485461																																																													
2200	-4.991853637	49.35564225	-1.866738906	-38.36697456	-1.866738906	-38.36697456	-4.992091006	49.79961635																																																													
2250	-4.846476285	48.60114833	-1.940570605	-39.12168929	-1.940570605	-39.12168929	-4.846718059	49.05553638																																																													
2300	-4.705761065	47.85149075	-2.015612023	-39.87105701	-2.015612023	-39.87105701	-4.706007109	48.3163112																																																													
2350	-4.569511245	47.10666894	-2.091854019	-40.61508904	-2.091854019	-40.61508904	-4.569761443	47.58194524																																																													
2400	-4.437541685	46.36668233	-2.169288047	-41.35379899	-2.169288047	-41.35379899	-4.437795908	46.85243583																																																													
2450	-4.309677977	45.63152695	-2.247906134	-42.08720244	-2.247906134	-42.08720244	-4.309936084	46.12777734																																																													
2500	-4.185754999	44.90118825	-2.327701283	-42.81532041	-2.327701283	-42.81532041	-4.186016868	45.4079616																																																													
2550	-4.065617749	44.17565953	-2.408666494	-43.53817008	-2.408666494	-43.53817008	-4.065883244	44.69297826																																																													
2600	-3.949118838	43.45492497	-2.49079595	-44.25577523	-2.49079595	-44.25577523	-3.949387812	43.98281094																																																													
2650	-3.836118911	42.73896643	-2.574084368	-44.96816031	-2.574084368	-44.96816031	-3.836391217	43.2774424																																																													
2700	-3.726486009	42.02776326	-2.658527048	-45.67535065	-2.658527048	-45.67535065	-3.726761508	42.57685445																																																													
2750	-3.620094891	41.32129199	-2.744120012	-46.37737346	-2.744120012	-46.37737346	-3.620373451	41.88102637																																																													
2800	-3.516826722	40.61952734	-2.830859892	-47.07425669	-2.830859892	-47.07425669	-3.517108224	41.18993618																																																													
2850	-3.416567187	39.92244711	-2.91874531	-47.76603822	-2.91874531	-47.76603822	-3.416851383	40.50353747																																																													
2900	-3.319210158	39.23001888	-3.00777317	-48.45274013	-3.00777317	-48.45274013	-3.31949694	39.82182439																																																													
2950	-3.224652487	38.54220816	-3.097943099	-49.13440007	-3.097943099	-49.13440007	-3.224941716	39.14476049																																																													
3000	-3.132796341	37.85898825	-3.189255105	-49.81105276	-3.189255105	-49.81105276	-3.133087821	38.47230616																																																													
3050	-3.043548878	37.1803194	-3.281709469	-50.48273159	-3.281709469	-50.48273159	-3.043842473	37.80443623																																																													
3100	-2.956821121	36.50616889	-3.375307692	-51.14947284	-3.375307692	-51.14947284	-2.957116662	37.14111149																																																													
3150	-2.872528118	35.83649806	-3.470052062	-51.81131379	-3.470052062	-51.81131379	-2.87282544	36.48229542																																																													
3200	-2.79058875	35.17126859	-3.56594564	-52.46829183	-3.56594564	-52.46829183	-2.790887684	35.82794977																																																													
3250	-2.710925436	34.51044062	-3.662992353	-53.1204451	-3.662992353	-53.1204451	-2.711225809	35.17803517																																																													
3300	-2.633463947	33.85397318	-3.761196995	-53.76781224	-3.761196995	-53.76781224	-2.633765587	34.53251116																																																													
3350	-2.558133224	33.20182429	-3.860565247	-54.41043233	-3.860565247	-54.41043233	-2.558435953	33.89133626																																																													
3400	-2.484865203	32.55395106	-3.961103696	-55.0483448	-3.961103696	-55.0483448	-2.485168842	33.25446808																																																													
3450	-2.413594659	31.91030973	-4.062819846	-55.68158931	-4.062819846	-55.68158931	-2.413899025	32.6218634																																																													
3500	-2.34425905	31.27085582	-4.165722151	-56.31020571	-4.165722151	-56.31020571	-2.34456396	31.99347824																																																													
3550	-2.276798387	30.63554415	-4.269820025	-56.93423391	-4.269820025	-56.93423391	-2.277103654	31.36926795																																																													
3600	-2.211155099	30.00432895	-4.375123868	-57.55371384	-4.375123868	-57.55371384	-2.211460532	30.74918728																																																													
3650	-2.147273911	29.37716389	-4.48164509	-58.16868535	-4.48164509	-58.16868535	-2.147579319	30.13319043																																																													
3700	-2.085101731	28.75400213	-4.589396143	-58.77918814	-4.589396143	-58.77918814	-2.085406919	29.52123117																																																													
3750	-2.024587555	28.13479664	-4.698390519	-59.38526161	-4.698390519	-59.38526161	-2.024892326	28.91326279																																																													
3800	-1.965682341	27.51949971	-4.808642828	-59.98694495	-4.808642828	-59.98694495	-1.965986493	28.30923834																																																													
3850	-1.908338941	26.90806357	-4.920168782	-60.58427688	-4.920168782	-60.58427688	-1.908642272	27.70911051																																																													
3900	-1.852512001	26.30044014	-5.032985248	-61.17729568	-5.032985248	-61.17729568	-1.852814305	27.11283178																																																													
3950	-1.798157878	25.69658116	-5.147110283	-61.76603908	-5.147110283	-61.76603908	-1.798458947	26.52035445																																																													
4000	-1.745234566	25.09643823	-5.262563162	-62.35054418	-5.262563162	-62.35054418	-1.745534188	25.93163067																																																													
4050	-1.693701619	24.49996287	-5.379364425	-62.93084739	-5.379364425	-62.93084739	-1.69399958	25.34661251																																																													
4100	-1.643520082	23.90710652	-5.497535917	-63.50698433	-5.497535917	-63.50698433	-1.643816165	24.76525199																																																													
4150	-1.594652428	23.31782064	-5.617100826	-64.07898977	-5.617100826	-64.07898977	-1.594946412	24.18750116																																																													
4200	-1.547062489	22.73205668	-5.738083746	-64.64689755	-5.738083746	-64.64689755	-1.547354152	23.61331203																																																													
4250	-1.500715407	22.1497662	-5.860510711	-65.21074048	-5.860510711	-65.21074048	-1.501004522	23.04263673																																																													
4300	-1.45557757	21.57090082	-5.984409263	-65.77055027	-5.984409263	-65.77055027	-1.455863909	22.47542747																																																													
4350	-1.411616564	20.9954123	-6.109808503	-66.32635747	-6.109808503	-66.32635747	-1.411899895	21.9116366																																																													
4400	-1.368801122	20.42325253	-6.236739161	-66.87819129	-6.236739161	-66.87819129	-1.36908121	21.35121663																																																													
4450	-1.327101077	19.85437367	-6.365233653	-67.42607963	-6.365233653	-67.42607963	-1.327377683	20.79412025																																																													
4500	-1.28648731	19.2887279	-6.495326181	-67.97004893	-6.495326181	-67.97004893	-1.286760193	20.24030038																																																													
4550	-1.246931725	18.72626788	-6.62705276	-68.51012397	-6.62705276	-68.51012397	-1.247200641	19.68971015																																																													
4600	-1.208407187	18.16694634	-6.760451361	-69.04632798	-6.760451361	-69.04632798	-1.208671888	19.14230298																																																													
4650	-1.170887499	17.61071635	-6.895561962	-69.57868231	-6.895561962	-69.57868231	-1.171147733	18.59803256																																																													
4700	-1.134347357	17.05753129	-7.032426658	-70.10720645	-7.032426658	-70.10720645	-1.13460287	18.05685286																																																													
4750	-1.098762316	16.5073448	-7.171089772	-70.63191786	-7.171089772	-70.63191786	-1.099012851	17.5187182																																																													
4800	-1.064108767	15.96011093	-7.311597938	-71.15283178	-7.311597938	-71.15283178	-1.064354062	16.98358324																																																													
4850	-1.030363879	15.41578396	-7.454000295	-71.66996125	-7.454000295	-71.66996125	-1.03060367	16.45140285																																																													
4900	-0.997505605	14.87431861	-7.598348512	-72.18331672	-7.598348512	-72.18331672	-0.997739623	15.9221325																																																													
4950	-0.965512625	14.33566996	-7.74469701	-72.69290605	-7.74469701	-72.69290605	-0.965740598	15.39572787																																																													
5000	-0.934364325	13.79979343	-7.893103103	-73.19873431	-7.893103103	-73.19873431	-0.934585979	14.87214505																																																													
5050	-0.90404078	13.2666449	-8.043627125	-73.7008035	-8.043627125	-73.7008035	-0.904255835	14.35134054																																																													
5100	-0.874522713	12.73618045	-8.196332677	-74.1991125	-8.196332677	-74.1991125	-0.874730886	13.83327127																																																													
5150	-0.845791492	12.20835691	-8.351286717	-74.69365653	-8.351286717	-74.69365653	-0.845992497	13.31789456																																																													
5200	-0.817829081	11.68313122	-8.508559897	-75.1844273	-8.508559897	-75.1844273	-0.818022628	12.8051681																																																													
5250	-0.790618045	11.16046091	-8.668226669	-75.67141235	-8.668226669	-75.67141235	-0.79080384	12.29505012																																																													
5300	-0.764141501	10.64030384	-8.830365658	-76.15459507	-8.830365658	-76.15459507	-0.764319245	11.7874991																																																													
5350	-0.738383129	10.12261836	-8.995059775	-76.63395401	-8.995059775	-76.63395401	-0.73855252	11.28247427																																																													
5400	-0.713327121	9.607363192	-9.16239669	-77.10946288	-9.16239669	-77.10946288	-0.713487854	10.77993497																																																													
5450	-0.688958188	9.094497625	-9.332469003	-77.58108981	-9.332469003	-77.58108981	-0.689109952	10.27984116																																																													
5500	-0.665261526	8.583981254	-9.505374686	-78.04879714	-9.505374686	-78.04879714	-0.665404007	9.782153212																																																													
5550	-0.642222802	8.07577423	-9.681217461	-78.51254077	-9.681217461	-78.51254077	-0.642355679	9.286831806																																																													
5600	-0.619828167	7.56983703	-9.860106975	-78.97226936	-9.860106975	-78.97226936	-0.619951122	8.793838783																																																													
5650	-0.59806416	7.0661306	-10.04215992	-79.42792457	-10.04215992	-79.42792457	-0.598176863	8.303135175																																																													
5700	-0.576917805	6.56461662	-10.22749963	-79.87943903	-10.22749963	-79.87943903	-0.577019923	7.814683574																																																													
5750	-0.556376494	6.065256565	-10.41625746	-80.32673684	-10.41625746	-80.32673684	-0.556467692	7.328446529																																																													
