# MHZ S MA R 50

50 4.713e-3 88.298 1 -0.27 1 -0.27 4.713e-3 88.298
100.125 9.437e-3 88.027 1 -0.541 1 -0.541 9.437e-3 88.027
150.251 0.014 87.757 1 -0.811 1 -0.811 0.014 87.757
200.376 0.019 87.486 0.999 -1.081 0.999 -1.081 0.019 87.486
250.501 0.024 87.216 0.999 -1.352 0.999 -1.352 0.024 87.216
300.627 0.028 86.946 0.999 -1.622 0.999 -1.622 0.028 86.946
350.752 0.033 86.676 0.999 -1.892 0.999 -1.892 0.033 86.676
400.877 0.038 86.406 0.998 -2.162 0.998 -2.162 0.038 86.406
451.003 0.042 86.136 0.998 -2.432 0.998 -2.432 0.042 86.136
501.128 0.047 85.866 0.998 -2.702 0.998 -2.702 0.047 85.866
551.253 0.052 85.596 0.997 -2.971 0.997 -2.971 0.052 85.596
601.378 0.057 85.327 0.997 -3.24 0.997 -3.24 0.057 85.327
651.504 0.061 85.058 0.997 -3.51 0.997 -3.51 0.061 85.058
701.629 0.066 84.788 0.996 -3.779 0.996 -3.779 0.066 84.788
751.754 0.071 84.519 0.996 -4.048 0.996 -4.048 0.071 84.519
801.88 0.075 84.251 0.995 -4.316 0.995 -4.316 0.075 84.251
852.005 0.08 83.982 0.995 -4.585 0.995 -4.585 0.08 83.982
902.13 0.085 83.714 0.994 -4.853 0.994 -4.853 0.085 83.714
952.256 0.089 83.445 0.994 -5.121 0.994 -5.121 0.089 83.445
1002.381 0.094 83.177 0.993 -5.389 0.993 -5.389 0.094 83.177
1052.506 0.099 82.91 0.993 -5.657 0.993 -5.657 0.099 82.91
1102.632 0.103 82.642 0.992 -5.924 0.992 -5.924 0.103 82.642
1152.757 0.108 82.375 0.991 -6.191 0.991 -6.191 0.108 82.375
1202.882 0.113 82.108 0.991 -6.458 0.991 -6.458 0.113 82.108
1253.008 0.117 81.841 0.99 -6.725 0.99 -6.725 0.117 81.841
1303.133 0.122 81.574 0.99 -6.991 0.99 -6.991 0.122 81.574
1353.258 0.126 81.308 0.989 -7.257 0.989 -7.257 0.126 81.308
1403.383 0.131 81.042 0.988 -7.523 0.988 -7.523 0.131 81.042
1453.509 0.136 80.776 0.987 -7.789 0.987 -7.789 0.136 80.776
1503.634 0.14 80.511 0.987 -8.054 0.987 -8.054 0.14 80.511
1553.759 0.145 80.245 0.986 -8.319 0.986 -8.319 0.145 80.245
1603.885 0.149 79.981 0.985 -8.584 0.985 -8.584 0.149 79.981
1654.01 0.154 79.716 0.984 -8.848 0.984 -8.848 0.154 79.716
1704.135 0.158 79.452 0.983 -9.112 0.983 -9.112 0.158 79.452
1754.261 0.163 79.188 0.983 -9.376 0.983 -9.376 0.163 79.188
1804.386 0.167 78.924 0.982 -9.639 0.982 -9.639 0.167 78.924
1854.511 0.172 78.661 0.981 -9.902 0.981 -9.902 0.172 78.661
1904.637 0.177 78.398 0.98 -10.165 0.98 -10.165 0.177 78.398
1954.762 0.181 78.135 0.979 -10.427 0.979 -10.427 0.181 78.135
2004.887 0.186 77.873 0.978 -10.689 0.978 -10.689 0.186 77.873
2055.013 0.19 77.611 0.977 -10.951 0.977 -10.951 0.19 77.611
2105.138 0.195 77.35 0.976 -11.212 0.976 -11.212 0.195 77.35
2155.263 0.199 77.089 0.975 -11.473 0.975 -11.473 0.199 77.089
2205.388 0.203 76.828 0.974 -11.733 0.974 -11.733 0.203 76.828
2255.514 0.208 76.568 0.973 -11.993 0.973 -11.993 0.208 76.568
2305.639 0.212 76.308 0.972 -12.253 0.972 -12.253 0.212 76.308
2355.764 0.217 76.048 0.971 -12.512 0.971 -12.512 0.217 76.048
2405.89 0.221 75.789 0.97 -12.771 0.97 -12.771 0.221 75.789
2456.015 0.226 75.53 0.969 -13.029 0.969 -13.029 0.226 75.53
2506.14 0.23 75.272 0.967 -13.287 0.967 -13.287 0.23 75.272
2556.266 0.234 75.014 0.966 -13.545 0.966 -13.545 0.234 75.014
2606.391 0.239 74.757 0.965 -13.802 0.965 -13.802 0.239 74.757
2656.516 0.243 74.5 0.964 -14.059 0.964 -14.059 0.243 74.5
2706.642 0.247 74.243 0.963 -14.315 0.963 -14.315 0.247 74.243
2756.767 0.252 73.987 0.962 -14.571 0.962 -14.571 0.252 73.987
2806.892 0.256 73.731 0.96 -14.826 0.96 -14.826 0.256 73.731
2857.018 0.26 73.476 0.959 -15.081 0.959 -15.081 0.26 73.476
2907.143 0.265 73.221 0.958 -15.335 0.958 -15.335 0.265 73.221
2957.268 0.269 72.967 0.956 -15.589 0.956 -15.589 0.269 72.967
3007.393 0.273 72.713 0.955 -15.842 0.955 -15.842 0.273 72.713
3057.519 0.277 72.46 0.954 -16.095 0.954 -16.095 0.277 72.46
3107.644 0.282 72.207 0.952 -16.347 0.952 -16.347 0.282 72.207
3157.769 0.286 71.955 0.951 -16.599 0.951 -16.599 0.286 71.955
3207.895 0.29 71.703 0.95 -16.851 0.95 -16.851 0.29 71.703
3258.02 0.294 71.452 0.948 -17.102 0.948 -17.102 0.294 71.452
3308.145 0.298 71.201 0.947 -17.352 0.947 -17.352 0.298 71.201
3358.271 0.302 70.951 0.946 -17.602 0.946 -17.602 0.302 70.951
3408.396 0.307 70.701 0.944 -17.851 0.944 -17.851 0.307 70.701
3458.521 0.311 70.452 0.943 -18.1 0.943 -18.1 0.311 70.452
3508.647 0.315 70.203 0.941 -18.348 0.941 -18.348 0.315 70.203
3558.772 0.319 69.955 0.94 -18.596 0.94 -18.596 0.319 69.955
3608.897 0.323 69.707 0.938 -18.843 0.938 -18.843 0.323 69.707
3659.023 0.327 69.46 0.937 -19.09 0.937 -19.09 0.327 69.46
3709.148 0.331 69.213 0.935 -19.336 0.935 -19.336 0.331 69.213
3759.273 0.335 68.967 0.934 -19.582 0.934 -19.582 0.335 68.967
3809.398 0.339 68.721 0.932 -19.827 0.932 -19.827 0.339 68.721
3859.524 0.343 68.476 0.931 -20.071 0.931 -20.071 0.343 68.476
3909.649 0.347 68.232 0.929 -20.315 0.929 -20.315 0.347 68.232
3959.774 0.351 67.988 0.927 -20.558 0.927 -20.558 0.351 67.988
4009.9 0.355 67.745 0.926 -20.801 0.926 -20.801 0.355 67.745
4060.025 0.359 67.502 0.924 -21.043 0.924 -21.043 0.359 67.502
4110.15 0.363 67.26 0.923 -21.285 0.923 -21.285 0.363 67.26
4160.276 0.367 67.018 0.921 -21.526 0.921 -21.526 0.367 67.018
4210.401 0.371 66.777 0.919 -21.766 0.919 -21.766 0.371 66.777
4260.526 0.375 66.537 0.918 -22.006 0.918 -22.006 0.375 66.537
4310.652 0.379 66.297 0.916 -22.245 0.916 -22.245 0.379 66.297
4360.777 0.383 66.058 0.914 -22.484 0.914 -22.484 0.383 66.058
4410.902 0.386 65.819 0.913 -22.722 0.913 -22.722 0.386 65.819
4461.028 0.39 65.581 0.911 -22.959 0.911 -22.959 0.39 65.581
4511.153 0.394 65.344 0.909 -23.196 0.909 -23.196 0.394 65.344
4561.278 0.398 65.107 0.907 -23.432 0.907 -23.432 0.398 65.107
4611.404 0.402 64.87 0.906 -23.668 0.906 -23.668 0.402 64.87
4661.529 0.405 64.635 0.904 -23.903 0.904 -23.903 0.405 64.635
4711.654 0.409 64.4 0.902 -24.138 0.902 -24.138 0.409 64.4
4761.779 0.413 64.165 0.9 -24.371 0.9 -24.371 0.413 64.165
4811.905 0.416 63.931 0.899 -24.605 0.899 -24.605 0.416 63.931
4862.03 0.42 63.698 0.897 -24.837 0.897 -24.837 0.42 63.698
4912.155 0.424 63.466 0.895 -25.069 0.895 -25.069 0.424 63.466
4962.281 0.428 63.234 0.893 -25.3 0.893 -25.3 0.428 63.234
5012.406 0.431 63.002 0.891 -25.531 0.891 -25.531 0.431 63.002
5062.531 0.435 62.771 0.889 -25.761 0.889 -25.761 0.435 62.771
5112.657 0.438 62.541 0.888 -25.99 0.888 -25.99 0.438 62.541
5162.782 0.442 62.312 0.886 -26.219 0.886 -26.219 0.442 62.312
5212.907 0.446 62.083 0.884 -26.447 0.884 -26.447 0.446 62.083
5263.033 0.449 61.855 0.882 -26.675 0.882 -26.675 0.449 61.855
5313.158 0.453 61.627 0.88 -26.902 0.88 -26.902 0.453 61.627
5363.283 0.456 61.4 0.878 -27.128 0.878 -27.128 0.456 61.4
5413.409 0.46 61.174 0.876 -27.354 0.876 -27.354 0.46 61.174
5463.534 0.463 60.948 0.874 -27.579 0.874 -27.579 0.463 60.948
5513.659 0.467 60.723 0.873 -27.803 0.873 -27.803 0.467 60.723
5563.784 0.47 60.498 0.871 -28.027 0.871 -28.027 0.47 60.498
5613.91 0.473 60.275 0.869 -28.25 0.869 -28.25 0.473 60.275
5664.035 0.477 60.051 0.867 -28.472 0.867 -28.472 0.477 60.051
5714.16 0.48 59.829 0.865 -28.694 0.865 -28.694 0.48 59.829
5764.286 0.484 59.607 0.863 -28.915 0.863 -28.915 0.484 59.607
5814.411 0.487 59.386 0.861 -29.135 0.861 -29.135 0.487 59.386
5864.536 0.49 59.165 0.859 -29.355 0.859 -29.355 0.49 59.165
5914.662 0.494 58.945 0.857 -29.574 0.857 -29.574 0.494 58.945
5964.787 0.497 58.726 0.855 -29.792 0.855 -29.792 0.497 58.726
6014.912 0.5 58.507 0.853 -30.01 0.853 -30.01 0.5 58.507
6065.038 0.504 58.289 0.851 -30.227 0.851 -30.227 0.504 58.289
6115.163 0.507 58.072 0.849 -30.444 0.849 -30.444 0.507 58.072
6165.288 0.51 57.855 0.847 -30.66 0.847 -30.66 0.51 57.855
6215.414 0.513 57.639 0.845 -30.875 0.845 -30.875 0.513 57.639
6265.539 0.517 57.424 0.843 -31.089 0.843 -31.089 0.517 57.424
6315.664 0.52 57.209 0.841 -31.303 0.841 -31.303 0.52 57.209
6365.789 0.523 56.995 0.839 -31.516 0.839 -31.516 0.523 56.995
6415.915 0.526 56.781 0.837 -31.729 0.837 -31.729 0.526 56.781
6466.04 0.529 56.568 0.835 -31.941 0.835 -31.941 0.529 56.568
6516.165 0.532 56.356 0.833 -32.152 0.833 -32.152 0.532 56.356
6566.291 0.535 56.145 0.831 -32.363 0.831 -32.363 0.535 56.145
6616.416 0.539 55.934 0.829 -32.573 0.829 -32.573 0.539 55.934
6666.541 0.542 55.724 0.827 -32.782 0.827 -32.782 0.542 55.724
6716.667 0.545 55.514 0.825 -32.99 0.825 -32.99 0.545 55.514
6766.792 0.548 55.305 0.822 -33.198 0.822 -33.198 0.548 55.305
6816.917 0.551 55.097 0.82 -33.406 0.82 -33.406 0.551 55.097
6867.043 0.554 54.889 0.818 -33.612 0.818 -33.612 0.554 54.889
6917.168 0.557 54.682 0.816 -33.818 0.816 -33.818 0.557 54.682
6967.293 0.56 54.476 0.814 -34.023 0.814 -34.023 0.56 54.476
7017.419 0.563 54.27 0.812 -34.228 0.812 -34.228 0.563 54.27
7067.544 0.566 54.065 0.81 -34.432 0.81 -34.432 0.566 54.065
7117.669 0.569 53.861 0.808 -34.635 0.808 -34.635 0.569 53.861
7167.794 0.571 53.657 0.806 -34.838 0.806 -34.838 0.571 53.657
7217.92 0.574 53.454 0.804 -35.04 0.804 -35.04 0.574 53.454
7268.045 0.577 53.252 0.802 -35.241 0.802 -35.241 0.577 53.252
7318.17 0.58 53.05 0.799 -35.442 0.799 -35.442 0.58 53.05
7368.296 0.583 52.849 0.797 -35.642 0.797 -35.642 0.583 52.849
7418.421 0.586 52.648 0.795 -35.841 0.795 -35.841 0.586 52.648
7468.546 0.589 52.448 0.793 -36.04 0.793 -36.04 0.589 52.448
7518.672 0.591 52.249 0.791 -36.238 0.791 -36.238 0.591 52.249
7568.797 0.594 52.051 0.789 -36.436 0.789 -36.436 0.594 52.051
7618.922 0.597 51.853 0.787 -36.632 0.787 -36.632 0.597 51.853
7669.048 0.6 51.655 0.785 -36.829 0.785 -36.829 0.6 51.655
7719.173 0.602 51.459 0.782 -37.024 0.782 -37.024 0.602 51.459
7769.298 0.605 51.263 0.78 -37.219 0.78 -37.219 0.605 51.263
7819.424 0.608 51.067 0.778 -37.413 0.778 -37.413 0.608 51.067
7869.549 0.61 50.873 0.776 -37.607 0.776 -37.607 0.61 50.873
7919.674 0.613 50.679 0.774 -37.799 0.774 -37.799 0.613 50.679
7969.799 0.616 50.485 0.772 -37.992 0.772 -37.992 0.616 50.485
8019.925 0.618 50.292 0.77 -38.183 0.77 -38.183 0.618 50.292
8070.05 0.621 50.1 0.767 -38.374 0.767 -38.374 0.621 50.1
8120.175 0.624 49.909 0.765 -38.564 0.765 -38.564 0.624 49.909
8170.301 0.626 49.718 0.763 -38.754 0.763 -38.754 0.626 49.718
8220.426 0.629 49.528 0.761 -38.943 0.761 -38.943 0.629 49.528
8270.551 0.631 49.338 0.759 -39.132 0.759 -39.132 0.631 49.338
8320.677 0.634 49.149 0.757 -39.319 0.757 -39.319 0.634 49.149
8370.802 0.636 48.96 0.755 -39.506 0.755 -39.506 0.636 48.96
8420.927 0.639 48.773 0.752 -39.693 0.752 -39.693 0.639 48.773
8471.053 0.641 48.586 0.75 -39.879 0.75 -39.879 0.641 48.586
8521.178 0.644 48.399 0.748 -40.064 0.748 -40.064 0.644 48.399
8571.303 0.646 48.213 0.746 -40.248 0.746 -40.248 0.646 48.213
8621.429 0.649 48.028 0.744 -40.432 0.744 -40.432 0.649 48.028
8671.554 0.651 47.843 0.742 -40.616 0.742 -40.616 0.651 47.843
8721.679 0.654 47.659 0.739 -40.798 0.739 -40.798 0.654 47.659
8771.805 0.656 47.476 0.737 -40.98 0.737 -40.98 0.656 47.476
8821.93 0.658 47.293 0.735 -41.162 0.735 -41.162 0.658 47.293
8872.055 0.661 47.111 0.733 -41.343 0.733 -41.343 0.661 47.111
8922.18 0.663 46.929 0.731 -41.523 0.731 -41.523 0.663 46.929
8972.306 0.666 46.748 0.729 -41.703 0.729 -41.703 0.666 46.748
9022.431 0.668 46.568 0.726 -41.881 0.726 -41.881 0.668 46.568
9072.556 0.67 46.388 0.724 -42.06 0.724 -42.06 0.67 46.388
9122.682 0.672 46.209 0.722 -42.238 0.722 -42.238 0.672 46.209
9172.807 0.675 46.03 0.72 -42.415 0.72 -42.415 0.675 46.03
9222.932 0.677 45.852 0.718 -42.591 0.718 -42.591 0.677 45.852
9273.058 0.679 45.675 0.716 -42.767 0.716 -42.767 0.679 45.675
9323.183 0.682 45.498 0.713 -42.942 0.713 -42.942 0.682 45.498
9373.308 0.684 45.322 0.711 -43.117 0.711 -43.117 0.684 45.322
9423.434 0.686 45.146 0.709 -43.291 0.709 -43.291 0.686 45.146
9473.559 0.688 44.971 0.707 -43.465 0.707 -43.465 0.688 44.971
9523.684 0.69 44.797 0.705 -43.638 0.705 -43.638 0.69 44.797
9573.81 0.693 44.623 0.703 -43.81 0.703 -43.81 0.693 44.623
9623.935 0.695 44.45 0.701 -43.981 0.701 -43.981 0.695 44.45
9674.06 0.697 44.277 0.698 -44.153 0.698 -44.153 0.697 44.277
9724.185 0.699 44.105 0.696 -44.323 0.696 -44.323 0.699 44.105
9774.311 0.701 43.934 0.694 -44.493 0.694 -44.493 0.701 43.934
9824.436 0.703 43.763 0.692 -44.662 0.692 -44.662 0.703 43.763
9874.561 0.705 43.592 0.69 -44.831 0.69 -44.831 0.705 43.592
9924.687 0.707 43.423 0.688 -44.999 0.688 -44.999 0.707 43.423
9974.812 0.709 43.253 0.685 -45.167 0.685 -45.167 0.709 43.253
10024.937 0.711 43.085 0.683 -45.334 0.683 -45.334 0.711 43.085
10075.063 0.714 42.917 0.681 -45.5 0.681 -45.5 0.714 42.917
10125.188 0.716 42.749 0.679 -45.666 0.679 -45.666 0.716 42.749
10175.313 0.718 42.582 0.677 -45.831 0.677 -45.831 0.718 42.582
10225.439 0.72 42.416 0.675 -45.996 0.675 -45.996 0.72 42.416
10275.564 0.722 42.25 0.673 -46.16 0.673 -46.16 0.722 42.25
10325.689 0.724 42.085 0.67 -46.323 0.67 -46.323 0.724 42.085
10375.815 0.725 41.92 0.668 -46.486 0.668 -46.486 0.725 41.92
10425.94 0.727 41.756 0.666 -46.649 0.666 -46.649 0.727 41.756
10476.065 0.729 41.593 0.664 -46.81 0.664 -46.81 0.729 41.593
10526.19 0.731 41.43 0.662 -46.972 0.662 -46.972 0.731 41.43
10576.316 0.733 41.267 0.66 -47.132 0.66 -47.132 0.733 41.267
10626.441 0.735 41.105 0.658 -47.292 0.658 -47.292 0.735 41.105
10676.566 0.737 40.944 0.656 -47.452 0.656 -47.452 0.737 40.944
10726.692 0.739 40.783 0.653 -47.611 0.653 -47.611 0.739 40.783
10776.817 0.741 40.623 0.651 -47.769 0.651 -47.769 0.741 40.623
10826.942 0.743 40.463 0.649 -47.927 0.649 -47.927 0.743 40.463
10877.068 0.744 40.304 0.647 -48.085 0.647 -48.085 0.744 40.304
10927.193 0.746 40.145 0.645 -48.241 0.645 -48.241 0.746 40.145
10977.318 0.748 39.987 0.643 -48.398 0.643 -48.398 0.748 39.987
11027.444 0.75 39.83 0.641 -48.553 0.641 -48.553 0.75 39.83
11077.569 0.752 39.673 0.639 -48.709 0.639 -48.709 0.752 39.673
11127.694 0.753 39.516 0.637 -48.863 0.637 -48.863 0.753 39.516
11177.82 0.755 39.36 0.634 -49.017 0.634 -49.017 0.755 39.36
11227.945 0.757 39.205 0.632 -49.171 0.632 -49.171 0.757 39.205
11278.07 0.759 39.05 0.63 -49.324 0.63 -49.324 0.759 39.05
11328.195 0.76 38.895 0.628 -49.476 0.628 -49.476 0.76 38.895
11378.321 0.762 38.741 0.626 -49.628 0.626 -49.628 0.762 38.741
11428.446 0.764 38.588 0.624 -49.78 0.624 -49.78 0.764 38.588
11478.571 0.766 38.435 0.622 -49.931 0.622 -49.931 0.766 38.435
11528.697 0.767 38.283 0.62 -50.081 0.62 -50.081 0.767 38.283
11578.822 0.769 38.131 0.618 -50.231 0.618 -50.231 0.769 38.131
11628.947 0.771 37.979 0.616 -50.38 0.616 -50.38 0.771 37.979
11679.073 0.772 37.828 0.614 -50.529 0.614 -50.529 0.772 37.828
11729.198 0.774 37.678 0.611 -50.677 0.611 -50.677 0.774 37.678
11779.323 0.776 37.528 0.609 -50.825 0.609 -50.825 0.776 37.528
11829.449 0.777 37.379 0.607 -50.972 0.607 -50.972 0.777 37.379
11879.574 0.779 37.23 0.605 -51.119 0.605 -51.119 0.779 37.23
11929.699 0.78 37.082 0.603 -51.265 0.603 -51.265 0.78 37.082
11979.825 0.782 36.934 0.601 -51.411 0.601 -51.411 0.782 36.934
12029.95 0.784 36.786 0.599 -51.556 0.599 -51.556 0.784 36.786
12080.075 0.785 36.639 0.597 -51.701 0.597 -51.701 0.785 36.639
12130.201 0.787 36.493 0.595 -51.845 0.595 -51.845 0.787 36.493
12180.326 0.788 36.347 0.593 -51.989 0.593 -51.989 0.788 36.347
12230.451 0.79 36.202 0.591 -52.132 0.591 -52.132 0.79 36.202
12280.576 0.791 36.057 0.589 -52.275 0.589 -52.275 0.791 36.057
12330.702 0.793 35.912 0.587 -52.417 0.587 -52.417 0.793 35.912
12380.827 0.794 35.768 0.585 -52.559 0.585 -52.559 0.794 35.768
12430.952 0.796 35.625 0.583 -52.7 0.583 -52.7 0.796 35.625
12481.078 0.797 35.481 0.581 -52.841 0.581 -52.841 0.797 35.481
12531.203 0.799 35.339 0.579 -52.981 0.579 -52.981 0.799 35.339
12581.328 0.8 35.197 0.577 -53.121 0.577 -53.121 0.8 35.197
12631.454 0.802 35.055 0.575 -53.26 0.575 -53.26 0.802 35.055
12681.579 0.803 34.914 0.573 -53.399 0.573 -53.399 0.803 34.914
12731.704 0.805 34.773 0.571 -53.538 0.571 -53.538 0.805 34.773
12781.83 0.806 34.633 0.569 -53.676 0.569 -53.676 0.806 34.633
12831.955 0.807 34.493 0.567 -53.813 0.567 -53.813 0.807 34.493
12882.08 0.809 34.354 0.565 -53.95 0.565 -53.95 0.809 34.354
12932.206 0.81 34.215 0.563 -54.086 0.563 -54.086 0.81 34.215
12982.331 0.812 34.076 0.561 -54.222 0.561 -54.222 0.812 34.076
13032.456 0.813 33.938 0.559 -54.358 0.559 -54.358 0.813 33.938
13082.581 0.814 33.801 0.557 -54.493 0.557 -54.493 0.814 33.801
13132.707 0.816 33.664 0.555 -54.628 0.555 -54.628 0.816 33.664
13182.832 0.817 33.527 0.553 -54.762 0.553 -54.762 0.817 33.527
13232.957 0.818 33.391 0.551 -54.895 0.551 -54.895 0.818 33.391
13283.083 0.82 33.255 0.549 -55.029 0.549 -55.029 0.82 33.255
13333.208 0.821 33.12 0.547 -55.162 0.547 -55.162 0.821 33.12
13383.333 0.822 32.985 0.545 -55.294 0.545 -55.294 0.822 32.985
13433.459 0.824 32.85 0.543 -55.426 0.543 -55.426 0.824 32.85
13483.584 0.825 32.716 0.541 -55.557 0.541 -55.557 0.825 32.716
13533.709 0.826 32.582 0.539 -55.688 0.539 -55.688 0.826 32.582
13583.835 0.828 32.449 0.537 -55.819 0.537 -55.819 0.828 32.449
13633.96 0.829 32.317 0.535 -55.949 0.535 -55.949 0.829 32.317
13684.085 0.83 32.184 0.533 -56.078 0.533 -56.078 0.83 32.184
13734.211 0.831 32.052 0.531 -56.208 0.531 -56.208 0.831 32.052
13784.336 0.833 31.921 0.529 -56.336 0.529 -56.336 0.833 31.921
13834.461 0.834 31.79 0.527 -56.465 0.527 -56.465 0.834 31.79
13884.586 0.835 31.659 0.525 -56.593 0.525 -56.593 0.835 31.659
13934.712 0.836 31.529 0.523 -56.72 0.523 -56.72 0.836 31.529
13984.837 0.838 31.399 0.521 -56.847 0.521 -56.847 0.838 31.399
14034.962 0.839 31.269 0.519 -56.974 0.519 -56.974 0.839 31.269
14085.088 0.84 31.14 0.517 -57.1 0.517 -57.1 0.84 31.14
14135.213 0.841 31.012 0.515 -57.226 0.515 -57.226 0.841 31.012
14185.338 0.842 30.884 0.514 -57.351 0.514 -57.351 0.842 30.884
14235.464 0.844 30.756 0.512 -57.476 0.512 -57.476 0.844 30.756
14285.589 0.845 30.628 0.51 -57.6 0.51 -57.6 0.845 30.628
14335.714 0.846 30.501 0.508 -57.725 0.508 -57.725 0.846 30.501
14385.84 0.847 30.375 0.506 -57.848 0.506 -57.848 0.847 30.375
14435.965 0.848 30.249 0.504 -57.971 0.504 -57.971 0.848 30.249
14486.09 0.849 30.123 0.502 -58.094 0.502 -58.094 0.849 30.123
14536.216 0.85 29.997 0.5 -58.217 0.5 -58.217 0.85 29.997
14586.341 0.852 29.872 0.498 -58.339 0.498 -58.339 0.852 29.872
14636.466 0.853 29.748 0.496 -58.46 0.496 -58.46 0.853 29.748
14686.591 0.854 29.623 0.495 -58.581 0.495 -58.581 0.854 29.623
14736.717 0.855 29.499 0.493 -58.702 0.493 -58.702 0.855 29.499
14786.842 0.856 29.376 0.491 -58.823 0.491 -58.823 0.856 29.376
14836.967 0.857 29.253 0.489 -58.943 0.489 -58.943 0.857 29.253
14887.093 0.858 29.13 0.487 -59.062 0.487 -59.062 0.858 29.13
14937.218 0.859 29.008 0.485 -59.181 0.485 -59.181 0.859 29.008
14987.343 0.86 28.886 0.483 -59.3 0.483 -59.3 0.86 28.886
15037.469 0.861 28.764 0.481 -59.418 0.481 -59.418 0.861 28.764
15087.594 0.862 28.643 0.48 -59.536 0.48 -59.536 0.862 28.643
15137.719 0.863 28.522 0.478 -59.654 0.478 -59.654 0.863 28.522
15187.845 0.864 28.402 0.476 -59.771 0.476 -59.771 0.864 28.402
15237.97 0.865 28.281 0.474 -59.888 0.474 -59.888 0.865 28.281
15288.095 0.867 28.162 0.472 -60.004 0.472 -60.004 0.867 28.162
15338.221 0.868 28.042 0.47 -60.121 0.47 -60.121 0.868 28.042
15388.346 0.869 27.923 0.469 -60.236 0.469 -60.236 0.869 27.923
15438.471 0.87 27.805 0.467 -60.351 0.467 -60.351 0.87 27.805
15488.596 0.871 27.686 0.465 -60.466 0.465 -60.466 0.871 27.686
15538.722 0.872 27.568 0.463 -60.581 0.463 -60.581 0.872 27.568
15588.847 0.872 27.451 0.461 -60.695 0.461 -60.695 0.872 27.451
15638.972 0.873 27.333 0.459 -60.809 0.459 -60.809 0.873 27.333
15689.098 0.874 27.216 0.458 -60.922 0.458 -60.922 0.874 27.216
15739.223 0.875 27.1 0.456 -61.035 0.456 -61.035 0.875 27.1
15789.348 0.876 26.984 0.454 -61.148 0.454 -61.148 0.876 26.984
15839.474 0.877 26.868 0.452 -61.26 0.452 -61.26 0.877 26.868
15889.599 0.878 26.752 0.45 -61.372 0.45 -61.372 0.878 26.752
15939.724 0.879 26.637 0.449 -61.483 0.449 -61.483 0.879 26.637
15989.85 0.88 26.522 0.447 -61.595 0.447 -61.595 0.88 26.522
16039.975 0.881 26.408 0.445 -61.705 0.445 -61.705 0.881 26.408
16090.1 0.882 26.294 0.443 -61.816 0.443 -61.816 0.882 26.294
