!	AVX Thin Film Operation            
!	Date:		5 January 2004																															
!	Description: 	Accu-L®  L0402 Series Thin Film RF Inductors																														
!	Part Number:	L04022R7AHNTR																																		
!	50 MHz-20GHz Serial Measurements																																			
!																																																		
#	mhz	S	db	R	50																																													
!	S11	S11	S21	S21	S12	S12	S22	S22																																										
!	dB	Phase	dB	Phase	dB	Phase	dB	Phase																																										
50	-42.15163137	82.69508896	-0.008231614	-0.550110986	-0.008231614	-0.550110986	-42.15160869	82.70870141																																										
100	-36.5034689	83.45974753	-0.013335274	-1.065007759	-0.013335274	-1.065007759	-36.50347002	83.48908203																																										
150	-33.16962696	83.56022027	-0.018212106	-1.5713794	-0.018212106	-1.5713794	-33.16960523	83.6019019																																										
200	-30.79357361	83.43704153	-0.023132377	-2.072722879	-0.023132377	-2.072722879	-30.79355309	83.49261294																																										
250	-28.94539857	83.20669072	-0.028203486	-2.570540301	-0.028203486	-2.570540301	-28.94538014	83.27614234																																										
300	-27.4324402	82.91484499	-0.033481825	-3.065656183	-0.033481825	-3.065656183	-27.43242462	82.99818465																																										
350	-26.15150834	82.58375963	-0.039001544	-3.55858539	-0.039001544	-3.55858539	-26.15149612	82.68099337																																										
400	-25.04082206	82.22578718	-0.044785227	-4.049676329	-0.044785227	-4.049676329	-25.04081356	82.33691817																																										
450	-24.0604369	81.84842468	-0.050848727	-4.539178173	-0.050848727	-4.539178173	-24.06043239	81.97345847																																										
500	-23.18302609	81.4565332	-0.057203667	-5.027276462	-0.057203667	-5.027276462	-23.1830258	81.59547623																																										
550	-22.38906699	81.05343996	-0.063858846	-5.514113538	-0.063858846	-5.514113538	-22.38907086	81.2062741																																										
600	-21.66412346	80.64146368	-0.070821109	-5.999801597	-0.070821109	-5.999801597	-21.66413201	80.80823748																																										
650	-20.99722035	80.22236241	-0.078095872	-6.484430137	-0.078095872	-6.484430137	-20.99723346	80.40305694																																										
700	-20.37981613	79.7974219	-0.08568751	-6.968072313	-0.08568751	-6.968072313	-20.37983388	79.99204279																																										
750	-19.80513331	79.36764483	-0.093599592	-7.450788247	-0.093599592	-7.450788247	-19.80515575	79.57619205																																										
800	-19.26770333	78.93380373	-0.101835063	-7.932627849	-0.101835063	-7.932627849	-19.26773054	79.15630297																																										
850	-18.76304897	78.49654917	-0.110396396	-8.413633666	-0.110396396	-8.413633666	-18.76308091	78.73297779																																										
900	-18.28745943	78.05636864	-0.119285648	-8.893840874	-0.119285648	-8.893840874	-18.28749615	78.30674627																																										
950	-17.83782421	77.6136944	-0.128504562	-9.373279437	-0.128504562	-9.373279437	-17.83786548	77.87801108																																										
1000	-17.41150764	77.16883601	-0.138054664	-9.851976403	-0.138054664	-9.851976403	-17.41155394	77.44715323																																										
1050	-17.00626232	76.72213434	-0.147937194	-10.32995307	-0.147937194	-10.32995307	-17.00631335	77.01441506																																										
1100	-16.6201524	76.27379271	-0.158153219	-10.80722763	-0.158153219	-10.80722763	-16.62020839	76.58008776																																										
1150	-16.25149403	75.82409293	-0.168703836	-11.283821	-0.168703836	-11.283821	-16.25155439	76.14430174																																										
1200	-15.89882721	75.37313616	-0.179589693	-11.75974263	-0.179589693	-11.75974263	-15.89889225	75.70732759																																										
1250	-15.56086351	74.92110907	-0.190811558	-12.2350066	-0.190811558	-12.2350066	-15.56093319	75.26928942																																										
1300	-15.23646723	74.46814863	-0.202370047	-12.70962363	-0.202370047	-12.70962363	-15.23654153	74.83032446																																										
1350	-14.92463084	74.01437514	-0.214265696	-13.18360295	-0.214265696	-13.18360295	-14.9247097	74.39055317																																										
1400	-14.62445628	73.55989502	-0.226498974	-13.65695257	-0.226498974	-13.65695257	-14.62453968	73.95008176																																										
1450	-14.3351397	73.10480254	-0.239070291	-14.12967936	-0.239070291	-14.12967936	-14.33522759	73.50900473																																										
1500	-14.05595869	72.64918132	-0.251980003	-14.60178921	-0.251980003	-14.60178921	-14.05605103	73.0674069																																										
1550	-13.78626158	72.19310722	-0.265228427	-15.0732872	-0.265228427	-15.0732872	-13.78635833	72.62536323																																										
1600	-13.52545855	71.73664804	-0.27881584	-15.54417761	-0.27881584	-15.54417761	-13.52555964	72.18294175																																										
1650	-13.27301395	71.27986498	-0.292742488	-16.01446407	-0.292742488	-16.01446407	-13.27311935	71.74020396																																										
1700	-13.02843992	70.82281334	-0.307008586	-16.48414959	-0.307008586	-16.48414959	-13.02854956	71.29720586																																										
1750	-12.79129078	70.36554383	-0.32161433	-16.95323669	-0.32161433	-16.95323669	-12.79140462	70.85399802																																										
1800	-12.56115837	69.90810305	-0.336559895	-17.42172738	-0.336559895	-17.42172738	-12.56127635	70.41062637																																										
1850	-12.33766792	69.45053219	-0.351845434	-17.88962325	-0.351845434	-17.88962325	-12.33778998	69.96713451																																										
1900	-12.12047439	68.99287146	-0.367471097	-18.35692561	-0.367471097	-18.35692561	-12.12060047	69.52355992																																										
1950	-11.90925957	68.53515585	-0.383437013	-18.8236353	-0.383437013	-18.8236353	-11.90938962	69.07993945																																										
2000	-11.7037293	68.07741759	-0.399743304	-19.28975287	-0.399743304	-19.28975287	-11.70386325	68.63630728																																										
2050	-11.50361095	67.6196886	-0.416390093	-19.75527876	-0.416390093	-19.75527876	-11.50374875	68.19269262																																										
2100	-11.30865156	67.16199703	-0.433377492	-20.22021307	-0.433377492	-20.22021307	-11.30879314	67.74912432																																										
2150	-11.11861589	66.70436944	-0.450705614	-20.68455571	-0.450705614	-20.68455571	-11.11876117	67.30562874																																										
2200	-10.93328489	66.24682846	-0.468374561	-21.14830624	-0.468374561	-21.14830624	-10.93343383	66.86223296																																										
2250	-10.75245398	65.78939971	-0.486384454	-21.61146437	-0.486384454	-21.61146437	-10.75260651	66.41895713																																										
2300	-10.57593213	65.33210333	-0.504735404	-22.07402947	-0.504735404	-22.07402947	-10.57608817	65.97582434																																										
2350	-10.40354045	64.87496041	-0.523427531	-22.53600084	-0.523427531	-22.53600084	-10.40369993	65.5328539																																										
2400	-10.23511138	64.4179868	-0.542460946	-22.9973775	-0.542460946	-22.9973775	-10.23527425	65.09006817																																										
2450	-10.07048748	63.96120264	-0.561835786	-23.45815857	-0.561835786	-23.45815857	-10.07065367	64.64748262																																										
2500	-9.909520536	63.50462939	-0.581552229	-23.91834376	-0.581552229	-23.91834376	-9.909689919	64.20510793																																										
2550	-9.752071965	63.04827034	-0.601610329	-24.37793047	-0.601610329	-24.37793047	-9.752244545	63.76297547																																										
2600	-9.598009867	62.59215416	-0.622010345	-24.83691916	-0.622010345	-24.83691916	-9.598185512	63.32108327																																										
2650	-9.447210837	62.13628737	-0.64275239	-25.2953078	-0.64275239	-25.2953078	-9.447389483	62.87945469																																										
2700	-9.299558037	61.68068098	-0.663836631	-25.75309504	-0.663836631	-25.75309504	-9.299739636	62.43810559																																										
2750	-9.154940812	61.22535122	-0.685263274	-26.21027961	-0.685263274	-26.21027961	-9.155125293	61.99704508																																										
2800	-9.013254095	60.77031496	-0.707032601	-26.66686155	-0.707032601	-26.66686155	-9.013441322	61.55627745																																										
2850	-8.874399471	60.31557154	-0.729144704	-27.1228375	-0.729144704	-27.1228375	-8.874589429	61.11583022																																										
2900	-8.738282368	59.86114113	-0.751599911	-27.57820741	-0.751599911	-27.57820741	-8.738474953	60.67570217																																										
2950	-8.604813556	59.40702885	-0.774398468	-28.03297007	-0.774398468	-28.03297007	-8.605008695	60.23590831																																										
3000	-8.473908227	58.95324693	-0.797540639	-28.48712373	-0.797540639	-28.48712373	-8.474105838	59.79645671																																										
3050	-8.345485637	58.49980354	-0.821026723	-28.94066724	-0.821026723	-28.94066724	-8.345685637	59.35735723																																										
3100	-8.219468938	58.04670729	-0.844857034	-29.39359934	-0.844857034	-29.39359934	-8.219671245	58.91861871																																										
3150	-8.095784909	57.59396632	-0.86903191	-29.84591877	-0.86903191	-29.84591877	-8.095989442	58.48024954																																										
3200	-7.974363734	57.14158839	-0.89355171	-30.2976243	-0.89355171	-30.2976243	-7.974570407	58.0422577																																										
3250	-7.855138783	56.68958085	-0.918416813	-30.74871472	-0.918416813	-30.74871472	-7.855347513	57.60465077																																										
3300	-7.738046425	56.23795068	-0.943627627	-31.19918886	-0.943627627	-31.19918886	-7.738257126	57.16743597																																										
3350	-7.623025845	55.7867045	-0.969184579	-31.64904557	-0.969184579	-31.64904557	-7.623238431	56.73062016																																										
3400	-7.510018878	55.3358486	-0.995088127	-32.09828374	-0.995088127	-32.09828374	-7.510233261	56.29420985																																										
3450	-7.398969854	54.8853889	-1.021338751	-32.5469023	-1.021338751	-32.5469023	-7.399185947	55.85821125																																										
3500	-7.289825457	54.43533108	-1.047936962	-32.99490022	-1.047936962	-32.99490022	-7.29004317	55.42263022																																										
3550	-7.182534589	53.98568046	-1.074883298	-33.44227652	-1.074883298	-33.44227652	-7.182753832	54.98747235																																										
3600	-7.077048252	53.53644209	-1.102178324	-33.88903026	-1.102178324	-33.88903026	-7.077268936	54.55274296																																										
3650	-6.973319425	53.08762076	-1.12982264	-34.33516054	-1.12982264	-34.33516054	-6.973541457	54.11844705																																										
3700	-6.871302962	52.63922098	-1.157816872	-34.78066652	-1.157816872	-34.78066652	-6.871526251	53.68458938																																										
3750	-6.770955492	52.19124699	-1.186161681	-35.2255474	-1.186161681	-35.2255474	-6.771179943	53.25117447																																										
3800	-6.672235322	51.7437028	-1.214857761	-35.66980244	-1.214857761	-35.66980244	-6.672460842	52.81820654																																										
3850	-6.575102353	51.29659219	-1.243905839	-36.11343095	-1.243905839	-36.11343095	-6.575328846	52.38568964																																										
3900	-6.479517996	50.84991867	-1.273306677	-36.55643229	-1.273306677	-36.55643229	-6.479745366	51.95362755																																										
3950	-6.3854451	50.40368557	-1.303061072	-36.99880587	-1.303061072	-36.99880587	-6.38567325	51.52202384																																										
4000	-6.29284787	49.95789597	-1.33316986	-37.44055117	-1.33316986	-37.44055117	-6.293076702	51.09088184																																										
4050	-6.201691814	49.51255277	-1.363633913	-37.88166771	-1.363633913	-37.88166771	-6.20192123	50.6602047																																										
4100	-6.111943667	49.06765865	-1.394454142	-38.32215509	-1.394454142	-38.32215509	-6.112173567	50.22999534																																										
4150	-6.023571344	48.62321604	-1.425631497	-38.76201292	-1.425631497	-38.76201292	-6.023801627	49.80025656																																										
4200	-5.93654387	48.17922726	-1.45716697	-39.20124092	-1.45716697	-39.20124092	-5.936774434	49.37099086																																										
4250	-5.850831338	47.73569441	-1.489061596	-39.63983884	-1.489061596	-39.63983884	-5.851062081	48.94220061																																										
4300	-5.766404859	47.29261938	-1.52131645	-40.07780648	-1.52131645	-40.07780648	-5.766635677	48.51388799																																										
4350	-5.683236509	46.85000395	-1.553932654	-40.51514373	-1.553932654	-40.51514373	-5.683467297	48.08605497																																										
4400	-5.601299293	46.40784963	-1.586911371	-40.9518505	-1.586911371	-40.9518505	-5.601529945	47.65870341																																										
4450	-5.520567099	45.96615784	-1.620253816	-41.38792678	-1.620253816	-41.38792678	-5.520797509	47.23183495																																										
4500	-5.441014664	45.52492976	-1.653961243	-41.82337259	-1.653961243	-41.82337259	-5.441244724	46.80545115																																										
4550	-5.362617523	45.0841665	-1.688034963	-42.25818804	-1.688034963	-42.25818804	-5.362847125	46.37955326																																										
4600	-5.285351999	44.64386892	-1.72247633	-42.69237327	-1.72247633	-42.69237327	-5.285581033	45.95414253																																										
4650	-5.20919514	44.20403779	-1.757286753	-43.1259285	-1.757286753	-43.1259285	-5.209423496	45.52921992																																										
4700	-5.134124719	43.76467368	-1.792467689	-43.55885397	-1.792467689	-43.55885397	-5.134352285	45.10478639																																										
4750	-5.060119189	43.32577692	-1.828020645	-43.99114994	-1.828020645	-43.99114994	-5.060345854	44.68084287																																										
4800	-4.987157598	42.88734823	-1.863947213	-44.42281699	-1.863947213	-44.42281699	-4.987383244	44.25738909																																										
4850	-4.915219725	42.44938729	-1.900248985	-44.85385529	-1.900248985	-44.85385529	-4.915444239	43.83442646																																										
4900	-4.844285864	42.01189437	-1.936927656	-45.28426545	-1.936927656	-45.28426545	-4.844509129	43.4119548																																										
4950	-4.774336924	41.57486922	-1.973984958	-45.71404792	-1.973984958	-45.71404792	-4.774558824	42.9899745																																										
5000	-4.705354348	41.13831166	-2.01142269	-46.14320331	-2.01142269	-46.14320331	-4.705574765	42.56848543																																										
5050	-4.637320124	40.70222125	-2.049242711	-46.57173222	-2.049242711	-46.57173222	-4.637538939	42.14748763																																										
5100	-4.57021675	40.26659758	-2.087446938	-46.99963532	-2.087446938	-46.99963532	-4.570433841	41.72698074																																										
5150	-4.504027213	39.83143995	-2.126037357	-47.42691333	-2.126037357	-47.42691333	-4.504242457	41.30696448																																										
5200	-4.438734965	39.39674749	-2.165016021	-47.85356699	-2.165016021	-47.85356699	-4.438948241	40.88743847																																										
5250	-4.374323922	38.96251938	-2.204385048	-48.27959714	-2.204385048	-48.27959714	-4.374535107	40.46840201																																										
5300	-4.310778453	38.52875477	-2.244146615	-48.70500459	-2.244146615	-48.70500459	-4.310987419	40.04985428																																										
5350	-4.248083314	38.09545208	-2.284302989	-49.12979022	-2.284302989	-49.12979022	-4.248289939	39.63179492																																										
5400	-4.186223726	37.66261072	-2.324856479	-49.55395497	-2.324856479	-49.55395497	-4.186427877	39.21422228																																										
5450	-4.125185268	37.23022867	-2.36580948	-49.97749966	-2.36580948	-49.97749966	-4.12538682	38.79713628																																										
5500	-4.06495385	36.798305	-2.407164503	-50.40042556	-2.407164503	-50.40042556	-4.06515267	38.38053465																																										
5550	-4.005515814	36.36683767	-2.448924087	-50.82273356	-2.448924087	-50.82273356	-4.005711774	37.96441687																																										
5600	-3.946857918	35.93582542	-2.491090808	-51.24442453	-2.491090808	-51.24442453	-3.947050881	37.54878148																																										
5650	-3.888967069	35.50526629	-2.533667455	-51.66549993	-2.533667455	-51.66549993	-3.8891569	37.1336265																																										
5700	-3.831830686	35.07515819	-2.576656771	-52.08596059	-2.576656771	-52.08596059	-3.832017252	36.71895107																																										
5750	-3.775436442	34.64549899	-2.620061625	-52.5058076	-2.620061625	-52.5058076	-3.775619613	36.30475379																																										
5800	-3.719772264	34.21628722	-2.663885025	-52.92504249	-2.663885025	-52.92504249	-3.719951894	35.89103151																																										
5850	-3.664826448	33.78752001	-2.70813	-53.34366619	-2.70813	-53.34366619	-3.665002404	35.47778356																																										
5900	-3.61058761	33.35919567	-2.752799656	-53.76167991	-2.752799656	-53.76167991	-3.610759743	35.06500735																																										
5950	-3.55704452	32.93131143	-2.79789728	-54.17908502	-2.79789728	-54.17908502	-3.557212691	34.65270092																																										
6000	-3.504186312	32.50386471	-2.843426183	-54.59588269	-2.843426183	-54.59588269	-3.50435038	34.24086239																																										
6050	-3.452002338	32.07685317	-2.889389815	-55.01207434	-2.889389815	-55.01207434	-3.452162156	33.82948895																																										
6100	-3.400482389	31.65027416	-2.935791558	-55.42766063	-2.935791558	-55.42766063	-3.400637807	33.41857939																																										
6150	-3.349616069	31.22412462	-2.982635271	-55.84264378	-2.982635271	-55.84264378	-3.349766943	33.00812982																																										
6200	-3.29939375	30.79840161	-3.029924455	-56.25702407	-3.029924455	-56.25702407	-3.299539935	32.59813977																																										
6250	-3.249805574	30.37310274	-3.077663135	-56.67080373	-3.077663135	-56.67080373	-3.249946914	32.18860425																																										
6300	-3.200842257	29.94822452	-3.125855117	-57.08398334	-3.125855117	-57.08398334	-3.200978603	31.77952243																																										
6350	-3.152494451	29.52376381	-3.174504587	-57.49656469	-3.174504587	-57.49656469	-3.152625652	31.37089068																																										
6400	-3.104753287	29.09971835	-3.223615601	-57.90854888	-3.223615601	-57.90854888	-3.104879172	30.96270543																																										
6450	-3.057609864	28.67608323	-3.273192532	-58.319937	-3.273192532	-58.319937	-3.057730295	30.55496596																																										
6500	-3.011055656	28.25285663	-3.32323974	-58.73073059	-3.32323974	-58.73073059	-3.01117046	30.14766705																																										
6550	-2.965082186	27.83003407	-3.373761823	-59.14093078	-3.373761823	-59.14093078	-2.965191211	29.74080701																																										
