# MHZ S MA R 50

50 2.137e-3 88.446 1 -0.122 1 -0.122 2.137e-3 88.446
100.125 4.279e-3 88.323 1 -0.245 1 -0.245 4.279e-3 88.323
150.251 6.42e-3 88.2 1 -0.368 1 -0.368 6.42e-3 88.2
200.376 8.562e-3 88.077 1 -0.49 1 -0.49 8.562e-3 88.077
250.501 0.011 87.955 1 -0.613 1 -0.613 0.011 87.955
300.627 0.013 87.832 1 -0.736 1 -0.736 0.013 87.832
350.752 0.015 87.71 1 -0.858 1 -0.858 0.015 87.71
400.877 0.017 87.587 0.999 -0.981 0.999 -0.981 0.017 87.587
451.003 0.019 87.464 0.999 -1.103 0.999 -1.103 0.019 87.464
501.128 0.021 87.342 0.999 -1.226 0.999 -1.226 0.021 87.342
551.253 0.024 87.219 0.999 -1.349 0.999 -1.349 0.024 87.219
601.378 0.026 87.097 0.999 -1.471 0.999 -1.471 0.026 87.097
651.504 0.028 86.974 0.999 -1.594 0.999 -1.594 0.028 86.974
701.629 0.03 86.851 0.999 -1.716 0.999 -1.716 0.03 86.851
751.754 0.032 86.729 0.999 -1.839 0.999 -1.839 0.032 86.729
801.88 0.034 86.606 0.999 -1.961 0.999 -1.961 0.034 86.606
852.005 0.036 86.484 0.998 -2.084 0.998 -2.084 0.036 86.484
902.13 0.039 86.361 0.998 -2.206 0.998 -2.206 0.039 86.361
952.256 0.041 86.239 0.998 -2.328 0.998 -2.328 0.041 86.239
1002.381 0.043 86.117 0.998 -2.451 0.998 -2.451 0.043 86.117
1052.506 0.045 85.994 0.998 -2.573 0.998 -2.573 0.045 85.994
1102.632 0.047 85.872 0.998 -2.695 0.998 -2.695 0.047 85.872
1152.757 0.049 85.749 0.998 -2.818 0.998 -2.818 0.049 85.749
1202.882 0.051 85.627 0.997 -2.94 0.997 -2.94 0.051 85.627
1253.008 0.053 85.505 0.997 -3.062 0.997 -3.062 0.053 85.505
1303.133 0.056 85.382 0.997 -3.185 0.997 -3.185 0.056 85.382
1353.258 0.058 85.26 0.997 -3.307 0.997 -3.307 0.058 85.26
1403.383 0.06 85.138 0.997 -3.429 0.997 -3.429 0.06 85.138
1453.509 0.062 85.015 0.997 -3.551 0.997 -3.551 0.062 85.015
1503.634 0.064 84.893 0.996 -3.673 0.996 -3.673 0.064 84.893
1553.759 0.066 84.771 0.996 -3.796 0.996 -3.796 0.066 84.771
1603.885 0.068 84.649 0.996 -3.918 0.996 -3.918 0.068 84.649
1654.01 0.07 84.526 0.996 -4.04 0.996 -4.04 0.07 84.526
1704.135 0.073 84.404 0.996 -4.162 0.996 -4.162 0.073 84.404
1754.261 0.075 84.282 0.995 -4.284 0.995 -4.284 0.075 84.282
1804.386 0.077 84.16 0.995 -4.406 0.995 -4.406 0.077 84.16
1854.511 0.079 84.038 0.995 -4.528 0.995 -4.528 0.079 84.038
1904.637 0.081 83.916 0.995 -4.65 0.995 -4.65 0.081 83.916
1954.762 0.083 83.794 0.994 -4.772 0.994 -4.772 0.083 83.794
2004.887 0.085 83.672 0.994 -4.894 0.994 -4.894 0.085 83.672
2055.013 0.087 83.55 0.994 -5.016 0.994 -5.016 0.087 83.55
2105.138 0.09 83.428 0.994 -5.137 0.994 -5.137 0.09 83.428
2155.263 0.092 83.306 0.993 -5.259 0.993 -5.259 0.092 83.306
2205.388 0.094 83.184 0.993 -5.381 0.993 -5.381 0.094 83.184
2255.514 0.096 83.062 0.993 -5.503 0.993 -5.503 0.096 83.062
2305.639 0.098 82.94 0.993 -5.625 0.993 -5.625 0.098 82.94
2355.764 0.1 82.818 0.992 -5.746 0.992 -5.746 0.1 82.818
2405.89 0.102 82.696 0.992 -5.868 0.992 -5.868 0.102 82.696
2456.015 0.104 82.575 0.992 -5.99 0.992 -5.99 0.104 82.575
2506.14 0.106 82.453 0.992 -6.111 0.992 -6.111 0.106 82.453
2556.266 0.109 82.331 0.991 -6.233 0.991 -6.233 0.109 82.331
2606.391 0.111 82.209 0.991 -6.354 0.991 -6.354 0.111 82.209
2656.516 0.113 82.088 0.991 -6.476 0.991 -6.476 0.113 82.088
2706.642 0.115 81.966 0.99 -6.598 0.99 -6.598 0.115 81.966
2756.767 0.117 81.844 0.99 -6.719 0.99 -6.719 0.117 81.844
2806.892 0.119 81.723 0.99 -6.84 0.99 -6.84 0.119 81.723
2857.018 0.121 81.601 0.99 -6.962 0.99 -6.962 0.121 81.601
2907.143 0.123 81.479 0.989 -7.083 0.989 -7.083 0.123 81.479
2957.268 0.125 81.358 0.989 -7.205 0.989 -7.205 0.125 81.358
3007.393 0.128 81.236 0.989 -7.326 0.989 -7.326 0.128 81.236
3057.519 0.13 81.115 0.988 -7.447 0.988 -7.447 0.13 81.115
3107.644 0.132 80.994 0.988 -7.568 0.988 -7.568 0.132 80.994
3157.769 0.134 80.872 0.988 -7.69 0.988 -7.69 0.134 80.872
3207.895 0.136 80.751 0.987 -7.811 0.987 -7.811 0.136 80.751
3258.02 0.138 80.629 0.987 -7.932 0.987 -7.932 0.138 80.629
3308.145 0.14 80.508 0.987 -8.053 0.987 -8.053 0.14 80.508
3358.271 0.142 80.387 0.986 -8.174 0.986 -8.174 0.142 80.387
3408.396 0.144 80.266 0.986 -8.295 0.986 -8.295 0.144 80.266
3458.521 0.146 80.144 0.986 -8.416 0.986 -8.416 0.146 80.144
3508.647 0.148 80.023 0.985 -8.537 0.985 -8.537 0.148 80.023
3558.772 0.151 79.902 0.985 -8.658 0.985 -8.658 0.151 79.902
3608.897 0.153 79.781 0.984 -8.779 0.984 -8.779 0.153 79.781
3659.023 0.155 79.66 0.984 -8.9 0.984 -8.9 0.155 79.66
3709.148 0.157 79.539 0.984 -9.021 0.984 -9.021 0.157 79.539
3759.273 0.159 79.418 0.983 -9.141 0.983 -9.141 0.159 79.418
3809.398 0.161 79.297 0.983 -9.262 0.983 -9.262 0.161 79.297
3859.524 0.163 79.176 0.983 -9.383 0.983 -9.383 0.163 79.176
3909.649 0.165 79.055 0.982 -9.503 0.982 -9.503 0.165 79.055
3959.774 0.167 78.934 0.982 -9.624 0.982 -9.624 0.167 78.934
4009.9 0.169 78.813 0.981 -9.745 0.981 -9.745 0.169 78.813
4060.025 0.171 78.693 0.981 -9.865 0.981 -9.865 0.171 78.693
4110.15 0.173 78.572 0.98 -9.986 0.98 -9.986 0.173 78.572
4160.276 0.176 78.451 0.98 -10.106 0.98 -10.106 0.176 78.451
4210.401 0.178 78.331 0.98 -10.226 0.98 -10.226 0.178 78.331
4260.526 0.18 78.21 0.979 -10.347 0.979 -10.347 0.18 78.21
4310.652 0.182 78.089 0.979 -10.467 0.979 -10.467 0.182 78.089
4360.777 0.184 77.969 0.978 -10.587 0.978 -10.587 0.184 77.969
4410.902 0.186 77.848 0.978 -10.708 0.978 -10.708 0.186 77.848
4461.028 0.188 77.728 0.977 -10.828 0.977 -10.828 0.188 77.728
4511.153 0.19 77.607 0.977 -10.948 0.977 -10.948 0.19 77.607
4561.278 0.192 77.487 0.977 -11.068 0.977 -11.068 0.192 77.487
4611.404 0.194 77.367 0.976 -11.188 0.976 -11.188 0.194 77.367
4661.529 0.196 77.246 0.976 -11.308 0.976 -11.308 0.196 77.246
4711.654 0.198 77.126 0.975 -11.428 0.975 -11.428 0.198 77.126
4761.779 0.2 77.006 0.975 -11.548 0.975 -11.548 0.2 77.006
4811.905 0.202 76.886 0.974 -11.668 0.974 -11.668 0.202 76.886
4862.03 0.204 76.765 0.974 -11.788 0.974 -11.788 0.204 76.765
4912.155 0.206 76.645 0.973 -11.908 0.973 -11.908 0.206 76.645
4962.281 0.208 76.525 0.973 -12.027 0.973 -12.027 0.208 76.525
5012.406 0.21 76.405 0.972 -12.147 0.972 -12.147 0.21 76.405
5062.531 0.213 76.285 0.972 -12.267 0.972 -12.267 0.213 76.285
5112.657 0.215 76.165 0.971 -12.386 0.971 -12.386 0.215 76.165
5162.782 0.217 76.045 0.971 -12.506 0.971 -12.506 0.217 76.045
5212.907 0.219 75.926 0.97 -12.626 0.97 -12.626 0.219 75.926
5263.033 0.221 75.806 0.97 -12.745 0.97 -12.745 0.221 75.806
5313.158 0.223 75.686 0.969 -12.864 0.969 -12.864 0.223 75.686
5363.283 0.225 75.566 0.969 -12.984 0.969 -12.984 0.225 75.566
5413.409 0.227 75.447 0.968 -13.103 0.968 -13.103 0.227 75.447
5463.534 0.229 75.327 0.968 -13.222 0.968 -13.222 0.229 75.327
5513.659 0.231 75.207 0.967 -13.342 0.967 -13.342 0.231 75.207
5563.784 0.233 75.088 0.967 -13.461 0.967 -13.461 0.233 75.088
5613.91 0.235 74.968 0.966 -13.58 0.966 -13.58 0.235 74.968
5664.035 0.237 74.849 0.966 -13.699 0.966 -13.699 0.237 74.849
5714.16 0.239 74.73 0.965 -13.818 0.965 -13.818 0.239 74.73
5764.286 0.241 74.61 0.964 -13.937 0.964 -13.937 0.241 74.61
5814.411 0.243 74.491 0.964 -14.056 0.964 -14.056 0.243 74.491
5864.536 0.245 74.372 0.963 -14.175 0.963 -14.175 0.245 74.372
5914.662 0.247 74.252 0.963 -14.294 0.963 -14.294 0.247 74.252
5964.787 0.249 74.133 0.962 -14.413 0.962 -14.413 0.249 74.133
6014.912 0.251 74.014 0.962 -14.531 0.962 -14.531 0.251 74.014
6065.038 0.253 73.895 0.961 -14.65 0.961 -14.65 0.253 73.895
6115.163 0.255 73.776 0.96 -14.769 0.96 -14.769 0.255 73.776
6165.288 0.257 73.657 0.96 -14.887 0.96 -14.887 0.257 73.657
6215.414 0.259 73.538 0.959 -15.006 0.959 -15.006 0.259 73.538
6265.539 0.261 73.419 0.959 -15.124 0.959 -15.124 0.261 73.419
6315.664 0.263 73.301 0.958 -15.243 0.958 -15.243 0.263 73.301
6365.789 0.265 73.182 0.958 -15.361 0.958 -15.361 0.265 73.182
6415.915 0.267 73.063 0.957 -15.479 0.957 -15.479 0.267 73.063
6466.04 0.269 72.944 0.956 -15.597 0.956 -15.597 0.269 72.944
6516.165 0.271 72.826 0.956 -15.716 0.956 -15.716 0.271 72.826
6566.291 0.273 72.707 0.955 -15.834 0.955 -15.834 0.273 72.707
6616.416 0.275 72.589 0.954 -15.952 0.954 -15.952 0.275 72.589
6666.541 0.277 72.47 0.954 -16.07 0.954 -16.07 0.277 72.47
6716.667 0.279 72.352 0.953 -16.188 0.953 -16.188 0.279 72.352
6766.792 0.281 72.234 0.953 -16.306 0.953 -16.306 0.281 72.234
6816.917 0.283 72.115 0.952 -16.424 0.952 -16.424 0.283 72.115
6867.043 0.285 71.997 0.951 -16.541 0.951 -16.541 0.285 71.997
6917.168 0.287 71.879 0.951 -16.659 0.951 -16.659 0.287 71.879
6967.293 0.289 71.761 0.95 -16.777 0.95 -16.777 0.289 71.761
7017.419 0.291 71.643 0.949 -16.895 0.949 -16.895 0.291 71.643
7067.544 0.293 71.525 0.949 -17.012 0.949 -17.012 0.293 71.525
7117.669 0.295 71.407 0.948 -17.13 0.948 -17.13 0.295 71.407
7167.794 0.297 71.289 0.947 -17.247 0.947 -17.247 0.297 71.289
7217.92 0.299 71.171 0.947 -17.364 0.947 -17.364 0.299 71.171
7268.045 0.301 71.053 0.946 -17.482 0.946 -17.482 0.301 71.053
7318.17 0.302 70.935 0.945 -17.599 0.945 -17.599 0.302 70.935
7368.296 0.304 70.818 0.945 -17.716 0.945 -17.716 0.304 70.818
7418.421 0.306 70.7 0.944 -17.833 0.944 -17.833 0.306 70.7
7468.546 0.308 70.582 0.943 -17.951 0.943 -17.951 0.308 70.582
7518.672 0.31 70.465 0.943 -18.068 0.943 -18.068 0.31 70.465
7568.797 0.312 70.347 0.942 -18.185 0.942 -18.185 0.312 70.347
7618.922 0.314 70.23 0.941 -18.302 0.941 -18.302 0.314 70.23
7669.048 0.316 70.113 0.941 -18.418 0.941 -18.418 0.316 70.113
7719.173 0.318 69.995 0.94 -18.535 0.94 -18.535 0.318 69.995
7769.298 0.32 69.878 0.939 -18.652 0.939 -18.652 0.32 69.878
7819.424 0.322 69.761 0.939 -18.769 0.939 -18.769 0.322 69.761
7869.549 0.324 69.644 0.938 -18.885 0.938 -18.885 0.324 69.644
7919.674 0.326 69.527 0.937 -19.002 0.937 -19.002 0.326 69.527
7969.799 0.328 69.41 0.936 -19.118 0.936 -19.118 0.328 69.41
8019.925 0.33 69.293 0.936 -19.235 0.936 -19.235 0.33 69.293
8070.05 0.331 69.176 0.935 -19.351 0.935 -19.351 0.331 69.176
8120.175 0.333 69.059 0.934 -19.467 0.934 -19.467 0.333 69.059
8170.301 0.335 68.942 0.934 -19.584 0.934 -19.584 0.335 68.942
8220.426 0.337 68.825 0.933 -19.7 0.933 -19.7 0.337 68.825
8270.551 0.339 68.709 0.932 -19.816 0.932 -19.816 0.339 68.709
8320.677 0.341 68.592 0.931 -19.932 0.931 -19.932 0.341 68.592
8370.802 0.343 68.476 0.931 -20.048 0.931 -20.048 0.343 68.476
8420.927 0.345 68.359 0.93 -20.164 0.93 -20.164 0.345 68.359
8471.053 0.347 68.243 0.929 -20.28 0.929 -20.28 0.347 68.243
8521.178 0.349 68.126 0.928 -20.396 0.928 -20.396 0.349 68.126
8571.303 0.351 68.01 0.928 -20.511 0.928 -20.511 0.351 68.01
8621.429 0.352 67.894 0.927 -20.627 0.927 -20.627 0.352 67.894
8671.554 0.354 67.778 0.926 -20.743 0.926 -20.743 0.354 67.778
8721.679 0.356 67.662 0.925 -20.858 0.925 -20.858 0.356 67.662
8771.805 0.358 67.546 0.924 -20.974 0.924 -20.974 0.358 67.546
8821.93 0.36 67.43 0.924 -21.089 0.924 -21.089 0.36 67.43
8872.055 0.362 67.314 0.923 -21.204 0.923 -21.204 0.362 67.314
8922.18 0.364 67.198 0.922 -21.32 0.922 -21.32 0.364 67.198
8972.306 0.366 67.082 0.921 -21.435 0.921 -21.435 0.366 67.082
9022.431 0.367 66.966 0.921 -21.55 0.921 -21.55 0.367 66.966
9072.556 0.369 66.851 0.92 -21.665 0.92 -21.665 0.369 66.851
9122.682 0.371 66.735 0.919 -21.78 0.919 -21.78 0.371 66.735
9172.807 0.373 66.62 0.918 -21.895 0.918 -21.895 0.373 66.62
9222.932 0.375 66.504 0.917 -22.01 0.917 -22.01 0.375 66.504
9273.058 0.377 66.389 0.917 -22.125 0.917 -22.125 0.377 66.389
9323.183 0.379 66.273 0.916 -22.239 0.916 -22.239 0.379 66.273
9373.308 0.38 66.158 0.915 -22.354 0.915 -22.354 0.38 66.158
9423.434 0.382 66.043 0.914 -22.469 0.914 -22.469 0.382 66.043
9473.559 0.384 65.928 0.913 -22.583 0.913 -22.583 0.384 65.928
9523.684 0.386 65.813 0.913 -22.697 0.913 -22.697 0.386 65.813
9573.81 0.388 65.698 0.912 -22.812 0.912 -22.812 0.388 65.698
9623.935 0.39 65.583 0.911 -22.926 0.911 -22.926 0.39 65.583
9674.06 0.392 65.468 0.91 -23.04 0.91 -23.04 0.392 65.468
9724.185 0.393 65.353 0.909 -23.155 0.909 -23.155 0.393 65.353
9774.311 0.395 65.238 0.908 -23.269 0.908 -23.269 0.395 65.238
9824.436 0.397 65.124 0.908 -23.383 0.908 -23.383 0.397 65.124
9874.561 0.399 65.009 0.907 -23.497 0.907 -23.497 0.399 65.009
9924.687 0.401 64.894 0.906 -23.611 0.906 -23.611 0.401 64.894
9974.812 0.402 64.78 0.905 -23.724 0.905 -23.724 0.402 64.78
10024.937 0.404 64.666 0.904 -23.838 0.904 -23.838 0.404 64.666
10075.063 0.406 64.551 0.903 -23.952 0.903 -23.952 0.406 64.551
10125.188 0.408 64.437 0.902 -24.065 0.902 -24.065 0.408 64.437
10175.313 0.41 64.323 0.902 -24.179 0.902 -24.179 0.41 64.323
10225.439 0.412 64.209 0.901 -24.292 0.901 -24.292 0.412 64.209
10275.564 0.413 64.095 0.9 -24.406 0.9 -24.406 0.413 64.095
10325.689 0.415 63.981 0.899 -24.519 0.899 -24.519 0.415 63.981
10375.815 0.417 63.867 0.898 -24.632 0.898 -24.632 0.417 63.867
10425.94 0.419 63.753 0.897 -24.745 0.897 -24.745 0.419 63.753
10476.065 0.421 63.639 0.896 -24.859 0.896 -24.859 0.421 63.639
10526.19 0.422 63.525 0.895 -24.972 0.895 -24.972 0.422 63.525
10576.316 0.424 63.412 0.895 -25.084 0.895 -25.084 0.424 63.412
10626.441 0.426 63.298 0.894 -25.197 0.894 -25.197 0.426 63.298
10676.566 0.428 63.185 0.893 -25.31 0.893 -25.31 0.428 63.185
10726.692 0.429 63.071 0.892 -25.423 0.892 -25.423 0.429 63.071
10776.817 0.431 62.958 0.891 -25.536 0.891 -25.536 0.431 62.958
10826.942 0.433 62.844 0.89 -25.648 0.89 -25.648 0.433 62.844
10877.068 0.435 62.731 0.889 -25.761 0.889 -25.761 0.435 62.731
10927.193 0.437 62.618 0.888 -25.873 0.888 -25.873 0.437 62.618
10977.318 0.438 62.505 0.887 -25.985 0.887 -25.985 0.438 62.505
11027.444 0.44 62.392 0.886 -26.098 0.886 -26.098 0.44 62.392
11077.569 0.442 62.279 0.886 -26.21 0.886 -26.21 0.442 62.279
11127.694 0.444 62.166 0.885 -26.322 0.885 -26.322 0.444 62.166
11177.82 0.445 62.053 0.884 -26.434 0.884 -26.434 0.445 62.053
11227.945 0.447 61.941 0.883 -26.546 0.883 -26.546 0.447 61.941
11278.07 0.449 61.828 0.882 -26.658 0.882 -26.658 0.449 61.828
11328.195 0.451 61.715 0.881 -26.77 0.881 -26.77 0.451 61.715
11378.321 0.452 61.603 0.88 -26.881 0.88 -26.881 0.452 61.603
11428.446 0.454 61.49 0.879 -26.993 0.879 -26.993 0.454 61.49
11478.571 0.456 61.378 0.878 -27.105 0.878 -27.105 0.456 61.378
11528.697 0.458 61.266 0.877 -27.216 0.877 -27.216 0.458 61.266
11578.822 0.459 61.153 0.876 -27.328 0.876 -27.328 0.459 61.153
11628.947 0.461 61.041 0.875 -27.439 0.875 -27.439 0.461 61.041
11679.073 0.463 60.929 0.874 -27.55 0.874 -27.55 0.463 60.929
11729.198 0.464 60.817 0.873 -27.661 0.873 -27.661 0.464 60.817
11779.323 0.466 60.705 0.872 -27.772 0.872 -27.772 0.466 60.705
11829.449 0.468 60.593 0.871 -27.884 0.871 -27.884 0.468 60.593
11879.574 0.47 60.482 0.871 -27.994 0.871 -27.994 0.47 60.482
11929.699 0.471 60.37 0.87 -28.105 0.87 -28.105 0.471 60.37
11979.825 0.473 60.258 0.869 -28.216 0.869 -28.216 0.473 60.258
12029.95 0.475 60.147 0.868 -28.327 0.868 -28.327 0.475 60.147
12080.075 0.476 60.035 0.867 -28.438 0.867 -28.438 0.476 60.035
12130.201 0.478 59.924 0.866 -28.548 0.866 -28.548 0.478 59.924
12180.326 0.48 59.813 0.865 -28.659 0.865 -28.659 0.48 59.813
12230.451 0.481 59.701 0.864 -28.769 0.864 -28.769 0.481 59.701
12280.576 0.483 59.59 0.863 -28.879 0.863 -28.879 0.483 59.59
12330.702 0.485 59.479 0.862 -28.99 0.862 -28.99 0.485 59.479
12380.827 0.487 59.368 0.861 -29.1 0.861 -29.1 0.487 59.368
12430.952 0.488 59.257 0.86 -29.21 0.86 -29.21 0.488 59.257
12481.078 0.49 59.146 0.859 -29.32 0.859 -29.32 0.49 59.146
12531.203 0.492 59.035 0.858 -29.43 0.858 -29.43 0.492 59.035
12581.328 0.493 58.925 0.857 -29.54 0.857 -29.54 0.493 58.925
12631.454 0.495 58.814 0.856 -29.649 0.856 -29.649 0.495 58.814
12681.579 0.497 58.703 0.855 -29.759 0.855 -29.759 0.497 58.703
12731.704 0.498 58.593 0.854 -29.869 0.854 -29.869 0.498 58.593
12781.83 0.5 58.482 0.853 -29.978 0.853 -29.978 0.5 58.482
12831.955 0.502 58.372 0.852 -30.088 0.852 -30.088 0.502 58.372
12882.08 0.503 58.262 0.851 -30.197 0.851 -30.197 0.503 58.262
12932.206 0.505 58.152 0.85 -30.306 0.85 -30.306 0.505 58.152
12982.331 0.506 58.042 0.849 -30.415 0.849 -30.415 0.506 58.042
13032.456 0.508 57.932 0.848 -30.524 0.848 -30.524 0.508 57.932
13082.581 0.51 57.822 0.847 -30.634 0.847 -30.634 0.51 57.822
13132.707 0.511 57.712 0.846 -30.742 0.846 -30.742 0.511 57.712
13182.832 0.513 57.602 0.845 -30.851 0.845 -30.851 0.513 57.602
13232.957 0.515 57.492 0.844 -30.96 0.844 -30.96 0.515 57.492
13283.083 0.516 57.383 0.843 -31.069 0.843 -31.069 0.516 57.383
13333.208 0.518 57.273 0.842 -31.177 0.842 -31.177 0.518 57.273
13383.333 0.519 57.164 0.841 -31.286 0.841 -31.286 0.519 57.164
13433.459 0.521 57.054 0.839 -31.394 0.839 -31.394 0.521 57.054
13483.584 0.523 56.945 0.838 -31.503 0.838 -31.503 0.523 56.945
13533.709 0.524 56.836 0.837 -31.611 0.837 -31.611 0.524 56.836
13583.835 0.526 56.726 0.836 -31.719 0.836 -31.719 0.526 56.726
13633.96 0.528 56.617 0.835 -31.827 0.835 -31.827 0.528 56.617
13684.085 0.529 56.508 0.834 -31.935 0.834 -31.935 0.529 56.508
13734.211 0.531 56.399 0.833 -32.043 0.833 -32.043 0.531 56.399
13784.336 0.532 56.29 0.832 -32.151 0.832 -32.151 0.532 56.29
13834.461 0.534 56.182 0.831 -32.259 0.831 -32.259 0.534 56.182
13884.586 0.536 56.073 0.83 -32.367 0.83 -32.367 0.536 56.073
13934.712 0.537 55.964 0.829 -32.474 0.829 -32.474 0.537 55.964
13984.837 0.539 55.856 0.828 -32.582 0.828 -32.582 0.539 55.856
14034.962 0.54 55.747 0.827 -32.689 0.827 -32.689 0.54 55.747
14085.088 0.542 55.639 0.826 -32.797 0.826 -32.797 0.542 55.639
14135.213 0.543 55.531 0.825 -32.904 0.825 -32.904 0.543 55.531
14185.338 0.545 55.423 0.824 -33.011 0.824 -33.011 0.545 55.423
14235.464 0.547 55.314 0.823 -33.118 0.823 -33.118 0.547 55.314
14285.589 0.548 55.206 0.822 -33.225 0.822 -33.225 0.548 55.206
14335.714 0.55 55.098 0.82 -33.332 0.82 -33.332 0.55 55.098
14385.84 0.551 54.99 0.819 -33.439 0.819 -33.439 0.551 54.99
14435.965 0.553 54.883 0.818 -33.546 0.818 -33.546 0.553 54.883
14486.09 0.554 54.775 0.817 -33.652 0.817 -33.652 0.554 54.775
14536.216 0.556 54.667 0.816 -33.759 0.816 -33.759 0.556 54.667
14586.341 0.557 54.56 0.815 -33.865 0.815 -33.865 0.557 54.56
14636.466 0.559 54.452 0.814 -33.972 0.814 -33.972 0.559 54.452
14686.591 0.561 54.345 0.813 -34.078 0.813 -34.078 0.561 54.345
14736.717 0.562 54.237 0.812 -34.184 0.812 -34.184 0.562 54.237
14786.842 0.564 54.13 0.811 -34.29 0.811 -34.29 0.564 54.13
14836.967 0.565 54.023 0.81 -34.396 0.81 -34.396 0.565 54.023
14887.093 0.567 53.916 0.808 -34.502 0.808 -34.502 0.567 53.916
14937.218 0.568 53.809 0.807 -34.608 0.807 -34.608 0.568 53.809
14987.343 0.57 53.702 0.806 -34.714 0.806 -34.714 0.57 53.702
15037.469 0.571 53.595 0.805 -34.82 0.805 -34.82 0.571 53.595
15087.594 0.573 53.489 0.804 -34.925 0.804 -34.925 0.573 53.489
15137.719 0.574 53.382 0.803 -35.031 0.803 -35.031 0.574 53.382
15187.845 0.576 53.275 0.802 -35.136 0.802 -35.136 0.576 53.275
15237.97 0.577 53.169 0.801 -35.242 0.801 -35.242 0.577 53.169
15288.095 0.579 53.062 0.8 -35.347 0.8 -35.347 0.579 53.062
15338.221 0.58 52.956 0.798 -35.452 0.798 -35.452 0.58 52.956
15388.346 0.582 52.85 0.797 -35.557 0.797 -35.557 0.582 52.85
15438.471 0.583 52.744 0.796 -35.662 0.796 -35.662 0.583 52.744
15488.596 0.585 52.638 0.795 -35.767 0.795 -35.767 0.585 52.638
15538.722 0.586 52.532 0.794 -35.872 0.794 -35.872 0.586 52.532
15588.847 0.588 52.426 0.793 -35.977 0.793 -35.977 0.588 52.426
15638.972 0.589 52.32 0.792 -36.082 0.792 -36.082 0.589 52.32
15689.098 0.591 52.214 0.791 -36.186 0.791 -36.186 0.591 52.214
15739.223 0.592 52.108 0.789 -36.291 0.789 -36.291 0.592 52.108
15789.348 0.594 52.003 0.788 -36.395 0.788 -36.395 0.594 52.003
15839.474 0.595 51.897 0.787 -36.499 0.787 -36.499 0.595 51.897
15889.599 0.597 51.792 0.786 -36.603 0.786 -36.603 0.597 51.792
15939.724 0.598 51.686 0.785 -36.708 0.785 -36.708 0.598 51.686
15989.85 0.599 51.581 0.784 -36.812 0.784 -36.812 0.599 51.581
16039.975 0.601 51.476 0.783 -36.916 0.783 -36.916 0.601 51.476
16090.1 0.602 51.371 0.782 -37.019 0.782 -37.019 0.602 51.371
16140.226 0.604 51.266 0.78 -37.123 0.78 -37.123 0.604 51.266
16190.351 0.605 51.161 0.779 -37.227 0.779 -37.227 0.605 51.161
