!	AVX Thin Film Operation            
!	Date:		5 January 2004																															
!	Description: 	Accu-L®  L0402 Series Thin Film RF Inductors																														
!	Part Number:	L04022R2AHNTR																																		
!	50 MHz-20GHz Serial Measurements																																			
!																																						
#	mhz	S	db	R	50																																
!	S11	S11	S21	S21	S12	S12	S22	S22																													
!	dB	Phase	dB	Phase	dB	Phase	dB	Phase																													
50	-45.4923	82.6955	-0.0057	-0.4023	-0.0057	-0.4023	-45.4923	82.6990																													
100	-39.8378	83.8580	-0.0087	-0.7813	-0.0087	-0.7813	-39.8378	83.8612																													
150	-36.4917	84.2155	-0.0115	-1.1554	-0.0115	-1.1554	-36.4917	84.2241																													
200	-34.1036	84.3008	-0.0141	-1.5268	-0.0141	-1.5268	-34.1036	84.3122																													
250	-32.2443	84.2533	-0.0168	-1.8964	-0.0168	-1.8964	-32.2443	84.2676																													
300	-30.7212	84.1292	-0.0195	-2.2646	-0.0195	-2.2646	-30.7212	84.1464																													
350	-29.4309	83.9560	-0.0224	-2.6317	-0.0224	-2.6317	-29.4309	83.9761																													
400	-28.3114	83.7491	-0.0253	-2.9979	-0.0253	-2.9979	-28.3114	83.7720																													
450	-27.3228	83.5177	-0.0283	-3.3633	-0.0283	-3.3633	-27.3228	83.5435																													
500	-26.4376	83.2680	-0.0315	-3.7281	-0.0315	-3.7281	-26.4376	83.2967																													
550	-25.6362	83.0040	-0.0348	-4.0922	-0.0348	-4.0922	-25.6363	83.0356																													
600	-24.9042	82.7288	-0.0382	-4.4559	-0.0382	-4.4559	-24.9042	82.7633																													
650	-24.2304	82.4444	-0.0418	-4.8190	-0.0418	-4.8190	-24.2305	82.4818																													
700	-23.6064	82.1525	-0.0455	-5.1818	-0.0455	-5.1818	-23.6064	82.1927																													
750	-23.0253	81.8543	-0.0494	-5.5441	-0.0494	-5.5441	-23.0253	81.8974																													
800	-22.4815	81.5508	-0.0534	-5.9060	-0.0534	-5.9060	-22.4816	81.5968																													
850	-21.9707	81.2427	-0.0575	-6.2676	-0.0575	-6.2676	-21.9708	81.2917																													
900	-21.4891	80.9308	-0.0619	-6.6288	-0.0619	-6.6288	-21.4891	80.9827																													
950	-21.0335	80.6155	-0.0663	-6.9896	-0.0663	-6.9896	-21.0335	80.6703																													
1000	-20.6013	80.2972	-0.0710	-7.3502	-0.0710	-7.3502	-20.6013	80.3549																													
1050	-20.1902	79.9764	-0.0758	-7.7105	-0.0758	-7.7105	-20.1903	80.0370																													
1100	-19.7983	79.6533	-0.0807	-8.0705	-0.0807	-8.0705	-19.7984	79.7167																													
1150	-19.4239	79.3281	-0.0858	-8.4301	-0.0858	-8.4301	-19.4240	79.3945																													
1200	-19.0655	79.0011	-0.0911	-8.7896	-0.0911	-8.7896	-19.0656	79.0704																													
1250	-18.7219	78.6725	-0.0966	-9.1487	-0.0966	-9.1487	-18.7220	78.7447																													
1300	-18.3918	78.3424	-0.1022	-9.5076	-0.1022	-9.5076	-18.3919	78.4176																													
1350	-18.0743	78.0110	-0.1079	-9.8662	-0.1079	-9.8662	-18.0744	78.0891																													
1400	-17.7685	77.6785	-0.1139	-10.2245	-0.1139	-10.2245	-17.7686	77.7595																													
1450	-17.4735	77.3448	-0.1199	-10.5826	-0.1199	-10.5826	-17.4736	77.4288																													
1500	-17.1887	77.0102	-0.1262	-10.9405	-0.1262	-10.9405	-17.1888	77.0971																													
1550	-16.9133	76.6748	-0.1326	-11.2981	-0.1326	-11.2981	-16.9134	76.7646																													
1600	-16.6468	76.3385	-0.1392	-11.6555	-0.1392	-11.6555	-16.6469	76.4313																													
1650	-16.3887	76.0015	-0.1460	-12.0126	-0.1460	-12.0126	-16.3888	76.0972																													
1700	-16.1384	75.6638	-0.1529	-12.3695	-0.1529	-12.3695	-16.1385	75.7625																													
1750	-15.8955	75.3255	-0.1599	-12.7261	-0.1599	-12.7261	-15.8956	75.4271																													
1800	-15.6596	74.9867	-0.1672	-13.0825	-0.1672	-13.0825	-15.6597	75.0913																													
1850	-15.4303	74.6474	-0.1746	-13.4387	-0.1746	-13.4387	-15.4305	74.7549																													
1900	-15.2073	74.3076	-0.1822	-13.7946	-0.1822	-13.7946	-15.2075	74.4180																													
1950	-14.9902	73.9674	-0.1899	-14.1503	-0.1899	-14.1503	-14.9904	74.0808																													
2000	-14.7788	73.6268	-0.1978	-14.5058	-0.1978	-14.5058	-14.7790	73.7432																													
2050	-14.5728	73.2859	-0.2059	-14.8610	-0.2059	-14.8610	-14.5730	73.4052																													
2100	-14.3719	72.9447	-0.2142	-15.2160	-0.2142	-15.2160	-14.3721	73.0669																													
2150	-14.1759	72.6032	-0.2226	-15.5708	-0.2226	-15.5708	-14.1761	72.7284																													
2200	-13.9845	72.2614	-0.2312	-15.9253	-0.2312	-15.9253	-13.9847	72.3896																													
2250	-13.7977	71.9194	-0.2399	-16.2796	-0.2399	-16.2796	-13.7978	72.0505																													
2300	-13.6150	71.5772	-0.2488	-16.6336	-0.2488	-16.6336	-13.6152	71.7113																													
2350	-13.4365	71.2348	-0.2579	-16.9874	-0.2579	-16.9874	-13.4367	71.3719																													
2400	-13.2619	70.8922	-0.2671	-17.3410	-0.2671	-17.3410	-13.2621	71.0323																													
2450	-13.0911	70.5495	-0.2766	-17.6943	-0.2766	-17.6943	-13.0913	70.6926																													
2500	-12.9239	70.2067	-0.2861	-18.0474	-0.2861	-18.0474	-12.9241	70.3527																													
2550	-12.7601	69.8637	-0.2959	-18.4003	-0.2959	-18.4003	-12.7603	70.0127																													
2600	-12.5997	69.5207	-0.3058	-18.7529	-0.3058	-18.7529	-12.5999	69.6727																													
2650	-12.4426	69.1776	-0.3159	-19.1053	-0.3159	-19.1053	-12.4428	69.3326																													
2700	-12.2885	68.8344	-0.3261	-19.4574	-0.3261	-19.4574	-12.2887	68.9924																													
2750	-12.1374	68.4912	-0.3366	-19.8093	-0.3366	-19.8093	-12.1376	68.6521																													
2800	-11.9892	68.1479	-0.3472	-20.1610	-0.3472	-20.1610	-11.9895	68.3119																													
2850	-11.8438	67.8046	-0.3579	-20.5124	-0.3579	-20.5124	-11.8441	67.9716																													
2900	-11.7011	67.4613	-0.3688	-20.8636	-0.3688	-20.8636	-11.7014	67.6313																													
2950	-11.5611	67.1180	-0.3799	-21.2145	-0.3799	-21.2145	-11.5613	67.2910																													
3000	-11.4235	66.7746	-0.3912	-21.5651	-0.3912	-21.5651	-11.4237	66.9507																													
3050	-11.2883	66.4313	-0.4026	-21.9156	-0.4026	-21.9156	-11.2886	66.6104																													
3100	-11.1556	66.0881	-0.4142	-22.2657	-0.4142	-22.2657	-11.1558	66.2701																													
3150	-11.0251	65.7448	-0.4259	-22.6157	-0.4259	-22.6157	-11.0253	65.9299																													
3200	-10.8968	65.4016	-0.4379	-22.9653	-0.4379	-22.9653	-10.8971	65.5897																													
3250	-10.7707	65.0585	-0.4500	-23.3148	-0.4500	-23.3148	-10.7710	65.2496																													
3300	-10.6467	64.7154	-0.4622	-23.6639	-0.4622	-23.6639	-10.6470	64.9095																													
3350	-10.5247	64.3724	-0.4747	-24.0129	-0.4747	-24.0129	-10.5250	64.5695																													
3400	-10.4047	64.0294	-0.4873	-24.3615	-0.4873	-24.3615	-10.4050	64.2296																													
3450	-10.2866	63.6865	-0.5000	-24.7099	-0.5000	-24.7099	-10.2869	63.8898																													
3500	-10.1704	63.3437	-0.5130	-25.0581	-0.5130	-25.0581	-10.1707	63.5500																													
3550	-10.0560	63.0010	-0.5261	-25.4060	-0.5261	-25.4060	-10.0563	63.2104																													
3600	-9.9434	62.6584	-0.5393	-25.7536	-0.5393	-25.7536	-9.9436	62.8708																													
3650	-9.8324	62.3159	-0.5528	-26.1010	-0.5528	-26.1010	-9.8327	62.5314																													
3700	-9.7232	61.9735	-0.5664	-26.4481	-0.5664	-26.4481	-9.7234	62.1921																													
3750	-9.6155	61.6312	-0.5801	-26.7949	-0.5801	-26.7949	-9.6158	61.8529																													
3800	-9.5095	61.2891	-0.5941	-27.1415	-0.5941	-27.1415	-9.5098	61.5138																													
3850	-9.4050	60.9470	-0.6082	-27.4879	-0.6082	-27.4879	-9.4053	61.1748																													
3900	-9.3020	60.6051	-0.6225	-27.8339	-0.6225	-27.8339	-9.3023	60.8360																													
3950	-9.2005	60.2633	-0.6369	-28.1797	-0.6369	-28.1797	-9.2008	60.4973																													
4000	-9.1004	59.9217	-0.6515	-28.5252	-0.6515	-28.5252	-9.1007	60.1587																													
4050	-9.0017	59.5802	-0.6663	-28.8705	-0.6663	-28.8705	-9.0020	59.8203																													
4100	-8.9044	59.2388	-0.6812	-29.2155	-0.6812	-29.2155	-8.9047	59.4820																													
4150	-8.8085	58.8976	-0.6964	-29.5602	-0.6964	-29.5602	-8.8088	59.1439																													
4200	-8.7138	58.5566	-0.7116	-29.9047	-0.7116	-29.9047	-8.7141	58.8060																													
4250	-8.6205	58.2157	-0.7271	-30.2488	-0.7271	-30.2488	-8.6208	58.4682																													
4300	-8.5283	57.8749	-0.7427	-30.5928	-0.7427	-30.5928	-8.5286	58.1306																													
4350	-8.4374	57.5344	-0.7585	-30.9364	-0.7585	-30.9364	-8.4377	57.7931																													
4400	-8.3477	57.1940	-0.7745	-31.2798	-0.7745	-31.2798	-8.3480	57.4558																													
4450	-8.2592	56.8537	-0.7906	-31.6228	-0.7906	-31.6228	-8.2595	57.1187																													
4500	-8.1718	56.5136	-0.8069	-31.9657	-0.8069	-31.9657	-8.1721	56.7818																													
4550	-8.0855	56.1737	-0.8234	-32.3082	-0.8234	-32.3082	-8.0859	56.4450																													
4600	-8.0004	55.8340	-0.8400	-32.6505	-0.8400	-32.6505	-8.0007	56.1084																													
4650	-7.9163	55.4945	-0.8568	-32.9925	-0.8568	-32.9925	-7.9166	55.7721																													
4700	-7.8332	55.1551	-0.8738	-33.3342	-0.8738	-33.3342	-7.8336	55.4358																													
4750	-7.7512	54.8160	-0.8909	-33.6756	-0.8909	-33.6756	-7.7516	55.0998																													
4800	-7.6702	54.4770	-0.9082	-34.0167	-0.9082	-34.0167	-7.6706	54.7640																													
4850	-7.5902	54.1382	-0.9257	-34.3576	-0.9257	-34.3576	-7.5906	54.4284																													
4900	-7.5112	53.7996	-0.9434	-34.6982	-0.9434	-34.6982	-7.5115	54.0930																													
4950	-7.4331	53.4612	-0.9612	-35.0385	-0.9612	-35.0385	-7.4335	53.7577																													
5000	-7.3560	53.1229	-0.9792	-35.3786	-0.9792	-35.3786	-7.3563	53.4227																													
5050	-7.2798	52.7849	-0.9973	-35.7183	-0.9973	-35.7183	-7.2801	53.0879																													
5100	-7.2045	52.4471	-1.0157	-36.0578	-1.0157	-36.0578	-7.2048	52.7532																													
5150	-7.1300	52.1095	-1.0342	-36.3970	-1.0342	-36.3970	-7.1304	52.4188																													
5200	-7.0564	51.7721	-1.0528	-36.7359	-1.0528	-36.7359	-7.0568	52.0846																													
5250	-6.9837	51.4349	-1.0717	-37.0745	-1.0717	-37.0745	-6.9841	51.7506																													
5300	-6.9119	51.0979	-1.0907	-37.4129	-1.0907	-37.4129	-6.9122	51.4168																													
5350	-6.8408	50.7611	-1.1099	-37.7509	-1.1099	-37.7509	-6.8411	51.0833																													
5400	-6.7706	50.4245	-1.1293	-38.0887	-1.1293	-38.0887	-6.7709	50.7499																													
5450	-6.7011	50.0881	-1.1488	-38.4262	-1.1488	-38.4262	-6.7014	50.4168																													
5500	-6.6324	49.7519	-1.1685	-38.7634	-1.1685	-38.7634	-6.6328	50.0838																													
5550	-6.5645	49.4160	-1.1884	-39.1003	-1.1884	-39.1003	-6.5649	49.7511																													
5600	-6.4974	49.0802	-1.2084	-39.4369	-1.2084	-39.4369	-6.4977	49.4186																													
5650	-6.4310	48.7447	-1.2286	-39.7733	-1.2286	-39.7733	-6.4313	49.0864																													
5700	-6.3653	48.4094	-1.2490	-40.1094	-1.2490	-40.1094	-6.3656	48.7543																													
5750	-6.3003	48.0743	-1.2696	-40.4451	-1.2696	-40.4451	-6.3007	48.4225																													
5800	-6.2360	47.7394	-1.2903	-40.7806	-1.2903	-40.7806	-6.2364	48.0909																													
5850	-6.1725	47.4048	-1.3113	-41.1159	-1.3113	-41.1159	-6.1728	47.7595																													
5900	-6.1096	47.0703	-1.3323	-41.4508	-1.3323	-41.4508	-6.1100	47.4284																													
5950	-6.0474	46.7361	-1.3536	-41.7854	-1.3536	-41.7854	-6.0477	47.0975																													
6000	-5.9858	46.4021	-1.3751	-42.1198	-1.3751	-42.1198	-5.9862	46.7668																													
6050	-5.9249	46.0683	-1.3967	-42.4539	-1.3967	-42.4539	-5.9253	46.4363																													
6100	-5.8647	45.7347	-1.4185	-42.7877	-1.4185	-42.7877	-5.8650	46.1060																													
6150	-5.8050	45.4014	-1.4404	-43.1212	-1.4404	-43.1212	-5.8054	45.7760																													
6200	-5.7460	45.0683	-1.4626	-43.4544	-1.4626	-43.4544	-5.7464	45.4462																													
6250	-5.6876	44.7354	-1.4849	-43.7873	-1.4849	-43.7873	-5.6880	45.1167																													
6300	-5.6298	44.4027	-1.5074	-44.1200	-1.5074	-44.1200	-5.6302	44.7874																													
6350	-5.5726	44.0702	-1.5301	-44.4523	-1.5301	-44.4523	-5.5730	44.4583																													
6400	-5.5160	43.7380	-1.5529	-44.7844	-1.5529	-44.7844	-5.5164	44.1294																													
6450	-5.4600	43.4060	-1.5760	-45.1162	-1.5760	-45.1162	-5.4603	43.8008																													
6500	-5.4045	43.0742	-1.5992	-45.4477	-1.5992	-45.4477	-5.4048	43.4724																													
6550	-5.3496	42.7427	-1.6226	-45.7790	-1.6226	-45.7790	-5.3499	43.1442																													
6600	-5.2952	42.4113	-1.6462	-46.1099	-1.6462	-46.1099	-5.2956	42.8162																													
6650	-5.2414	42.0802	-1.6699	-46.4406	-1.6699	-46.4406	-5.2417	42.4885																													
6700	-5.1881	41.7493	-1.6938	-46.7710	-1.6938	-46.7710	-5.1885	42.1610																													
6750	-5.1353	41.4187	-1.7180	-47.1011	-1.7180	-47.1011	-5.1357	41.8338																													
6800	-5.0831	41.0882	-1.7423	-47.4309	-1.7423	-47.4309	-5.0835	41.5068																													
6850	-5.0314	40.7580	-1.7668	-47.7605	-1.7668	-47.7605	-5.0317	41.1800																													
6900	-4.9801	40.4280	-1.7914	-48.0898	-1.7914	-48.0898	-4.9805	40.8534																													
6950	-4.9294	40.0982	-1.8163	-48.4188	-1.8163	-48.4188	-4.9298	40.5271																													
7000	-4.8792	39.7687	-1.8413	-48.7475	-1.8413	-48.7475	-4.8796	40.2010																													
7050	-4.8295	39.4393	-1.8665	-49.0759	-1.8665	-49.0759	-4.8298	39.8751																													
7100	-4.7802	39.1102	-1.8919	-49.4041	-1.8919	-49.4041	-4.7806	39.5495																													
7150	-4.7314	38.7813	-1.9175	-49.7319	-1.9175	-49.7319	-4.7318	39.2241																													
7200	-4.6831	38.4527	-1.9433	-50.0595	-1.9433	-50.0595	-4.6835	38.8989																													
7250	-4.6352	38.1242	-1.9693	-50.3869	-1.9693	-50.3869	-4.6356	38.5739																													
7300	-4.5878	37.7960	-1.9955	-50.7139	-1.9955	-50.7139	-4.5882	38.2492																													
7350	-4.5409	37.4680	-2.0218	-51.0407	-2.0218	-51.0407	-4.5412	37.9247																													
7400	-4.4943	37.1402	-2.0483	-51.3672	-2.0483	-51.3672	-4.4947	37.6004																													
7450	-4.4483	36.8126	-2.0751	-51.6935	-2.0751	-51.6935	-4.4486	37.2764																													
7500	-4.4026	36.4852	-2.1020	-52.0194	-2.1020	-52.0194	-4.4030	36.9526																													
7550	-4.3574	36.1581	-2.1291	-52.3451	-2.1291	-52.3451	-4.3578	36.6290																													
7600	-4.3126	35.8311	-2.1564	-52.6706	-2.1564	-52.6706	-4.3130	36.3056																													
7650	-4.2682	35.5044	-2.1839	-52.9957	-2.1839	-52.9957	-4.2686	35.9824																													
7700	-4.2243	35.1779	-2.2116	-53.3206	-2.2116	-53.3206	-4.2246	35.6595																													
7750	-4.1807	34.8516	-2.2395	-53.6452	-2.2395	-53.6452	-4.1811	35.3368																													
7800	-4.1375	34.5255	-2.2676	-53.9696	-2.2676	-53.9696	-4.1379	35.0143																													
7850	-4.0948	34.1996	-2.2959	-54.2937	-2.2959	-54.2937	-4.0951	34.6920																													
7900	-4.0524	33.8740	-2.3244	-54.6175	-2.3244	-54.6175	-4.0527	34.3700																													
7950	-4.0104	33.5485	-2.3531	-54.9411	-2.3531	-54.9411	-4.0108	34.0481																													
8000	-3.9688	33.2232	-2.3820	-55.2644	-2.3820	-55.2644	-3.9691	33.7265																													
8050	-3.9275	32.8982	-2.4111	-55.5874	-2.4111	-55.5874	-3.9279	33.4051																													
8100	-3.8867	32.5733	-2.4404	-55.9102	-2.4404	-55.9102	-3.8870	33.0839																													
8150	-3.8462	32.2487	-2.4699	-56.2327	-2.4699	-56.2327	-3.8466	32.7629																													
8200	-3.8061	31.9242	-2.4996	-56.5550	-2.4996	-56.5550	-3.8064	32.4421																													
8250	-3.7663	31.6000	-2.5295	-56.8770	-2.5295	-56.8770	-3.7667	32.1216																													
8300	-3.7269	31.2760	-2.5596	-57.1988	-2.5596	-57.1988	-3.7272	31.8012																													
8350	-3.6878	30.9521	-2.5900	-57.5203	-2.5900	-57.5203	-3.6882	31.4811																													
8400	-3.6491	30.6284	-2.6205	-57.8415	-2.6205	-57.8415	-3.6495	31.1612																													
8450	-3.6107	30.3050	-2.6513	-58.1625	-2.6513	-58.1625	-3.6111	30.8414																													
8500	-3.5727	29.9817	-2.6822	-58.4833	-2.6822	-58.4833	-3.5731	30.5219																													
8550	-3.5350	29.6587	-2.7134	-58.8038	-2.7134	-58.8038	-3.5354	30.2026																													
8600	-3.4977	29.3358	-2.7448	-59.1240	-2.7448	-59.1240	-3.4980	29.8834																													
8650	-3.4606	29.0131	-2.7764	-59.4441	-2.7764	-59.4441	-3.4610	29.5645																													
8700	-3.4239	28.6906	-2.8082	-59.7638	-2.8082	-59.7638	-3.4243	29.2458																													
8750	-3.3875	28.3682	-2.8403	-60.0833	-2.8403	-60.0833	-3.3879	28.9273																													
8800	-3.3515	28.0461	-2.8726	-60.4026	-2.8726	-60.4026	-3.3518	28.6089																													
8850	-3.3157	27.7241	-2.9050	-60.7216	-2.9050	-60.7216	-3.3160	28.2908																													
8900	-3.2803	27.4024	-2.9378	-61.0404	-2.9378	-61.0404	-3.2806	27.9728																													
8950	-3.2451	27.0808	-2.9707	-61.3590	-2.9707	-61.3590	-3.2455	27.6551																													
9000	-3.2103	26.7593	-3.0039	-61.6773	-3.0039	-61.6773	-3.2106	27.3375																													
9050	-3.1758	26.4381	-3.0373	-61.9954	-3.0373	-61.9954	-3.1761	27.0201																													
9100	-3.1415	26.1170	-3.0709	-62.3133	-3.0709	-62.3133	-3.1419	26.7029																													
9150	-3.1076	25.7961	-3.1047	-62.6309	-3.1047	-62.6309	-3.1079	26.3859																													
9200	-3.0740	25.4754	-3.1388	-62.9483	-3.1388	-62.9483	-3.0743	26.0690																													
9250	-3.0406	25.1548	-3.1732	-63.2654	-3.1732	-63.2654	-3.0409	25.7524																													
9300	-3.0075	24.8344	-3.2077	-63.5824	-3.2077	-63.5824	-3.0079	25.4359																													
9350	-2.9747	24.5141	-3.2425	-63.8991	-3.2425	-63.8991	-2.9751	25.1196																													
9400	-2.9422	24.1941	-3.2776	-64.2156	-3.2776	-64.2156	-2.9426	24.8034																													
9450	-2.9100	23.8741	-3.3129	-64.5318	-3.3129	-64.5318	-2.9103	24.4875																													
9500	-2.8781	23.5544	-3.3484	-64.8478	-3.3484	-64.8478	-2.8784	24.1717																													
9550	-2.8464	23.2347	-3.3842	-65.1637	-3.3842	-65.1637	-2.8467	23.8561																													
9600	-2.8150	22.9153	-3.4202	-65.4793	-3.4202	-65.4793	-2.8153	23.5406																													
9650	-2.7838	22.5960	-3.4565	-65.7946	-3.4565	-65.7946	-2.7841	23.2253																													
