!	AVX Thin Film Operation            
!	Date:		5 January 2004																															
!	Description: 	Accu-L®  L0402 Series Thin Film RF Inductors																														
!	Part Number:	L04023R9BHNTR																																		
!	50 MHz-20GHz Serial Measurements																																			
!																																	
#	mhz	S	db	R	50																												
!	S11	S11	S21	S21	S12	S12	S22	S22																									
!	dB	Phase	dB	Phase	dB	Phase	dB	Phase																									
50	-38.58246976	82.87717596	-0.011909958	-0.768705384	-0.011909958	-0.768705384	-38.58246335	82.88825862																									
100	-32.90067133	83.54494032	-0.019218949	-1.489306596	-0.019218949	-1.489306596	-32.90067007	83.56741885																									
150	-29.5451144	83.48250068	-0.026547427	-2.199139223	-0.026547427	-2.199139223	-29.54511348	83.51590806																									
200	-27.15377032	83.17659868	-0.034313021	-2.902580728	-0.034313021	-2.902580728	-27.15377325	83.2211592																									
250	-25.29434854	82.7548491	-0.042674726	-3.601444947	-0.042674726	-3.601444947	-25.29435565	82.81056217																									
300	-23.77296979	82.2674719	-0.051712525	-4.296696978	-0.051712525	-4.296696978	-23.77298143	82.33435088																									
350	-22.48573887	81.73884343	-0.061472724	-4.988919496	-0.061472724	-4.988919496	-22.48575513	81.81688485																									
400	-21.37043027	81.18241978	-0.071984451	-5.678491707	-0.071984451	-5.678491707	-21.37045129	81.27163279																									
450	-20.38680148	80.60633896	-0.083267004	-6.365672485	-0.083267004	-6.365672485	-20.38682736	80.70672933																									
500	-19.50731615	80.01585582	-0.095333564	-7.050644072	-0.095333564	-7.050644072	-19.50734691	80.1274279																									
550	-18.71229812	79.41454118	-0.108193279	-7.733537201	-0.108193279	-7.733537201	-18.71233379	79.53729958																									
600	-17.98719655	78.80492306	-0.121852494	-8.414446466	-0.121852494	-8.414446466	-17.98723712	78.93887278																									
650	-17.32094608	78.18885242	-0.136315537	-9.093440317	-0.136315537	-9.093440317	-17.32099156	78.33399847																									
700	-16.70493483	77.56772407	-0.151585227	-9.770567678	-0.151585227	-9.770567678	-16.70498519	77.72406959																									
750	-16.13232772	76.94260947	-0.167663244	-10.445863	-0.167663244	-10.445863	-16.13238295	77.11016431																									
800	-15.59760926	76.3143584	-0.184550351	-11.11934894	-0.184550351	-11.11934894	-15.59766933	76.49312643																									
850	-15.09626352	75.68365583	-0.202246591	-11.79103931	-0.202246591	-11.79103931	-15.0963283	75.87362914																									
900	-14.62454555	75.05104152	-0.220751437	-12.46094131	-0.220751437	-12.46094131	-14.62461509	75.25223886																									
950	-14.17931553	74.4169816	-0.240063881	-13.12905657	-0.240063881	-13.12905657	-14.1793897	74.62940392																									
1000	-13.75791519	73.78184245	-0.260182474	-13.79538129	-0.260182474	-13.79538129	-13.75799419	74.00552588																									
1050	-13.35807277	73.14597383	-0.281105484	-14.45990939	-0.281105484	-14.45990939	-13.35815636	73.38090314																									
1100	-12.97783251	72.50965428	-0.302830847	-15.12263113	-0.302830847	-15.12263113	-12.97792052	72.75581382																									
1150	-12.61550104	71.87317304	-0.325356061	-15.78353033	-0.325356061	-15.78353033	-12.6155928	72.1304582																									
1200	-12.26959063	71.2366036	-0.348678976	-16.44260095	-0.348678976	-16.44260095	-12.2696869	71.50516732																									
1250	-11.93880119	70.60015833	-0.372796869	-17.09982699	-0.372796869	-17.09982699	-11.93890238	70.88009941																									
1300	-11.62198849	69.96410801	-0.397706551	-17.75518567	-0.397706551	-17.75518567	-11.62209393	70.2553234																									
1350	-11.3181299	69.32854004	-0.423405183	-18.40866302	-0.423405183	-18.40866302	-11.31823953	69.63103698																									
1400	-11.02631573	68.69358516	-0.44988964	-19.06024116	-0.44988964	-19.06024116	-11.02642946	69.00737104																									
1450	-10.74573114	68.05936126	-0.477156694	-19.70990173	-0.477156694	-19.70990173	-10.7458489	68.38444373																									
1500	-10.47564334	67.42597521	-0.505203029	-20.35762614	-0.505203029	-20.35762614	-10.47576505	67.76236209																									
1550	-10.2153908	66.79352425	-0.53402525	-21.00339565	-0.53402525	-21.00339565	-10.21551639	67.14122364																									
1600	-9.964374261	66.16209743	-0.563619903	-21.64719151	-0.563619903	-21.64719151	-9.964503644	66.52111742																									
1650	-9.722049031	65.53177605	-0.59398348	-22.28899507	-0.59398348	-22.28899507	-9.722182126	65.90212546																									
1700	-9.487918508	64.90263552	-0.625112437	-22.92878794	-0.625112437	-22.92878794	-9.488055228	65.28432256																									
1750	-9.261528632	64.27474493	-0.657003192	-23.56655189	-0.657003192	-23.56655189	-9.261668891	64.66777841																									
1800	-9.042463069	63.64816794	-0.689652146	-24.20226912	-0.689652146	-24.20226912	-9.042606784	64.05255765																									
1850	-8.830339082	63.0229644	-0.723055691	-24.83592221	-0.723055691	-24.83592221	-8.830486164	63.4387193																									
1900	-8.62480398	62.39918922	-0.75721021	-25.4674942	-0.75721021	-25.4674942	-8.624954338	62.82631887																									
1950	-8.425531999	61.77689354	-0.792112092	-26.09696861	-0.792112092	-26.09696861	-8.425685544	62.21540798																									
2000	-8.232221544	61.15612527	-0.827757743	-26.72432954	-0.827757743	-26.72432954	-8.232378183	61.60603422																									
2050	-8.044592855	60.53692866	-0.864143583	-27.34956166	-0.864143583	-27.34956166	-8.044752494	60.99824241																									
2100	-7.862385859	59.91934595	-0.901266071	-27.9726503	-0.901266071	-27.9726503	-7.862548396	60.39207324																									
2150	-7.685358447	59.3034138	-0.939121675	-28.59358115	-0.939121675	-28.59358115	-7.685523799	59.78756791																									
2200	-7.513284702	58.6891692	-0.977706913	-29.21234063	-0.977706913	-29.21234063	-7.513452775	59.18476189																									
2250	-7.345953329	58.07664671	-1.017018389	-29.82891635	-1.017018389	-29.82891635	-7.346124017	58.58368726																									
2300	-7.183166734	57.46587682	-1.057052712	-30.44329589	-1.057052712	-30.44329589	-7.183339939	57.98437692																									
2350	-7.024739523	56.85688836	-1.097806581	-31.05546795	-1.097806581	-31.05546795	-7.024915147	57.38686035																									
2400	-6.870497617	56.24971001	-1.139276761	-31.66542187	-1.139276761	-31.66542187	-6.870675547	56.79116323																									
2450	-6.7202773	55.64436066	-1.181460087	-32.27314782	-1.181460087	-32.27314782	-6.720457474	56.19731694																									
2500	-6.573924878	55.04087754	-1.224353347	-32.87863462	-1.224353347	-32.87863462	-6.574107134	55.60533504																									
2550	-6.431293765	54.43927489	-1.267953913	-33.48187837	-1.267953913	-33.48187837	-6.431477954	55.01523739																									
2600	-6.292248839	53.83955992	-1.312258173	-34.08286318	-1.312258173	-34.08286318	-6.292435003	54.4270731																									
2650	-6.156658251	53.24177262	-1.357264024	-34.68158975	-1.357264024	-34.68158975	-6.156846165	53.8408235																									
2700	-6.024400683	52.64591495	-1.402968228	-35.27804592	-1.402968228	-35.27804592	-6.024590307	53.25653216																									
2750	-5.895358661	52.05200798	-1.44936858	-35.87223026	-1.44936858	-35.87223026	-5.895549863	52.67420057																									
2800	-5.769422632	51.46006682	-1.496462285	-36.46413436	-1.496462285	-36.46413436	-5.769615302	52.09384877																									
2850	-5.646487409	50.87010415	-1.544247107	-37.05375532	-1.544247107	-37.05375532	-5.646681423	51.51548696																									
2900	-5.526453397	50.28213078	-1.592720781	-37.64108928	-1.592720781	-37.64108928	-5.526648638	50.93912793																									
2950	-5.409226096	49.69615608	-1.641881055	-38.2261319	-1.641881055	-38.2261319	-5.409422464	50.36478578																									
3000	-5.294714767	49.11219076	-1.69172614	-38.80888277	-1.69172614	-38.80888277	-5.294912131	49.79246441																									
3050	-5.182833679	48.53024315	-1.742254043	-39.38933869	-1.742254043	-39.38933869	-5.183031918	49.22217464																									
3100	-5.073501105	47.9503146	-1.793462858	-39.96749688	-1.793462858	-39.96749688	-5.073700153	48.65393265																									
3150	-4.966637567	47.37242198	-1.845351572	-40.54336168	-1.845351572	-40.54336168	-4.96683723	48.08772388																									
3200	-4.862169424	46.7965648	-1.897918132	-41.11692732	-1.897918132	-41.11692732	-4.862369598	47.52357064																									
3250	-4.760024755	46.22274281	-1.951161396	-41.68819576	-1.951161396	-41.68819576	-4.760225359	46.96147878																									
3300	-4.660134809	45.65096415	-2.005080368	-42.25716904	-2.005080368	-42.25716904	-4.66033571	46.40144481																									
3350	-4.562432827	45.08123463	-2.059674761	-42.82385427	-2.059674761	-42.82385427	-4.562633821	45.84345684																									
3400	-4.466857372	44.51354259	-2.114942942	-43.38824657	-2.114942942	-43.38824657	-4.467058413	45.28754377																									
3450	-4.373347842	43.94790001	-2.170884474	-43.95034986	-2.170884474	-43.95034986	-4.373548785	44.73369264																									
3500	-4.281846131	43.38430324	-2.227499047	-44.51016838	-2.227499047	-44.51016838	-4.282046847	44.18190489																									
3550	-4.192296617	42.82275116	-2.284786433	-45.06770597	-2.284786433	-45.06770597	-4.192496976	43.63217971																									
3600	-4.104645857	42.26324195	-2.342746593	-45.6229669	-2.342746593	-45.6229669	-4.104845727	43.08451554																									
3650	-4.018842465	41.70577303	-2.401379683	-46.17595595	-2.401379683	-46.17595595	-4.019041713	42.53891009																									
3700	-3.93483701	41.15034115	-2.460686056	-46.72667834	-2.460686056	-46.72667834	-3.935035503	41.99536039																									
3750	-3.852581912	40.59694238	-2.520666267	-47.27513972	-2.520666267	-47.27513972	-3.852779513	41.45386276																									
3800	-3.772031358	40.04557211	-2.581321077	-47.82134613	-2.581321077	-47.82134613	-3.772227931	40.91441299																									
3850	-3.693141196	39.49622517	-2.642651465	-48.36530408	-2.642651465	-48.36530408	-3.693336602	40.37700608																									
3900	-3.615868872	38.94889575	-2.704658622	-48.9070204	-2.704658622	-48.9070204	-3.616062972	39.84163654																									
3950	-3.540173343	38.40357747	-2.767343963	-49.44650232	-2.767343963	-49.44650232	-3.540365995	39.3082983																									
4000	-3.46601501	37.86026341	-2.830709129	-49.98375739	-2.830709129	-49.98375739	-3.466206072	38.7769847																									
4050	-3.393355643	37.31894604	-2.894755996	-50.51879354	-2.894755996	-50.51879354	-3.39354497	38.24768859																									
4100	-3.322158329	36.77961744	-2.959486673	-51.05161897	-2.959486673	-51.05161897	-3.322345776	37.72040227																									
4150	-3.252387404	36.24226912	-3.024903513	-51.5822422	-3.024903513	-51.5822422	-3.252572823	37.19511756																									
4200	-3.184008398	35.70689213	-3.091009116	-52.11067204	-3.091009116	-52.11067204	-3.184191641	36.67182584																									
4250	-3.116987984	35.17347707	-3.15780634	-52.63691756	-3.15780634	-52.63691756	-3.117168901	36.15051798																									
4300	-3.05129393	34.64201409	-3.225298296	-53.16098806	-3.225298296	-53.16098806	-3.051472368	35.63118448																									
4350	-2.986895045	34.11249295	-3.293488361	-53.6828931	-3.293488361	-53.6828931	-2.987070852	35.11381538																									
4400	-2.923761145	33.584903	-3.362380186	-54.20264243	-3.362380186	-54.20264243	-2.923934165	34.59840034																									
4450	-2.861863003	33.05923321	-3.431977693	-54.72024602	-3.431977693	-54.72024602	-2.862033079	34.08492866																									
4500	-2.801172306	32.53547214	-3.502285097	-55.23571403	-3.502285097	-55.23571403	-2.801339281	33.57338921																									
4550	-2.741661597	32.0136083	-3.573306941	-55.74905702	-3.573306941	-55.74905702	-2.741825307	33.06376982																									
4600	-2.683304412	31.49362895	-3.645047872	-56.26028462	-3.645047872	-56.26028462	-2.683464702	32.55606104																									
4650	-2.626074871	30.97552233	-3.717513136	-56.76940824	-3.717513136	-56.76940824	-2.626231575	32.05024849																									
4700	-2.569948028	30.45927552	-3.790708097	-57.27643833	-3.790708097	-57.27643833	-2.570100981	31.54632055																									
4750	-2.514899654	29.94487554	-3.864638478	-57.78138568	-3.864638478	-57.78138568	-2.515048689	31.04426455																									
4800	-2.46090624	29.43230912	-3.939310334	-58.28426115	-3.939310334	-58.28426115	-2.461051188	30.54406757																									
4850	-2.407944972	28.92156275	-4.014730054	-58.78507571	-4.014730054	-58.78507571	-2.408085663	30.04571641																									
4900	-2.355993708	28.41262264	-4.090904364	-59.28384033	-4.090904364	-59.28384033	-2.356129971	29.54919769																									
4950	-2.305030945	27.9054748	-4.167840354	-59.78056607	-4.167840354	-59.78056607	-2.305162604	29.05449765																									
5000	-2.255035808	27.40010499	-4.245545459	-60.27526394	-4.245545459	-60.27526394	-2.25516269	28.56160248																									
5050	-2.205988018	26.8964988	-4.324027499	-60.767945	-4.324027499	-60.767945	-2.206109943	28.07049804																									
5100	-2.157867872	26.39464154	-4.403294663	-61.25862025	-4.403294663	-61.25862025	-2.157984662	27.58117011																									
5150	-2.110656228	25.89451849	-4.483355538	-61.74730067	-4.483355538	-61.74730067	-2.1107677	27.09360414																									
5200	-2.064334481	25.39611458	-4.564219107	-62.23399718	-4.564219107	-62.23399718	-2.064440453	26.60778557																									
5250	-2.018884538	24.89941463	-4.64589478	-62.71872067	-4.64589478	-62.71872067	-2.018984825	26.12369956																									
5300	-1.974288828	24.40440352	-4.728392358	-63.2014818	-4.728392358	-63.2014818	-1.974383242	25.64133119																									
5350	-1.930530236	23.91106559	-4.811722131	-63.68229136	-4.811722131	-63.68229136	-1.930618587	25.16066531																									
5400	-1.887592139	23.41938538	-4.895894795	-64.1611598	-4.895894795	-64.1611598	-1.887674236	24.68168676																									
5450	-1.845458363	22.9293471	-4.980921522	-64.63809746	-4.980921522	-64.63809746	-1.845534014	24.20438033																									
5500	-1.804113151	22.440935	-5.066814004	-65.11311472	-5.066814004	-65.11311472	-1.804182159	23.72873021																									
5550	-1.7635412	21.95413309	-5.153584367	-65.58622151	-5.153584367	-65.58622151	-1.763603368	23.25472111																									
5600	-1.723727608	21.4689254	-5.241245269	-66.05742763	-5.241245269	-66.05742763	-1.723782736	22.7823374																									
5650	-1.684657866	20.98529583	-5.3298099	-66.52674272	-5.3298099	-66.52674272	-1.684705753	22.31156332																									
5700	-1.646317844	20.50322811	-5.419292018	-66.99417621	-5.419292018	-66.99417621	-1.646358284	21.84238295																									
5750	-1.608693807	20.02270612	-5.509705882	-67.45973707	-5.509705882	-67.45973707	-1.608726594	21.37478058																									
5800	-1.571772351	19.54371335	-5.601066416	-67.92343428	-5.601066416	-67.92343428	-1.571797277	20.9087401																									
5850	-1.535540465	19.06623348	-5.69338904	-68.38527608	-5.69338904	-68.38527608	-1.53555732	20.44424595																									
5900	-1.499985417	18.5902503	-5.786689955	-68.84527099	-5.786689955	-68.84527099	-1.499993985	19.98128116																									
5950	-1.465094875	18.11574688	-5.880985826	-69.30342649	-5.880985826	-69.30342649	-1.465094942	19.51983076																									
6000	-1.430856767	17.64270704	-5.97629415	-69.75975023	-5.97629415	-69.75975023	-1.430848115	19.05987782																									
6050	-1.397259376	17.17111428	-6.072633004	-70.21424903	-6.072633004	-70.21424903	-1.397241784	18.6014065																									
6100	-1.364291251	16.7009517	-6.170021285	-70.66692965	-6.170021285	-70.66692965	-1.364264495	18.14440057																									
6150	-1.331941264	16.23220287	-6.268478551	-71.11779802	-6.268478551	-71.11779802	-1.33190512	17.68884402																									
6200	-1.300198565	15.76485135	-6.368025172	-71.56685965	-6.368025172	-71.56685965	-1.300152805	17.23472063																									
6250	-1.269052557	15.29888016	-6.468682395	-72.01411983	-6.468682395	-72.01411983	-1.26899695	16.78201414																									
6300	-1.238492942	14.83427284	-6.570472217	-72.45958285	-6.570472217	-72.45958285	-1.238427256	16.33070853																									
6350	-1.208509648	14.37101303	-6.673417641	-72.90325283	-6.673417641	-72.90325283	-1.208433646	15.88078691																									
6400	-1.179092886	13.90908384	-6.777542495	-73.34513296	-6.777542495	-73.34513296	-1.179006328	15.43223344																									
6450	-1.150233127	13.44846861	-6.882871504	-73.78522556	-6.882871504	-73.78522556	-1.150135774	14.98503256																									
6500	-1.121921042	12.98915103	-6.989430547	-74.22353265	-6.989430547	-74.22353265	-1.121812649	14.5391674																									
6550	-1.094147553	12.53111395	-7.097246489	-74.66005538	-7.097246489	-74.66005538	-1.094027875	14.09462229																									
6600	-1.066903815	12.07434121	-7.206347265	-75.09479391	-7.206347265	-75.09479391	-1.066772601	13.65138087																									
6650	-1.040181206	11.6188166	-7.316761949	-75.52774753	-7.316761949	-75.52774753	-1.040038203	13.20942695																									
6700	-1.013971303	11.16452326	-7.428520877	-75.95891486	-7.428520877	-75.95891486	-1.013816256	12.76874453																									
6750	-0.988265909	10.71144447	-7.541655568	-76.3882933	-7.541655568	-76.3882933	-0.988098561	12.32931801																									
6800	-0.96305703	10.2595642	-7.656198871	-76.81587922	-7.656198871	-76.81587922	-0.962877118	11.89113116																									
6850	-0.938336875	9.808865915	-7.772184982	-77.2416678	-7.772184982	-77.2416678	-0.938144137	11.45416846																									
6900	-0.914097808	9.359333328	-7.889649743	-77.66565359	-7.889649743	-77.66565359	-0.913891975	11.01841315																									
6950	-0.890332421	8.910950012	-8.008630327	-78.08782933	-8.008630327	-78.08782933	-0.890113222	10.58384976																									
7000	-0.867033501	8.463699839	-8.129165451	-78.50818627	-8.129165451	-78.50818627	-0.866800664	10.15046296																									
7050	-0.844194004	8.017566721	-8.251295563	-78.92671436	-8.251295563	-78.92671436	-0.843947251	9.718237226																									
7100	-0.821807012	7.572534249	-8.375063146	-79.34340271	-8.375063146	-79.34340271	-0.821546063	9.287155984																									
7150	-0.799865824	7.128586467	-8.500512324	-79.75823814	-8.500512324	-79.75823814	-0.799590395	8.857203665																									
7200	-0.778363943	6.685707366	-8.627688948	-80.17120517	-8.627688948	-80.17120517	-0.778073748	8.428366078																									
7250	-0.757294927	6.243880738	-8.756641598	-80.58228801	-8.756641598	-80.58228801	-0.756989675	8.000626013																									
7300	-0.73665262	5.803090906	-8.887420285	-80.99146698	-8.887420285	-80.99146698	-0.736332019	7.573969819																									
7350	-0.716430899	5.363322011	-9.020078101	-81.39872203	-9.020078101	-81.39872203	-0.716094649	7.148380392																									
7400	-0.696623902	4.924558166	-9.154669885	-81.80402917	-9.154669885	-81.80402917	-0.696271705	6.723844248																									
