!	AVX	Thin	Film	Operation	Date:	2004		
!	Description:	"Series,"	Thin	"Film,"	"LGA,"	RF	Inductors	
!	Part	Number:	L06034r7nH					
!	50	MHz	-	10	GHz			
!	Serial	Measurements						
!								
#	mhz	S	db	R	50			
!	S11	S11	S21	S21	S12	S12	S22	S22
!	dB	Phase	dB	Phase	dB	Phase	dB	Phase
50	-37.89224121	83.70063967	-0.011081611	-0.914689847	-0.011081611	-0.914689847	-37.89224597	83.71571163
100	-32.16814447	83.88686498	-0.018741726	-1.782888255	-0.018741726	-1.782888255	-32.16817037	83.91797329
150	-28.79662059	83.52737376	-0.026709464	-2.639649918	-0.026709464	-2.639649918	-28.79665928	83.57378009
200	-26.39676608	82.98636738	-0.035336065	-3.48957982	-0.035336065	-3.48957982	-26.39682093	83.04832693
250	-24.5319844	82.35869108	-0.044760082	-4.334632485	-0.044760082	-4.334632485	-24.53205575	82.43621541
300	-23.00686191	81.6816679	-0.055053219	-5.175866826	-0.055053219	-5.175866826	-23.00695008	81.77478209
350	-21.71681771	80.97347061	-0.0662581	-6.01393377	-0.0662581	-6.01393377	-21.7169228	81.08218459
400	-20.59927328	80.24416954	-0.07840232	-6.849265773	-0.07840232	-6.849265773	-20.59939539	80.36850143
450	-19.61378574	79.49987972	-0.091504814	-7.682165443	-0.091504814	-7.682165443	-19.61392489	79.63984401
500	-18.73269647	78.74456375	-0.105579134	-8.512852442	-0.105579134	-8.512852442	-18.73285263	78.90017535
550	-17.93625068	77.98092458	-0.120635298	-9.34149038	-0.120635298	-9.34149038	-17.9364238	78.15219788
600	-17.2098446	77.21088075	-0.136680906	-10.16820349	-0.136680906	-10.16820349	-17.21003463	77.39783146
650	-16.54237627	76.43584175	-0.153721843	-10.99308727	-0.153721843	-10.99308727	-16.5425831	76.63848395
700	-15.92520752	75.65687012	-0.171762756	-11.81621579	-0.171762756	-11.81621579	-15.92543105	75.87521847
750	-15.35148462	74.87478906	-0.190807376	-12.63764667	-0.190807376	-12.63764667	-15.35172471	75.10885387
800	-14.81567749	74.09023836	-0.210858757	-13.45742505	-0.210858757	-13.45742505	-14.81593405	74.34004415
850	-14.31325986	73.3037448	-0.231919418	-14.27558551	-0.231919418	-14.27558551	-14.31353273	73.56930143
900	-13.84047925	72.51573111	-0.253991495	-15.0921548	-0.253991495	-15.0921548	-13.84076826	72.79704929
950	-13.39419011	71.7265466	-0.277076825	-15.90715308	-0.277076825	-15.90715308	-13.39449507	72.02363802
1000	-12.97172951	70.93648719	-0.301177013	-16.7205951	-0.301177013	-16.7205951	-12.9720502	71.24935741
1050	-12.57082497	70.14584335	-0.326293383	-17.53248891	-0.326293383	-17.53248891	-12.57116067	70.47441713
1100	-12.18950948	69.35464932	-0.352427783	-18.34285096	-0.352427783	-18.34285096	-12.18986148	69.69918857
1150	-11.82609412	68.56327764	-0.379580928	-19.15167488	-0.379580928	-19.15167488	-11.82646154	68.92368447
1200	-11.47909573	67.77186708	-0.407754035	-19.9589626	-0.407754035	-19.9589626	-11.47947797	68.14808353
1250	-11.14720685	66.98044706	-0.436948736	-20.76472043	-0.436948736	-20.76472043	-11.14760446	67.37262238
1300	-10.82928405	66.18924416	-0.467165772	-21.56893858	-0.467165772	-21.56893858	-10.82969649	66.5973355
1350	-10.52430514	65.39833729	-0.498406547	-22.37161545	-0.498406547	-22.37161545	-10.52473218	65.82235942
1400	-10.23136123	64.60782061	-0.530672287	-23.172746	-0.530672287	-23.172746	-10.23180269	65.04779626
1450	-9.949638293	63.8177864	-0.563964291	-23.97232328	-0.563964291	-23.97232328	-9.950093966	64.27373242
1500	-9.678404283	63.02831113	-0.598283962	-24.77034035	-0.598283962	-24.77034035	-9.678873976	63.50025144
1550	-9.41699885	62.23946876	-0.633632759	-25.56678909	-0.633632759	-25.56678909	-9.417482362	62.72742572
1600	-9.164823987	61.45132576	-0.670012245	-26.36166088	-0.670012245	-26.36166088	-9.165321113	61.95532231
1650	-8.921336408	60.66394304	-0.707424091	-27.15494666	-0.707424091	-27.15494666	-8.921846941	61.18400269
1700	-8.686041035	59.87737663	-0.745870087	-27.94663697	-0.745870087	-27.94663697	-8.686564763	60.41352345
1750	-8.45848541	59.09167816	-0.785352153	-28.73672205	-0.785352153	-28.73672205	-8.459022119	59.64393693
1800	-8.238254899	58.30689548	-0.825872348	-29.52519194	-0.825872348	-29.52519194	-8.238804374	58.87529153
1850	-8.024968559	57.52307292	-0.86743288	-30.3120365	-0.86743288	-30.3120365	-8.025530582	58.10763226
1900	-7.818275545	56.74025176	-0.910036119	-31.09724551	-0.910036119	-31.09724551	-7.818849894	57.34100097
1950	-7.617851992	55.9584704	-0.953684601	-31.88080868	-0.953684601	-31.88080868	-7.618438441	56.57543673
2000	-7.423398278	55.17776468	-0.998381042	-32.66271573	-0.998381042	-32.66271573	-7.423996602	55.81097608
2050	-7.234636669	54.39816842	-1.044128343	-33.44295635	-1.044128343	-33.44295635	-7.235246636	55.04765297
2100	-7.051309111	53.61971214	-1.090929616	-34.22152048	-1.090929616	-34.22152048	-7.051930493	54.28549999
2150	-6.873175567	52.8424262	-1.138788156	-34.99839786	-1.138788156	-34.99839786	-6.873808126	53.52454656
2200	-6.700012168	52.06633765	-1.187707496	-35.77357859	-1.187707496	-35.77357859	-6.700655667	52.76482125
2250	-6.531609877	51.29147235	-1.237691387	-36.54705281	-1.237691387	-36.54705281	-6.532264076	52.00635057
2300	-6.367773194	50.51785498	-1.288743809	-37.31881073	-1.288743809	-37.31881073	-6.368437847	51.24915925
2350	-6.208318897	49.74550791	-1.340869008	-38.08884294	-1.340869008	-38.08884294	-6.208993759	50.49327099
2400	-6.053075122	48.9744526	-1.394071472	-38.85714006	-1.394071472	-38.85714006	-6.053759944	49.73870786
2450	-5.901880318	48.2047084	-1.44835598	-39.62369314	-1.44835598	-39.62369314	-5.902574854	48.98549103
2500	-5.75458272	47.43629679	-1.503727506	-40.3884926	-1.503727506	-40.3884926	-5.755286703	48.23363868
2550	-5.611038922	46.6692319	-1.560191468	-41.15153057	-1.560191468	-41.15153057	-5.611752105	47.48317104
2600	-5.471114047	45.90353255	-1.617753434	-41.91279794	-1.617753434	-41.91279794	-5.471836165	46.73410434
2650	-5.33468073	45.1392172	-1.676419266	-42.67228577	-1.676419266	-42.67228577	-5.3354115	45.98645318
2700	-5.201617658	44.3762897	-1.736195531	-43.42998851	-1.736195531	-43.42998851	-5.202356855	45.24023838
2750	-5.071811356	43.61477383	-1.797088544	-44.18589582	-1.797088544	-44.18589582	-5.072558692	44.49546899
2800	-4.945153484	42.85467986	-1.859105314	-44.94000051	-1.859105314	-44.94000051	-4.945908683	43.75215984
2850	-4.821541317	42.0960189	-1.922253201	-45.69229554	-1.922253201	-45.69229554	-4.822304102	43.0103233
2900	-4.700877357	41.33880172	-1.98653992	-46.44277384	-1.98653992	-46.44277384	-4.701647448	42.26997089
2950	-4.583069078	40.58303829	-2.051973492	-47.19142773	-2.051973492	-47.19142773	-4.583846196	41.53111495
3000	-4.468028244	39.82873924	-2.118562467	-47.93825099	-2.118562467	-47.93825099	-4.468812096	40.79376307
3050	-4.355670858	39.07590941	-2.186315792	-48.68323702	-2.186315792	-48.68323702	-4.35646117	40.05792832
3100	-4.24591715	38.32456239	-2.25524269	-49.42637852	-2.25524269	-49.42637852	-4.246713613	39.32361527
3150	-4.138690522	37.57470025	-2.325353144	-50.16767042	-2.325353144	-50.16767042	-4.139492851	38.59083456
3200	-4.033918391	36.82633365	-2.396657264	-50.90710537	-2.396657264	-50.90710537	-4.034726274	37.85959179
3250	-3.931530883	36.07946434	-2.469166002	-51.64467863	-2.469166002	-51.64467863	-3.932344026	37.12989521
3300	-3.831461493	35.33409828	-2.542890614	-52.38038416	-2.542890614	-52.38038416	-3.832279596	36.40175052
3350	-3.733646787	34.59024398	-2.617842733	-53.11421502	-2.617842733	-53.11421502	-3.734469526	35.67516168
3400	-3.638025629	33.84790295	-2.694034835	-53.84616637	-2.694034835	-53.84616637	-3.638852688	34.95013449
3450	-3.544539408	33.1070758	-2.771480002	-54.57623362	-2.771480002	-54.57623362	-3.545370481	34.2266742
3500	-3.453132389	32.36776989	-2.850191539	-55.30440989	-2.850191539	-55.30440989	-3.453967146	33.50478296
3550	-3.363750896	31.62998866	-2.930183522	-56.03068942	-2.930183522	-56.03068942	-3.364588995	32.78446367
3600	-3.276342616	30.89372279	-3.011471379	-56.75507057	-3.011471379	-56.75507057	-3.277183766	32.06572264
3650	-3.190858919	30.15898827	-3.094069738	-57.47754312	-3.094069738	-57.47754312	-3.191702754	31.3485573
3700	-3.107251422	29.42577414	-3.17799545	-58.19810572	-3.17799545	-58.19810572	-3.108097629	30.63297306
3750	-3.025474844	28.69408929	-3.263264893	-58.9167501	-3.263264893	-58.9167501	-3.026323064	29.91896857
3800	-2.945485029	27.96393247	-3.349895766	-59.63347119	-3.349895766	-59.63347119	-2.946334907	29.20654501
3850	-2.867239241	27.23529826	-3.437906816	-60.34826522	-3.437906816	-60.34826522	-2.868090437	28.49570412
3900	-2.790696765	26.50818826	-3.527317137	-61.0611257	-3.527317137	-61.0611257	-2.791548922	27.78644507
3950	-2.715818211	25.78260106	-3.618146841	-61.77204688	-3.618146841	-61.77204688	-2.716670971	27.07876737
4000	-2.642565602	25.05853483	-3.710416942	-62.48102287	-3.710416942	-62.48102287	-2.6434186	26.37267016
4050	-2.570902307	24.33598733	-3.804149386	-63.18804759	-3.804149386	-63.18804759	-2.571755173	25.66815214
4100	-2.500792975	23.61495589	-3.899367104	-63.89311473	-3.899367104	-63.89311473	-2.501645336	24.96521171
4150	-2.432203493	22.8954377	-3.996094029	-64.59621763	-3.996094029	-64.59621763	-2.43305497	24.26384681
4200	-2.365100894	22.17742923	-4.094355191	-65.29734946	-4.094355191	-65.29734946	-2.365951103	23.56405513
4250	-2.29945334	21.46092685	-4.19417672	-65.99650295	-4.19417672	-65.99650295	-2.300301893	22.86583395
4300	-2.235230056	20.74592654	-4.295585924	-66.69367046	-4.295585924	-66.69367046	-2.236076559	22.16918024
4350	-2.172401279	20.03242382	-4.398611346	-67.38884394	-4.398611346	-67.38884394	-2.173245333	21.47409069
4400	-2.110938236	19.32041415	-4.503282799	-68.08201477	-4.503282799	-68.08201477	-2.111779436	20.78056161
4450	-2.050813069	18.6098924	-4.609631469	-68.77317389	-4.609631469	-68.77317389	-2.051651006	20.08858908
4500	-1.991998827	17.90085337	-4.717689943	-69.46231157	-4.717689943	-69.46231157	-1.992833087	19.39816884
4550	-1.93446941	17.19329139	-4.827492311	-70.14941746	-4.827492311	-70.14941746	-1.935299571	18.70929638
4600	-1.878199545	16.48720071	-4.939074217	-70.83448044	-4.939074217	-70.83448044	-1.879025181	18.02196691
4650	-1.823164736	15.78257502	-5.052472979	-71.51748868	-5.052472979	-71.51748868	-1.823985415	17.33617541
4700	-1.769341259	15.07940806	-5.167727621	-72.19842939	-5.167727621	-72.19842939	-1.770156543	16.65191657
4750	-1.716706108	14.37769312	-5.284879015	-72.87728888	-5.284879015	-72.87728888	-1.717515554	15.96918485
4800	-1.665236975	13.67742321	-5.403969973	-73.55405247	-5.403969973	-73.55405247	-1.666040132	15.28797451
4850	-1.614912232	12.9785913	-5.525045315	-74.22870422	-5.525045315	-74.22870422	-1.615708644	14.60827953
4900	-1.565710894	12.28118999	-5.648152033	-74.90122707	-5.648152033	-74.90122707	-1.566500099	13.93009372
4950	-1.517612597	11.5852117	-5.773339389	-75.57160257	-5.773339389	-75.57160257	-1.518394126	13.25341066
5000	-1.470597579	10.89064859	-5.900659054	-76.23981085	-5.900659054	-76.23981085	-1.471370957	12.57822375
5050	-1.424646674	10.19749304	-6.030165195	-76.90583025	-6.030165195	-76.90583025	-1.425411417	11.90452614
5100	-1.379741193	9.505735561	-6.161914903	-77.5696381	-6.161914903	-77.5696381	-1.380496815	11.23231099
5150	-1.335863114	8.815369171	-6.295967778	-78.23120871	-6.295967778	-78.23120871	-1.336609118	10.56157097
5200	-1.292994837	8.126384663	-6.432386737	-78.89051517	-6.432386737	-78.89051517	-1.29373072	9.892298829
5250	-1.251119303	7.438773513	-6.571237817	-79.54752801	-6.571237817	-79.54752801	-1.251844554	9.224487047
5300	-1.210219905	6.752526375	-6.712590596	-80.20221559	-6.712590596	-80.20221559	-1.210934008	8.558128022
5350	-1.170280555	6.067634812	-6.856518163	-80.85454313	-6.856518163	-80.85454313	-1.170982984	7.893213898
5400	-1.131285569	5.384089222	-7.003097673	-81.50447342	-7.003097673	-81.50447342	-1.131975791	7.229736776
5450	-1.093219697	4.701879781	-7.152410478	-82.15196608	-7.152410478	-82.15196608	-1.093897174	6.567688622
5500	-1.056068141	4.020997112	-7.304542308	-82.79697706	-7.304542308	-82.79697706	-1.056732325	5.907061227
5550	-1.019816521	3.34143202	-7.459583616	-83.43945833	-7.459583616	-83.43945833	-1.020466856	5.247846235
5600	-0.984450827	2.663174484	-7.617630096	-84.07935806	-7.617630096	-84.07935806	-0.985086747	4.590035235
5650	-0.949957429	1.986214305	-7.778782957	-84.71661986	-7.778782957	-84.71661986	-0.950578362	3.933619705
5700	-0.916323082	1.310541478	-7.943149258	-85.35118222	-7.943149258	-85.35118222	-0.916928447	3.278591003
5750	-0.8835349	0.636145847	-8.110842424	-85.98297816	-8.110842424	-85.98297816	-0.884124109	2.624940377
5800	-0.851580365	-0.036982415	-8.28198264	-86.61193446	-8.28198264	-86.61193446	-0.852152817	1.972658979
5850	-0.820447248	-0.708854521	-8.45669773	-87.23797177	-8.45669773	-87.23797177	-0.821002335	1.321737953
5900	-0.790123708	-1.37948018	-8.635123189	-87.86100271	-8.635123189	-87.86100271	-0.790660813	0.672168234
5950	-0.760598161	-2.048870904	-8.817403504	-88.48093245	-8.817403504	-88.48093245	-0.76111666	0.023940816
6000	-0.73185939	-2.717036854	-9.00369223	-89.09765653	-9.00369223	-89.09765653	-0.732358646	-0.622953483
6050	-0.703896453	-3.383988853	-9.194153217	-89.71106068	-9.194153217	-89.71106068	-0.70437582	-1.26852385
6100	-0.676698712	-4.04973756	-9.388961328	-90.32101935	-9.388961328	-90.32101935	-0.677157535	-1.912779563
6150	-0.650255805	-4.714294	-9.588303552	-90.92739464	-9.588303552	-90.92739464	-0.650693417	-2.55572993
6200	-0.624557636	-5.377669491	-9.792380111	-91.53003485	-9.792380111	-91.53003485	-0.624973362	-3.197384335
6250	-0.599594409	-6.039874615	-10.00140544	-92.12877224	-10.00140544	-92.12877224	-0.599987562	-3.837752181
6300	-0.57535654	-6.700921533	-10.21561015	-92.72342221	-10.21561015	-92.72342221	-0.575726424	-4.476842877
6350	-0.551834796	-7.360819389	-10.43524143	-93.31377908	-10.43524143	-93.31377908	-0.552180699	-5.11466601
6400	-0.529020044	-8.01958223	-10.66056688	-93.89961686	-10.66056688	-93.89961686	-0.52934125	-5.751231034
6450	-0.506903539	-8.677219379	-10.89187392	-94.48068221	-10.89187392	-94.48068221	-0.507199316	-6.386547512
6500	-0.48547672	-9.33374191	-11.12947376	-95.05669375	-11.12947376	-95.05669375	-0.485746322	-7.02062504
6550	-0.464731185	-9.989163315	-11.3737043	-95.62733824	-11.3737043	-95.62733824	-0.464973861	-7.653473193
6600	-0.444658853	-10.64349392	-11.62493133	-96.19226354	-11.62493133	-96.19226354	-0.444873837	-8.285101577
6650	-0.425251862	-11.29674391	-11.88355271	-96.7510743	-11.88355271	-96.7510743	-0.425438371	-8.915519837
6700	-0.406502463	-11.94892728	-12.15000366	-97.30332689	-12.15000366	-97.30332689	-0.406659709	-9.544737567
6750	-0.388403232	-12.60005365	-12.42475836	-97.84851832	-12.42475836	-97.84851832	-0.388530408	-10.17276442
6800	-0.370946882	-13.25013515	-12.7083375	-98.38607954	-12.7083375	-98.38607954	-0.37104317	-10.79961007
6850	-0.354126352	-13.89918294	-13.001313	-98.91536275	-13.001313	-98.91536275	-0.354190918	-11.42528411
6900	-0.337934732	-14.54720987	-13.30431606	-99.43562878	-13.30431606	-99.43562878	-0.337966734	-12.04979607
6950	-0.322365348	-15.19422696	-13.61804401	-99.94602922	-13.61804401	-99.94602922	-0.322363925	-12.67315575
7000	-0.307411697	-15.84024588	-13.94327093	-100.4455869	-13.94327093	-100.4455869	-0.307375976	-13.29537255
7050	-0.293067453	-16.48527833	-14.28085901	-100.9331705	-14.28085901	-100.9331705	-0.292996546	-13.91645623
7100	-0.279326472	-17.129336	-14.63177224	-101.4074638	-14.63177224	-101.4074638	-0.279219474	-14.53641622
7150	-0.266182778	-17.77243062	-14.99709301	-101.8669261	-14.99709301	-101.8669261	-0.266038772	-15.15526221
7200	-0.25363057	-18.41457391	-15.37804213	-102.3097432	-15.37804213	-102.3097432	-0.253448621	-15.77300359
7250	-0.241664209	-19.05577759	-15.77600323	-102.7337644	-15.77600323	-102.7337644	-0.241443368	-16.38964967
7300	-0.230278219	-19.6960534	-16.19255294	-103.1364217	-16.19255294	-103.1364217	-0.230017519	-17.00521031
7350	-0.219467284	-20.33541306	-16.62949791	-103.5146238	-16.62949791	-103.5146238	-0.219165742	-17.6196948
7400	-0.209226246	-20.97386831	-17.08892143	-103.864617	-17.08892143	-103.864617	-0.208882861	-18.23311213
7450	-0.199550095	-21.61143088	-17.57324243	-104.1817996	-17.57324243	-104.1817996	-0.19916385	-18.84547212
7500	-0.190433972	-22.24811248	-18.08529041	-104.460469	-18.08529041	-104.460469	-0.190003832	-19.45678398
7550	-0.181873169	-22.88392483	-18.62840246	-104.6934745	-18.62840246	-104.6934745	-0.181398081	-20.06705661
7600	-0.173863118	-23.51887963	-19.20655048	-104.8717303	-19.20655048	-104.8717303	-0.17334201	-20.67629931
7650	-0.166399391	-24.15298858	-19.8245097	-104.9835185	-19.8245097	-104.9835185	-0.165831173	-21.2845218
7700	-0.159477704	-24.78626336	-20.48808496	-105.0134693	-20.48808496	-105.0134693	-0.158861264	-21.89173231
7750	-0.153093904	-25.41871563	-21.20442176	-104.9410342	-21.20442176	-104.9410342	-0.152428113	-22.49794056
7800	-0.147243974	-26.05035704	-21.98243708	-104.738128	-21.98243708	-104.738128	-0.146527682	-23.10315492
7850	-0.14192403	-26.68119922	-22.83343041	-104.3653742	-22.83343041	-104.3653742	-0.141156066	-23.70738402
7900	-0.13713031	-27.31125379	-23.77196234	-103.7658949	-23.77196234	-103.7658949	-0.136309482	-24.31063798
7950	-0.132859186	-27.94053234	-24.81713066	-102.854591	-24.81713066	-102.854591	-0.131984281	-24.91292486
8000	-0.129107153	-28.56904642	-25.99442909	-101.4986926	-25.99442909	-101.4986926	-0.128176935	-25.51425337
8050	-0.125870827	-29.1968076	-27.33835124	-99.48038563	-27.33835124	-99.48038563	-0.124884037	-26.11463213
8100	-0.123146944	-29.82382738	-28.89547175	-96.42023703	-28.89547175	-96.42023703	-0.122102302	-26.7140697
8150	-0.120932362	-30.45011727	-30.72511666	-91.60984067	-30.72511666	-91.60984067	-0.119828561	-27.31257456
8200	-0.119224051	-31.07568871	-32.8811075	-83.63326235	-32.8811075	-83.63326235	-0.118059764	-27.91015509
8250	-0.118019101	-31.70055316	-35.2921676	-69.63212496	-35.2921676	-69.63212496	-0.116792972	-28.50681962
8300	-0.11731471	-32.32472202	-37.27362834	-45.55628213	-37.27362834	-45.55628213	-0.116025361	-29.10257636
8350	-0.117108192	-32.94820665	-37.22172662	-14.78991308	-37.22172662	-14.78991308	-0.115754218	-29.69743346
8400	-0.117396969	-33.5710184	-35.20241098	8.771259627	-35.20241098	8.771259627	-0.115976937	-30.29139897
8450	-0.118178569	-34.19316859	-32.81129895	22.40081182	-32.81129895	22.40081182	-0.116691021	-30.88448084
8500	-0.119450631	-34.81466847	-30.68625947	30.18457453	-30.68625947	30.18457453	-0.11789408	-31.47668695
8550	-0.121210897	-35.43552931	-28.88609688	34.89532048	-28.88609688	34.89532048	-0.119583829	-32.06802506
8600	-0.123457213	-36.05576228	-27.35549251	37.90221112	-27.35549251	37.90221112	-0.121758082	-32.65850284
8650	-0.126187527	-36.67537856	-26.03559102	39.89210999	-26.03559102	39.89210999	-0.124414761	-33.24812785
8700	-0.12939989	-37.29438929	-24.88044142	41.2341581	-24.88044142	41.2341581	-0.127551884	-33.83690757
8750	-0.133092452	-37.91280553	-23.85603928	42.14090717	-23.85603928	42.14090717	-0.13116757	-34.42484936
8800	-0.137263461	-38.53063835	-22.93724132	42.7422524	-22.93724132	42.7422524	-0.135260036	-35.01196046
8850	-0.141911264	-39.14789875	-22.10519702	43.12162876	-22.10519702	43.12162876	-0.139827595	-35.59824802
8900	-0.147034303	-39.7645977	-21.34552252	43.3349022	-21.34552252	43.3349022	-0.144868657	-36.18371906
8950	-0.152631117	-40.38074613	-20.6470456	43.42080762	-20.6470456	43.42080762	-0.150381726	-36.7683805
9000	-0.158700338	-40.99635491	-20.00094272	43.40700836	-20.00094272	43.40700836	-0.156365399	-37.35223914
9050	-0.165240692	-41.61143489	-19.4001385	43.31376752	-19.4001385	43.31376752	-0.162818365	-37.93530165
9100	-0.172250998	-42.22599688	-18.83888092	43.15625587	-18.83888092	43.15625587	-0.169739406	-38.51757459
9150	-0.179730164	-42.84005161	-18.31243568	42.94605027	-18.31243568	42.94605027	-0.177127395	-39.09906439
9200	-0.187677192	-43.4536098	-17.81686262	42.69213425	-17.81686262	42.69213425	-0.184981292	-39.67977736
9250	-0.196091172	-44.06668212	-17.34884949	42.40158303	-17.34884949	42.40158303	-0.193300148	-40.25971966
