!	AVX	Thin	Film	Operation	Date:		2004			
!	Description:		"Series,"	Thin	"Film,"	"LGA,"	RF	Inductors		
!	Part	Number:	L06031r2nH							
!	50	MHz	-	20	GHz					
!	Serial	Measurements								
!										
#	mhz	S	db	R	50					
!	S11	S11	S21	S21	S12	S12	S22	S22		
!	dB	Phase	dB	Phase	dB	Phase	dB	Phase		
50	-49.16775502	83.43830364	-0.003330952	-0.342781209	-0.003330952	-0.342781209	-49.16770542	83.42433078		
100	-43.46567385	84.66068676	-0.004953306	-0.672275035	-0.004953306	-0.672275035	-43.46556557	84.63001673		
150	-40.09088953	85.06746849	-0.006351936	-0.999311381	-0.006351936	-0.999311381	-40.09081027	85.02693859		
200	-37.68229888	85.19848102	-0.007672566	-1.325016269	-0.007672566	-1.325016269	-37.68220511	85.14438192		
250	-35.80708824	85.1949238	-0.008972029	-1.649836869	-0.008972029	-1.649836869	-35.80698149	85.12723399		
300	-34.27093583	85.11393416	-0.010279594	-1.974005926	-0.010279594	-1.974005926	-34.2708171	85.03262274		
350	-32.96962423	84.98348824	-0.011612689	-2.297662845	-0.011612689	-2.297662845	-32.96949446	84.88854964		
400	-31.84069627	84.81915244	-0.01298268	-2.62089875	-0.01298268	-2.62089875	-31.84055628	84.71059068		
450	-30.84373995	84.63038979	-0.014397457	-2.943776819	-0.014397457	-2.943776819	-30.84359034	84.50819644		
500	-29.9510923	84.42332483	-0.015862754	-3.266342763	-0.015862754	-3.266342763	-29.95093356	84.28749346		
550	-29.14298068	84.2021231	-0.017382884	-3.588630715	-0.017382884	-3.588630715	-29.14281329	84.05265416		
600	-28.40477942	83.96973804	-0.018961183	-3.910666781	-0.018961183	-3.910666781	-28.40460376	83.80662686		
650	-27.72536425	83.7283238	-0.020600285	-4.232471289	-0.020600285	-4.232471289	-27.72518068	83.55157033		
700	-27.0960763	83.47949935	-0.022302309	-4.554060294	-0.022302309	-4.554060294	-27.09588514	83.28910207		
750	-26.51004302	83.22450606	-0.024068982	-4.875446614	-0.024068982	-4.875446614	-26.50984456	83.02046434		
800	-25.96171806	82.96431523	-0.025901731	-5.196640547	-0.025901731	-5.196640547	-25.96151256	82.7466286		
850	-25.44656072	82.69971381	-0.027801744	-5.517650378	-0.027801744	-5.517650378	-25.44634823	82.46835301		
900	-24.96080524	82.4312879	-0.02977002	-5.838482946	-0.02977002	-5.838482946	-24.96058626	82.18629822		
950	-24.50129576	82.15957422	-0.031807403	-6.159143633	-0.031807403	-6.159143633	-24.50107044	81.90094664		
1000	-24.06536009	81.88499711	-0.033914609	-6.479636801	-0.033914609	-6.479636801	-24.06512852	81.61271649		
1050	-23.65071541	81.60789602	-0.036092249	-6.799966013	-0.036092249	-6.799966013	-23.65047782	81.32197199		
1100	-23.25539689	81.32857259	-0.038340844	-7.120134002	-0.038340844	-7.120134002	-23.25515345	81.02900476		
1150	-22.87770266	81.04738566	-0.040660833	-7.440142527	-0.040660833	-7.440142527	-22.87745249	80.73396079		
1200	-22.5161392	80.76424366	-0.043052627	-7.759994561	-0.043052627	-7.759994561	-22.51588434	80.43736184		
1250	-22.16940963	80.47967773	-0.045516506	-8.079689291	-0.045516506	-8.079689291	-22.1691489	80.13905207		
1300	-21.83635173	80.19351475	-0.048052807	-8.399229948	-0.048052807	-8.399229948	-21.83608698	79.83952476		
1350	-21.51595119	79.90622156	-0.050661715	-8.718615019	-0.050661715	-8.718615019	-21.51568127	79.53859828		
1400	-21.20729283	79.61784914	-0.053343457	-9.037845854	-0.053343457	-9.037845854	-21.20701725	79.23646813		
1450	-20.90956314	79.32838327	-0.056098173	-9.356921317	-0.056098173	-9.356921317	-20.90928261	78.93336903		
1500	-20.62202814	79.03798208	-0.058926008	-9.675841586	-0.058926008	-9.675841586	-20.62174277	78.62933643		
1550	-20.34402671	78.74673207	-0.061827071	-9.994606145	-0.061827071	-9.994606145	-20.34373659	78.32445691		
1600	-20.0749605	78.45471052	-0.064801444	-10.3132143	-0.064801444	-10.3132143	-20.07466574	78.01880807		
1650	-19.81428621	78.16198709	-0.067849191	-10.6316652	-0.067849191	-10.6316652	-19.81398691	77.71245938		
1700	-19.56150906	77.86862431	-0.070970351	-10.94995786	-0.070970351	-10.94995786	-19.56120529	77.40547375		
1750	-19.3161771	77.57467898	-0.07416495	-11.26809118	-0.07416495	-11.26809118	-19.31586895	77.09790791		
1800	-19.07787648	77.28020254	-0.077432993	-11.58606392	-0.077432993	-11.58606392	-19.07756404	76.78981349		
1850	-18.84622726	76.98524192	-0.080774474	-11.90387478	-0.080774474	-11.90387478	-18.8459106	76.48123744		
1900	-18.62087976	76.68983989	-0.084189369	-12.22152234	-0.084189369	-12.22152234	-18.62055896	76.17222277		
1950	-18.40151147	76.39403579	-0.087677642	-12.53900512	-0.087677642	-12.53900512	-18.40118661	75.86280874		
2000	-18.1878243	76.09786561	-0.091239245	-12.85632158	-0.091239245	-12.85632158	-18.18749545	75.55303159		
2050	-17.97954215	75.80136259	-0.09487412	-13.17347007	-0.09487412	-13.17347007	-17.97920937	75.2429246		
2100	-17.77640881	75.50455742	-0.098582194	-13.49044894	-0.098582194	-13.49044894	-17.77607217	74.93251854		
2150	-17.57818609	75.20747849	-0.102363389	-13.80725646	-0.102363389	-13.80725646	-17.57784566	74.6218419		
2200	-17.38465217	74.91015216	-0.106217613	-14.12389084	-0.106217613	-14.12389084	-17.38430801	74.31092115		
2250	-17.19560012	74.61260289	-0.110144768	-14.44035029	-0.110144768	-14.44035029	-17.19525229	73.99978092		
2300	-17.01083662	74.3148536	-0.114144746	-14.75663295	-0.114144746	-14.75663295	-17.01048518	73.68844407		
2350	-16.83018074	74.01692557	-0.118217431	-15.07273694	-0.118217431	-15.07273694	-16.82982575	73.3769321		
2400	-16.65346297	73.71883879	-0.122362701	-15.38866035	-0.122362701	-15.38866035	-16.65310449	73.065265		
2450	-16.48052422	73.420612	-0.126580423	-15.70440123	-0.126580423	-15.70440123	-16.48016229	72.75346158		
2500	-16.311215	73.12226267	-0.13087046	-16.01995764	-0.13087046	-16.01995764	-16.31084969	72.4415396		
2550	-16.14539467	72.8238075	-0.135232668	-16.3353276	-0.135232668	-16.3353276	-16.14502602	72.12951556		
2600	-15.98293076	72.52526197	-0.139666896	-16.6505091	-0.139666896	-16.6505091	-15.98255882	71.81740524		
2650	-15.8236983	72.22664083	-0.144172986	-16.96550014	-0.144172986	-16.96550014	-15.82332313	71.50522341		
2700	-15.66757932	71.92795793	-0.148750775	-17.28029868	-0.148750775	-17.28029868	-15.66720096	71.19298417		
2750	-15.51446231	71.62922655	-0.153400095	-17.59490271	-0.153400095	-17.59490271	-15.51408081	70.88070069		
2800	-15.36424187	71.33046091	-0.158120767	-17.90931012	-0.158120767	-17.90931012	-15.36385727	70.56838393		
2850	-15.21681774	71.03166754	-0.162912622	-18.223519	-0.162912622	-18.223519	-15.21643011	70.25605097		
2900	-15.07209546	70.73286364	-0.167775466	-18.53752716	-0.167775466	-18.53752716	-15.07170482	69.94370752		
2950	-14.92998504	70.43405712	-0.172709111	-18.85133258	-0.172709111	-18.85133258	-14.92959144	69.63136721		
3000	-14.79040105	70.13525903	-0.177713364	-19.1649332	-0.177713364	-19.1649332	-14.79000454	69.31903959		
3050	-14.6532623	69.83647898	-0.182788024	-19.47832695	-0.182788024	-19.47832695	-14.65286291	69.00673476		
3100	-14.51849154	69.53772585	-0.187932889	-19.79151176	-0.187932889	-19.79151176	-14.51808931	68.69446264		
3150	-14.38601515	69.2390095	-0.19314775	-20.10448557	-0.19314775	-20.10448557	-14.38561013	68.3822314		
3200	-14.25576303	68.94033811	-0.198432395	-20.41724631	-0.198432395	-20.41724631	-14.25535525	68.07005013		
3250	-14.12766827	68.64171955	-0.203786608	-20.72979194	-0.203786608	-20.72979194	-14.12725778	67.75792749		
3300	-14.00166704	68.34316194	-0.209210169	-21.0421204	-0.209210169	-21.0421204	-14.00125387	67.4458713		
3350	-13.87769842	68.04467371	-0.214702851	-21.35422959	-0.214702851	-21.35422959	-13.87728261	67.13388846		
3400	-13.75570403	67.7462609	-0.22026443	-21.66611753	-0.22026443	-21.66611753	-13.75528561	66.82198759		
3450	-13.63562824	67.44793246	-0.225894667	-21.9777821	-0.225894667	-21.9777821	-13.63520725	66.510174		
3500	-13.51741744	67.1496916	-0.231593339	-22.28922139	-0.231593339	-22.28922139	-13.51699392	66.19845796		
3550	-13.40102076	66.85154864	-0.237360195	-22.60043324	-0.237360195	-22.60043324	-13.40059474	65.88684255		
3600	-13.28638919	66.55350935	-0.243194994	-22.91141566	-0.243194994	-22.91141566	-13.28596069	65.5753347		
3650	-13.17347546	66.25557598	-0.249097503	-23.22216678	-0.249097503	-23.22216678	-13.17304455	65.26394423		
3700	-13.06223481	65.95775867	-0.255067461	-23.53268444	-0.255067461	-23.53268444	-13.0618015	64.95267315		
3750	-12.95262382	65.66006157	-0.261104619	-23.84296671	-0.261104619	-23.84296671	-12.95218815	64.64152874		
3800	-12.844601	65.36249123	-0.26720872	-24.15301158	-0.26720872	-24.15301158	-12.844163	64.33051568		
3850	-12.73812661	65.06505625	-0.273379492	-24.46281693	-0.273379492	-24.46281693	-12.73768628	64.01963642		
3900	-12.63316139	64.76775025	-0.27961672	-24.7723813	-0.27961672	-24.7723813	-12.63271882	63.70890696		
3950	-12.52966915	64.47058925	-0.285920097	-25.08170229	-0.285920097	-25.08170229	-12.52922434	63.39832228		
4000	-12.42761449	64.17358096	-0.292289343	-25.39077781	-0.292289343	-25.39077781	-12.42716743	63.08788479		
4050	-12.32696174	63.87671107	-0.298724272	-25.69960683	-0.298724272	-25.69960683	-12.32651254	62.77761686		
4100	-12.22767909	63.58000136	-0.305224537	-26.00818666	-0.305224537	-26.00818666	-12.22722776	62.46750743		
4150	-12.12973433	63.28345139	-0.311789887	-26.31651563	-0.311789887	-26.31651563	-12.1292809	62.15756561		
4200	-12.03309745	62.98707468	-0.318419998	-26.62459141	-0.318419998	-26.62459141	-12.0326419	61.84778747		
4250	-11.93773769	62.69086113	-0.325114662	-26.93241285	-0.325114662	-26.93241285	-11.93728008	61.53819052		
4300	-11.84362636	62.39481434	-0.331873603	-27.23997813	-0.331873603	-27.23997813	-11.84316676	61.22877945		
4350	-11.75073683	62.09895092	-0.338696469	-27.54728478	-0.338696469	-27.54728478	-11.75027523	60.9195469		
4400	-11.65904189	61.8032686	-0.345583008	-27.8543313	-0.345583008	-27.8543313	-11.65857831	60.61050257		
4450	-11.56851573	61.50777124	-0.352532929	-28.16111588	-0.352532929	-28.16111588	-11.5680502	60.30165035		
4500	-11.47913337	61.21246255	-0.359545944	-28.46763674	-0.359545944	-28.46763674	-11.47866593	59.99299408		
4550	-11.39087067	60.9173462	-0.366621759	-28.7738921	-0.366621759	-28.7738921	-11.39040134	59.68453749		
4600	-11.30370426	60.62242576	-0.373760079	-29.0798802	-0.373760079	-29.0798802	-11.30323306	59.37628422		
4650	-11.2176115	60.32770469	-0.380960607	-29.3855993	-0.380960607	-29.3855993	-11.21713846	59.06823783		
4700	-11.13257049	60.0331864	-0.388223044	-29.69104769	-0.388223044	-29.69104769	-11.13209564	58.7604018		
4750	-11.04856	59.73887419	-0.395547091	-29.99622366	-0.395547091	-29.99622366	-11.04808336	58.45277954		
4800	-10.96555944	59.44477133	-0.402932444	-30.30112551	-0.402932444	-30.30112551	-10.96508104	58.14537435		
4850	-10.88354888	59.15088097	-0.410378799	-30.60575157	-0.410378799	-30.60575157	-10.88306874	57.83818949		
4900	-10.80250896	58.85720621	-0.417885851	-30.91010019	-0.417885851	-30.91010019	-10.8020271	57.53122814		
4950	-10.72242091	58.56375007	-0.425453291	-31.21416973	-0.425453291	-31.21416973	-10.72193737	57.22449341		
5000	-10.64326653	58.27051555	-0.433080811	-31.51795856	-0.433080811	-31.51795856	-10.64278133	56.91798833		
5050	-10.56502812	57.9775055	-0.440768099	-31.82146509	-0.440768099	-31.82146509	-10.56454128	56.61171589		
5100	-10.48768852	57.68472278	-0.448514844	-32.12468774	-0.448514844	-32.12468774	-10.48720007	56.30567901		
5150	-10.41123105	57.39217015	-0.456320731	-32.42762493	-0.456320731	-32.42762493	-10.410741	55.99988053		
5200	-10.3356395	57.09985034	-0.464185445	-32.73027511	-0.464185445	-32.73027511	-10.33514788	55.69432325		
5250	-10.26089811	56.80776602	-0.47210867	-33.03263675	-0.47210867	-33.03263675	-10.26040495	55.38900989		
5300	-10.18699157	56.51591973	-0.480090088	-33.33470835	-0.480090088	-33.33470835	-10.18649689	55.08394318		
5350	-10.11390499	56.22431411	-0.488129379	-33.63648839	-0.488129379	-33.63648839	-10.11340881	54.77912568		
5400	-10.04162387	55.93295156	-0.496226223	-33.93797542	-0.496226223	-33.93797542	-10.04112622	54.47456002		
5450	-9.970134111	55.6418346	-0.504380298	-34.23916797	-0.504380298	-34.23916797	-9.969635005	54.17024867		
5500	-9.899421993	55.35096559	-0.512591282	-34.5400646	-0.512591282	-34.5400646	-9.898921457	53.86619413		
5550	-9.82947415	55.06034685	-0.520858849	-34.84066389	-0.520858849	-34.84066389	-9.828972207	53.56239884		
5600	-9.760277569	54.76998067	-0.529182676	-35.14096445	-0.529182676	-35.14096445	-9.75977424	53.25886515		
5650	-9.69181958	54.47986938	-0.537562436	-35.44096487	-0.537562436	-35.44096487	-9.691314887	52.95559535		
5700	-9.624087826	54.19001509	-0.545997802	-35.74066381	-0.545997802	-35.74066381	-9.623581791	52.65259178		
5750	-9.557070273	53.90041997	-0.554488445	-36.04005991	-0.554488445	-36.04005991	-9.556562918	52.34985667		
5800	-9.490755187	53.61108621	-0.563034038	-36.33915185	-0.563034038	-36.33915185	-9.490246533	52.04739215		
5850	-9.42513113	53.32201579	-0.571634249	-36.63793832	-0.571634249	-36.63793832	-9.424621198	51.74520043		
5900	-9.360186935	53.03321073	-0.58028875	-36.93641803	-0.58028875	-36.93641803	-9.359675747	51.44328362		
5950	-9.295911725	52.7446731	-0.588997207	-37.23458971	-0.588997207	-37.23458971	-9.295399301	51.14164373		
6000	-9.232294872	52.45640473	-0.597759289	-37.53245211	-0.597759289	-37.53245211	-9.231781234	50.84028287		
6050	-9.169326028	52.1684078	-0.606574661	-37.83000397	-0.606574661	-37.83000397	-9.168811195	50.53920281		
6100	-9.106995048	51.88068383	-0.615442993	-38.12724412	-0.615442993	-38.12724412	-9.106479042	50.23840576		
6150	-9.045292037	51.59323437	-0.624363953	-38.4241714	-0.624363953	-38.4241714	-9.04477488	49.93789383		
6200	-8.984207435	51.30606257	-0.633337193	-38.72078445	-0.633337193	-38.72078445	-8.983689143	49.63766789		
6250	-8.92373172	51.01916874	-0.642362392	-39.01708231	-0.642362392	-39.01708231	-8.923212316	49.33773083		
6300	-8.863855709	50.73255494	-0.65143921	-39.3130638	-0.65143921	-39.3130638	-8.863335213	49.0380842		
6350	-8.804570435	50.44622339	-0.660567306	-39.60872772	-0.660567306	-39.60872772	-8.804048866	48.73872936		
6400	-8.745867066	50.16017524	-0.66974635	-39.90407305	-0.66974635	-39.90407305	-8.745344444	48.4396684		
6450	-8.68773704	49.87441231	-0.678975997	-40.19909865	-0.678975997	-40.19909865	-8.687213384	48.1409029		
6500	-8.630171912	49.58893601	-0.688255916	-40.49380351	-0.688255916	-40.49380351	-8.629647242	47.84243458		
6550	-8.573163472	49.30374795	-0.697585768	-40.78818657	-0.697585768	-40.78818657	-8.572637809	47.54426504		
6600	-8.51670369	49.01884968	-0.706965211	-41.08224678	-0.706965211	-41.08224678	-8.516177052	47.24639586		
6650	-8.460784702	48.73424288	-0.716393908	-41.37598313	-0.716393908	-41.37598313	-8.460257108	46.94882846		
6700	-8.405398758	48.44992833	-0.725871527	-41.66939472	-0.725871527	-41.66939472	-8.404870228	46.65156478		
6750	-8.350538407	48.16590857	-0.735397715	-41.96248041	-0.735397715	-41.96248041	-8.350008958	46.35460559		
6800	-8.296196208	47.882184	-0.744972144	-42.2552394	-0.744972144	-42.2552394	-8.295665861	46.05795304		
6850	-8.242364955	47.5987564	-0.754594472	-42.5476707	-0.754594472	-42.5476707	-8.241833727	45.76160822		
6900	-8.189037542	47.31562661	-0.764264365	-42.83977348	-0.764264365	-42.83977348	-8.188505455	45.46557288		
6950	-8.136207192	47.03279711	-0.773981458	-43.13154655	-0.773981458	-43.13154655	-8.135674261	45.16984779		
7000	-8.083866935	46.75026801	-0.783745444	-43.42298939	-0.783745444	-43.42298939	-8.083333179	44.87443475		
7050	-8.03201022	46.46804096	-0.793555966	-43.71410096	-0.793555966	-43.71410096	-8.031475658	44.579335		
7100	-7.980630482	46.18611687	-0.803412695	-44.00488052	-0.803412695	-44.00488052	-7.980095134	44.28454995		
7150	-7.92972147	45.90449825	-0.813315265	-44.29532697	-0.813315265	-44.29532697	-7.92918535	43.9900801		
7200	-7.879276735	45.62318404	-0.823263375	-44.58543993	-0.823263375	-44.58543993	-7.878739865	43.695928		
7250	-7.829290256	45.34217676	-0.833256664	-44.87521836	-0.833256664	-44.87521836	-7.828752654	43.40209403		
7300	-7.779756058	45.06147838	-0.843294784	-45.16466138	-0.843294784	-45.16466138	-7.779217737	43.10857869		
7350	-7.730668173	44.78108799	-0.85337741	-45.45376846	-0.85337741	-45.45376846	-7.730129155	42.81538466		
7400	-7.682020755	44.50100663	-0.863504216	-45.74253898	-0.863504216	-45.74253898	-7.681481061	42.52251287		
7450	-7.633808317	44.22123756	-0.873674826	-46.03097179	-0.873674826	-46.03097179	-7.633267959	42.22996306		
7500	-7.586025087	43.94178041	-0.883888944	-46.31906659	-0.883888944	-46.31906659	-7.585484082	41.93773686		
7550	-7.538665872	43.66263655	-0.894146175	-46.60682225	-0.894146175	-46.60682225	-7.538124239	41.64583579		
7600	-7.491725046	43.38380609	-0.904446237	-46.8942386	-0.904446237	-46.8942386	-7.491182803	41.35426079		
7650	-7.445197473	43.10529035	-0.914788767	-47.18131476	-0.914788767	-47.18131476	-7.444654639	41.06301289		
7700	-7.399077934	42.82709055	-0.925173439	-47.46805017	-0.925173439	-47.46805017	-7.398534524	40.77209261		
7750	-7.353361434	42.54920716	-0.9355999	-47.75444413	-0.9355999	-47.75444413	-7.352817467	40.4815015		
7800	-7.30804285	42.27164014	-0.946067847	-48.04049635	-0.946067847	-48.04049635	-7.307498346	40.19124075		
7850	-7.263117498	41.99439261	-0.956576897	-48.32620574	-0.956576897	-48.32620574	-7.26257247	39.90130999		
7900	-7.218580566	41.71746543	-0.967126717	-48.61157176	-0.967126717	-48.61157176	-7.218035027	39.61171003		
7950	-7.17442727	41.44085638	-0.977716986	-48.89659421	-0.977716986	-48.89659421	-7.173881245	39.32244402		
8000	-7.130652872	41.16456853	-0.988347395	-49.18127256	-0.988347395	-49.18127256	-7.130106373	39.03351053		
8050	-7.087252914	40.88860207	-0.99901759	-49.46560617	-0.99901759	-49.46560617	-7.086705959	38.74491112		
8100	-7.044222829	40.61295826	-1.009727259	-49.74959468	-1.009727259	-49.74959468	-7.043675431	38.45664582		
8150	-7.001558514	40.33763623	-1.020475995	-50.03323725	-1.020475995	-50.03323725	-7.001010696	38.16871764		
8200	-6.959255357	40.06263822	-1.031263541	-50.31653376	-1.031263541	-50.31653376	-6.958707133	37.8811251		
8250	-6.917309212	39.78796437	-1.042089539	-50.59948367	-1.042089539	-50.59948367	-6.916760597	37.59386966		
8300	-6.875715903	39.5136153	-1.052953657	-50.88208652	-1.052953657	-50.88208652	-6.875166915	37.30695203		
8350	-6.834471328	39.23959163	-1.063855565	-51.16434191	-1.063855565	-51.16434191	-6.833921983	37.02037289		
8400	-6.793571452	38.96589395	-1.074794933	-51.44624944	-1.074794933	-51.44624944	-6.793021766	36.7341329		
8450	-6.753012306	38.69252284	-1.08577143	-51.72780872	-1.08577143	-51.72780872	-6.752462295	36.44823271		
8500	-6.712789987	38.41947885	-1.096784729	-52.00901938	-1.096784729	-52.00901938	-6.712239667	36.16267294		
8550	-6.672900656	38.14676252	-1.107834501	-52.28988108	-1.107834501	-52.28988108	-6.672350044	35.87745418		
8600	-6.633340537	37.87437435	-1.118920418	-52.57039346	-1.118920418	-52.57039346	-6.632789648	35.59257703		
8650	-6.594105914	37.60231484	-1.130042154	-52.85055622	-1.130042154	-52.85055622	-6.593554764	35.30804205		
8700	-6.555193131	37.33058447	-1.141199382	-53.13036904	-1.141199382	-53.13036904	-6.554641736	35.02384977		
8750	-6.51659859	37.0591837	-1.152391779	-53.40983164	-1.152391779	-53.40983164	-6.516046966	34.74000073		
8800	-6.47831875	36.78811295	-1.163619019	-53.68894372	-1.163619019	-53.68894372	-6.477766914	34.45649543		
8850	-6.440350127	36.51737266	-1.174880779	-53.96770503	-1.174880779	-53.96770503	-6.439798093	34.17333436		
8900	-6.40268929	36.24696322	-1.186176737	-54.24611532	-1.186176737	-54.24611532	-6.402137074	33.89051799		
8950	-6.365332861	35.97688501	-1.19750657	-54.52417435	-1.19750657	-54.52417435	-6.364780479	33.60804676		
9000	-6.328277516	35.7071384	-1.208869958	-54.80188191	-1.208869958	-54.80188191	-6.327724983	33.32592113		
9050	-6.291519982	35.43772375	-1.22026658	-55.07923779	-1.22026658	-55.07923779	-6.290967314	33.04414148		
9100	-6.255057034	35.16864138	-1.231696117	-55.35624179	-1.231696117	-55.35624179	-6.254504246	32.76270824		
