!	AVX	Thin	Film	Operation	Date:		2004	
!	Description:		"Series,"	Thin	"Film,"	"LGA,"	RF	Inductors
!	Part	Number:	L06035r6nH					
!	50	MHz	-	10	GHz			
!	Serial	Measurements						
!								
#	mhz	S	db	R	50			
!	S11	S11	S21	S21	S12	S12	S22	S22
!	dB	Phase	dB	Phase	dB	Phase	dB	Phase
50	-36.24271329	83.94005339	-0.012743572	-1.029660486	-0.012743572	-1.029660486	-36.24272468	83.96363278
100	-30.49621893	83.98169054	-0.021923099	-2.007267072	-0.021923099	-2.007267072	-30.49624746	84.0289608
150	-27.11368346	83.4883198	-0.031878534	-2.971989263	-0.031878534	-2.971989263	-27.11372903	83.55920821
200	-24.70755725	82.81970074	-0.042999097	-3.92878894	-0.042999097	-3.92878894	-24.70762095	82.91430735
250	-22.83920595	82.06860549	-0.055432628	-4.879731521	-0.055432628	-4.879731521	-22.83928784	82.18695094
300	-21.31232984	81.27133574	-0.069252417	-5.82590532	-0.069252417	-5.82590532	-21.31242988	81.41344122
350	-20.02188498	80.44546646	-0.08449966	-6.767953852	-0.08449966	-6.767953852	-20.02200306	80.61135118
400	-18.90502128	79.6007123	-0.101199019	-7.70628266	-0.101199019	-7.70628266	-18.90515724	79.79039274
450	-17.9211227	78.7429583	-0.119365615	-8.641156269	-0.119365615	-8.641156269	-17.92127637	78.95645152
500	-17.04241319	77.87602346	-0.139008578	-9.572749491	-0.139008578	-9.572749491	-17.04258437	78.1133435
550	-16.24905402	77.00251793	-0.160133052	-10.50117703	-0.160133052	-10.50117703	-16.24924249	77.2636805
600	-15.52638245	76.12440787	-0.182741286	-11.42650898	-0.182741286	-11.42650898	-15.52658681	76.4092293
650	-14.86323744	75.24276568	-0.206833916	-12.34879675	-0.206833916	-12.34879675	-14.86345987	75.55165768
700	-14.25095278	74.35894662	-0.232409441	-13.26805289	-0.232409441	-13.26805289	-14.25119186	74.69172702
750	-13.68263973	73.47368158	-0.259465586	-14.1842845	-0.259465586	-14.1842845	-13.68289511	73.83034389
800	-13.15274016	72.58759421	-0.287999141	-15.09748535	-0.287999141	-15.09748535	-13.15301187	72.96819494
850	-12.6567056	71.70125158	-0.318006053	-16.00763745	-0.318006053	-16.00763745	-12.65699329	72.10578549
900	-12.19076245	70.81508521	-0.349481772	-16.9147176	-0.349481772	-16.9147176	-12.1910659	71.24357067
950	-11.75174666	69.92947016	-0.382421255	-17.81869682	-0.382421255	-17.81869682	-11.75206565	70.38192273
1000	-11.33697815	69.04472498	-0.416819091	-18.71954249	-0.416819091	-18.71954249	-11.33731244	69.52116059
1050	-10.94416667	68.16112482	-0.452669559	-19.61721895	-0.452669559	-19.61721895	-10.94451601	68.66155995
1100	-10.57133934	67.27891546	-0.489966684	-20.51168847	-0.489966684	-20.51168847	-10.57170345	67.80335598
1150	-10.21678274	66.39828647	-0.528704452	-21.40291398	-0.528704452	-21.40291398	-10.21716156	66.94677909
1200	-9.879002402	65.51944783	-0.568876488	-22.29085482	-0.568876488	-22.29085482	-9.879395624	66.09199711
1250	-9.556683367	64.64255877	-0.610476484	-23.17547205	-0.610476484	-23.17547205	-9.557090756	65.23918516
1300	-9.248663965	63.76776807	-0.653498036	-24.05672645	-0.653498036	-24.05672645	-9.249085318	64.38849572
1350	-8.953911933	62.89521474	-0.697934779	-24.93457984	-0.697934779	-24.93457984	-8.95434699	63.54006093
1400	-8.671506279	62.02501977	-0.74378032	-25.80899433	-0.74378032	-25.80899433	-8.671954811	62.69400649
1450	-8.400621048	61.15729612	-0.791028376	-26.67993328	-0.791028376	-26.67993328	-8.401082769	61.85044367
1500	-8.140513139	60.292144	-0.839672678	-27.5473615	-0.839672678	-27.5473615	-8.140987855	61.00947577
1550	-7.890510741	59.42965691	-0.889707138	-28.4112449	-0.889707138	-28.4112449	-7.890998217	60.17119624
1600	-7.650004725	58.56992001	-0.941125797	-29.27155101	-0.941125797	-29.27155101	-7.650504721	59.33569062
1650	-7.418440828	57.71301094	-0.993922873	-30.12824901	-0.993922873	-30.12824901	-7.418953102	58.50303742
1700	-7.195313135	56.85900081	-1.048092787	-30.98130978	-1.048092787	-30.98130978	-7.195837448	57.67330847
1750	-6.980158519	56.00795502	-1.10363018	-31.83070592	-1.10363018	-31.83070592	-6.980694625	56.84656933
1800	-6.772551772	55.15993265	-1.16052996	-32.67641197	-1.16052996	-32.67641197	-6.773099427	56.02288035
1850	-6.572101539	54.31498813	-1.218787304	-33.51840421	-1.218787304	-33.51840421	-6.572660494	55.20229632
1900	-6.378446682	53.47317073	-1.278397699	-34.35666086	-1.278397699	-34.35666086	-6.379016689	54.38486733
1950	-6.19125317	52.63452503	-1.339356959	-35.19116208	-1.339356959	-35.19116208	-6.191833977	53.57063894
2000	-6.01021139	51.79909189	-1.401661241	-36.02188976	-1.401661241	-36.02188976	-6.010802743	52.75965208
2050	-5.83503368	50.9669073	-1.465307093	-36.84882788	-1.465307093	-36.84882788	-5.835635325	51.9519441
2100	-5.665452324	50.1380042	-1.530291445	-37.67196214	-1.530291445	-37.67196214	-5.666064001	51.14754804
2150	-5.501217508	49.31240951	-1.596611706	-38.4912806	-1.596611706	-38.4912806	-5.501838965	50.34649462
2200	-5.342096284	48.49015423	-1.664265543	-39.30677144	-1.664265543	-39.30677144	-5.34272724	49.54880706
2250	-5.187869964	47.67125474	-1.733251374	-40.11842727	-1.733251374	-40.11842727	-5.188510163	48.75451131
2300	-5.038333986	46.85573183	-1.803567917	-40.92624071	-1.803567917	-40.92624071	-5.038983161	47.96362621
2350	-4.893296377	46.04360485	-1.875214354	-41.73020568	-1.875214354	-41.73020568	-4.893954243	47.17616688
2400	-4.752575819	45.23487674	-1.948190806	-42.53032124	-1.948190806	-42.53032124	-4.753242135	46.39215221
2450	-4.616003103	44.42957348	-2.022497166	-43.32658146	-2.022497166	-43.32658146	-4.616677552	45.61158599
2500	-4.483416979	43.62768965	-2.098134811	-44.11898949	-2.098134811	-44.11898949	-4.484099306	44.83448306
2550	-4.3546662	42.82923432	-2.175105191	-44.90754559	-2.175105191	-44.90754559	-4.355356125	44.06084771
2600	-4.229607791	42.03421389	-2.253410367	-45.69225147	-2.253410367	-45.69225147	-4.23030502	43.29068233
2650	-4.108105824	41.24262243	-2.333053444	-46.47311322	-2.333053444	-46.47311322	-4.108810084	42.52399099
2700	-3.990032935	40.45447529	-2.414037257	-47.25013127	-2.414037257	-47.25013127	-3.990743881	41.76076643
2750	-3.87526594	39.66974607	-2.496366968	-48.0233193	-2.496366968	-48.0233193	-3.875983321	41.00101481
2800	-3.76368984	38.8884391	-2.580047119	-48.79268231	-2.580047119	-48.79268231	-3.764413357	40.24472768
2850	-3.655194734	38.11054655	-2.665083426	-49.55822962	-2.665083426	-49.55822962	-3.655924089	39.49189863
2900	-3.549676208	37.33606271	-2.751482288	-50.31997102	-2.751482288	-50.31997102	-3.550411081	38.74251684
2950	-3.447034567	36.5649709	-2.839251125	-51.0779187	-2.839251125	-51.0779187	-3.447774662	37.99657627
3000	-3.347175197	35.79726556	-2.928397884	-51.83208399	-2.928397884	-51.83208399	-3.34792018	37.25406028
3050	-3.250007936	35.03293402	-3.018931268	-52.58247839	-3.018931268	-52.58247839	-3.250757471	36.51495773
3100	-3.155445095	34.27194163	-3.110862451	-53.32912409	-3.110862451	-53.32912409	-3.156198907	35.77925649
3150	-3.063405463	33.51428604	-3.204201089	-54.07202873	-3.204201089	-54.07202873	-3.064163226	35.04694048
3200	-2.973810225	32.75995438	-3.298958943	-54.81120818	-3.298958943	-54.81120818	-2.97457158	34.31798619
3250	-2.886583506	32.0089163	-3.395149288	-55.54668172	-3.395149288	-55.54668172	-2.887348132	33.59237948
3300	-2.801653359	31.2611542	-3.492785728	-56.27846513	-3.492785728	-56.27846513	-2.802420918	32.87009928
3350	-2.7189507	30.51664597	-3.591883131	-57.00657587	-3.591883131	-57.00657587	-2.71972085	32.15112443
3400	-2.638409329	29.77536843	-3.692457468	-57.73103182	-3.692457468	-57.73103182	-2.639181723	31.43543269
3450	-2.559965779	29.03729733	-3.794525862	-58.45185126	-3.794525862	-58.45185126	-2.560740066	30.72300081
3500	-2.483559165	28.30240751	-3.898106627	-59.16905273	-3.898106627	-59.16905273	-2.48433499	30.01380457
3550	-2.409131056	27.57067286	-4.003219313	-59.88265505	-4.003219313	-59.88265505	-2.409908057	29.30781885
3600	-2.33662534	26.84206642	-4.109884758	-60.59267713	-4.109884758	-60.59267713	-2.337403153	28.6050177
3650	-2.265988115	26.11656043	-4.218125139	-61.299138	-4.218125139	-61.299138	-2.266766368	27.90537436
3700	-2.197167572	25.39412637	-4.327964026	-62.00205667	-4.327964026	-62.00205667	-2.197945891	27.20886135
3750	-2.130113899	24.67473503	-4.439426439	-62.70145206	-4.439426439	-62.70145206	-2.130891903	26.51545048
3800	-2.064779181	23.95835652	-4.552538912	-63.39734296	-4.552538912	-63.39734296	-2.065556483	25.82511292
3850	-2.001117308	23.24496036	-4.667329559	-64.08974789	-4.667329559	-64.08974789	-2.001893518	25.13781924
3900	-1.939083896	22.53451548	-4.783828141	-64.77868505	-4.783828141	-64.77868505	-1.939858617	24.45353946
3950	-1.878636205	21.82699031	-4.902066142	-65.46417223	-4.902066142	-65.46417223	-1.879409033	23.77224307
4000	-1.81973306	21.12235277	-5.022076851	-66.1462267	-5.022076851	-66.1462267	-1.820503588	23.09389912
4050	-1.762334789	20.42057035	-5.143895445	-66.82486516	-5.143895445	-66.82486516	-1.763102603	22.41847619
4100	-1.706403152	19.72161013	-5.26755908	-67.50010358	-5.26755908	-67.50010358	-1.707167832	21.7459425
4150	-1.651901277	19.02543879	-5.393106991	-68.17195716	-5.393106991	-68.17195716	-1.652662397	21.07626589
4200	-1.598793607	18.33202272	-5.520580593	-68.84044017	-5.520580593	-68.84044017	-1.599550734	20.40941388
4250	-1.547045839	17.64132797	-5.650023596	-69.50556586	-5.650023596	-69.50556586	-1.547798534	19.74535371
4300	-1.496624873	16.95332033	-5.781482125	-70.16734637	-5.781482125	-70.16734637	-1.497372692	19.08405234
4350	-1.447498764	16.26796531	-5.915004857	-70.82579256	-5.915004857	-70.82579256	-1.448241254	18.42547653
4400	-1.399636674	15.58522829	-6.050643143	-71.48091387	-6.050643143	-71.48091387	-1.400373377	17.76959282
4450	-1.353008828	14.90507439	-6.188451176	-72.13271823	-6.188451176	-72.13271823	-1.353739278	17.1163676
4500	-1.30758647	14.22746859	-6.328486149	-72.78121187	-6.328486149	-72.78121187	-1.308310195	16.4657671
4550	-1.263341825	13.55237575	-6.47080843	-73.42639913	-6.47080843	-73.42639913	-1.264058344	15.81775745
4600	-1.220248057	12.87976058	-6.615481751	-74.06828235	-6.615481751	-74.06828235	-1.220956884	15.17230466
4650	-1.178279243	12.20958778	-6.762573412	-74.7068616	-6.762573412	-74.7068616	-1.178979883	14.5293747
4700	-1.137410324	11.54182191	-6.912154512	-75.34213456	-6.912154512	-75.34213456	-1.138102275	13.88893349
4750	-1.097617088	10.87642758	-7.064300176	-75.97409617	-7.064300176	-75.97409617	-1.098299839	13.2509469
4800	-1.05887612	10.21336918	-7.219089859	-76.60273855	-7.219089859	-76.60273855	-1.059549153	12.61538083
4850	-1.021164794	9.552611339	-7.376607566	-77.22805055	-7.376607566	-77.22805055	-1.021827582	11.98220117
4900	-0.984461226	8.894118504	-7.536942233	-77.8500176	-7.536942233	-77.8500176	-0.985113236	11.35137386
4950	-0.948744261	8.237855248	-7.70018802	-78.46862127	-7.70018802	-78.46862127	-0.949384949	10.72286488
5000	-0.91399345	7.583786448	-7.866444656	-79.08383885	-7.866444656	-79.08383885	-0.914622263	10.09664025
5050	-0.88018899	6.931876391	-8.035818009	-79.69564334	-8.035818009	-79.69564334	-0.880805369	9.472666147
5100	-0.84731175	6.282089955	-8.208420325	-80.30400248	-8.208420325	-80.30400248	-0.847915125	8.850908783
5150	-0.815343226	5.634392097	-8.384370809	-80.9088785	-8.384370809	-80.9088785	-0.815933017	8.2313345
5200	-0.784265511	4.988747718	-8.5637962	-81.51022761	-8.5637962	-81.51022761	-0.78484113	7.613909768
5250	-0.754061283	4.345121706	-8.746831365	-82.1079994	-8.746831365	-82.1079994	-0.754622132	6.998601208
5300	-0.7247138	3.70347956	-8.933619821	-82.70213584	-8.933619821	-82.70213584	-0.72525927	6.385375562
5350	-0.696206848	3.063786367	-9.124314692	-83.29257095	-9.124314692	-83.29257095	-0.696736322	5.774199762
5400	-0.668524752	2.426007579	-9.319079342	-83.87922959	-9.319079342	-83.87922959	-0.669037601	5.165040911
5450	-0.641652363	1.790109254	-9.518088221	-84.46202637	-9.518088221	-84.46202637	-0.642147946	4.557866258
5500	-0.615574987	1.156056452	-9.72152824	-85.04086517	-9.72152824	-85.04086517	-0.616052658	3.95264332
5550	-0.590278449	0.523815477	-9.929599357	-85.6156369	-9.929599357	-85.6156369	-0.590737546	3.349339743
5600	-0.565749042	-0.106647031	-10.14251602	-86.18621839	-10.14251602	-86.18621839	-0.566188892	2.747923397
5650	-0.541973475	-0.735365258	-10.3605089	-86.75247122	-10.3605089	-86.75247122	-0.542393395	2.148362411
5700	-0.518938913	-1.362372615	-10.58382601	-87.31423903	-10.58382601	-87.31423903	-0.519338208	1.550625101
5750	-0.496632956	-1.987701953	-10.81273455	-87.87134541	-10.81273455	-87.87134541	-0.497010919	0.95468002
5800	-0.475043576	-2.611387137	-11.04752337	-88.42359188	-11.04752337	-88.42359188	-0.475399488	0.360495996
5850	-0.454159206	-3.233459682	-11.28850421	-88.97075346	-11.28850421	-88.97075346	-0.454492334	-0.231957957
5900	-0.433968598	-3.85395319	-11.53601569	-89.51257698	-11.53601569	-89.51257698	-0.434278199	-0.82271253
5950	-0.414460914	-4.472899864	-11.79042511	-90.04877538	-11.79042511	-90.04877538	-0.414746228	-1.411798153
6000	-0.395625684	-5.090331361	-12.05213215	-90.57902322	-12.05213215	-90.57902322	-0.395885942	-1.999245041
6050	-0.377452772	-5.706280019	-12.32157312	-91.10295129	-12.32157312	-91.10295129	-0.377687187	-2.585083078
6100	-0.359932393	-6.320777475	-12.59922503	-91.62013914	-12.59922503	-91.62013914	-0.360140168	-3.16934191
6150	-0.343055091	-6.933855399	-12.88561101	-92.13010707	-12.88561101	-92.13010707	-0.343235414	-3.752050928
6200	-0.326811761	-7.545544147	-13.18130584	-92.63230563	-13.18130584	-92.63230563	-0.326963802	-4.333239217
6250	-0.311193592	-8.155874546	-13.48694372	-93.12610425	-13.48694372	-93.12610425	-0.311316507	-4.912935567
6300	-0.29619203	-8.764879418	-13.80322734	-93.61077715	-13.80322734	-93.61077715	-0.296284966	-5.491168488
6350	-0.281798936	-9.372586215	-14.13093445	-94.08548257	-14.13093445	-94.08548257	-0.281861016	-6.067966249
6400	-0.268006352	-9.979026996	-14.47093399	-94.54924432	-14.47093399	-94.54924432	-0.268036688	-6.64335677
6450	-0.254806658	-10.58423095	-14.82419672	-95.00092147	-14.82419672	-95.00092147	-0.254804344	-7.2173677
6500	-0.242192491	-11.18822797	-15.19181372	-95.43917505	-15.19181372	-95.43917505	-0.242156603	-7.790026366
6550	-0.230156756	-11.79104755	-15.57501626	-95.86242403	-15.57501626	-95.86242403	-0.230086357	-8.361359845
6600	-0.218692634	-12.39271823	-15.97520045	-96.26878936	-15.97520045	-96.26878936	-0.218586766	-8.931394874
6650	-0.207793547	-12.99326902	-16.39395866	-96.65602252	-16.39395866	-96.65602252	-0.207651232	-9.500157869
6700	-0.19745314	-13.5927298	-16.83311815	-97.02141174	-16.83311815	-97.02141174	-0.197273391	-10.06767499
6750	-0.187665358	-14.19112731	-17.29478617	-97.36165736	-17.29478617	-97.36165736	-0.18744716	-10.63397206
6800	-0.178424355	-14.78848916	-17.78141312	-97.6727072	-17.78141312	-97.6727072	-0.178166672	-11.19907466
6850	-0.169724475	-15.38484517	-18.29587136	-97.94953165	-18.29587136	-97.94953165	-0.169426261	-11.76300786
6900	-0.161560338	-15.98022189	-18.84155202	-98.18581264	-18.84155202	-98.18581264	-0.161220523	-12.32579663
6950	-0.153926771	-16.57464622	-19.42249995	-98.37350827	-19.42249995	-98.37350827	-0.153544263	-12.88746563
7000	-0.146818807	-17.16814544	-20.04359049	-98.50222745	-20.04359049	-98.50222745	-0.146392492	-13.448039
7050	-0.140231688	-17.76074628	-20.71076859	-98.55831302	-20.71076859	-98.55831302	-0.139760433	-14.00754082
7100	-0.134160865	-18.3524752	-21.43137959	-98.52346189	-21.43137959	-98.52346189	-0.133643513	-14.56599465
7150	-0.128601985	-18.9433584	-22.21463506	-98.37258697	-22.21463506	-98.37258697	-0.128037357	-15.12342389
7200	-0.123550892	-19.5334218	-23.07228173	-98.07039105	-23.07228173	-98.07039105	-0.122937787	-15.67985144
7250	-0.11900362	-20.12269107	-24.01958483	-97.56565832	-24.01958483	-97.56565832	-0.118340812	-16.23530004
7300	-0.114956389	-20.7111916	-25.07680386	-96.78130079	-25.07680386	-96.78130079	-0.114242629	-16.78979212
7350	-0.111405604	-21.29894854	-26.27144697	-95.59604693	-26.27144697	-95.59604693	-0.110639616	-17.34334967
7400	-0.108347846	-21.88598674	-27.64172229	-93.8085483	-27.64172229	-93.8085483	-0.107528331	-17.89599441
7450	-0.105779873	-22.47233082	-29.24156065	-91.06157521	-29.24156065	-91.06157521	-0.104905505	-18.44774767
7500	-0.103698614	-23.05800512	-31.14602852	-86.66789564	-31.14602852	-86.66789564	-0.10276804	-18.99863065
7550	-0.102101166	-23.64303371	-33.44456227	-79.17862555	-33.44456227	-79.17862555	-0.101113005	-19.5486642
7600	-0.100984789	-24.22744041	-36.13719391	-65.34785591	-36.13719391	-65.34785591	-0.099937634	-20.0978684
7650	-0.100346909	-24.81124878	-38.52576336	-39.44748433	-38.52576336	-39.44748433	-0.099239321	-20.64626382
7700	-0.100185105	-25.39448211	-38.44565124	-4.531076916	-38.44565124	-4.531076916	-0.09901562	-21.19386984
7750	-0.100497116	-25.97716345	-36.00830297	20.6047871	-36.00830297	20.6047871	-0.099264235	-21.74070606
7800	-0.10128083	-26.55931557	-33.34479222	33.96392014	-33.34479222	33.96392014	-0.099983027	-22.28679185
7850	-0.102534288	-27.14096098	-31.08350084	41.23001449	-31.08350084	41.23001449	-0.101170004	-22.83214577
7900	-0.104255676	-27.72212196	-29.2118271	45.51300831	-29.2118271	45.51300831	-0.102823318	-23.37678624
7950	-0.106443325	-28.3028205	-27.64016616	48.20147077	-27.64016616	48.20147077	-0.104941268	-23.92073155
8000	-0.109095707	-28.88307837	-26.29466139	49.9572544	-26.29466139	49.9572544	-0.107522293	-24.46399874
8050	-0.112211439	-29.46291705	-25.12238058	51.12603675	-25.12238058	51.12603675	-0.110564972	-25.00660739
8100	-0.115789268	-30.0423578	-24.0858102	51.90342269	-24.0858102	51.90342269	-0.114068017	-25.54857259
8150	-0.119828076	-30.6214216	-23.15790945	52.40760691	-23.15790945	52.40760691	-0.118030276	-26.08991111
8200	-0.124326892	-31.20012919	-22.31873669	52.7139208	-22.31873669	52.7139208	-0.122450736	-26.6306417
8250	-0.129284852	-31.77850107	-21.55325205	52.87252186	-21.55325205	52.87252186	-0.127328498	-27.1707774
8300	-0.134701246	-32.35655747	-20.84986645	52.9180439	-20.84986645	52.9180439	-0.132662809	-27.7103364
8350	-0.140575474	-32.93431838	-20.19948535	52.87514177	-20.19948535	52.87514177	-0.13845303	-28.24933339
8400	-0.146907073	-33.51180353	-19.59484976	52.7618292	-19.59484976	52.7618292	-0.144698654	-28.78778437
8450	-0.153695683	-34.08903247	-19.03008207	52.59156536	-19.03008207	52.59156536	-0.151399281	-29.32570155
8500	-0.160941094	-34.6660244	-18.50035679	52.37460283	-18.50035679	52.37460283	-0.158554656	-29.86310197
8550	-0.168643198	-35.24279833	-18.00166924	52.11888598	-18.00166924	52.11888598	-0.166164624	-30.39999889
8600	-0.176802011	-35.81937305	-17.53065947	51.83066332	-17.53065947	51.83066332	-0.174229154	-30.93640607
8650	-0.185417663	-36.39576706	-17.08448217	51.51491547	-17.08448217	51.51491547	-0.182748331	-31.47233694
8700	-0.194490404	-36.97199864	-16.66070749	51.17565996	-16.66070749	51.17565996	-0.191722354	-32.00780457
8750	-0.204020595	-37.54808583	-16.25724432	50.8161723	-16.25724432	50.8161723	-0.201151535	-32.54282168
8800	-0.214008712	-38.12404643	-15.87228054	50.43914894	-15.87228054	50.43914894	-0.211036296	-33.07740066
8850	-0.224455342	-38.699898	-15.50423577	50.0468292	-15.50423577	50.0468292	-0.221377173	-33.61155353
8900	-0.235361182	-39.27565785	-15.15172365	49.64108766	-15.15172365	49.64108766	-0.232174807	-34.14529195
8950	-0.24672704	-39.85134309	-14.81352151	49.22350504	-14.81352151	49.22350504	-0.24342995	-34.67862724
9000	-0.25855383	-40.42697054	-14.4885457	48.79542326	-14.4885457	48.79542326	-0.25514346	-35.21157034
9050	-0.270842576	-41.00255683	-14.17583136	48.35798853	-14.17583136	48.35798853	-0.2673163	-35.74413185
9100	-0.283594407	-41.57811834	-13.87451577	47.91218547	-13.87451577	47.91218547	-0.279949537	-36.27632199
9150	-0.296810557	-42.15367123	-13.58382451	47.4588644	-13.58382451	47.4588644	-0.293044345	-36.80815063
9200	-0.310492364	-42.7292314	-13.30305981	46.99876319	-13.30305981	46.99876319	-0.306601996	-37.33962725
9250	-0.324641271	-43.30481454	-13.03159087	46.53252511	-13.03159087	46.53252511	-0.320623868	-37.87076099
