!	AVX	Thin	Film	Operation	Date:	2004																																										
!	Description:	"Series,"	Thin	"Film,"	"LGA,"	RF	Inductors																																									
!	Part	Number:	L060315nH																																													
!	25	MHz	-	4	GHz																																											
!	Serial	Measurements																																														
!																																																
#	mhz	S	db	R	50																																											
!	S11	S11	S21	S21	S12	S12	S22	S22																																								
!	dB	Phase	dB	Phase	dB	Phase	dB	Phase																																								
25	-34.1211	87.4859	-0.0056	-1.1980	-0.0056	-1.1980	-34.1211	87.4986																																								
50	-28.1042	86.2744	-0.0146	-2.3955	-0.0146	-2.3955	-28.1043	86.2965																																								
75	-24.5891	85.0639	-0.0270	-3.5917	-0.0270	-3.5917	-24.5891	85.0962																																								
100	-22.0999	83.8555	-0.0428	-4.7860	-0.0428	-4.7860	-22.0999	83.8981																																								
125	-20.1741	82.6498	-0.0620	-5.9777	-0.0620	-5.9777	-20.1741	82.7028																																								
150	-18.6057	81.4475	-0.0846	-7.1662	-0.0846	-7.1662	-18.6057	81.5110																																								
175	-17.2848	80.2492	-0.1104	-8.3507	-0.1104	-8.3507	-17.2848	80.3232																																								
200	-16.1457	79.0556	-0.1396	-9.5306	-0.1396	-9.5306	-16.1458	79.1401																																								
225	-15.1462	77.8674	-0.1720	-10.7054	-0.1720	-10.7054	-15.1463	77.9623																																								
250	-14.2572	76.6849	-0.2076	-11.8745	-0.2076	-11.8745	-14.2573	76.7904																																								
275	-13.4581	75.5089	-0.2464	-13.0372	-0.2464	-13.0372	-13.4582	75.6249																																								
300	-12.7337	74.3398	-0.2883	-14.1931	-0.2883	-14.1931	-12.7338	74.4663																																								
325	-12.0723	73.1782	-0.3333	-15.3416	-0.3333	-15.3416	-12.0724	73.3152																																								
350	-11.4648	72.0245	-0.3812	-16.4822	-0.3812	-16.4822	-11.4649	72.1720																																								
375	-10.9042	70.8791	-0.4321	-17.6145	-0.4321	-17.6145	-10.9043	71.0371																																								
400	-10.3845	69.7426	-0.4859	-18.7381	-0.4859	-18.7381	-10.3847	69.9111																																								
425	-9.9011	68.6152	-0.5425	-19.8525	-0.5425	-19.8525	-9.9012	68.7942																																								
450	-9.4499	67.4973	-0.6019	-20.9573	-0.6019	-20.9573	-9.4501	67.6869																																								
475	-9.0277	66.3894	-0.6639	-22.0523	-0.6639	-22.0523	-9.0278	66.5895																																								
500	-8.6315	65.2916	-0.7286	-23.1372	-0.7286	-23.1372	-8.6317	65.5022																																								
525	-8.2591	64.2043	-0.7959	-24.2115	-0.7959	-24.2115	-8.2592	64.4254																																								
550	-7.9082	63.1276	-0.8656	-25.2751	-0.8656	-25.2751	-7.9084	63.3593																																								
575	-7.5770	62.0619	-0.9377	-26.3277	-0.9377	-26.3277	-7.5772	62.3042																																								
600	-7.2640	61.0073	-1.0122	-27.3692	-1.0122	-27.3692	-7.2642	61.2602																																								
625	-6.9677	59.9640	-1.0890	-28.3993	-1.0890	-28.3993	-6.9680	60.2274																																								
650	-6.6869	58.9322	-1.1680	-29.4179	-1.1680	-29.4179	-6.6871	59.2061																																								
675	-6.4204	57.9119	-1.2491	-30.4249	-1.2491	-30.4249	-6.4207	58.1963																																								
700	-6.1673	56.9032	-1.3324	-31.4202	-1.3324	-31.4202	-6.1675	57.1982																																								
725	-5.9266	55.9062	-1.4176	-32.4036	-1.4176	-32.4036	-5.9268	56.2118																																								
750	-5.6974	54.9210	-1.5049	-33.3752	-1.5049	-33.3752	-5.6977	55.2372																																								
775	-5.4792	53.9476	-1.5940	-34.3349	-1.5940	-34.3349	-5.4794	54.2743																																								
800	-5.2711	52.9860	-1.6850	-35.2826	-1.6850	-35.2826	-5.2714	53.3233																																								
825	-5.0725	52.0362	-1.7777	-36.2184	-1.7777	-36.2184	-5.0728	52.3841																																								
850	-4.8830	51.0982	-1.8722	-37.1422	-1.8722	-37.1422	-4.8833	51.4567																																								
875	-4.7019	50.1720	-1.9683	-38.0541	-1.9683	-38.0541	-4.7022	50.5411																																								
900	-4.5287	49.2575	-2.0661	-38.9542	-2.0661	-38.9542	-4.5290	49.6371																																								
925	-4.3631	48.3545	-2.1655	-39.8425	-2.1655	-39.8425	-4.3634	48.7448																																								
950	-4.2046	47.4632	-2.2663	-40.7190	-2.2663	-40.7190	-4.2049	47.8641																																								
975	-4.0528	46.5833	-2.3687	-41.5839	-2.3687	-41.5839	-4.0531	46.9949																																								
1000	-3.9073	45.7148	-2.4725	-42.4372	-2.4725	-42.4372	-3.9077	46.1370																																								
1025	-3.7679	44.8576	-2.5777	-43.2790	-2.5777	-43.2790	-3.7683	45.2904																																								
1050	-3.6343	44.0116	-2.6842	-44.1095	-2.6842	-44.1095	-3.6346	44.4550																																								
1075	-3.5060	43.1765	-2.7921	-44.9287	-2.7921	-44.9287	-3.5064	43.6306																																								
1100	-3.3829	42.3524	-2.9012	-45.7368	-2.9012	-45.7368	-3.3833	42.8172																																								
1125	-3.2647	41.5391	-3.0116	-46.5339	-3.0116	-46.5339	-3.2651	42.0145																																								
1150	-3.1512	40.7364	-3.1233	-47.3201	-3.1233	-47.3201	-3.1516	41.2224																																								
1175	-3.0421	39.9441	-3.2361	-48.0955	-3.2361	-48.0955	-3.0425	40.4409																																								
1200	-2.9373	39.1622	-3.3501	-48.8604	-3.3501	-48.8604	-2.9377	39.6697																																								
1225	-2.8364	38.3905	-3.4652	-49.6148	-3.4652	-49.6148	-2.8368	38.9087																																								
1250	-2.7395	37.6289	-3.5814	-50.3589	-3.5814	-50.3589	-2.7399	38.1577																																								
1275	-2.6461	36.8771	-3.6988	-51.0929	-3.6988	-51.0929	-2.6466	37.4166																																								
1300	-2.5563	36.1350	-3.8172	-51.8169	-3.8172	-51.8169	-2.5567	36.6852																																								
1325	-2.4698	35.4024	-3.9367	-52.5310	-3.9367	-52.5310	-2.4703	35.9634																																								
1350	-2.3866	34.6793	-4.0572	-53.2353	-4.0572	-53.2353	-2.3870	35.2511																																								
1375	-2.3063	33.9654	-4.1788	-53.9302	-4.1788	-53.9302	-2.3068	34.5479																																								
1400	-2.2290	33.2606	-4.3014	-54.6156	-4.3014	-54.6156	-2.2295	33.8538																																								
1425	-2.1545	32.5646	-4.4250	-55.2918	-4.4250	-55.2918	-2.1550	33.1687																																								
1450	-2.0827	31.8774	-4.5496	-55.9589	-4.5496	-55.9589	-2.0831	32.4923																																								
1475	-2.0134	31.1988	-4.6753	-56.6171	-4.6753	-56.6171	-2.0138	31.8244																																								
1500	-1.9466	30.5287	-4.8019	-57.2664	-4.8019	-57.2664	-1.9470	31.1651																																								
1525	-1.8821	29.8668	-4.9295	-57.9072	-4.9295	-57.9072	-1.8825	30.5140																																								
1550	-1.8199	29.2130	-5.0582	-58.5394	-5.0582	-58.5394	-1.8203	29.8710																																								
1575	-1.7598	28.5671	-5.1878	-59.1632	-5.1878	-59.1632	-1.7603	29.2360																																								
1600	-1.7018	27.9290	-5.3184	-59.7789	-5.3184	-59.7789	-1.7023	28.6088																																								
1625	-1.6458	27.2986	-5.4500	-60.3864	-5.4500	-60.3864	-1.6463	27.9892																																								
1650	-1.5918	26.6757	-5.5826	-60.9861	-5.5826	-60.9861	-1.5923	27.3771																																								
1675	-1.5395	26.0601	-5.7163	-61.5779	-5.7163	-61.5779	-1.5400	26.7724																																								
1700	-1.4891	25.4517	-5.8510	-62.1621	-5.8510	-62.1621	-1.4896	26.1749																																								
1725	-1.4403	24.8504	-5.9867	-62.7387	-5.9867	-62.7387	-1.4408	25.5845																																								
1750	-1.3932	24.2559	-6.1234	-63.3079	-6.1234	-63.3079	-1.3937	25.0010																																								
1775	-1.3476	23.6683	-6.2613	-63.8698	-6.2613	-63.8698	-1.3481	24.4243																																								
1800	-1.3035	23.0872	-6.4002	-64.4246	-6.4002	-64.4246	-1.3041	23.8541																																								
1825	-1.2609	22.5127	-6.5402	-64.9723	-6.5402	-64.9723	-1.2615	23.2905																																								
1850	-1.2198	21.9444	-6.6813	-65.5130	-6.6813	-65.5130	-1.2203	22.7333																																								
1875	-1.1799	21.3825	-6.8235	-66.0470	-6.8235	-66.0470	-1.1804	22.1823																																								
1900	-1.1414	20.8266	-6.9669	-66.5742	-6.9669	-66.5742	-1.1419	21.6374																																								
1925	-1.1041	20.2766	-7.1115	-67.0948	-7.1115	-67.0948	-1.1046	21.0985																																								
1950	-1.0680	19.7325	-7.2573	-67.6089	-7.2573	-67.6089	-1.0685	20.5654																																								
1975	-1.0331	19.1941	-7.4043	-68.1166	-7.4043	-68.1166	-1.0336	20.0381																																								
2000	-0.9993	18.6614	-7.5526	-68.6180	-7.5526	-68.6180	-0.9998	19.5164																																								
2025	-0.9666	18.1341	-7.7022	-69.1132	-7.7022	-69.1132	-0.9671	19.0002																																								
2050	-0.9349	17.6121	-7.8531	-69.6021	-7.8531	-69.6021	-0.9354	18.4893																																								
2075	-0.9043	17.0954	-8.0054	-70.0851	-8.0054	-70.0851	-0.9048	17.9837																																								
2100	-0.8746	16.5839	-8.1591	-70.5620	-8.1591	-70.5620	-0.8751	17.4833																																								
2125	-0.8459	16.0773	-8.3142	-71.0331	-8.3142	-71.0331	-0.8464	16.9879																																								
2150	-0.8181	15.5757	-8.4708	-71.4983	-8.4708	-71.4983	-0.8186	16.4975																																								
2175	-0.7911	15.0789	-8.6289	-71.9577	-8.6289	-71.9577	-0.7917	16.0119																																								
2200	-0.7651	14.5868	-8.7885	-72.4114	-8.7885	-72.4114	-0.7656	15.5310																																								
2225	-0.7398	14.0994	-8.9498	-72.8594	-8.9498	-72.8594	-0.7403	15.0547																																								
2250	-0.7154	13.6164	-9.1128	-73.3019	-9.1128	-73.3019	-0.7159	14.5830																																								
2275	-0.6917	13.1379	-9.2775	-73.7387	-9.2775	-73.7387	-0.6922	14.1158																																								
2300	-0.6688	12.6637	-9.4440	-74.1701	-9.4440	-74.1701	-0.6693	13.6528																																								
2325	-0.6466	12.1938	-9.6123	-74.5959	-9.6123	-74.5959	-0.6471	13.1942																																								
2350	-0.6251	11.7279	-9.7825	-75.0163	-9.7825	-75.0163	-0.6256	12.7397																																								
2375	-0.6042	11.2662	-9.9546	-75.4313	-9.9546	-75.4313	-0.6047	12.2892																																								
2400	-0.5841	10.8084	-10.1288	-75.8408	-10.1288	-75.8408	-0.5846	11.8428																																								
2425	-0.5646	10.3545	-10.3051	-76.2450	-10.3051	-76.2450	-0.5651	11.4002																																								
2450	-0.5457	9.9044	-10.4836	-76.6437	-10.4836	-76.6437	-0.5462	10.9615																																								
2475	-0.5274	9.4580	-10.6644	-77.0370	-10.6644	-77.0370	-0.5279	10.5266																																								
2500	-0.5097	9.0152	-10.8475	-77.4250	-10.8475	-77.4250	-0.5102	10.0953																																								
2525	-0.4925	8.5761	-11.0331	-77.8074	-11.0331	-77.8074	-0.4930	9.6676																																								
2550	-0.4760	8.1404	-11.2212	-78.1844	-11.2212	-78.1844	-0.4764	9.2434																																								
2575	-0.4599	7.7081	-11.4119	-78.5559	-11.4119	-78.5559	-0.4604	8.8226																																								
2600	-0.4444	7.2792	-11.6054	-78.9219	-11.6054	-78.9219	-0.4448	8.4052																																								
2625	-0.4293	6.8536	-11.8018	-79.2823	-11.8018	-79.2823	-0.4298	7.9911																																								
2650	-0.4148	6.4312	-12.0011	-79.6369	-12.0011	-79.6369	-0.4153	7.5803																																								
2675	-0.4008	6.0119	-12.2035	-79.9859	-12.2035	-79.9859	-0.4012	7.1726																																								
2700	-0.3872	5.5957	-12.4092	-80.3289	-12.4092	-80.3289	-0.3876	6.7680																																								
2725	-0.3740	5.1824	-12.6183	-80.6660	-12.6183	-80.6660	-0.3744	6.3664																																								
2750	-0.3613	4.7722	-12.8309	-80.9970	-12.8309	-80.9970	-0.3617	5.9678																																								
2775	-0.3491	4.3648	-13.0472	-81.3218	-13.0472	-81.3218	-0.3495	5.5721																																								
2800	-0.3372	3.9603	-13.2673	-81.6402	-13.2673	-81.6402	-0.3376	5.1793																																								
2825	-0.3258	3.5585	-13.4915	-81.9519	-13.4915	-81.9519	-0.3262	4.7892																																								
2850	-0.3148	3.1594	-13.7200	-82.2569	-13.7200	-82.2569	-0.3151	4.4019																																								
2875	-0.3041	2.7630	-13.9529	-82.5548	-13.9529	-82.5548	-0.3044	4.0173																																								
2900	-0.2938	2.3692	-14.1904	-82.8454	-14.1904	-82.8454	-0.2941	3.6353																																								
2925	-0.2839	1.9779	-14.4329	-83.1285	-14.4329	-83.1285	-0.2842	3.2559																																								
2950	-0.2744	1.5892	-14.6806	-83.4035	-14.6806	-83.4035	-0.2747	2.8790																																								
2975	-0.2652	1.2028	-14.9337	-83.6703	-14.9337	-83.6703	-0.2655	2.5046																																								
3000	-0.2563	0.8189	-15.1926	-83.9282	-15.1926	-83.9282	-0.2566	2.1326																																								
3025	-0.2478	0.4373	-15.4576	-84.1770	-15.4576	-84.1770	-0.2480	1.7629																																								
3050	-0.2396	0.0580	-15.7290	-84.4160	-15.7290	-84.4160	-0.2398	1.3956																																								
3075	-0.2317	-0.3190	-16.0072	-84.6445	-16.0072	-84.6445	-0.2319	1.0306																																								
3100	-0.2242	-0.6938	-16.2926	-84.8620	-16.2926	-84.8620	-0.2244	0.6678																																								
3125	-0.2169	-1.0665	-16.5856	-85.0677	-16.5856	-85.0677	-0.2171	0.3072																																								
3150	-0.2099	-1.4370	-16.8869	-85.2605	-16.8869	-85.2605	-0.2101	-0.0512																																								
3175	-0.2033	-1.8055	-17.1968	-85.4396	-17.1968	-85.4396	-0.2034	-0.4075																																								
3200	-0.1969	-2.1719	-17.5160	-85.6037	-17.5160	-85.6037	-0.1970	-0.7618																																								
3225	-0.1908	-2.5364	-17.8452	-85.7516	-17.8452	-85.7516	-0.1909	-1.1140																																								
3250	-0.1849	-2.8988	-18.1850	-85.8816	-18.1850	-85.8816	-0.1850	-1.4643																																								
3275	-0.1794	-3.2594	-18.5362	-85.9921	-18.5362	-85.9921	-0.1794	-1.8125																																								
3300	-0.1741	-3.6180	-18.8998	-86.0809	-18.8998	-86.0809	-0.1741	-2.1589																																								
3325	-0.1690	-3.9748	-19.2766	-86.1457	-19.2766	-86.1457	-0.1690	-2.5034																																								
3350	-0.1643	-4.3298	-19.6679	-86.1836	-19.6679	-86.1836	-0.1642	-2.8460																																								
3375	-0.1597	-4.6831	-20.0749	-86.1913	-20.0749	-86.1913	-0.1596	-3.1869																																								
3400	-0.1554	-5.0345	-20.4989	-86.1649	-20.4989	-86.1649	-0.1553	-3.5259																																								
3425	-0.1513	-5.3843	-20.9416	-86.0995	-20.9416	-86.0995	-0.1512	-3.8632																																								
3450	-0.1475	-5.7324	-21.4047	-85.9896	-21.4047	-85.9896	-0.1474	-4.1988																																								
3475	-0.1439	-6.0789	-21.8904	-85.8281	-21.8904	-85.8281	-0.1437	-4.5327																																								
3500	-0.1405	-6.4237	-22.4010	-85.6065	-22.4010	-85.6065	-0.1403	-4.8650																																								
3525	-0.1374	-6.7670	-22.9393	-85.3142	-22.9393	-85.3142	-0.1371	-5.1956																																								
3550	-0.1344	-7.1087	-23.5086	-84.9380	-23.5086	-84.9380	-0.1342	-5.5247																																								
3575	-0.1317	-7.4488	-24.1128	-84.4610	-24.1128	-84.4610	-0.1314	-5.8522																																								
3600	-0.1292	-7.7875	-24.7562	-83.8614	-24.7562	-83.8614	-0.1288	-6.1781																																								
3625	-0.1269	-8.1247	-25.4443	-83.1108	-25.4443	-83.1108	-0.1265	-6.5026																																								
3650	-0.1248	-8.4605	-26.1834	-82.1715	-26.1834	-82.1715	-0.1243	-6.8255																																								
3675	-0.1228	-8.7949	-26.9812	-80.9919	-26.9812	-80.9919	-0.1224	-7.1471																																								
3700	-0.1211	-9.1279	-27.8468	-79.5009	-27.8468	-79.5009	-0.1206	-7.4672																																								
3725	-0.1196	-9.4595	-28.7910	-77.5975	-28.7910	-77.5975	-0.1191	-7.7859																																								
3750	-0.1183	-9.7898	-29.8262	-75.1347	-29.8262	-75.1347	-0.1177	-8.1032																																								
3775	-0.1171	-10.1188	-30.9650	-71.8935	-30.9650	-71.8935	-0.1165	-8.4192																																								
3800	-0.1162	-10.4466	-32.2177	-67.5407	-32.2177	-67.5407	-0.1155	-8.7339																																								
3825	-0.1154	-10.7731	-33.5821	-61.5665	-33.5821	-61.5665	-0.1147	-9.0473																																								
3850	-0.1148	-11.0984	-35.0196	-53.2193	-35.0196	-53.2193	-0.1140	-9.3594																																								
3875	-0.1144	-11.4225	-36.4015	-41.5615	-36.4015	-41.5615	-0.1136	-9.6703																																								
3900	-0.1141	-11.7454	-37.4381	-26.0444	-37.4381	-26.0444	-0.1133	-9.9800																																								
3925	-0.1140	-12.0672	-37.7366	-7.8963	-37.7366	-7.8963	-0.1131	-10.2885																																								
3950	-0.1141	-12.3879	-37.1546	9.5536	-37.1546	9.5536	-0.1132	-10.5959																																								
3975	-0.1144	-12.7075	-35.9802	23.6041	-35.9802	23.6041	-0.1134	-10.9021																																								
4000	-0.1148	-13.0260	-34.5932	33.8859	-34.5932	33.8859	-0.1138	-11.2072																																								
																																																
																																																
																																																
																																																
																																																
																																																
																																																
																																																
																																																
																																																
																																																
																																																
																																																
																																																
																																																
																																																
																																																
																																																
																																																
																																																
																																																
																																																
																																																
																																																
																																																
																																																
																																																
																																																
																																																
																																																
																																																
