!	AVX	Thin	Film	Operation	Date:	2004																																										
!	Description:	"Series,"	Thin	"Film,"	"LGA,"	RF	Inductors																																									
!	Part	Number:	L060310nH																																													
!	25	MHz	-	6	GHz																																											
!	Serial	Measurements																																														
!																																																
#	mhz	S	db	R	50																																											
!	S11	S11	S21	S21	S12	S12	S22	S22																																								
!	dB	Phase	dB	Phase	dB	Phase	dB	Phase																																								
25	-37.03555859	83.28288651	-0.013259572	-0.887408767	-0.013259572	-0.887408767	-37.03558639	83.29447312																																								
50	-31.32901393	83.6339508	-0.022252417	-1.720946548	-0.022252417	-1.720946548	-31.32902783	83.65432848																																								
75	-27.96622539	83.3500265	-0.0317427	-2.541212322	-0.0317427	-2.541212322	-27.96624615	83.38044174																																								
100	-25.57322462	82.86081455	-0.042122537	-3.353182342	-0.042122537	-3.353182342	-25.57325882	82.90184985																																								
125	-23.7147254	82.27700332	-0.053531748	-4.158960565	-0.053531748	-4.158960565	-23.71476633	82.32796217																																								
150	-22.19571451	81.64072397	-0.066035825	-4.959679429	-0.066035825	-4.959679429	-22.1957655	81.70191324																																								
175	-20.91177188	80.97250688	-0.079669588	-5.756028658	-0.079669588	-5.756028658	-20.9118333	81.04394589																																								
200	-19.80039568	80.28348507	-0.094452601	-6.548458098	-0.094452601	-6.548458098	-19.80046766	80.3651696																																								
225	-18.82118417	79.58029623	-0.110395897	-7.337274335	-0.110395897	-7.337274335	-18.82126696	79.6722412																																								
250	-17.94650282	78.86719727	-0.127505314	-8.12269213	-0.127505314	-8.12269213	-17.94659656	78.9694067																																								
275	-17.15661178	78.14705316	-0.145783319	-8.904863939	-0.145783319	-8.904863939	-17.15671661	78.2595336																																								
300	-16.43691693	77.42187994	-0.165230067	-9.683898377	-0.165230067	-9.683898377	-16.43703297	77.54463785																																								
325	-15.7763223	76.69314591	-0.185844077	-10.4598723	-0.185844077	-10.4598723	-15.77644966	76.82618819																																								
350	-15.16619353	75.96195308	-0.207622651	-11.23283886	-0.207622651	-11.23283886	-15.16633228	76.10528664																																								
375	-14.59967874	75.22915015	-0.230562179	-12.0028334	-0.230562179	-12.0028334	-14.59982896	75.38278102																																								
400	-14.07124889	74.49540482	-0.254658333	-12.76987743	-0.254658333	-12.76987743	-14.07141064	74.65933916																																								
425	-13.57637708	73.76125303	-0.279906226	-13.53398191	-0.279906226	-13.53398191	-13.57655041	73.93549704																																								
450	-13.11130972	73.02713251	-0.306300517	-14.29514942	-0.306300517	-14.29514942	-13.11149466	73.21169266																																								
475	-12.67289944	72.29340667	-0.333835496	-15.05337605	-0.333835496	-15.05337605	-12.67309603	72.48828911																																								
500	-12.2584808	71.56038085	-0.362505154	-15.80865277	-0.362505154	-15.80865277	-12.25868906	71.7655923																																								
525	-11.86577636	70.82831543	-0.392303232	-16.56096658	-0.392303232	-16.56096658	-11.86599631	71.04386251																																								
550	-11.49282453	70.09743471	-0.423223271	-17.31030136	-0.423223271	-17.31030136	-11.49305618	70.32332398																																								
575	-11.1379235	69.36793431	-0.45525864	-18.05663863	-0.45525864	-18.05663863	-11.13816686	69.60417145																																								
600	-10.79958698	68.63998416	-0.488402584	-18.79995823	-0.488402584	-18.79995823	-10.79984205	68.88657737																																								
625	-10.47650919	67.91373679	-0.522648231	-19.54023859	-0.522648231	-19.54023859	-10.47677597	68.17069252																																								
650	-10.16753643	67.189327	-0.557988632	-20.27745734	-0.557988632	-20.27745734	-10.16781491	67.45665218																																								
675	-9.871644249	66.46687595	-0.594416776	-21.01159156	-0.594416776	-21.01159156	-9.871934399	66.74457737																																								
700	-9.587918569	65.74649245	-0.631925615	-21.74261815	-0.631925615	-21.74261815	-9.58822038	66.03457747																																								
725	-9.315540375	65.02827692	-0.670508069	-22.47051382	-0.670508069	-22.47051382	-9.315853806	65.32674994																																								
750	-9.053772416	64.31231442	-0.710157097	-23.19525612	-0.710157097	-23.19525612	-9.054097476	64.6211884																																								
775	-8.80194932	63.59869207	-0.750865598	-23.9168219	-0.750865598	-23.9168219	-8.802285956	63.9179707																																								
800	-8.559467754	62.88748565	-0.792626532	-24.63518906	-0.792626532	-24.63518906	-8.559815895	63.21717096																																								
825	-8.325778345	62.17875254	-0.835433014	-25.35033754	-0.835433014	-25.35033754	-8.326138047	62.51886648																																								
850	-8.100381248	61.47256869	-0.879277991	-26.06224514	-0.879277991	-26.06224514	-8.100752413	61.82311029																																								
875	-7.882818153	60.76898714	-0.924154647	-26.77089262	-0.924154647	-26.77089262	-7.883200737	61.12996404																																								
900	-7.672669579	60.06807369	-0.970056045	-27.47625921	-0.970056045	-27.47625921	-7.673063403	60.43947202																																								
925	-7.469546437	59.36983656	-1.016976023	-28.17833301	-1.016976023	-28.17833301	-7.469951739	59.75171199																																								
950	-7.273094575	58.6743599	-1.064907522	-28.87709139	-1.064907522	-28.87709139	-7.273511187	59.06670103																																								
975	-7.082983872	57.98167535	-1.113844206	-29.57251983	-1.113844206	-29.57251983	-7.08341172	58.38448749																																								
1000	-6.898910086	57.29183764	-1.163779476	-30.26460063	-1.163779476	-30.26460063	-6.899348924	57.70509825																																								
1025	-6.720586208	56.60482545	-1.214708073	-30.95332967	-1.214708073	-30.95332967	-6.721036348	57.02860517																																								
1050	-6.547752294	55.92072341	-1.266623	-31.63868432	-1.266623	-31.63868432	-6.548213545	56.35500696																																								
1075	-6.380160804	55.23954912	-1.319518908	-32.32065812	-1.319518908	-32.32065812	-6.380633009	55.68433414																																								
1100	-6.217582858	54.56132197	-1.373389918	-32.99923899	-1.373389918	-32.99923899	-6.218065994	55.01662327																																								
1125	-6.059804621	53.88607056	-1.428230248	-33.67441526	-1.428230248	-33.67441526	-6.060298638	54.35189811																																								
1150	-5.906622141	53.21380714	-1.484035609	-34.34618784	-1.484035609	-34.34618784	-5.907126952	53.69017168																																								
1175	-5.757850811	52.54457225	-1.540799433	-35.01453695	-1.540799433	-35.01453695	-5.758366258	53.03146673																																								
1200	-5.613308758	51.87834158	-1.598518496	-35.67947108	-1.598518496	-35.67947108	-5.613834992	52.37581339																																								
1225	-5.472832653	51.21516842	-1.657186814	-36.34097421	-1.657186814	-36.34097421	-5.473369493	51.72321026																																								
1250	-5.336263888	50.55505411	-1.716800454	-36.99904693	-1.716800454	-36.99904693	-5.336811238	51.07367352																																								
1275	-5.203453633	49.89801317	-1.77735543	-37.653688	-1.77735543	-37.653688	-5.204011298	50.42720816																																								
1300	-5.074262617	49.24404594	-1.838847319	-38.30489246	-1.838847319	-38.30489246	-5.074830623	49.78383868																																								
1325	-4.948557708	48.59316412	-1.901272649	-38.95266128	-1.901272649	-38.95266128	-4.949135973	49.14356554																																								
1350	-4.826213255	47.94537358	-1.964627992	-39.59699481	-1.964627992	-39.59699481	-4.826801692	48.50639478																																								
1375	-4.707110115	47.30067858	-2.028910192	-40.23789438	-2.028910192	-40.23789438	-4.707708641	47.87233082																																								
1400	-4.591135209	46.65908188	-2.09411637	-40.87536222	-2.09411637	-40.87536222	-4.591743735	47.24137665																																								
1425	-4.478181094	46.02058488	-2.160243938	-41.50940143	-2.160243938	-41.50940143	-4.47879953	46.61353374																																								
1450	-4.368145585	45.38518751	-2.2272906	-42.14001599	-2.2272906	-42.14001599	-4.36877384	45.9888023																																								
1475	-4.260931406	44.75288844	-2.295254365	-42.7672107	-2.295254365	-42.7672107	-4.261569388	45.36718115																																								
1500	-4.156445873	44.12368509	-2.364133552	-43.39099115	-2.364133552	-43.39099115	-4.157093486	44.74866787																																								
1525	-4.054600598	43.49757365	-2.433926797	-44.01136368	-2.433926797	-44.01136368	-4.055257746	44.13325885																																								
1550	-3.95531122	42.87454917	-2.504633063	-44.62833539	-2.504633063	-44.62833539	-3.955977805	43.52094933																																								
1575	-3.85849716	42.25460563	-2.576251643	-45.24191402	-2.576251643	-45.24191402	-3.859173083	42.91173345																																								
1600	-3.76408139	41.63773591	-2.648782173	-45.85210802	-2.648782173	-45.85210802	-3.764766549	42.30560431																																								
1625	-3.671990223	41.02393195	-2.722224637	-46.45892643	-2.722224637	-46.45892643	-3.672684515	41.70255401																																								
1650	-3.582153116	40.41318468	-2.796579375	-47.0623789	-2.796579375	-47.0623789	-3.582856437	41.10257368																																								
1675	-3.494502496	39.80548415	-2.871847086	-47.66247561	-2.871847086	-47.66247561	-3.49521474	40.50565356																																								
1700	-3.408973584	39.20081955	-2.948028847	-48.25922729	-2.948028847	-48.25922729	-3.409694643	39.91178301																																								
1725	-3.325504249	38.59917923	-3.025126109	-48.85264512	-3.025126109	-48.85264512	-3.326234014	39.32095061																																								
1750	-3.244034855	38.00055074	-3.103140713	-49.44274078	-3.103140713	-49.44274078	-3.244773215	38.73314409																																								
1775	-3.164508135	37.40492091	-3.182074897	-50.02952633	-3.182074897	-50.02952633	-3.165254977	38.14835047																																								
1800	-3.086869064	36.8122759	-3.261931295	-50.61301421	-3.261931295	-50.61301421	-3.087624275	37.56655607																																								
1825	-3.011064742	36.22260114	-3.342712961	-51.1932172	-3.342712961	-51.1932172	-3.011828205	36.98774658																																								
1850	-2.937044276	35.63588141	-3.424423374	-51.77014845	-3.424423374	-51.77014845	-2.937815875	36.41190695																																								
1875	-2.864758699	35.05210097	-3.507066436	-52.34382133	-3.507066436	-52.34382133	-2.865538315	35.83902162																																								
1900	-2.794160857	34.47124341	-3.590646494	-52.91424949	-3.590646494	-52.91424949	-2.79494837	35.26907446																																								
1925	-2.725205338	33.89329199	-3.675168338	-53.48144673	-3.675168338	-53.48144673	-2.726000625	34.70204876																																								
1950	-2.657848359	33.31822914	-3.760637238	-54.04542714	-3.760637238	-54.04542714	-2.658651296	34.13792735																																								
1975	-2.592047725	32.74603714	-3.847058909	-54.60620483	-3.847058909	-54.60620483	-2.592858187	33.5766926																																								
2000	-2.527762732	32.17669765	-3.934439565	-55.16379408	-3.934439565	-55.16379408	-2.528580593	33.01832643																																								
2025	-2.464954097	31.61019196	-4.022785914	-55.71820927	-4.022785914	-55.71820927	-2.465779228	32.46281029																																								
2050	-2.40358391	31.04650099	-4.112105162	-56.26946477	-4.112105162	-56.26946477	-2.404416181	31.91012534																																								
2075	-2.343615558	30.48560531	-4.202405039	-56.81757498	-4.202405039	-56.81757498	-2.344454838	31.36025229																																								
2100	-2.28501367	29.92748507	-4.293693807	-57.36255429	-4.293693807	-57.36255429	-2.285859826	30.81317161																																								
2125	-2.227744068	29.37212016	-4.385980277	-57.90441703	-4.385980277	-57.90441703	-2.228596965	30.26886341																																								
2150	-2.171773715	28.81949026	-4.47927381	-58.44317741	-4.47927381	-58.44317741	-2.172633217	29.72730748																																								
2175	-2.117070669	28.26957483	-4.573584339	-58.97884949	-4.573584339	-58.97884949	-2.117936636	29.1884834																																								
2200	-2.063604013	27.72235273	-4.668922421	-59.51144729	-4.668922421	-59.51144729	-2.064476307	28.65237054																																								
2225	-2.011343856	27.17780301	-4.765299176	-60.04098448	-4.765299176	-60.04098448	-2.012222335	28.11894805																																								
2250	-1.960261251	26.63590434	-4.862726383	-60.56747461	-4.862726383	-60.56747461	-1.961145773	27.58819476																																								
2275	-1.910328193	26.0966355	-4.961216428	-61.09093081	-4.961216428	-61.09093081	-1.911218612	27.0600894																																								
2300	-1.861517517	25.55997424	-5.060782445	-61.61136626	-5.060782445	-61.61136626	-1.862413687	26.53461067																																								
2325	-1.81380296	25.02589927	-5.161438152	-62.12879339	-5.161438152	-62.12879339	-1.814704733	26.0117369																																								
2350	-1.767159056	24.49438867	-5.26319801	-62.64322439	-5.26319801	-62.64322439	-1.768066283	25.49144646																																								
2375	-1.72156108	23.96541978	-5.366077313	-63.15467143	-5.366077313	-63.15467143	-1.72247361	24.97371747																																								
2400	-1.676985191	23.43897193	-5.470091816	-63.66314511	-5.470091816	-63.66314511	-1.677902869	24.45852819																																								
2425	-1.633408103	22.91502157	-5.575258444	-64.16865702	-5.575258444	-64.16865702	-1.634330774	23.94585654																																								
2450	-1.590807344	22.39354698	-5.681594669	-64.6712172	-5.681594669	-64.6712172	-1.591734852	23.43568052																																								
2475	-1.549161075	21.87452575	-5.789118892	-65.17083549	-5.789118892	-65.17083549	-1.550093261	22.92797804																																								
2500	-1.508448143	21.35793559	-5.897850279	-65.66752071	-5.897850279	-65.66752071	-1.509384849	22.42272759																																								
2525	-1.468647955	20.84375428	-6.007809084	-66.16128169	-6.007809084	-66.16128169	-1.469589017	21.91990611																																								
2550	-1.429740563	20.33195899	-6.119016363	-66.65212606	-6.119016363	-66.65212606	-1.43068582	21.4194922																																								
2575	-1.391706627	19.82252829	-6.231494084	-67.14006051	-6.231494084	-67.14006051	-1.39265591	20.92146338																																								
2600	-1.354527307	19.31543933	-6.345265374	-67.62509138	-6.345265374	-67.62509138	-1.35548045	20.42579761																																								
2625	-1.318184282	18.81066887	-6.460354505	-68.10722443	-6.460354505	-68.10722443	-1.319141118	19.93247271																																								
2650	-1.28265989	18.30819607	-6.576786409	-68.58646311	-6.576786409	-68.58646311	-1.283620247	19.44146708																																								
2675	-1.247936852	17.80799836	-6.694587539	-69.06281106	-6.694587539	-69.06281106	-1.248900555	18.95275835																																								
2700	-1.213998381	17.31005314	-6.813785525	-69.53627082	-6.813785525	-69.53627082	-1.214965257	18.46632443																																								
2725	-1.180828212	16.81433822	-6.934409069	-70.00684324	-6.934409069	-70.00684324	-1.181798085	17.98214411																																								
2750	-1.148410534	16.32083276	-7.056488166	-70.47452803	-7.056488166	-70.47452803	-1.149383222	17.50019489																																								
2775	-1.116729883	15.829513	-7.18005451	-70.93932452	-7.18005451	-70.93932452	-1.117705208	17.02045533																																								
2800	-1.085771341	15.34035891	-7.305140783	-71.40122948	-7.305140783	-71.40122948	-1.086749114	16.54290304																																								
2825	-1.055520338	14.85334677	-7.431781345	-71.86023866	-7.431781345	-71.86023866	-1.056500383	16.06751857																																								
2850	-1.025962657	14.36845539	-7.560012382	-72.3163471	-7.560012382	-72.3163471	-1.026944786	15.59427833																																								
2875	-0.997084523	13.88566172	-7.689871441	-72.76954728	-7.689871441	-72.76954728	-0.998068556	15.12316274																																								
2900	-0.968872854	13.40495422	-7.821396382	-73.21982654	-7.821396382	-73.21982654	-0.96985857	14.65414827																																								
2925	-0.941313973	12.9262955	-7.954631147	-73.66718089	-7.954631147	-73.66718089	-0.942301205	14.18721468																																								
2950	-0.914395753	12.44967549	-8.089616085	-74.11159065	-8.089616085	-74.11159065	-0.915384303	13.7223442																																								
2975	-0.88810547	11.97506682	-8.22639801	-74.55304505	-8.22639801	-74.55304505	-0.88909515	13.25951272																																								
3000	-0.862431323	11.50245477	-8.365022944	-74.991524	-8.365022944	-74.991524	-0.86342192	12.798699																																								
3025	-0.837361467	11.03181446	-8.505540918	-75.42700903	-8.505540918	-75.42700903	-0.838352782	12.33988333																																								
3050	-0.812884576	10.56312705	-8.648003251	-75.85947663	-8.648003251	-75.85947663	-0.813876402	11.88304556																																								
3075	-0.7889894	10.09636773	-8.792464978	-76.28890307	-8.792464978	-76.28890307	-0.789981545	11.42816605																																								
3100	-0.76566538	9.631523605	-8.938981489	-76.7152568	-8.938981489	-76.7152568	-0.766657622	10.97522415																																								
3125	-0.742901704	9.168566953	-9.087614106	-77.13850955	-9.087614106	-77.13850955	-0.743893844	10.52419986																																								
3150	-0.720688231	8.707481549	-9.23842476	-77.55862464	-9.23842476	-77.55862464	-0.721680054	10.0750729																																								
3175	-0.69901496	8.248248653	-9.391479294	-77.9755632	-9.391479294	-77.9755632	-0.70000624	9.627822247																																								
3200	-0.677872078	7.790844133	-9.546847277	-78.38928284	-9.546847277	-78.38928284	-0.678862611	9.182431465																																								
3225	-0.657250127	7.335249868	-9.704601223	-78.79973566	-9.704601223	-78.79973566	-0.658239699	8.738880805																																								
3250	-0.637139949	6.881449141	-9.864816918	-79.20686812	-9.864816918	-79.20686812	-0.638128337	8.297151601																																								
3275	-0.617532264	6.429421019	-10.02757716	-79.61062704	-10.02757716	-79.61062704	-0.618519227	7.857217089																																								
3300	-0.598418554	5.979144357	-10.1929644	-80.01094461	-10.1929644	-80.01094461	-0.599403888	7.419071728																																								
