!	AVX	Thin	Film	Operation	Date:	2004																																																																																																																																																																																		
!	Description:	"Series,"	Thin	"Film,"	"LGA,"	RF	Inductors																																																																																																																																																																																	
!	Part	Number:	L06036r8nH																																																																																																																																																																																					
!	50	MHz	-	8	GHz																																																																																																																																																																																			
!	Serial	Measurements																																																																																																																																																																																						
!																																																																																																																																																																																								
#	mhz	S	db	R	50																																																																																																																																																																																			
!	S11	S11	S21	S21	S12	S12	S22	S22																																																																																																																																																																																
!	dB	Phase	dB	Phase	dB	Phase	dB	Phase																																																																																																																																																																																
50	-33.52749154	83.89294919	-0.017126627	-1.341010111	-0.017126627	-1.341010111	-33.52749802	83.89885712																																																																																																																																																																																
100	-27.76547885	83.65360671	-0.030373061	-2.615062643	-0.030373061	-2.615062643	-27.76549683	83.6654354																																																																																																																																																																																
150	-24.3760614	82.87353768	-0.045648172	-3.872415007	-0.045648172	-3.872415007	-24.37609223	82.89127154																																																																																																																																																																																
200	-21.96736764	81.91898768	-0.063453971	-5.11897469	-0.063453971	-5.11897469	-21.96741263	81.94269647																																																																																																																																																																																
250	-20.09929503	80.88407456	-0.083968398	-6.357061252	-0.083968398	-6.357061252	-20.09935466	80.91377564																																																																																																																																																																																
300	-18.57486126	79.80555045	-0.107270647	-7.587796521	-0.107270647	-7.587796521	-18.57493582	79.84125989																																																																																																																																																																																
350	-17.28864547	78.70121006	-0.133397514	-8.811762267	-0.133397514	-8.811762267	-17.28873513	78.7429449																																																																																																																																																																																
400	-16.17756357	77.58092394	-0.16236379	-10.02925526	-0.16236379	-10.02925526	-16.17766844	77.62870033																																																																																																																																																																																
450	-15.20084084	76.45071723	-0.194171314	-11.24040683	-0.194171314	-11.24040683	-15.20096097	76.50454979																																																																																																																																																																																
500	-14.33058561	75.31454255	-0.22881359	-12.44524632	-0.22881359	-12.44524632	-14.33072098	75.37444566																																																																																																																																																																																
550	-13.54686981	74.17514494	-0.266278367	-13.64373765	-0.266278367	-13.64373765	-13.54702039	74.24113366																																																																																																																																																																																
600	-12.83495458	73.03452215	-0.306549235	-14.83580221	-0.306549235	-14.83580221	-12.83512031	73.10661078																																																																																																																																																																																
650	-12.18362789	71.89418371	-0.349606653	-16.02133363	-0.349606653	-16.02133363	-12.1838087	71.97238751																																																																																																																																																																																
700	-11.58415892	70.75530898	-0.395428665	-17.2002079	-0.395428665	-17.2002079	-11.58435471	70.83964206																																																																																																																																																																																
750	-11.02961316	69.61884202	-0.443991441	-18.37229058	-0.443991441	-18.37229058	-11.02982383	69.70932047																																																																																																																																																																																
800	-10.51438887	68.48555813	-0.495269671	-19.53744175	-0.495269671	-19.53744175	-10.51461431	68.58219736																																																																																																																																																																																
850	-10.03389388	67.35610415	-0.549236903	-20.69551996	-0.549236903	-20.69551996	-10.03413396	67.45892031																																																																																																																																																																																
900	-9.584315043	66.2310317	-0.605865799	-21.84638476	-0.605865799	-21.84638476	-9.584569603	66.34003577																																																																																																																																																																																
950	-9.162449264	65.11080578	-0.665128443	-22.98989989	-0.665128443	-22.98989989	-9.162718189	65.22601975																																																																																																																																																																																
1000	-8.765579003	63.99583365	-0.726996485	-24.12593385	-0.726996485	-24.12593385	-8.765862177	64.11728082																																																																																																																																																																																
1050	-8.391378507	62.88648765	-0.791441172	-25.25435921	-0.791441172	-25.25435921	-8.391675658	63.01416313																																																																																																																																																																																
1100	-8.037837312	61.78305011	-0.858434155	-26.37506166	-0.858434155	-26.37506166	-8.038148434	61.91700196																																																																																																																																																																																
1150	-7.70320949	60.68581403	-0.927946733	-27.48792879	-0.927946733	-27.48792879	-7.703534411	60.82605902																																																																																																																																																																																
1200	-7.385965501	59.59502495	-0.999950576	-28.59285835	-0.999950576	-28.59285835	-7.386304011	59.74157522																																																																																																																																																																																
1250	-7.084758349	58.5109134	-1.074417579	-29.68975499	-1.074417579	-29.68975499	-7.085110095	58.66375293																																																																																																																																																																																
1300	-6.798389725	57.43360196	-1.151321332	-30.77854447	-1.151321332	-30.77854447	-6.798754911	57.59282779																																																																																																																																																																																
1350	-6.525799298	56.36332131	-1.230634288	-31.85914272	-1.230634288	-31.85914272	-6.526177562	56.52891859																																																																																																																																																																																
1400	-6.266032751	55.30019897	-1.312331072	-32.93148908	-1.312331072	-32.93148908	-6.266423858	55.47217758																																																																																																																																																																																
1450	-6.018234264	54.24435191	-1.396386515	-33.99552507	-1.396386515	-33.99552507	-6.018638061	54.42274313																																																																																																																																																																																
1500	-5.781630111	53.19589088	-1.48277681	-35.05120444	-1.48277681	-35.05120444	-5.782046407	53.38071831																																																																																																																																																																																
1550	-5.555519212	52.15490714	-1.571479187	-36.09848889	-1.571479187	-36.09848889	-5.555947814	52.34619501																																																																																																																																																																																
1600	-5.339263781	51.12147681	-1.662472108	-37.13734881	-1.662472108	-37.13734881	-5.33970449	51.31925007																																																																																																																																																																																
1650	-5.13228166	50.09566207	-1.755735365	-38.16776294	-1.755735365	-38.16776294	-5.132734276	50.29994632																																																																																																																																																																																
1700	-4.934039806	49.07751197	-1.851250173	-39.1897182	-1.851250173	-39.1897182	-4.934504123	49.28833354																																																																																																																																																																																
1750	-4.744048722	48.06706345	-1.948999257	-40.20320925	-1.948999257	-40.20320925	-4.744524533	48.28444935																																																																																																																																																																																
1800	-4.56185767	47.06434201	-2.048966943	-41.2082383	-2.048966943	-41.2082383	-4.562344763	47.28831994																																																																																																																																																																																
1850	-4.387050548	46.06936254	-2.151139233	-42.20481463	-2.151139233	-42.20481463	-4.387548708	46.29996098																																																																																																																																																																																
1900	-4.219242308	45.08213001	-2.255503893	-43.19295434	-2.255503893	-43.19295434	-4.219751317	45.31937811																																																																																																																																																																																
1950	-4.05807585	44.10264013	-2.362050525	-44.1726799	-2.362050525	-44.1726799	-4.058595486	44.34656779																																																																																																																																																																																
2000	-3.903219293	43.13087993	-2.470770646	-45.14401984	-2.470770646	-45.14401984	-3.90374933	43.38151781																																																																																																																																																																																
2050	-3.754363596	42.16682833	-2.581657764	-46.10700833	-2.581657764	-46.10700833	-3.754903806	42.42420795																																																																																																																																																																																
2100	-3.611220473	41.21045712	-2.694707435	-47.06168474	-2.694707435	-47.06168474	-3.611770624	41.47461036																																																																																																																																																																																
2150	-3.473520497	40.26173051	-2.809917373	-48.00809347	-2.809917373	-48.00809347	-3.474080352	40.53269042																																																																																																																																																																																
2200	-3.341011501	39.32060667	-2.927287487	-48.94628333	-2.927287487	-48.94628333	-3.34158082	39.59840694																																																																																																																																																																																
2250	-3.213457098	38.38703761	-3.046819975	-49.87630731	-3.046819975	-49.87630731	-3.214035638	38.6717128																																																																																																																																																																																
2300	-3.090635391	37.46097008	-3.168519378	-50.79822207	-3.168519378	-50.79822207	-3.091222906	37.75255526																																																																																																																																																																																
2350	-2.972337649	36.54234293	-3.292392831	-51.71208866	-3.292392831	-51.71208866	-2.972933898	36.84087735																																																																																																																																																																																
2400	-2.858367937	35.63109995	-3.418449443	-52.61796783	-3.418449443	-52.61796783	-2.858972645	35.93661451																																																																																																																																																																																
2450	-2.74854091	34.72716705	-3.546701681	-53.51592771	-3.546701681	-53.51592771	-2.749153828	35.03970204																																																																																																																																																																																
2500	-2.642682168	33.83047461	-3.677164227	-54.40603588	-3.677164227	-54.40603588	-2.643303034	34.15006875																																																																																																																																																																																
2550	-2.540626943	32.94094784	-3.809854624	-55.28836249	-3.809854624	-55.28836249	-2.54125549	33.26764045																																																																																																																																																																																
2600	-2.442219477	32.05850848	-3.9447933	-56.16297942	-3.9447933	-56.16297942	-2.442855435	32.39233971																																																																																																																																																																																
2650	-2.347312412	31.1830754	-4.082003647	-57.0299599	-4.082003647	-57.0299599	-2.347955508	31.52408629																																																																																																																																																																																
2700	-2.255766208	30.31456482	-4.221512145	-57.8893782	-4.221512145	-57.8893782	-2.256416162	30.6627973																																																																																																																																																																																
2750	-2.167448543	29.45288895	-4.363348593	-58.74130991	-4.363348593	-58.74130991	-2.16810508	29.80838795																																																																																																																																																																																
2800	-2.082234274	28.59796531	-4.507545537	-59.58582824	-4.507545537	-59.58582824	-2.082897091	28.96076973																																																																																																																																																																																
2850	-2.000004098	27.74969856	-4.65413983	-60.42301067	-4.65413983	-60.42301067	-2.00067291	28.11985491																																																																																																																																																																																
2900	-1.920645021	26.90799867	-4.803171403	-61.25293191	-4.803171403	-61.25293191	-1.921319533	27.2855525																																																																																																																																																																																
2950	-1.844049591	26.07277279	-4.954684047	-62.0756667	-4.954684047	-62.0756667	-1.844729503	26.45777062																																																																																																																																																																																
3000	-1.770115622	25.2439268	-5.108725472	-62.89128891	-5.108725472	-62.89128891	-1.77080063	25.63641646																																																																																																																																																																																
3050	-1.69874597	24.42136788	-5.265347307	-63.69987053	-5.265347307	-63.69987053	-1.699435759	24.82139567																																																																																																																																																																																
3100	-1.629847946	23.60499812	-5.424605917	-64.50148393	-5.424605917	-64.50148393	-1.630542202	24.01261382																																																																																																																																																																																
3150	-1.563333285	22.79471934	-5.586562161	-65.29619953	-5.586562161	-65.29619953	-1.564031699	23.20997611																																																																																																																																																																																
3200	-1.499118254	21.99044238	-5.751280729	-66.08408199	-5.751280729	-66.08408199	-1.499820485	22.41338541																																																																																																																																																																																
