!	AVX	Thin	Film	Operation	Date:	2004		
!	Description:	"Series,"	Thin	"Film,"	"LGA,"	RF	Inductors	
!	Part	Number:	L06031r5nH					
!	50	MHz	-	20	GHz			
!	Serial	Measurements						
!								
#	mhz	S	db	R	50			
!	S11	S11	S21	S21	S12	S12	S22	S22
!	dB	Phase	dB	Phase	dB	Phase	dB	Phase
50	-55.1611	88.9704	-0.0002	-0.3937	-0.0002	-0.3937	-55.1611	88.9468
100	-49.1397	88.5831	-0.0004	-0.7875	-0.0004	-0.7875	-49.1396	88.5379
150	-45.6168	88.1961	-0.0006	-1.1813	-0.0006	-1.1813	-45.6168	88.1288
200	-43.1169	87.8092	-0.0009	-1.5751	-0.0009	-1.5751	-43.1168	87.7197
250	-41.1774	87.4223	-0.0012	-1.9689	-0.0012	-1.9689	-41.1774	87.3106
300	-39.5924	87.0354	-0.0015	-2.3628	-0.0015	-2.3628	-39.5923	86.9015
350	-38.2519	86.6485	-0.0019	-2.7567	-0.0019	-2.7567	-38.2518	86.4924
400	-37.0904	86.2617	-0.0023	-3.1506	-0.0023	-3.1506	-37.0903	86.0834
450	-36.0656	85.8749	-0.0027	-3.5446	-0.0027	-3.5446	-36.0655	85.6743
500	-35.1485	85.4881	-0.0031	-3.9386	-0.0031	-3.9386	-35.1484	85.2653
550	-34.3186	85.1013	-0.0036	-4.3326	-0.0036	-4.3326	-34.3185	84.8563
600	-33.5607	84.7145	-0.0041	-4.7267	-0.0041	-4.7267	-33.5605	84.4474
650	-32.8631	84.3277	-0.0046	-5.1208	-0.0046	-5.1208	-32.8629	84.0384
700	-32.2170	83.9409	-0.0052	-5.5150	-0.0052	-5.5150	-32.2168	83.6295
750	-31.6152	83.5541	-0.0058	-5.9092	-0.0058	-5.9092	-31.6149	83.2205
800	-31.0519	83.1672	-0.0064	-6.3035	-0.0064	-6.3035	-31.0516	82.8116
850	-30.5225	82.7804	-0.0071	-6.6978	-0.0071	-6.6978	-30.5222	82.4027
900	-30.0231	82.3935	-0.0077	-7.0922	-0.0077	-7.0922	-30.0228	81.9938
950	-29.5504	82.0066	-0.0084	-7.4866	-0.0084	-7.4866	-29.5501	81.5849
1000	-29.1016	81.6197	-0.0092	-7.8811	-0.0092	-7.8811	-29.1013	81.1760
1050	-28.6745	81.2328	-0.0099	-8.2757	-0.0099	-8.2757	-28.6742	80.7671
1100	-28.2670	80.8458	-0.0107	-8.6703	-0.0107	-8.6703	-28.2666	80.3582
1150	-27.8773	80.4588	-0.0116	-9.0650	-0.0116	-9.0650	-27.8769	79.9493
1200	-27.5039	80.0718	-0.0124	-9.4597	-0.0124	-9.4597	-27.5035	79.5404
1250	-27.1455	79.6847	-0.0133	-9.8546	-0.0133	-9.8546	-27.1451	79.1315
1300	-26.8009	79.2975	-0.0142	-10.2495	-0.0142	-10.2495	-26.8004	78.7225
1350	-26.4690	78.9103	-0.0152	-10.6445	-0.0152	-10.6445	-26.4685	78.3136
1400	-26.1489	78.5231	-0.0161	-11.0396	-0.0161	-11.0396	-26.1484	77.9046
1450	-25.8397	78.1358	-0.0171	-11.4347	-0.0171	-11.4347	-25.8392	77.4957
1500	-25.5408	77.7484	-0.0182	-11.8300	-0.0182	-11.8300	-25.5403	77.0867
1550	-25.2514	77.3610	-0.0192	-12.2253	-0.0192	-12.2253	-25.2508	76.6777
1600	-24.9709	76.9735	-0.0203	-12.6207	-0.0203	-12.6207	-24.9703	76.2686
1650	-24.6988	76.5859	-0.0215	-13.0162	-0.0215	-13.0162	-24.6982	75.8596
1700	-24.4345	76.1983	-0.0226	-13.4118	-0.0226	-13.4118	-24.4339	75.4505
1750	-24.1776	75.8106	-0.0238	-13.8075	-0.0238	-13.8075	-24.1770	75.0414
1800	-23.9277	75.4227	-0.0251	-14.2033	-0.0251	-14.2033	-23.9271	74.6322
1850	-23.6844	75.0349	-0.0263	-14.5992	-0.0263	-14.5992	-23.6838	74.2230
1900	-23.4473	74.6469	-0.0276	-14.9953	-0.0276	-14.9953	-23.4466	73.8138
1950	-23.2161	74.2588	-0.0289	-15.3914	-0.0289	-15.3914	-23.2154	73.4045
2000	-22.9905	73.8706	-0.0303	-15.7876	-0.0303	-15.7876	-22.9898	72.9952
2050	-22.7702	73.4824	-0.0317	-16.1839	-0.0317	-16.1839	-22.7695	72.5859
2100	-22.5550	73.0940	-0.0331	-16.5804	-0.0331	-16.5804	-22.5542	72.1765
2150	-22.3446	72.7055	-0.0345	-16.9769	-0.0345	-16.9769	-22.3438	71.7670
2200	-22.1387	72.3169	-0.0360	-17.3736	-0.0360	-17.3736	-22.1379	71.3575
2250	-21.9372	71.9282	-0.0375	-17.7704	-0.0375	-17.7704	-21.9364	70.9480
2300	-21.7399	71.5394	-0.0391	-18.1673	-0.0391	-18.1673	-21.7391	70.5384
2350	-21.5466	71.1504	-0.0407	-18.5644	-0.0407	-18.5644	-21.5457	70.1287
2400	-21.3571	70.7614	-0.0423	-18.9616	-0.0423	-18.9616	-21.3562	69.7190
2450	-21.1712	70.3722	-0.0440	-19.3589	-0.0440	-19.3589	-21.1703	69.3092
2500	-20.9889	69.9828	-0.0456	-19.7563	-0.0456	-19.7563	-20.9880	68.8993
2550	-20.8099	69.5934	-0.0474	-20.1539	-0.0474	-20.1539	-20.8090	68.4894
2600	-20.6342	69.2038	-0.0491	-20.5516	-0.0491	-20.5516	-20.6332	68.0794
2650	-20.4615	68.8140	-0.0509	-20.9494	-0.0509	-20.9494	-20.4605	67.6694
2700	-20.2918	68.4241	-0.0528	-21.3474	-0.0528	-21.3474	-20.2908	67.2593
2750	-20.1250	68.0341	-0.0546	-21.7455	-0.0546	-21.7455	-20.1240	66.8490
2800	-19.9610	67.6439	-0.0565	-22.1438	-0.0565	-22.1438	-19.9599	66.4388
2850	-19.7996	67.2536	-0.0585	-22.5422	-0.0585	-22.5422	-19.7985	66.0284
2900	-19.6408	66.8631	-0.0605	-22.9408	-0.0605	-22.9408	-19.6397	65.6180
2950	-19.4844	66.4724	-0.0625	-23.3395	-0.0625	-23.3395	-19.4833	65.2074
3000	-19.3305	66.0816	-0.0645	-23.7384	-0.0645	-23.7384	-19.3294	64.7968
3050	-19.1788	65.6906	-0.0666	-24.1374	-0.0666	-24.1374	-19.1777	64.3861
3100	-19.0294	65.2994	-0.0688	-24.5366	-0.0688	-24.5366	-19.0283	63.9753
3150	-18.8822	64.9081	-0.0709	-24.9359	-0.0709	-24.9359	-18.8810	63.5644
3200	-18.7370	64.5166	-0.0732	-25.3355	-0.0732	-25.3355	-18.7358	63.1534
3250	-18.5938	64.1249	-0.0754	-25.7351	-0.0754	-25.7351	-18.5926	62.7423
3300	-18.4526	63.7330	-0.0777	-26.1350	-0.0777	-26.1350	-18.4514	62.3311
3350	-18.3133	63.3410	-0.0800	-26.5350	-0.0800	-26.5350	-18.3120	61.9198
3400	-18.1758	62.9487	-0.0824	-26.9351	-0.0824	-26.9351	-18.1746	61.5084
3450	-18.0401	62.5563	-0.0848	-27.3355	-0.0848	-27.3355	-18.0388	61.0969
3500	-17.9062	62.1636	-0.0873	-27.7360	-0.0873	-27.7360	-17.9048	60.6853
3550	-17.7739	61.7708	-0.0898	-28.1367	-0.0898	-28.1367	-17.7725	60.2736
3600	-17.6432	61.3778	-0.0923	-28.5376	-0.0923	-28.5376	-17.6419	59.8618
3650	-17.5141	60.9845	-0.0949	-28.9386	-0.0949	-28.9386	-17.5128	59.4498
3700	-17.3866	60.5911	-0.0975	-29.3399	-0.0975	-29.3399	-17.3852	59.0378
3750	-17.2605	60.1974	-0.1002	-29.7413	-0.1002	-29.7413	-17.2591	58.6256
3800	-17.1359	59.8036	-0.1029	-30.1429	-0.1029	-30.1429	-17.1345	58.2133
3850	-17.0127	59.4095	-0.1057	-30.5447	-0.1057	-30.5447	-17.0113	57.8009
3900	-16.8909	59.0152	-0.1085	-30.9467	-0.1085	-30.9467	-16.8895	57.3883
3950	-16.7704	58.6207	-0.1114	-31.3488	-0.1114	-31.3488	-16.7690	56.9756
4000	-16.6513	58.2260	-0.1143	-31.7512	-0.1143	-31.7512	-16.6498	56.5628
4050	-16.5334	57.8310	-0.1172	-32.1537	-0.1172	-32.1537	-16.5319	56.1499
4100	-16.4167	57.4358	-0.1202	-32.5565	-0.1202	-32.5565	-16.4152	55.7368
4150	-16.3013	57.0404	-0.1232	-32.9594	-0.1232	-32.9594	-16.2997	55.3236
4200	-16.1870	56.6448	-0.1263	-33.3626	-0.1263	-33.3626	-16.1854	54.9103
4250	-16.0739	56.2489	-0.1295	-33.7659	-0.1295	-33.7659	-16.0723	54.4968
4300	-15.9619	55.8528	-0.1327	-34.1695	-0.1327	-34.1695	-15.9603	54.0832
4350	-15.8510	55.4564	-0.1359	-34.5732	-0.1359	-34.5732	-15.8493	53.6695
4400	-15.7411	55.0598	-0.1392	-34.9772	-0.1392	-34.9772	-15.7395	53.2556
4450	-15.6323	54.6630	-0.1425	-35.3813	-0.1425	-35.3813	-15.6307	52.8416
4500	-15.5245	54.2659	-0.1459	-35.7857	-0.1459	-35.7857	-15.5229	52.4274
4550	-15.4178	53.8686	-0.1493	-36.1903	-0.1493	-36.1903	-15.4161	52.0131
4600	-15.3120	53.4710	-0.1528	-36.5950	-0.1528	-36.5950	-15.3103	51.5986
4650	-15.2071	53.0732	-0.1564	-37.0000	-0.1564	-37.0000	-15.2054	51.1840
4700	-15.1032	52.6751	-0.1600	-37.4052	-0.1600	-37.4052	-15.1015	50.7692
4750	-15.0002	52.2768	-0.1636	-37.8107	-0.1636	-37.8107	-14.9985	50.3543
4800	-14.8981	51.8782	-0.1673	-38.2163	-0.1673	-38.2163	-14.8964	49.9393
4850	-14.7969	51.4794	-0.1711	-38.6221	-0.1711	-38.6221	-14.7951	49.5241
4900	-14.6965	51.0803	-0.1749	-39.0282	-0.1749	-39.0282	-14.6947	49.1087
4950	-14.5970	50.6809	-0.1788	-39.4345	-0.1788	-39.4345	-14.5952	48.6932
5000	-14.4983	50.2813	-0.1827	-39.8410	-0.1827	-39.8410	-14.4965	48.2775
5050	-14.4004	49.8814	-0.1867	-40.2477	-0.1867	-40.2477	-14.3986	47.8616
5100	-14.3033	49.4813	-0.1907	-40.6546	-0.1907	-40.6546	-14.3014	47.4456
5150	-14.2070	49.0809	-0.1948	-41.0618	-0.1948	-41.0618	-14.2051	47.0295
5200	-14.1114	48.6802	-0.1990	-41.4692	-0.1990	-41.4692	-14.1095	46.6131
5250	-14.0166	48.2793	-0.2032	-41.8768	-0.2032	-41.8768	-14.0147	46.1967
5300	-13.9225	47.8781	-0.2075	-42.2846	-0.2075	-42.2846	-13.9206	45.7800
5350	-13.8291	47.4766	-0.2118	-42.6927	-0.2118	-42.6927	-13.8272	45.3632
5400	-13.7364	47.0748	-0.2162	-43.1009	-0.2162	-43.1009	-13.7345	44.9462
5450	-13.6445	46.6728	-0.2207	-43.5094	-0.2207	-43.5094	-13.6425	44.5291
5500	-13.5532	46.2705	-0.2252	-43.9182	-0.2252	-43.9182	-13.5512	44.1118
5550	-13.4626	45.8679	-0.2298	-44.3271	-0.2298	-44.3271	-13.4606	43.6943
5600	-13.3726	45.4650	-0.2345	-44.7363	-0.2345	-44.7363	-13.3706	43.2767
5650	-13.2833	45.0619	-0.2392	-45.1457	-0.2392	-45.1457	-13.2813	42.8589
5700	-13.1946	44.6585	-0.2440	-45.5554	-0.2440	-45.5554	-13.1926	42.4409
5750	-13.1066	44.2548	-0.2488	-45.9652	-0.2488	-45.9652	-13.1046	42.0228
5800	-13.0192	43.8509	-0.2537	-46.3753	-0.2537	-46.3753	-13.0171	41.6045
5850	-12.9323	43.4466	-0.2587	-46.7856	-0.2587	-46.7856	-12.9303	41.1860
5900	-12.8461	43.0421	-0.2638	-47.1962	-0.2638	-47.1962	-12.8440	40.7673
5950	-12.7605	42.6373	-0.2689	-47.6070	-0.2689	-47.6070	-12.7584	40.3485
6000	-12.6754	42.2322	-0.2741	-48.0180	-0.2741	-48.0180	-12.6733	39.9296
6050	-12.5909	41.8269	-0.2793	-48.4292	-0.2793	-48.4292	-12.5888	39.5104
6100	-12.5070	41.4213	-0.2846	-48.8407	-0.2846	-48.8407	-12.5049	39.0911
6150	-12.4236	41.0154	-0.2900	-49.2524	-0.2900	-49.2524	-12.4215	38.6716
6200	-12.3408	40.6092	-0.2955	-49.6643	-0.2955	-49.6643	-12.3387	38.2519
6250	-12.2585	40.2027	-0.3010	-50.0764	-0.3010	-50.0764	-12.2564	37.8321
6300	-12.1768	39.7960	-0.3067	-50.4888	-0.3067	-50.4888	-12.1746	37.4121
6350	-12.0955	39.3889	-0.3124	-50.9014	-0.3124	-50.9014	-12.0933	36.9920
6400	-12.0148	38.9816	-0.3181	-51.3143	-0.3181	-51.3143	-12.0126	36.5716
6450	-11.9346	38.5740	-0.3240	-51.7273	-0.3240	-51.7273	-11.9324	36.1511
6500	-11.8549	38.1662	-0.3299	-52.1406	-0.3299	-52.1406	-11.8527	35.7305
6550	-11.7757	37.7580	-0.3359	-52.5541	-0.3359	-52.5541	-11.7735	35.3096
6600	-11.6970	37.3496	-0.3419	-52.9678	-0.3419	-52.9678	-11.6947	34.8886
6650	-11.6187	36.9409	-0.3481	-53.3818	-0.3481	-53.3818	-11.6165	34.4675
6700	-11.5410	36.5320	-0.3543	-53.7960	-0.3543	-53.7960	-11.5387	34.0462
6750	-11.4637	36.1227	-0.3606	-54.2103	-0.3606	-54.2103	-11.4614	33.6247
6800	-11.3869	35.7132	-0.3670	-54.6250	-0.3670	-54.6250	-11.3846	33.2030
6850	-11.3105	35.3034	-0.3734	-55.0398	-0.3734	-55.0398	-11.3082	32.7812
6900	-11.2346	34.8934	-0.3800	-55.4549	-0.3800	-55.4549	-11.2323	32.3592
6950	-11.1591	34.4830	-0.3866	-55.8701	-0.3866	-55.8701	-11.1568	31.9371
7000	-11.0841	34.0725	-0.3933	-56.2856	-0.3933	-56.2856	-11.0818	31.5148
7050	-11.0096	33.6616	-0.4001	-56.7013	-0.4001	-56.7013	-11.0073	31.0923
7100	-10.9354	33.2505	-0.4070	-57.1173	-0.4070	-57.1173	-10.9331	30.6697
7150	-10.8617	32.8391	-0.4140	-57.5334	-0.4140	-57.5334	-10.8594	30.2469
7200	-10.7885	32.4274	-0.4210	-57.9497	-0.4210	-57.9497	-10.7861	29.8240
7250	-10.7156	32.0155	-0.4281	-58.3663	-0.4281	-58.3663	-10.7133	29.4009
7300	-10.6432	31.6033	-0.4354	-58.7830	-0.4354	-58.7830	-10.6408	28.9777
7350	-10.5712	31.1908	-0.4427	-59.2000	-0.4427	-59.2000	-10.5688	28.5543
7400	-10.4996	30.7781	-0.4501	-59.6172	-0.4501	-59.6172	-10.4972	28.1308
7450	-10.4284	30.3652	-0.4576	-60.0346	-0.4576	-60.0346	-10.4260	27.7071
7500	-10.3576	29.9520	-0.4651	-60.4521	-0.4651	-60.4521	-10.3552	27.2833
7550	-10.2872	29.5385	-0.4728	-60.8699	-0.4728	-60.8699	-10.2848	26.8594
7600	-10.2172	29.1248	-0.4806	-61.2879	-0.4806	-61.2879	-10.2148	26.4353
7650	-10.1476	28.7108	-0.4884	-61.7060	-0.4884	-61.7060	-10.1452	26.0110
7700	-10.0784	28.2966	-0.4964	-62.1244	-0.4964	-62.1244	-10.0760	25.5866
7750	-10.0095	27.8822	-0.5044	-62.5429	-0.5044	-62.5429	-10.0071	25.1621
7800	-9.9411	27.4675	-0.5125	-62.9617	-0.5125	-62.9617	-9.9387	24.7375
7850	-9.8730	27.0526	-0.5207	-63.3806	-0.5207	-63.3806	-9.8706	24.3127
7900	-9.8053	26.6374	-0.5291	-63.7997	-0.5291	-63.7997	-9.8029	23.8878
7950	-9.7380	26.2220	-0.5375	-64.2190	-0.5375	-64.2190	-9.7356	23.4627
8000	-9.6711	25.8064	-0.5460	-64.6384	-0.5460	-64.6384	-9.6686	23.0376
8050	-9.6045	25.3906	-0.5546	-65.0581	-0.5546	-65.0581	-9.6020	22.6123
8100	-9.5383	24.9745	-0.5633	-65.4779	-0.5633	-65.4779	-9.5358	22.1869
8150	-9.4724	24.5582	-0.5721	-65.8979	-0.5721	-65.8979	-9.4700	21.7614
8200	-9.4069	24.1417	-0.5811	-66.3180	-0.5811	-66.3180	-9.4045	21.3358
8250	-9.3418	23.7250	-0.5901	-66.7383	-0.5901	-66.7383	-9.3393	20.9100
8300	-9.2770	23.3080	-0.5992	-67.1588	-0.5992	-67.1588	-9.2745	20.4842
8350	-9.2126	22.8909	-0.6084	-67.5794	-0.6084	-67.5794	-9.2101	20.0582
8400	-9.1485	22.4735	-0.6177	-68.0002	-0.6177	-68.0002	-9.1460	19.6322
8450	-9.0848	22.0560	-0.6271	-68.4211	-0.6271	-68.4211	-9.0823	19.2060
8500	-9.0214	21.6382	-0.6367	-68.8422	-0.6367	-68.8422	-9.0189	18.7798
8550	-8.9584	21.2203	-0.6463	-69.2634	-0.6463	-69.2634	-8.9559	18.3534
8600	-8.8957	20.8021	-0.6560	-69.6848	-0.6560	-69.6848	-8.8932	17.9270
8650	-8.8333	20.3838	-0.6659	-70.1063	-0.6659	-70.1063	-8.8308	17.5005
8700	-8.7713	19.9653	-0.6758	-70.5279	-0.6758	-70.5279	-8.7688	17.0739
8750	-8.7096	19.5466	-0.6859	-70.9497	-0.6859	-70.9497	-8.7071	16.6472
8800	-8.6483	19.1277	-0.6960	-71.3715	-0.6960	-71.3715	-8.6458	16.2205
8850	-8.5873	18.7087	-0.7063	-71.7936	-0.7063	-71.7936	-8.5848	15.7936
8900	-8.5266	18.2895	-0.7167	-72.2157	-0.7167	-72.2157	-8.5241	15.3667
8950	-8.4663	17.8701	-0.7272	-72.6379	-0.7272	-72.6379	-8.4637	14.9398
9000	-8.4062	17.4506	-0.7378	-73.0603	-0.7378	-73.0603	-8.4037	14.5128
9050	-8.3465	17.0309	-0.7485	-73.4827	-0.7485	-73.4827	-8.3440	14.0857
9100	-8.2872	16.6111	-0.7593	-73.9053	-0.7593	-73.9053	-8.2846	13.6586
9150	-8.2281	16.1911	-0.7703	-74.3280	-0.7703	-74.3280	-8.2256	13.2314
9200	-8.1694	15.7709	-0.7813	-74.7507	-0.7813	-74.7507	-8.1668	12.8042
9250	-8.1110	15.3507	-0.7925	-75.1736	-0.7925	-75.1736	-8.1084	12.3769
9300	-8.0529	14.9303	-0.8038	-75.5965	-0.8038	-75.5965	-8.0503	11.9496
9350	-7.9951	14.5098	-0.8151	-76.0195	-0.8151	-76.0195	-7.9926	11.5223
9400	-7.9377	14.0891	-0.8267	-76.4426	-0.8267	-76.4426	-7.9351	11.0949
9450	-7.8805	13.6684	-0.8383	-76.8657	-0.8383	-76.8657	-7.8780	10.6676
9500	-7.8237	13.2475	-0.8500	-77.2889	-0.8500	-77.2889	-7.8211	10.2402
9550	-7.7672	12.8265	-0.8619	-77.7122	-0.8619	-77.7122	-7.7646	9.8128
9600	-7.7110	12.4054	-0.8739	-78.1355	-0.8739	-78.1355	-7.7084	9.3853
9650	-7.6551	11.9842	-0.8860	-78.5589	-0.8860	-78.5589	-7.6525	8.9579
9700	-7.5995	11.5630	-0.8982	-78.9823	-0.8982	-78.9823	-7.5969	8.5305
9750	-7.5442	11.1416	-0.9105	-79.4058	-0.9105	-79.4058	-7.5417	8.1031
9800	-7.4893	10.7201	-0.9230	-79.8293	-0.9230	-79.8293	-7.4867	7.6757
9850	-7.4346	10.2986	-0.9355	-80.2528	-0.9355	-80.2528	-7.4320	7.2483
9900	-7.3803	9.8770	-0.9482	-80.6764	-0.9482	-80.6764	-7.3777	6.8209
9950	-7.3262	9.4554	-0.9611	-81.1000	-0.9611	-81.1000	-7.3236	6.3936
10000	-7.2724	9.0337	-0.9740	-81.5235	-0.9740	-81.5235	-7.2699	5.9663
10050	-7.2190	8.6119	-0.9871	-81.9471	-0.9871	-81.9471	-7.2164	5.5390
10100	-7.1658	8.1901	-1.0002	-82.3707	-1.0002	-82.3707	-7.1632	5.1118
10150	-7.1130	7.7682	-1.0135	-82.7943	-1.0135	-82.7943	-7.1104	4.6846
10200	-7.0604	7.3463	-1.0270	-83.2179	-1.0270	-83.2179	-7.0578	4.2574
10250	-7.0082	6.9244	-1.0405	-83.6415	-1.0405	-83.6415	-7.0056	3.8304
10300	-6.9562	6.5024	-1.0542	-84.0651	-1.0542	-84.0651	-6.9536	3.4033
10350	-6.9045	6.0804	-1.0680	-84.4886	-1.0680	-84.4886	-6.9019	2.9764
10400	-6.8531	5.6585	-1.0820	-84.9121	-1.0820	-84.9121	-6.8506	2.5495
10450	-6.8021	5.2365	-1.0960	-85.3355	-1.0960	-85.3355	-6.7995	2.1227
10500	-6.7513	4.8145	-1.1102	-85.7590	-1.1102	-85.7590	-6.7487	1.6960
10550	-6.7008	4.3925	-1.1245	-86.1823	-1.1245	-86.1823	-6.6982	1.2694
10600	-6.6506	3.9705	-1.1390	-86.6056	-1.1390	-86.6056	-6.6480	0.8429
10650	-6.6007	3.5486	-1.1535	-87.0289	-1.1535	-87.0289	-6.5981	0.4165
10700	-6.5510	3.1266	-1.1682	-87.4521	-1.1682	-87.4521	-6.5484	-0.0098
10750	-6.5017	2.7047	-1.1830	-87.8752	-1.1830	-87.8752	-6.4991	-0.4360
10800	-6.4527	2.2829	-1.1980	-88.2982	-1.1980	-88.2982	-6.4501	-0.8621
10850	-6.4039	1.8611	-1.2131	-88.7211	-1.2131	-88.7211	-6.4013	-1.2880
10900	-6.3554	1.4393	-1.2283	-89.1440	-1.2283	-89.1440	-6.3528	-1.7139
10950	-6.3072	1.0176	-1.2436	-89.5667	-1.2436	-89.5667	-6.3046	-2.1395
11000	-6.2593	0.5960	-1.2591	-89.9893	-1.2591	-89.9893	-6.2567	-2.5651
11050	-6.2117	0.1744	-1.2747	-90.4119	-1.2747	-90.4119	-6.2091	-2.9904
11100	-6.1644	-0.2471	-1.2904	-90.8343	-1.2904	-90.8343	-6.1618	-3.4157
11150	-6.1173	-0.6685	-1.3063	-91.2565	-1.3063	-91.2565	-6.1147	-3.8407
11200	-6.0705	-1.0898	-1.3223	-91.6787	-1.3223	-91.6787	-6.0680	-4.2656
11250	-6.0241	-1.5111	-1.3384	-92.1007	-1.3384	-92.1007	-6.0215	-4.6903
11300	-5.9778	-1.9322	-1.3546	-92.5225	-1.3546	-92.5225	-5.9753	-5.1148
11350	-5.9319	-2.3532	-1.3710	-92.9442	-1.3710	-92.9442	-5.9293	-5.5392
11400	-5.8863	-2.7741	-1.3875	-93.3658	-1.3875	-93.3658	-5.8837	-5.9633
11450	-5.8409	-3.1948	-1.4042	-93.7872	-1.4042	-93.7872	-5.8383	-6.3872
11500	-5.7958	-3.6154	-1.4210	-94.2084	-1.4210	-94.2084	-5.7932	-6.8110
11550	-5.7510	-4.0359	-1.4379	-94.6294	-1.4379	-94.6294	-5.7484	-7.2345
11600	-5.7064	-4.4563	-1.4549	-95.0502	-1.4549	-95.0502	-5.7038	-7.6578
11650	-5.6621	-4.8764	-1.4721	-95.4709	-1.4721	-95.4709	-5.6596	-8.0808
11700	-5.6181	-5.2965	-1.4894	-95.8913	-1.4894	-95.8913	-5.6156	-8.5037
11750	-5.5744	-5.7163	-1.5069	-96.3116	-1.5069	-96.3116	-5.5719	-8.9262
11800	-5.5310	-6.1360	-1.5244	-96.7316	-1.5244	-96.7316	-5.5284	-9.3486
11850	-5.4878	-6.5555	-1.5421	-97.1514	-1.5421	-97.1514	-5.4852	-9.7707
11900	-5.4449	-6.9748	-1.5600	-97.5710	-1.5600	-97.5710	-5.4423	-10.1925
11950	-5.4023	-7.3939	-1.5779	-97.9903	-1.5779	-97.9903	-5.3997	-10.6140
12000	-5.3599	-7.8128	-1.5960	-98.4094	-1.5960	-98.4094	-5.3573	-11.0353
12050	-5.3178	-8.2315	-1.6143	-98.8282	-1.6143	-98.8282	-5.3152	-11.4563
12100	-5.2760	-8.6500	-1.6327	-99.2468	-1.6327	-99.2468	-5.2734	-11.8770
12150	-5.2344	-9.0683	-1.6512	-99.6651	-1.6512	-99.6651	-5.2319	-12.2974
12200	-5.1931	-9.4863	-1.6698	-100.0832	-1.6698	-100.0832	-5.1906	-12.7175
12250	-5.1521	-9.9041	-1.6886	-100.5009	-1.6886	-100.5009	-5.1496	-13.1373
12300	-5.1113	-10.3216	-1.7075	-100.9184	-1.7075	-100.9184	-5.1088	-13.5568
12350	-5.0709	-10.7389	-1.7265	-101.3356	-1.7265	-101.3356	-5.0683	-13.9760
12400	-5.0306	-11.1559	-1.7457	-101.7525	-1.7457	-101.7525	-5.0281	-14.3948
12450	-4.9907	-11.5726	-1.7650	-102.1691	-1.7650	-102.1691	-4.9881	-14.8133
12500	-4.9510	-11.9891	-1.7844	-102.5854	-1.7844	-102.5854	-4.9484	-15.2315
12550	-4.9115	-12.4053	-1.8040	-103.0013	-1.8040	-103.0013	-4.9090	-15.6493
12600	-4.8723	-12.8212	-1.8237	-103.4170	-1.8237	-103.4170	-4.8698	-16.0668
12650	-4.8334	-13.2368	-1.8435	-103.8323	-1.8435	-103.8323	-4.8309	-16.4838
12700	-4.7948	-13.6521	-1.8634	-104.2472	-1.8634	-104.2472	-4.7922	-16.9006
12750	-4.7564	-14.0671	-1.8835	-104.6618	-1.8835	-104.6618	-4.7538	-17.3169
12800	-4.7182	-14.4818	-1.9038	-105.0761	-1.9038	-105.0761	-4.7157	-17.7329
12850	-4.6803	-14.8961	-1.9241	-105.4899	-1.9241	-105.4899	-4.6778	-18.1485
12900	-4.6427	-15.3101	-1.9446	-105.9035	-1.9446	-105.9035	-4.6402	-18.5636
12950	-4.6053	-15.7238	-1.9652	-106.3166	-1.9652	-106.3166	-4.6028	-18.9784
13000	-4.5682	-16.1371	-1.9860	-106.7293	-1.9860	-106.7293	-4.5657	-19.3928
13050	-4.5314	-16.5501	-2.0068	-107.1417	-2.0068	-107.1417	-4.5289	-19.8067
13100	-4.4948	-16.9627	-2.0278	-107.5537	-2.0278	-107.5537	-4.4923	-20.2202
13150	-4.4584	-17.3749	-2.0490	-107.9652	-2.0490	-107.9652	-4.4559	-20.6333
13200	-4.4223	-17.7868	-2.0702	-108.3764	-2.0702	-108.3764	-4.4198	-21.0460
13250	-4.3864	-18.1983	-2.0916	-108.7871	-2.0916	-108.7871	-4.3839	-21.4582
13300	-4.3508	-18.6094	-2.1131	-109.1974	-2.1131	-109.1974	-4.3483	-21.8700
13350	-4.3155	-19.0200	-2.1348	-109.6073	-2.1348	-109.6073	-4.3130	-22.2813
13400	-4.2804	-19.4303	-2.1566	-110.0167	-2.1566	-110.0167	-4.2779	-22.6922
13450	-4.2455	-19.8402	-2.1785	-110.4257	-2.1785	-110.4257	-4.2430	-23.1026
13500	-4.2109	-20.2497	-2.2005	-110.8342	-2.2005	-110.8342	-4.2084	-23.5125
13550	-4.1765	-20.6587	-2.2227	-111.2423	-2.2227	-111.2423	-4.1741	-23.9219
13600	-4.1424	-21.0673	-2.2449	-111.6499	-2.2449	-111.6499	-4.1400	-24.3308
