!	AVX	Thin	Film	Operation	Date:	2004																																																																			
!	Description:	"Series,"	Thin	"Film,"	"LGA,"	RF	Inductors																																																																		
!	Part	Number:	L06038r2nH																																																																						
!	25	MHz	-	6	GHz																																																																				
!	Serial	Measurements																																																																							
!																																																																									
#	mhz	S	db	R	50																																																																				
!	S11	S11	S21	S21	S12	S12	S22	S22																																																																	
!	dB	Phase	dB	Phase	dB	Phase	dB	Phase																																																																	
25	-38.4117	88.0870	-0.0027	-0.7550	-0.0027	-0.7550	-38.4117	88.0967																																																																	
50	-32.3920	87.3201	-0.0067	-1.5100	-0.0067	-1.5100	-32.3921	87.3370																																																																	
75	-28.8722	86.5532	-0.0120	-2.2647	-0.0120	-2.2647	-28.8722	86.5779																																																																	
100	-26.3764	85.7868	-0.0186	-3.0192	-0.0186	-3.0192	-26.3764	85.8193																																																																	
125	-24.4421	85.0209	-0.0264	-3.7731	-0.0264	-3.7731	-24.4422	85.0614																																																																	
150	-22.8635	84.2558	-0.0356	-4.5264	-0.0356	-4.5264	-22.8635	84.3043																																																																	
175	-21.5306	83.4916	-0.0460	-5.2790	-0.0460	-5.2790	-21.5306	83.5481																																																																	
200	-20.3777	82.7284	-0.0576	-6.0307	-0.0576	-6.0307	-20.3778	82.7929																																																																	
225	-19.3626	81.9663	-0.0705	-6.7813	-0.0705	-6.7813	-19.3627	82.0388																																																																	
250	-18.4565	81.2056	-0.0847	-7.5308	-0.0847	-7.5308	-18.4565	81.2860																																																																	
275	-17.6385	80.4462	-0.1002	-8.2790	-0.1002	-8.2790	-17.6386	80.5347																																																																	
300	-16.8937	79.6883	-0.1168	-9.0257	-0.1168	-9.0257	-16.8938	79.7848																																																																	
325	-16.2103	78.9321	-0.1347	-9.7709	-0.1347	-9.7709	-16.2104	79.0366																																																																	
350	-15.5795	78.1776	-0.1539	-10.5144	-0.1539	-10.5144	-15.5796	78.2902																																																																	
375	-14.9940	77.4251	-0.1742	-11.2561	-0.1742	-11.2561	-14.9941	77.5457																																																																	
400	-14.4481	76.6745	-0.1958	-11.9959	-0.1958	-11.9959	-14.4482	76.8032																																																																	
425	-13.9372	75.9261	-0.2186	-12.7337	-0.2186	-12.7337	-13.9373	76.0627																																																																	
450	-13.4572	75.1799	-0.2426	-13.4693	-0.2426	-13.4693	-13.4574	75.3245																																																																	
475	-13.0050	74.4360	-0.2678	-14.2026	-0.2678	-14.2026	-13.0052	74.5887																																																																	
500	-12.5778	73.6945	-0.2941	-14.9336	-0.2941	-14.9336	-12.5780	73.8552																																																																	
525	-12.1733	72.9556	-0.3216	-15.6621	-0.3216	-15.6621	-12.1734	73.1243																																																																	
550	-11.7893	72.2192	-0.3503	-16.3880	-0.3503	-16.3880	-11.7894	72.3961																																																																	
575	-11.4241	71.4856	-0.3801	-17.1112	-0.3801	-17.1112	-11.4243	71.6705																																																																	
600	-11.0762	70.7549	-0.4110	-17.8317	-0.4110	-17.8317	-11.0764	70.9478																																																																	
625	-10.7442	70.0270	-0.4431	-18.5493	-0.4431	-18.5493	-10.7444	70.2279																																																																	
650	-10.4269	69.3021	-0.4762	-19.2640	-0.4762	-19.2640	-10.4271	69.5111																																																																	
675	-10.1233	68.5802	-0.5105	-19.9756	-0.5105	-19.9756	-10.1235	68.7973																																																																	
700	-9.8323	67.8615	-0.5459	-20.6841	-0.5459	-20.6841	-9.8326	68.0866																																																																	
725	-9.5533	67.1460	-0.5823	-21.3894	-0.5823	-21.3894	-9.5535	67.3792																																																																	
750	-9.2853	66.4337	-0.6198	-22.0915	-0.6198	-22.0915	-9.2855	66.6750																																																																	
775	-9.0277	65.7248	-0.6583	-22.7902	-0.6583	-22.7902	-9.0279	65.9742																																																																	
800	-8.7798	65.0193	-0.6979	-23.4855	-0.6979	-23.4855	-8.7801	65.2767																																																																	
825	-8.5412	64.3173	-0.7385	-24.1774	-0.7385	-24.1774	-8.5415	64.5828																																																																	
850	-8.3112	63.6188	-0.7801	-24.8657	-0.7801	-24.8657	-8.3115	63.8924																																																																	
875	-8.0895	62.9238	-0.8227	-25.5504	-0.8227	-25.5504	-8.0897	63.2055																																																																	
900	-7.8754	62.2325	-0.8663	-26.2315	-0.8663	-26.2315	-7.8757	62.5223																																																																	
925	-7.6688	61.5448	-0.9109	-26.9090	-0.9109	-26.9090	-7.6691	61.8427																																																																	
950	-7.4691	60.8609	-0.9564	-27.5826	-0.9564	-27.5826	-7.4694	61.1669																																																																	
975	-7.2760	60.1807	-1.0029	-28.2526	-1.0029	-28.2526	-7.2763	60.4948																																																																	
1000	-7.0893	59.5043	-1.0503	-28.9187	-1.0503	-28.9187	-7.0896	59.8265																																																																	
1025	-6.9085	58.8317	-1.0987	-29.5809	-1.0987	-29.5809	-6.9088	59.1620																																																																	
1050	-6.7335	58.1629	-1.1479	-30.2392	-1.1479	-30.2392	-6.7339	58.5014																																																																	
1075	-6.5640	57.4981	-1.1981	-30.8937	-1.1981	-30.8937	-6.5643	57.8446																																																																	
1100	-6.3997	56.8371	-1.2491	-31.5442	-1.2491	-31.5442	-6.4001	57.1918																																																																	
1125	-6.2404	56.1801	-1.3010	-32.1907	-1.3010	-32.1907	-6.2408	56.5429																																																																	
1150	-6.0860	55.5269	-1.3538	-32.8332	-1.3538	-32.8332	-6.0863	55.8979																																																																	
1175	-5.9361	54.8778	-1.4074	-33.4717	-1.4074	-33.4717	-5.9365	55.2570																																																																	
1200	-5.7906	54.2326	-1.4619	-34.1061	-1.4619	-34.1061	-5.7910	54.6199																																																																	
1225	-5.6494	53.5915	-1.5171	-34.7365	-1.5171	-34.7365	-5.6498	53.9869																																																																	
1250	-5.5122	52.9543	-1.5733	-35.3629	-1.5733	-35.3629	-5.5127	53.3579																																																																	
1275	-5.3790	52.3211	-1.6302	-35.9852	-1.6302	-35.9852	-5.3794	52.7329																																																																	
1300	-5.2495	51.6919	-1.6879	-36.6033	-1.6879	-36.6033	-5.2499	52.1119																																																																	
1325	-5.1237	51.0667	-1.7464	-37.2174	-1.7464	-37.2174	-5.1241	51.4949																																																																	
1350	-5.0013	50.4456	-1.8057	-37.8275	-1.8057	-37.8275	-5.0017	50.8820																																																																	
1375	-4.8823	49.8284	-1.8657	-38.4334	-1.8657	-38.4334	-4.8827	50.2730																																																																	
1400	-4.7665	49.2153	-1.9265	-39.0352	-1.9265	-39.0352	-4.7670	49.6681																																																																	
1425	-4.6539	48.6061	-1.9881	-39.6329	-1.9881	-39.6329	-4.6544	49.0672																																																																	
1450	-4.5443	48.0010	-2.0503	-40.2266	-2.0503	-40.2266	-4.5448	48.4703																																																																	
1475	-4.4376	47.3998	-2.1134	-40.8161	-2.1134	-40.8161	-4.4381	47.8773																																																																	
1500	-4.3337	46.8026	-2.1771	-41.4016	-2.1771	-41.4016	-4.3342	47.2884																																																																	
1525	-4.2326	46.2094	-2.2416	-41.9830	-2.2416	-41.9830	-4.2330	46.7034																																																																	
1550	-4.1340	45.6201	-2.3067	-42.5604	-2.3067	-42.5604	-4.1345	46.1224																																																																	
1575	-4.0380	45.0347	-2.3726	-43.1337	-2.3726	-43.1337	-4.0385	45.5453																																																																	
1600	-3.9445	44.4533	-2.4391	-43.7029	-2.4391	-43.7029	-3.9450	44.9722																																																																	
1625	-3.8534	43.8758	-2.5064	-44.2682	-2.5064	-44.2682	-3.8539	44.4029																																																																	
1650	-3.7645	43.3021	-2.5743	-44.8294	-2.5743	-44.8294	-3.7651	43.8376																																																																	
1675	-3.6779	42.7323	-2.6428	-45.3867	-2.6428	-45.3867	-3.6785	43.2761																																																																	
1700	-3.5935	42.1664	-2.7121	-45.9400	-2.7121	-45.9400	-3.5940	42.7185																																																																	
1725	-3.5112	41.6043	-2.7820	-46.4894	-2.7820	-46.4894	-3.5117	42.1647																																																																	
1750	-3.4309	41.0459	-2.8525	-47.0348	-2.8525	-47.0348	-3.4314	41.6147																																																																	
1775	-3.3526	40.4914	-2.9237	-47.5763	-2.9237	-47.5763	-3.3531	41.0685																																																																	
1800	-3.2762	39.9406	-2.9956	-48.1139	-2.9956	-48.1139	-3.2767	40.5261																																																																	
1825	-3.2016	39.3935	-3.0681	-48.6476	-3.0681	-48.6476	-3.2022	39.9874																																																																	
1850	-3.1289	38.8501	-3.1412	-49.1775	-3.1412	-49.1775	-3.1294	39.4524																																																																	
1875	-3.0579	38.3104	-3.2149	-49.7036	-3.2149	-49.7036	-3.0584	38.9211																																																																	
1900	-2.9886	37.7743	-3.2893	-50.2259	-3.2893	-50.2259	-2.9891	38.3934																																																																	
1925	-2.9209	37.2419	-3.3643	-50.7444	-3.3643	-50.7444	-2.9215	37.8693																																																																	
1950	-2.8549	36.7130	-3.4399	-51.2591	-3.4399	-51.2591	-2.8555	37.3489																																																																	
1975	-2.7904	36.1877	-3.5162	-51.7702	-3.5162	-51.7702	-2.7910	36.8320																																																																	
2000	-2.7274	35.6659	-3.5930	-52.2775	-3.5930	-52.2775	-2.7280	36.3187																																																																	
2025	-2.6659	35.1476	-3.6705	-52.7812	-3.6705	-52.7812	-2.6665	35.8089																																																																	
2050	-2.6059	34.6328	-3.7486	-53.2812	-3.7486	-53.2812	-2.6065	35.3025																																																																	
2075	-2.5472	34.1214	-3.8273	-53.7776	-3.8273	-53.7776	-2.5478	34.7996																																																																	
2100	-2.4899	33.6134	-3.9066	-54.2704	-3.9066	-54.2704	-2.4905	34.3002																																																																	
2125	-2.4339	33.1088	-3.9865	-54.7596	-3.9865	-54.7596	-2.4345	33.8041																																																																	
2150	-2.3792	32.6076	-4.0671	-55.2454	-4.0671	-55.2454	-2.3798	33.3113																																																																	
2175	-2.3258	32.1096	-4.1482	-55.7276	-4.1482	-55.7276	-2.3264	32.8219																																																																	
2200	-2.2735	31.6149	-4.2299	-56.2063	-4.2299	-56.2063	-2.2741	32.3358																																																																	
2225	-2.2224	31.1235	-4.3123	-56.6815	-4.3123	-56.6815	-2.2231	31.8529																																																																	
2250	-2.1725	30.6353	-4.3953	-57.1534	-4.3953	-57.1534	-2.1732	31.3733																																																																	
2275	-2.1238	30.1502	-4.4789	-57.6218	-4.4789	-57.6218	-2.1244	30.8968																																																																	
2300	-2.0761	29.6683	-4.5631	-58.0869	-4.5631	-58.0869	-2.0767	30.4235																																																																	
2325	-2.0295	29.1896	-4.6479	-58.5486	-4.6479	-58.5486	-2.0301	29.9534																																																																	
2350	-1.9839	28.7139	-4.7333	-59.0071	-4.7333	-59.0071	-1.9845	29.4863																																																																	
2375	-1.9393	28.2412	-4.8194	-59.4622	-4.8194	-59.4622	-1.9400	29.0223																																																																	
2400	-1.8957	27.7716	-4.9061	-59.9141	-4.9061	-59.9141	-1.8964	28.5613																																																																	
2425	-1.8531	27.3049	-4.9934	-60.3627	-4.9934	-60.3627	-1.8538	28.1033																																																																	
2450	-1.8114	26.8412	-5.0814	-60.8081	-5.0814	-60.8081	-1.8121	27.6483																																																																	
2475	-1.7707	26.3804	-5.1700	-61.2504	-5.1700	-61.2504	-1.7713	27.1963																																																																	
2500	-1.7308	25.9225	-5.2592	-61.6895	-5.2592	-61.6895	-1.7315	26.7471																																																																	
2525	-1.6918	25.4675	-5.3491	-62.1254	-5.3491	-62.1254	-1.6925	26.3008																																																																	
2550	-1.6537	25.0153	-5.4397	-62.5583	-5.4397	-62.5583	-1.6543	25.8573																																																																	
2575	-1.6163	24.5658	-5.5309	-62.9881	-5.5309	-62.9881	-1.6170	25.4166																																																																	
2600	-1.5798	24.1191	-5.6227	-63.4148	-5.6227	-63.4148	-1.5805	24.9787																																																																	
2625	-1.5441	23.6752	-5.7153	-63.8386	-5.7153	-63.8386	-1.5448	24.5436																																																																	
2650	-1.5092	23.2339	-5.8085	-64.2593	-5.8085	-64.2593	-1.5099	24.1111																																																																	
2675	-1.4750	22.7953	-5.9024	-64.6770	-5.9024	-64.6770	-1.4757	23.6813																																																																	
2700	-1.4415	22.3593	-5.9970	-65.0918	-5.9970	-65.0918	-1.4422	23.2542																																																																	
2725	-1.4088	21.9259	-6.0923	-65.5036	-6.0923	-65.5036	-1.4095	22.8297																																																																	
2750	-1.3768	21.4951	-6.1884	-65.9125	-6.1884	-65.9125	-1.3775	22.4077																																																																	
2775	-1.3454	21.0668	-6.2851	-66.3186	-6.2851	-66.3186	-1.3461	21.9884																																																																	
2800	-1.3148	20.6410	-6.3826	-66.7218	-6.3826	-66.7218	-1.3154	21.5715																																																																	
2825	-1.2847	20.2176	-6.4808	-67.1221	-6.4808	-67.1221	-1.2854	21.1571																																																																	
2850	-1.2554	19.7968	-6.5798	-67.5196	-6.5798	-67.5196	-1.2561	20.7452																																																																	
2875	-1.2266	19.3783	-6.6795	-67.9143	-6.6795	-67.9143	-1.2273	20.3357																																																																	
2900	-1.1985	18.9622	-6.7800	-68.3062	-6.7800	-68.3062	-1.1992	19.9286																																																																	
2925	-1.1710	18.5485	-6.8813	-68.6953	-6.8813	-68.6953	-1.1716	19.5239																																																																	
2950	-1.1440	18.1370	-6.9834	-69.0817	-6.9834	-69.0817	-1.1447	19.1215																																																																	
2975	-1.1176	17.7279	-7.0864	-69.4653	-7.0864	-69.4653	-1.1183	18.7214																																																																	
3000	-1.0918	17.3211	-7.1901	-69.8463	-7.1901	-69.8463	-1.0925	18.3236																																																																	
3025	-1.0665	16.9164	-7.2947	-70.2245	-7.2947	-70.2245	-1.0672	17.9281																																																																	
3050	-1.0418	16.5140	-7.4001	-70.6000	-7.4001	-70.6000	-1.0425	17.5348																																																																	
3075	-1.0176	16.1137	-7.5064	-70.9729	-7.5064	-70.9729	-1.0183	17.1437																																																																	
3100	-0.9939	15.7156	-7.6137	-71.3431	-7.6137	-71.3431	-0.9946	16.7547																																																																	
3125	-0.9707	15.3197	-7.7218	-71.7106	-7.7218	-71.7106	-0.9714	16.3679																																																																	
3150	-0.9480	14.9258	-7.8308	-72.0755	-7.8308	-72.0755	-0.9487	15.9833																																																																	
3175	-0.9258	14.5339	-7.9408	-72.4377	-7.9408	-72.4377	-0.9265	15.6007																																																																	
3200	-0.9041	14.1441	-8.0517	-72.7974	-8.0517	-72.7974	-0.9047	15.2201																																																																	
3225	-0.8828	13.7564	-8.1636	-73.1544	-8.1636	-73.1544	-0.8835	14.8416																																																																	
3250	-0.8620	13.3706	-8.2766	-73.5088	-8.2766	-73.5088	-0.8626	14.4651																																																																	
3275	-0.8416	12.9867	-8.3905	-73.8606	-8.3905	-73.8606	-0.8423	14.0906																																																																	
3300	-0.8217	12.6048	-8.5055	-74.2098	-8.5055	-74.2098	-0.8223	13.7180																																																																	
3325	-0.8022	12.2248	-8.6216	-74.5564	-8.6216	-74.5564	-0.8028	13.3474																																																																	
3350	-0.7831	11.8467	-8.7387	-74.9004	-8.7387	-74.9004	-0.7837	12.9786																																																																	
3375	-0.7644	11.4705	-8.8570	-75.2418	-8.8570	-75.2418	-0.7650	12.6118																																																																	
3400	-0.7461	11.0960	-8.9764	-75.5806	-8.9764	-75.5806	-0.7467	12.2468																																																																	
3425	-0.7282	10.7234	-9.0970	-75.9168	-9.0970	-75.9168	-0.7288	11.8836																																																																	
3450	-0.7107	10.3526	-9.2188	-76.2504	-9.2188	-76.2504	-0.7113	11.5222																																																																	
3475	-0.6936	9.9835	-9.3418	-76.5814	-9.3418	-76.5814	-0.6942	11.1626																																																																	
3500	-0.6768	9.6161	-9.4661	-76.9098	-9.4661	-76.9098	-0.6774	10.8048																																																																	
