!	AVX	Thin	Film	Operation	Date:	2004																																										
!	Description:	"Series,"	Thin	"Film,"	"LGA,"	RF	Inductors																																									
!	Part	Number:	L06033r3nH																																													
!	50	MHz	-	15	GHz																																											
!	Serial	Measurements																																														
!																																																
#	mhz	S	db	R	50																																											
!	S11	S11	S21	S21	S12	S12	S22	S22																																								
!	dB	Phase	dB	Phase	dB	Phase	dB	Phase																																								
50	-41.68176597	82.75731086	-0.008455274	-0.683071883	-0.008455274	-0.683071883	-41.68173988	82.78265867																																								
100	-36.02046599	83.38804606	-0.013670716	-1.330257808	-0.013670716	-1.330257808	-36.02040399	83.43759414																																								
150	-32.67828154	83.35178388	-0.018677741	-1.968982724	-0.018677741	-1.968982724	-32.67821294	83.42750059																																								
200	-30.29592402	83.09175427	-0.023765168	-2.602786248	-0.023765168	-2.602786248	-30.29583524	83.19258503																																								
250	-28.44257219	82.72344763	-0.029048085	-3.233182267	-0.029048085	-3.233182267	-28.44246406	82.84939652																																								
300	-26.92514847	82.29286568	-0.034586997	-3.861003148	-0.034586997	-3.861003148	-26.92502136	82.44390823																																								
350	-25.64023164	81.8224559	-0.040418636	-4.486771532	-0.040418636	-4.486771532	-25.64008601	81.9985901																																								
400	-24.5258979	81.32470659	-0.046567424	-5.110844386	-0.046567424	-5.110844386	-24.52573403	81.525921																																								
450	-23.54210772	80.80719692	-0.053050665	-5.733480293	-0.053050665	-5.733480293	-23.54192592	81.03348919																																								
500	-22.6614679	80.2748438	-0.059881232	-6.354874882	-0.059881232	-6.354874882	-22.6612684	80.52621062																																								
550	-21.86440713	79.73099536	-0.067069073	-6.975181245	-0.067069073	-6.975181245	-21.86419015	80.00743628																																								
600	-21.13645379	79.1780245	-0.074622131	-7.594522467	-0.074622131	-7.594522467	-21.13621953	79.47953991																																								
650	-20.46660411	78.61766737	-0.082546928	-8.212999718	-0.082546928	-8.212999718	-20.46635269	78.94425699																																								
700	-19.84629512	78.05122546	-0.090848949	-8.8306977	-0.090848949	-8.8306977	-19.84602668	78.40289258																																								
750	-19.26873184	77.47969832	-0.099532913	-9.447688477	-0.099532913	-9.447688477	-19.26844649	77.85644756																																								
800	-18.72843162	76.90386834	-0.108602961	-10.06403415	-0.108602961	-10.06403415	-18.72812946	77.30570388																																								
850	-18.22090632	76.32435681	-0.118062793	-10.6797889	-0.118062793	-10.6797889	-18.22058743	76.75128329																																								
900	-17.74243656	75.74169715	-0.127915757	-11.29499995	-0.127915757	-11.29499995	-17.74210049	76.19365482																																								
950	-17.28989997	75.15619812	-0.138165017	-11.90971139	-0.138165017	-11.90971139	-17.28954777	75.63332415																																								
1000	-16.86066003	74.56829618	-0.148813423	-12.52395969	-0.148813423	-12.52395969	-16.86029118	75.0705309																																								
1050	-16.45246538	73.9783465	-0.159863643	-13.13777728	-0.159863643	-13.13777728	-16.45207839	74.50548392																																								
1100	-16.06336145	73.38625318	-0.171318631	-13.75120287	-0.171318631	-13.75120287	-16.06295942	73.93873736																																								
1150	-15.69167929	72.79253874	-0.183180622	-14.36425743	-0.183180622	-14.36425743	-15.69126079	73.37017951																																								
1200	-15.33594414	72.19725631	-0.195452271	-14.97697103	-0.195452271	-14.97697103	-15.33550935	72.8000898																																								
1250	-14.99487129	71.60052491	-0.20813587	-15.58936433	-0.20813587	-15.58936433	-14.99442068	72.22864606																																								
1300	-14.66731768	71.00257945	-0.221234067	-16.20146473	-0.221234067	-16.20146473	-14.66685028	71.65585495																																								
1350	-14.35227595	70.40346569	-0.234749201	-16.81329134	-0.234749201	-16.81329134	-14.35179161	71.0818907																																								
1400	-14.04884624	69.80328741	-0.248683716	-17.42486434	-0.248683716	-17.42486434	-14.04834471	70.50683695																																								
1450	-13.75622583	69.20206806	-0.263039917	-18.03619958	-0.263039917	-18.03619958	-13.75570754	69.9308396																																								
1500	-13.47368999	68.59991916	-0.27782033	-18.64731597	-0.27782033	-18.64731597	-13.47315488	69.35392844																																								
1550	-13.20058644	67.99690389	-0.293027429	-19.25822985	-0.293027429	-19.25822985	-13.20003444	68.77616723																																								
1600	-12.93632494	67.39307792	-0.308663721	-19.86895665	-0.308663721	-19.86895665	-12.93575596	68.19761228																																								
1650	-12.6803696	66.78849033	-0.324731751	-20.47951101	-0.324731751	-20.47951101	-12.67978357	67.61831354																																								
1700	-12.43223251	66.18318482	-0.341234105	-21.08990681	-0.341234105	-21.08990681	-12.43162932	67.0383152																																								
1750	-12.19146808	65.57720003	-0.35817342	-21.70015729	-0.35817342	-21.70015729	-12.19084763	66.45765671																																								
1800	-11.95766835	64.97057038	-0.375552383	-22.31027505	-0.375552383	-22.31027505	-11.95703054	65.87637321																																								
1850	-11.73045889	64.36332655	-0.393373734	-22.92027211	-0.393373734	-22.92027211	-11.7298036	65.29449609																																								
1900	-11.50949516	63.75549596	-0.411640273	-23.53015997	-0.411640273	-23.53015997	-11.50882227	64.7120534																																								
1950	-11.29445949	63.14710303	-0.430354862	-24.13994963	-0.430354862	-24.13994963	-11.29376888	64.12907036																																								
2000	-11.08505832	62.5381697	-0.449520424	-24.74965163	-0.449520424	-24.74965163	-11.08434985	63.5455695																																								
2050	-10.88101986	61.92871564	-0.469139952	-25.35927606	-0.469139952	-25.35927606	-10.88029339	62.96157107																																								
2100	-10.68209193	61.31875808	-0.489216509	-25.96883265	-0.489216509	-25.96883265	-10.68134732	62.37709359																																								
2150	-10.48804023	60.70831305	-0.509753223	-26.57833069	-0.509753223	-26.57833069	-10.48727732	61.79215324																																								
2200	-10.29864659	60.09739456	-0.530753304	-27.18777914	-0.530753304	-27.18777914	-10.29786522	61.20676489																																								
2250	-10.1137076	59.48601525	-0.552220032	-27.7971866	-0.552220032	-27.7971866	-10.11290761	60.62094188																																								
2300	-9.933033268	58.87418641	-0.574156767	-28.40656134	-0.574156767	-28.40656134	-9.932214492	60.03469628																																								
2350	-9.756445937	58.26191865	-0.596566948	-29.01591129	-0.596566948	-29.01591129	-9.755608192	59.44803856																																								
2400	-9.583779082	57.64921963	-0.619454106	-29.62524423	-0.619454106	-29.62524423	-9.582922195	58.86097969																																								
2450	-9.414876672	57.0360989	-0.642821841	-30.23456743	-0.642821841	-30.23456743	-9.414000452	58.27352728																																								
2500	-9.24959211	56.42256339	-0.666673841	-30.84388796	-0.666673841	-30.84388796	-9.248696362	57.68568968																																								
2550	-9.087787427	55.80861846	-0.691013906	-31.45321284	-0.691013906	-31.45321284	-9.08687196	57.09747484																																								
2600	-8.929333023	55.19427194	-0.715845878	-32.06254831	-0.715845878	-32.06254831	-8.928397624	56.50888778																																								
2650	-8.774106408	54.57952753	-0.741173747	-32.67190099	-0.741173747	-32.67190099	-8.77315087	55.9199352																																								
2700	-8.621992179	53.96438918	-0.767001567	-33.28127689	-0.767001567	-33.28127689	-8.621016293	55.33062303																																								
2750	-8.47288144	53.34886295	-0.79333347	-33.89068165	-0.79333347	-33.89068165	-8.471884975	54.74095443																																								
2800	-8.326670952	52.73295027	-0.820173736	-34.50012113	-0.820173736	-34.50012113	-8.325653688	54.15093519																																								
2850	-8.183263244	52.11665539	-0.847526701	-35.10960054	-0.847526701	-35.10960054	-8.182224946	53.56056832																																								
2900	-8.042565867	51.49998066	-0.875396825	-35.71912508	-0.875396825	-35.71912508	-8.041506299	52.96985754																																								
2950	-7.904491149	50.88292722	-0.903788674	-36.32869974	-0.903788674	-36.32869974	-7.903410075	52.37880703																																								
3000	-7.768955926	50.26549969	-0.932706917	-36.9383293	-0.932706917	-36.9383293	-7.767853087	51.78741681																																								
3050	-7.635881248	49.64769741	-0.962156321	-37.54801811	-0.962156321	-37.54801811	-7.634756395	51.19569207																																								
3100	-7.505192004	49.02952214	-0.992141776	-38.15777052	-0.992141776	-38.15777052	-7.504044883	50.60363459																																								
3150	-7.37681699	48.41098005	-1.022668237	-38.76759021	-1.022668237	-38.76759021	-7.375647301	50.01124221																																								
3200	-7.250687768	47.7920647	-1.053740915	-39.3774819	-1.053740915	-39.3774819	-7.249495262	49.4185225																																								
3250	-7.126739512	47.17277673	-1.085365064	-39.98744936	-1.085365064	-39.98744936	-7.125523935	48.82547697																																								
3300	-7.0049108	46.55312127	-1.117545958	-40.59749534	-1.117545958	-40.59749534	-7.003671858	48.23210394																																								
3350	-6.885142536	45.93309576	-1.150289123	-41.20762345	-1.150289123	-41.20762345	-6.883879951	47.63840706																																								
3400	-6.76737851	45.3127074	-1.183600163	-41.81783683	-1.183600163	-41.81783683	-6.766091947	47.04438034																																								
3450	-6.65156481	44.69194256	-1.217484854	-42.4281384	-1.217484854	-42.4281384	-6.65025403	46.4500386																																								
3500	-6.537650304	44.07081762	-1.251949023	-43.0385307	-1.251949023	-43.0385307	-6.536314944	45.85536657																																								
3550	-6.425586178	43.44932266	-1.286998562	-43.64901504	-1.286998562	-43.64901504	-6.424225939	45.26037733																																								
3600	-6.315323796	42.82745305	-1.322640142	-44.25959795	-1.322640142	-44.25959795	-6.313938402	44.66506751																																								
3650	-6.206819939	42.2052187	-1.358879492	-44.87027696	-1.358879492	-44.87027696	-6.20540904	44.06943678																																								
3700	-6.100031136	41.58261239	-1.395723144	-45.4810546	-1.395723144	-45.4810546	-6.098594423	43.47349136																																								
3750	-5.994915229	40.9596443	-1.433177998	-46.09193525	-1.433177998	-46.09193525	-5.99345231	42.87721571																																								
3800	-5.891433237	40.33630188	-1.471250547	-46.70291809	-1.471250547	-46.70291809	-5.889943802	42.2806272																																								
3850	-5.789546516	39.71258444	-1.509947926	-47.31400617	-1.509947926	-47.31400617	-5.788030247	41.68372293																																								
3900	-5.689219206	39.08849913	-1.549276969	-47.92519891	-1.549276969	-47.92519891	-5.687675727	41.08649895																																								
3950	-5.59041593	38.46404197	-1.589245025	-48.536498	-1.589245025	-48.536498	-5.588844883	40.48895754																																								
4000	-5.493103294	37.83921589	-1.629859379	-49.14790331	-1.629859379	-49.14790331	-5.49150429	39.89109714																																								
4050	-5.397247947	37.21400946	-1.671128012	-49.75941791	-1.671128012	-49.75941791	-5.395620661	39.2929238																																								
4100	-5.302819677	36.58843277	-1.713058309	-50.37103959	-1.713058309	-50.37103959	-5.301163706	38.69443213																																								
4150	-5.209788188	35.96248154	-1.755658361	-50.98276931	-1.755658361	-50.98276931	-5.208103149	38.09562438																																								
4200	-5.118124631	35.33615505	-1.798936318	-51.59460696	-1.798936318	-51.59460696	-5.116410132	37.49650086																																								
4250	-5.027801224	34.70945259	-1.84290053	-52.20655226	-1.84290053	-52.20655226	-5.026056869	36.89706193																																								
4300	-4.938791215	34.08237346	-1.88755955	-52.81860467	-1.88755955	-52.81860467	-4.937016598	36.29730793																																								
4350	-4.851068823	33.45491694	-1.932922138	-53.43076346	-1.932922138	-53.43076346	-4.849263533	35.69723921																																								
4400	-4.764609202	32.82708233	-1.978997271	-54.04302769	-1.978997271	-54.04302769	-4.762772821	35.09685619																																								
4450	-4.679388395	32.19886892	-2.025794146	-54.65539616	-2.025794146	-54.65539616	-4.677520499	34.49615924																																								
4500	-4.595383296	31.57027602	-2.07332219	-55.26786748	-2.07332219	-55.26786748	-4.593483453	33.89514882																																								
4550	-4.512571612	30.94130297	-2.121591064	-55.88044	-2.121591064	-55.88044	-4.510639383	33.29382537																																								
4600	-4.430931829	30.31194913	-2.170610673	-56.49311186	-2.170610673	-56.49311186	-4.428966767	32.69218937																																								
4650	-4.350443172	29.68221379	-2.220391172	-57.10588096	-2.220391172	-57.10588096	-4.348444824	32.09024136																																								
4700	-4.271085586	29.05209638	-2.270942973	-57.71874494	-2.270942973	-57.71874494	-4.269053492	31.48798189																																								
4750	-4.192839693	28.42159627	-2.322276757	-58.3317012	-2.322276757	-58.3317012	-4.190773384	30.88541155																																								
4800	-4.115686775	27.7907129	-2.374403479	-58.94474689	-2.374403479	-58.94474689	-4.113585776	30.28253095																																								
4850	-4.039608735	27.1594457	-2.427334379	-59.55787891	-2.427334379	-59.55787891	-4.037472563	29.67934078																																								
4900	-3.964588082	26.52779413	-2.481080991	-60.17109387	-2.481080991	-60.17109387	-3.962416245	29.07584173																																								
4950	-3.890607902	25.8957577	-2.535655153	-60.78438814	-2.535655153	-60.78438814	-3.888399901	28.47203455																																								
5000	-3.817651832	25.26333589	-2.59106902	-61.39775779	-2.59106902	-61.39775779	-3.815407161	27.86792004																																								
5050	-3.745704045	24.63052827	-2.647335068	-62.01119861	-2.647335068	-62.01119861	-3.743422188	27.26349901																																								
5100	-3.674749223	23.9973344	-2.704466113	-62.62470612	-2.704466113	-62.62470612	-3.672429658	26.65877236																																								
5150	-3.60477254	23.36375382	-2.762475322	-63.23827552	-2.762475322	-63.23827552	-3.602414734	26.05374103																																								
5200	-3.535759647	22.72978624	-2.821376217	-63.85190169	-2.821376217	-63.85190169	-3.533363061	25.44840595																																								
5250	-3.467696643	22.09543125	-2.881182701	-64.46557922	-2.881182701	-64.46557922	-3.465260728	24.84276815																																								
5300	-3.40057007	21.46068856	-2.94190906	-65.07930235	-2.94190906	-65.07930235	-3.398094269	24.23682869																																								
5350	-3.334366881	20.82555774	-3.003569995	-65.69306504	-3.003569995	-65.69306504	-3.331850628	23.63058871																																								
5400	-3.269074464	20.19003883	-3.066180594	-66.30686075	-3.066180594	-66.30686075	-3.266517184	23.02404927																																								
5450	-3.204680555	19.55413127	-3.129756422	-66.92068278	-3.129756422	-66.92068278	-3.202081663	22.41721167																																								
5500	-3.141173299	18.91783499	-3.194313462	-67.53452393	-3.194313462	-67.53452393	-3.138532202	21.81007711																																								
5550	-3.078541187	18.28114972	-3.259868183	-68.14837668	-3.259868183	-68.14837668	-3.075857282	21.20264689																																								
5600	-3.016773072	17.64407534	-3.326437529	-68.76223303	-3.326437529	-68.76223303	-3.014045746	20.59492237																																								
5650	-2.955858141	17.00661171	-3.394038951	-69.37608463	-3.394038951	-69.37608463	-2.953086772	19.98690492																																								
5700	-2.895785911	16.36875889	-3.462690422	-69.98992264	-3.462690422	-69.98992264	-2.892969868	19.37859586																																								
5750	-2.836546171	15.73051614	-3.532410518	-70.60373801	-3.532410518	-70.60373801	-2.833684811	18.76999692																																								
5800	-2.778129067	15.09188367	-3.603218318	-71.21752095	-3.603218318	-71.21752095	-2.775221739	18.16110949																																								
5850	-2.720525077	14.45286212	-3.675133449	-71.83126099	-3.675133449	-71.83126099	-2.717571117	17.55193501																																								
5900	-2.663724874	13.81345098	-3.748176264	-72.4449476	-3.748176264	-72.4449476	-2.660723608	16.94247518																																								
5950	-2.607719426	13.1736501	-3.822367735	-73.05856961	-3.822367735	-73.05856961	-2.604670172	16.33273165																																								
6000	-2.552499962	12.53345914	-3.897729522	-73.67211534	-3.897729522	-73.67211534	-2.549402024	15.72270624																																								
6050	-2.498058026	11.89287872	-3.974283904	-74.28557222	-3.974283904	-74.28557222	-2.494910698	15.1124005																																								
6100	-2.444385362	11.25190873	-4.052053955	-74.8989273	-4.052053955	-74.8989273	-2.441187927	14.50181629																																								
6150	-2.391473944	10.61054895	-4.131063537	-75.51216709	-4.131063537	-75.51216709	-2.388225673	13.89095545																																								
6200	-2.339316008	9.968799571	-4.211337267	-76.12527724	-4.211337267	-76.12527724	-2.336016162	13.27981981																																								
6250	-2.287904013	9.326660847	-4.292900605	-76.73824275	-4.292900605	-76.73824275	-2.284551839	12.66841119																																								
6300	-2.237230595	8.684132358	-4.375779952	-77.35104807	-4.375779952	-77.35104807	-2.233825329	12.05673158																																								
6350	-2.18728868	8.04121476	-4.460002501	-77.96367646	-4.460002501	-77.96367646	-2.183829544	11.44478293																																								
6400	-2.138071345	7.397908046	-4.545596488	-78.57611066	-4.545596488	-78.57611066	-2.13455755	10.83256721																																								
6450	-2.089571855	6.754211997	-4.632591181	-79.18833259	-4.632591181	-79.18833259	-2.086002599	10.22008655																																								
6500	-2.041783689	6.110126775	-4.721016871	-79.80032318	-4.721016871	-79.80032318	-2.038158157	9.6073429																																								
6550	-1.994700532	5.465652717	-4.810904915	-80.41206226	-4.810904915	-80.41206226	-1.991017896	8.994338383																																								
6600	-1.948316191	4.820789314	-4.902287953	-81.02352897	-4.902287953	-81.02352897	-1.94457561	8.38107519																																								
