!	AVX	Thin	Film	Operation	Date:		2004			
!	Description:		"Series,"	Thin	"Film,"	"LGA,"	RF	Inductors		
!	Part	Number:	L06032r2nH							
!	50	MHz	-	20	GHz					
!	Serial	Measurements								
!										
#	mhz	S	db	R	50					
!	S11	S11	S21	S21	S12	S12	S22	S22		
!	dB	Phase	dB	Phase	dB	Phase	dB	Phase		
50	-44.71986065	83.81279423	-0.005137741	-0.502567401	-0.005137741	-0.502567401	-44.7198613	83.82556729		
100	-39.00999887	84.47975674	-0.008225979	-0.983020628	-0.008225979	-0.983020628	-39.00998804	84.50419048		
150	-35.64159276	84.55826728	-0.011107308	-1.458427003	-0.011107308	-1.458427003	-35.64156954	84.59400557		
200	-33.24104773	84.43426659	-0.013974226	-1.930964544	-0.013974226	-1.930964544	-33.24101935	84.48186499		
250	-31.37368496	84.21115478	-0.016905138	-2.401543369	-0.016905138	-2.401543369	-31.37365176	84.27061831		
300	-29.84481897	83.93034928	-0.019941704	-2.870653658	-0.019941704	-2.870653658	-29.84478118	84.00168304		
350	-28.5502048	83.61229967	-0.023109332	-3.33859707	-0.023109332	-3.33859707	-28.55016257	83.6955048		
400	-27.42743906	83.2684796	-0.026424918	-3.805575521	-0.026424918	-3.805575521	-27.42739245	83.36355153		
450	-26.43617822	82.90591117	-0.029900386	-4.271732213	-0.029900386	-4.271732213	-26.43612731	83.01285049		
500	-25.54882398	82.52918139	-0.033544526	-4.737173083	-0.033544526	-4.737173083	-25.54876883	82.64798872		
550	-24.74565995	82.14143516	-0.037364042	-5.201979096	-0.037364042	-5.201979096	-24.74560063	82.27211337		
600	-24.01210821	81.74492207	-0.04136418	-5.666213671	-0.04136418	-5.666213671	-24.01204468	81.88746134		
650	-23.33708423	81.34127978	-0.04554914	-6.129927607	-0.04554914	-6.129927607	-23.33701662	81.49569634		
700	-22.71196299	80.93176714	-0.049922341	-6.593162116	-0.049922341	-6.593162116	-22.71189126	81.09805334		
750	-22.12990004	80.51734105	-0.054486612	-7.055951253	-0.054486612	-7.055951253	-22.12982423	80.69550099		
800	-21.58537285	80.09875255	-0.059244325	-7.518323427	-0.059244325	-7.518323427	-21.58529306	80.2888033		
850	-21.0738614	79.67662417	-0.064197485	-7.980302348	-0.064197485	-7.980302348	-21.07377753	79.8785497		
900	-20.5916171	79.25142738	-0.069347822	-8.44190864	-0.069347822	-8.44190864	-20.59152928	79.46525113		
950	-20.13549946	78.82358604	-0.074696815	-8.903159377	-0.074696815	-8.903159377	-20.13540757	79.04929154		
1000	-19.70284896	78.39342117	-0.080245761	-9.364069507	-0.080245761	-9.364069507	-19.70275305	78.63102048		
1050	-19.2913947	77.96122024	-0.085995792	-9.824651804	-0.085995792	-9.824651804	-19.29129475	78.21071333		
1100	-18.89918116	77.52719872	-0.091947916	-10.28491758	-0.091947916	-10.28491758	-18.89907739	77.78863074		
1150	-18.52451376	77.09156535	-0.098103017	-10.74487627	-0.098103017	-10.74487627	-18.52440633	77.36497102		
1200	-18.16591106	76.65457969	-0.10446194	-11.20453771	-0.10446194	-11.20453771	-18.16579916	76.93982195		
1250	-17.82207602	76.21631408	-0.111025369	-11.6639083	-0.111025369	-11.6639083	-17.82195972	76.51341551		
1300	-17.49186437	75.77682056	-0.117793901	-12.12299307	-0.117793901	-12.12299307	-17.49174468	76.08596575		
1350	-17.17425366	75.33642628	-0.124768267	-12.58180156	-0.124768267	-12.58180156	-17.17412917	75.65737014		
1400	-16.86834238	74.89504767	-0.131948885	-13.04033542	-0.131948885	-13.04033542	-16.86821376	75.22792132		
1450	-16.57331765	74.45283634	-0.139336294	-13.49860019	-0.139336294	-13.49860019	-16.57318489	74.79764588		
1500	-16.28845049	74.00987225	-0.146930955	-13.95659976	-0.146930955	-13.95659976	-16.28831356	74.36662403		
1550	-16.01308339	73.56622686	-0.154733294	-14.41433753	-0.154733294	-14.41433753	-16.01294226	73.93492731		
1600	-15.74662124	73.12196404	-0.162743709	-14.87181649	-0.162743709	-14.87181649	-15.7464759	73.50262015		
1650	-15.48852373	72.6771415	-0.170962574	-15.32903923	-0.170962574	-15.32903923	-15.48837414	73.06976029		
1700	-15.23829874	72.2318113	-0.17939024	-15.78600802	-0.17939024	-15.78600802	-15.23814487	72.6364		
1750	-14.99549683	71.78602039	-0.18802704	-16.24272484	-0.18802704	-16.24272484	-14.99533865	72.20258684		
1800	-14.7597064	71.33981186	-0.196873291	-16.69919138	-0.196873291	-16.69919138	-14.75954388	71.76836373		
1850	-14.53054956	70.89322466	-0.205929293	-17.15540909	-0.205929293	-17.15540909	-14.53038267	71.33377013		
1900	-14.30767851	70.44629349	-0.21519534	-17.61137925	-0.21519534	-17.61137925	-14.30750721	70.89884298		
1950	-14.09077265	69.99905455	-0.224671703	-18.06710277	-0.224671703	-18.06710277	-14.0905969	70.46361212		
2000	-13.87953532	69.55153399	-0.23435866	-18.52258067	-0.23435866	-18.52258067	-13.87935508	70.02811157		
2050	-13.67369199	69.10376137	-0.24425647	-18.97781357	-0.24425647	-18.97781357	-13.67350723	69.59236765		
2100	-13.47298783	68.65576222	-0.254365391	-19.43280205	-0.254365391	-19.43280205	-13.4727985	69.15640635		
2150	-13.27718591	68.20755993	-0.264685674	-19.88754654	-0.264685674	-19.88754654	-13.27699197	68.7202519		
2200	-13.08606559	67.7591766	-0.275217565	-20.34204735	-0.275217565	-20.34204735	-13.085867	68.28392648		
2250	-12.89942107	67.31063302	-0.285961309	-20.79630467	-0.285961309	-20.79630467	-12.89921779	67.84745043		
2300	-12.71705999	66.8619473	-0.29691715	-21.25031865	-0.29691715	-21.25031865	-12.71685196	67.41084388		
2350	-12.53880244	66.41313816	-0.308085326	-21.70408927	-0.308085326	-21.70408927	-12.53858962	66.97412393		
2400	-12.36447979	65.9642226	-0.319466075	-22.15761644	-0.319466075	-22.15761644	-12.36426212	66.53730706		
2450	-12.19393368	65.51521431	-0.331059643	-22.61090014	-0.331059643	-22.61090014	-12.19371112	66.10041063		
2500	-12.02701547	65.06612942	-0.342866265	-23.06394009	-0.342866265	-23.06394009	-12.02678797	65.66344805		
2550	-11.86358528	64.61698198	-0.354886182	-23.51673602	-0.354886182	-23.51673602	-11.86335277	65.22643285		
2600	-11.70351105	64.16778107	-0.367119654	-23.96928786	-0.367119654	-23.96928786	-11.7032735	64.78938138		
2650	-11.54666878	63.7185442	-0.379566904	-24.42159492	-0.379566904	-24.42159492	-11.54642613	64.35230121		
2700	-11.39294087	63.26927901	-0.392228197	-24.87365707	-0.392228197	-24.87365707	-11.39269305	63.91520722		
2750	-11.24221647	62.81999836	-0.405103778	-25.32547374	-0.405103778	-25.32547374	-11.24196342	63.47810854		
2800	-11.09439036	62.37070902	-0.418193919	-25.77704473	-0.418193919	-25.77704473	-11.09413204	63.04101845		
2850	-10.94936329	61.92142397	-0.431498867	-26.22836932	-0.431498867	-26.22836932	-10.94909963	62.60394384		
2900	-10.80704083	61.47215012	-0.445018899	-26.67944717	-0.445018899	-26.67944717	-10.80677177	62.16689586		
2950	-10.66733365	61.02289889	-0.458754269	-27.13027754	-0.458754269	-27.13027754	-10.66705912	61.72988096		
3000	-10.53015655	60.57367557	-0.472705273	-27.58086013	-0.472705273	-27.58086013	-10.52987649	61.29290993		
3050	-10.39542875	60.1244888	-0.486872189	-28.03119432	-0.486872189	-28.03119432	-10.39514309	60.85598996		
3100	-10.26307333	59.67534585	-0.501255307	-28.48127955	-0.501255307	-28.48127955	-10.26278202	60.4191287		
3150	-10.13301703	59.22625386	-0.515854926	-28.93111528	-0.515854926	-28.93111528	-10.13271999	59.98233318		
3200	-10.00519004	58.77721922	-0.530671348	-29.38070092	-0.530671348	-29.38070092	-10.0048872	59.54561048		
3250	-9.879525752	58.32824824	-0.545704887	-29.83003592	-0.545704887	-29.83003592	-9.87921705	59.10896716		
3300	-9.755960582	57.87934697	-0.560955863	-30.2791197	-0.560955863	-30.2791197	-9.755645941	58.67240937		
3350	-9.634433805	57.430521	-0.576424604	-30.7279517	-0.576424604	-30.7279517	-9.634113154	58.23594322		
3400	-9.514887352	56.98177583	-0.592111449	-31.17653136	-0.592111449	-31.17653136	-9.514560617	57.79957429		
3450	-9.39726568	56.53311665	-0.608016744	-31.62485814	-0.608016744	-31.62485814	-9.396932785	57.36330798		
3500	-9.281515638	56.08454819	-0.624140844	-32.07293146	-0.624140844	-32.07293146	-9.281176508	56.92714971		
3550	-9.167586309	55.63607507	-0.640484113	-32.52075079	-0.640484113	-32.52075079	-9.167240869	56.49110452		
3600	-9.055428843	55.18770208	-0.657046932	-32.96831562	-0.657046932	-32.96831562	-9.055077012	56.05517677		
3650	-8.944996426	54.73943348	-0.673829688	-33.41562545	-0.673829688	-33.41562545	-8.944638121	55.619371		
3700	-8.836244193	54.29127271	-0.690832768	-33.86267972	-0.690832768	-33.86267972	-8.835879339	55.18369225		
3750	-8.729128934	53.84322436	-0.708056593	-34.30947801	-0.708056593	-34.30947801	-8.728757444	54.74814384		
3800	-8.62360923	53.39529185	-0.725501578	-34.75601982	-0.725501578	-34.75601982	-8.623231018	54.31273002		
3850	-8.519645496	52.94747628	-0.743168111	-35.20230439	-0.743168111	-35.20230439	-8.519260511	53.87745758		
3900	-8.41719873	52.49978751	-0.761056757	-35.64833217	-0.761056757	-35.64833217	-8.416806827	53.44232202		
3950	-8.316232718	52.05222245	-0.779167856	-36.09410188	-0.779167856	-36.09410188	-8.315833837	53.00733463		
4000	-8.216711763	51.60478603	-0.797501914	-36.53961341	-0.797501914	-36.53961341	-8.216305818	52.57249631		
4050	-8.118601678	51.15748106	-0.816059409	-36.98486636	-0.816059409	-36.98486636	-8.118188581	52.13781035		
4100	-8.021869453	50.7103108	-0.834840852	-37.42986046	-0.834840852	-37.42986046	-8.021449107	51.7032791		
4150	-7.92648336	50.26327715	-0.853846742	-37.87459534	-0.853846742	-37.87459534	-7.926055675	51.26890623		
4200	-7.83241274	49.81638325	-0.873077608	-38.31907069	-0.873077608	-38.31907069	-7.831977618	50.8346938		
4250	-7.73962818	49.36962955	-0.892533951	-38.76328603	-0.892533951	-38.76328603	-7.739185546	50.40064671		
4300	-7.648100697	48.92302189	-0.91221642	-39.20724169	-0.91221642	-39.20724169	-7.647650423	49.96676278		
4350	-7.557803195	48.47655841	-0.932125478	-39.65093678	-0.932125478	-39.65093678	-7.557345208	49.53304953		
4400	-7.468708596	48.03024385	-0.952261805	-40.09437169	-0.952261805	-40.09437169	-7.468242779	49.09950539		
4450	-7.380791529	47.58407872	-0.972625914	-40.53754569	-0.972625914	-40.53754569	-7.380317788	48.66613487		
4500	-7.294026647	47.13806623	-0.993218525	-40.98045924	-0.993218525	-40.98045924	-7.293544858	48.23293748		
4550	-7.208390259	46.69220545	-1.014040173	-41.42311169	-1.014040173	-41.42311169	-7.20790034	47.79991865		
4600	-7.123858884	46.24649934	-1.035091547	-41.86550314	-1.035091547	-41.86550314	-7.123360727	47.36707847		
4650	-7.040409884	45.80094882	-1.056373329	-42.30763361	-1.056373329	-42.30763361	-7.039903385	46.93441902		
4700	-6.958021431	45.35555568	-1.077886198	-42.74950302	-1.077886198	-42.74950302	-6.957506481	46.50194161		
4750	-6.876672304	44.91032088	-1.099630864	-43.19111139	-1.099630864	-43.19111139	-6.876148795	46.06964797		
4800	-6.796341968	44.46524561	-1.121608054	-43.63245878	-1.121608054	-43.63245878	-6.795809788	45.63753949		
4850	-6.717010505	44.02033092	-1.143818511	-44.07354523	-1.143818511	-44.07354523	-6.716469541	45.20561752		
4900	-6.63865859	43.57557765	-1.166263004	-44.51437088	-1.166263004	-44.51437088	-6.638108728	44.77388338		
4950	-6.561267439	43.13098626	-1.188942328	-44.95493592	-1.188942328	-44.95493592	-6.560708566	44.34233853		
5000	-6.484818912	42.68655801	-1.211857278	-45.39524043	-1.211857278	-45.39524043	-6.484250909	43.91098367		
5050	-6.409295371	42.24229369	-1.235008674	-45.83528459	-1.235008674	-45.83528459	-6.408718117	43.47981979		
5100	-6.334679544	41.79819281	-1.258397402	-46.27506884	-1.258397402	-46.27506884	-6.334092925	43.04884848		
5150	-6.26095486	41.35425667	-1.282024308	-46.7145933	-1.282024308	-46.7145933	-6.260358754	42.61807003		
5200	-6.188105182	40.91048615	-1.30589027	-47.15385818	-1.30589027	-47.15385818	-6.187499458	42.18748492		
5250	-6.116114644	40.46688037	-1.329996247	-47.59286406	-1.329996247	-47.59286406	-6.115499183	41.7570946		
5300	-6.044968009	40.02344016	-1.35434316	-48.03161119	-1.35434316	-48.03161119	-6.044342684	41.3268993		
5350	-5.974650368	39.58016539	-1.378931987	-48.47010004	-1.378931987	-48.47010004	-5.974015052	40.8968997		
5400	-5.905147298	39.13705665	-1.403763701	-48.90833097	-1.403763701	-48.90833097	-5.904501858	40.46709594		
5450	-5.836444659	38.69411338	-1.428839336	-49.34630456	-1.428839336	-49.34630456	-5.835788965	40.03748878		
5500	-5.768528767	38.25133579	-1.454159926	-49.78402127	-1.454159926	-49.78402127	-5.767862685	39.60807829		
5550	-5.701386237	37.80872337	-1.479726553	-50.22148174	-1.479726553	-50.22148174	-5.700709634	39.17886493		
5600	-5.635004087	37.36627604	-1.505540308	-50.65868652	-1.505540308	-50.65868652	-5.634316825	38.74984876		
5650	-5.569369653	36.92399351	-1.531602315	-51.09563626	-1.531602315	-51.09563626	-5.568671595	38.32102982		
5700	-5.504470593	36.4818752	-1.557913729	-51.53233161	-1.557913729	-51.53233161	-5.503761597	37.89240832		
5750	-5.440294904	36.03992101	-1.584475723	-51.96877327	-1.584475723	-51.96877327	-5.439574828	37.46398388		
5800	-5.376830864	35.59813022	-1.611289509	-52.40496195	-1.611289509	-52.40496195	-5.376099562	37.03575656		
5850	-5.314066981	35.15650175	-1.638356353	-52.84089857	-1.638356353	-52.84089857	-5.31332431	36.60772638		
5900	-5.251992163	34.71503533	-1.665677508	-53.27658385	-1.665677508	-53.27658385	-5.251237975	36.17989286		
5950	-5.190595531	34.2737301	-1.693254281	-53.71201866	-1.693254281	-53.71201866	-5.189829675	35.75225572		
6000	-5.129866466	33.83258515	-1.721088013	-54.14720392	-1.721088013	-54.14720392	-5.129088793	35.32481459		
6050	-5.069794635	33.39159968	-1.749180066	-54.58214052	-1.749180066	-54.58214052	-5.069004989	34.89756895		
6100	-5.010369899	32.95077237	-1.77753186	-55.01682949	-1.77753186	-55.01682949	-5.009568126	34.47051849		
6150	-4.951582426	32.51010255	-1.806144819	-55.45127182	-1.806144819	-55.45127182	-4.950768368	34.04366228		
6200	-4.89342259	32.06958883	-1.835020413	-55.88546848	-1.835020413	-55.88546848	-4.892596087	33.61700004		
6250	-4.835881012	31.62923052	-1.864160137	-56.31942057	-1.864160137	-56.31942057	-4.835041899	33.19053051		
6300	-4.778948336	31.18902484	-1.893565619	-56.75312948	-1.893565619	-56.75312948	-4.77809646	32.76425389		
6350	-4.722615787	30.74897213	-1.923238346	-57.18659602	-1.923238346	-57.18659602	-4.721750975	32.33816831		
6400	-4.666874563	30.30907062	-1.95317995	-57.61982141	-1.95317995	-57.61982141	-4.665996644	31.91227313		
6450	-4.611715943	29.86931785	-1.98339217	-58.05280721	-1.98339217	-58.05280721	-4.610824754	31.48656777		
6500	-4.557131782	29.42971385	-2.013876584	-58.4855542	-2.013876584	-58.4855542	-4.556227142	31.06105052		
6550	-4.503113575	28.99025484	-2.044635098	-58.91806432	-2.044635098	-58.91806432	-4.50219532	30.6357212		
6600	-4.44965367	28.55094167	-2.075669303	-59.35033818	-2.075669303	-59.35033818	-4.448721612	30.21057751		
6650	-4.396743911	28.11177035	-2.106981201	-59.78237784	-2.106981201	-59.78237784	-4.395797879	29.78561919		
6700	-4.344376826	27.67274038	-2.138572555	-60.21418431	-2.138572555	-60.21418431	-4.343416634	29.36084433		
6750	-4.292544801	27.23384899	-2.170445345	-60.64575926	-2.170445345	-60.64575926	-4.291570269	28.93625206		
6800	-4.241240514	26.79509451	-2.202601527	-61.07710422	-2.202601527	-61.07710422	-4.240251456	28.51184062		
6850	-4.19045689	26.35647535	-2.235043043	-61.50822042	-2.235043043	-61.50822042	-4.189453115	28.08760861		
6900	-4.140186854	25.91798928	-2.267771978	-61.93910958	-2.267771978	-61.93910958	-4.139168169	27.66355433		
6950	-4.090423449	25.47963362	-2.300790485	-62.36977347	-2.300790485	-62.36977347	-4.089389663	27.23967637		
7000	-4.041159982	25.04140637	-2.334100692	-62.80021363	-2.334100692	-62.80021363	-4.040110898	26.81597299		
7050	-3.992389869	24.60330516	-2.367704798	-63.23043167	-2.367704798	-63.23043167	-3.991325289	26.39244264		
7100	-3.944106628	24.16532768	-2.401605079	-63.66042943	-2.401605079	-63.66042943	-3.94302635	25.96908323		
7150	-3.896303937	23.72747145	-2.435803844	-64.09020861	-2.435803844	-64.09020861	-3.895207758	25.545893		
7200	-3.848975603	23.28973391	-2.470303459	-64.51977098	-2.470303459	-64.51977098	-3.847863316	25.12287011		
7250	-3.802115599	22.8521128	-2.505106318	-64.94911829	-2.505106318	-64.94911829	-3.800986991	24.70001236		
7300	-3.755717825	22.41460447	-2.540215009	-65.37825269	-2.540215009	-65.37825269	-3.754572691	24.27731819		
7350	-3.709776588	21.9772072	-2.575631978	-65.80717583	-2.575631978	-65.80717583	-3.70861471	23.85478487		
7400	-3.664286146	21.53991777	-2.611359848	-66.23588964	-2.611359848	-66.23588964	-3.663107305	23.4324107		
7450	-3.619240883	21.10273336	-2.647401293	-66.66439615	-2.647401293	-66.66439615	-3.618044861	23.01019325		
7500	-3.574635332	20.66565091	-2.683759025	-67.09269723	-2.683759025	-67.09269723	-3.573421903	22.58813057		
7550	-3.530464041	20.22866772	-2.720435894	-67.52079528	-2.720435894	-67.52079528	-3.52923298	22.16621928		
7600	-3.486721808	19.79178036	-2.757434699	-67.94869197	-2.757434699	-67.94869197	-3.485472884	21.74445806		
7650	-3.443403435	19.35498577	-2.794758387	-68.37638952	-2.794758387	-68.37638952	-3.442136416	21.32284413		
7700	-3.400503814	18.91828087	-2.832409986	-68.80389024	-2.832409986	-68.80389024	-3.399218464	20.90137441		
7750	-3.358018016	18.48166216	-2.870392525	-69.23119602	-2.870392525	-69.23119602	-3.356714097	20.48004703		
7800	-3.315941203	18.04512607	-2.908709106	-69.65830884	-2.908709106	-69.65830884	-3.314618474	20.05885998		
7850	-3.274268423	17.60866986	-2.947363102	-70.0852318	-2.947363102	-70.0852318	-3.272926636	19.63780802		
7900	-3.232995153	17.17228929	-2.986357645	-70.51196621	-2.986357645	-70.51196621	-3.231634063	19.21689101		
7950	-3.19211668	16.73598122	-3.025696212	-70.93851495	-3.025696212	-70.93851495	-3.190736032	18.79610445		
8000	-3.151628538	16.29974175	-3.065382206	-71.36488002	-3.065382206	-71.36488002	-3.150228078	18.37544629		
8050	-3.111526299	15.86356713	-3.105419157	-71.79106371	-3.105419157	-71.79106371	-3.110105768	17.95491365		
8100	-3.071805554	15.4274538	-3.145810751	-72.21706873	-3.145810751	-72.21706873	-3.07036469	17.53450257		
8150	-3.03246202	14.9913979	-3.186560712	-72.64289754	-3.186560712	-72.64289754	-3.031000556	17.11420975		
8200	-2.993491639	14.55539499	-3.227672703	-73.06855179	-3.227672703	-73.06855179	-2.992009307	16.6940341		
8250	-2.954890167	14.11944155	-3.269150757	-73.49403471	-3.269150757	-73.49403471	-2.953386694	16.27397031		
8300	-2.916653613	13.68353332	-3.310998817	-73.9193485	-3.310998817	-73.9193485	-2.915128721	15.85401577		
8350	-2.878778015	13.24766611	-3.353220967	-74.34449566	-3.353220967	-74.34449566	-2.877231423	15.43416711		
8400	-2.841259485	12.81183568	-3.395821392	-74.7694787	-3.395821392	-74.7694787	-2.83969091	15.0144209		
8450	-2.804094209	12.37603771	-3.438804379	-75.19430016	-3.438804379	-75.19430016	-2.802503362	14.59477365		
8500	-2.76727844	11.9402678	-3.482174321	-75.6189626	-3.482174321	-75.6189626	-2.765665028	14.17522181		
8550	-2.730808502	11.50452148	-3.525935717	-76.04346859	-3.525935717	-76.04346859	-2.729172229	13.75576174		
8600	-2.694680787	11.0687942	-3.570093178	-76.46782074	-3.570093178	-76.46782074	-2.693021353	13.33638976		
8650	-2.658891752	10.63308132	-3.614651429	-76.89202166	-3.614651429	-76.89202166	-2.657208852	12.91710212		
8700	-2.62343792	10.19737815	-3.65961531	-77.31607396	-3.65961531	-77.31607396	-2.621731245	12.49789499		
8750	-2.588315878	9.761679897	-3.704989784	-77.73998031	-3.704989784	-77.73998031	-2.586585114	12.07876448		
8800	-2.553522275	9.325981708	-3.750779936	-78.16374335	-3.750779936	-78.16374335	-2.551767105	11.65970665		
8850	-2.519053822	8.890278641	-3.796990978	-78.58736575	-3.796990978	-78.58736575	-2.517273925	11.24071747		
8900	-2.484907292	8.454565677	-3.843628253	-79.01085018	-3.843628253	-79.01085018	-2.483102339	10.82179286		
8950	-2.451079514	8.01883772	-3.890697238	-79.43419934	-3.890697238	-79.43419934	-2.449249176	10.40292866		
9000	-2.417567378	7.583089586	-3.938203551	-79.85741592	-3.938203551	-79.85741592	-2.415711318	9.984120652		
9050	-2.384367831	7.147316022	-3.986152947	-80.28050262	-3.986152947	-80.28050262	-2.382485709	9.565364541		
9100	-2.351477877	6.711511685	-4.034551332	-80.70346212	-4.034551332	-80.70346212	-2.349569347	9.146655971		
