!	AVX	Thin	Film	Operation	Date:	2004																										
!	Description:	"Series,"	Thin	"Film,"	"LGA,"	RF	Inductors																									
!	Part	Number:	L06033r9nH																													
!	50	MHz	-	10	GHz																											
!	Serial	Measurements																														
!																																
#	mhz	S	db	R	50																											
!	S11	S11	S21	S21	S12	S12	S22	S22																								
!	dB	Phase	dB	Phase	dB	Phase	dB	Phase																								
50	-40.3648	88.7056	-0.0013	-0.6791	-0.0013	-0.6791	-40.3648	88.7173																								
100	-34.3433	88.0120	-0.0034	-1.3585	-0.0034	-1.3585	-34.3434	88.0346																								
150	-30.8216	87.3191	-0.0063	-2.0378	-0.0063	-2.0378	-30.8216	87.3528																								
200	-28.3234	86.6269	-0.0101	-2.7171	-0.0101	-2.7171	-28.3234	86.6718																								
250	-26.3862	85.9351	-0.0147	-3.3965	-0.0147	-3.3965	-26.3862	85.9911																								
300	-24.8040	85.2435	-0.0200	-4.0758	-0.0200	-4.0758	-24.8041	85.3107																								
350	-23.4670	84.5521	-0.0263	-4.7550	-0.0263	-4.7550	-23.4671	84.6305																								
400	-22.3096	83.8610	-0.0333	-5.4340	-0.0333	-5.4340	-22.3096	83.9505																								
450	-21.2893	83.1701	-0.0411	-6.1130	-0.0411	-6.1130	-21.2894	83.2708																								
500	-20.3774	82.4795	-0.0498	-6.7917	-0.0498	-6.7917	-20.3775	82.5914																								
550	-19.5533	81.7893	-0.0593	-7.4703	-0.0593	-7.4703	-19.5534	81.9123																								
600	-18.8016	81.0993	-0.0696	-8.1485	-0.0696	-8.1485	-18.8018	81.2336																								
650	-18.1110	80.4098	-0.0807	-8.8266	-0.0807	-8.8266	-18.1111	80.5552																								
700	-17.4723	79.7206	-0.0927	-9.5043	-0.0927	-9.5043	-17.4724	79.8772																								
750	-16.8784	79.0318	-0.1055	-10.1816	-0.1055	-10.1816	-16.8786	79.1996																								
800	-16.3237	78.3435	-0.1190	-10.8586	-0.1190	-10.8586	-16.3239	78.5224																								
850	-15.8034	77.6556	-0.1335	-11.5353	-0.1335	-11.5353	-15.8036	77.8457																								
900	-15.3136	76.9682	-0.1487	-12.2115	-0.1487	-12.2115	-15.3138	77.1695																								
950	-14.8511	76.2813	-0.1647	-12.8872	-0.1647	-12.8872	-14.8513	76.4938																								
1000	-14.4131	75.5949	-0.1816	-13.5625	-0.1816	-13.5625	-14.4133	75.8186																								
1050	-13.9972	74.9090	-0.1993	-14.2373	-0.1993	-14.2373	-13.9974	75.1439																								
1100	-13.6015	74.2238	-0.2178	-14.9115	-0.2178	-14.9115	-13.6017	74.4699																								
1150	-13.2241	73.5391	-0.2371	-15.5852	-0.2371	-15.5852	-13.2243	73.7963																								
1200	-12.8636	72.8550	-0.2573	-16.2584	-0.2573	-16.2584	-12.8638	73.1234																								
1250	-12.5185	72.1715	-0.2782	-16.9309	-0.2782	-16.9309	-12.5188	72.4512																								
1300	-12.1878	71.4886	-0.3000	-17.6028	-0.3000	-17.6028	-12.1880	71.7795																								
1350	-11.8703	70.8064	-0.3226	-18.2741	-0.3226	-18.2741	-11.8706	71.1085																								
1400	-11.5651	70.1249	-0.3461	-18.9447	-0.3461	-18.9447	-11.5654	70.4382																								
1450	-11.2714	69.4441	-0.3703	-19.6147	-0.3703	-19.6147	-11.2717	69.7686																								
1500	-10.9884	68.7639	-0.3954	-20.2839	-0.3954	-20.2839	-10.9887	69.0997																								
1550	-10.7154	68.0845	-0.4213	-20.9524	-0.4213	-20.9524	-10.7158	68.4315																								
1600	-10.4519	67.4058	-0.4481	-21.6202	-0.4481	-21.6202	-10.4522	67.7640																								
1650	-10.1972	66.7279	-0.4756	-22.2872	-0.4756	-22.2872	-10.1976	67.0973																								
1700	-9.9509	66.0507	-0.5040	-22.9534	-0.5040	-22.9534	-9.9512	66.4313																								
1750	-9.7124	65.3743	-0.5332	-23.6188	-0.5332	-23.6188	-9.7128	65.7662																								
1800	-9.4814	64.6986	-0.5633	-24.2835	-0.5633	-24.2835	-9.4818	65.1018																								
1850	-9.2575	64.0238	-0.5942	-24.9472	-0.5942	-24.9472	-9.2579	64.4382																								
1900	-9.0403	63.3498	-0.6259	-25.6102	-0.6259	-25.6102	-9.0407	63.7754																								
1950	-8.8294	62.6766	-0.6585	-26.2722	-0.6585	-26.2722	-8.8299	63.1135																								
2000	-8.6246	62.0042	-0.6918	-26.9334	-0.6918	-26.9334	-8.6251	62.4524																								
2050	-8.4256	61.3327	-0.7261	-27.5937	-0.7261	-27.5937	-8.4261	61.7921																								
2100	-8.2321	60.6620	-0.7612	-28.2531	-0.7612	-28.2531	-8.2326	61.1327																								
2150	-8.0439	59.9922	-0.7971	-28.9116	-0.7971	-28.9116	-8.0444	60.4742																								
2200	-7.8607	59.3232	-0.8338	-29.5691	-0.8338	-29.5691	-7.8612	59.8165																								
2250	-7.6823	58.6552	-0.8715	-30.2256	-0.8715	-30.2256	-7.6828	59.1597																								
2300	-7.5086	57.9880	-0.9099	-30.8812	-0.9099	-30.8812	-7.5091	58.5039																								
2350	-7.3393	57.3217	-0.9493	-31.5359	-0.9493	-31.5359	-7.3398	57.8489																								
2400	-7.1742	56.6564	-0.9894	-32.1895	-0.9894	-32.1895	-7.1748	57.1949																								
2450	-7.0133	55.9919	-1.0305	-32.8421	-1.0305	-32.8421	-7.0138	56.5417																								
2500	-6.8563	55.3284	-1.0724	-33.4937	-1.0724	-33.4937	-6.8568	55.8895																								
2550	-6.7030	54.6658	-1.1152	-34.1443	-1.1152	-34.1443	-6.7036	55.2383																								
2600	-6.5535	54.0041	-1.1588	-34.7939	-1.1588	-34.7939	-6.5540	54.5880																								
2650	-6.4074	53.3434	-1.2033	-35.4424	-1.2033	-35.4424	-6.4080	53.9386																								
2700	-6.2648	52.6836	-1.2487	-36.0899	-1.2487	-36.0899	-6.2654	53.2902																								
2750	-6.1254	52.0248	-1.2950	-36.7363	-1.2950	-36.7363	-6.1260	52.6427																								
2800	-5.9892	51.3669	-1.3422	-37.3816	-1.3422	-37.3816	-5.9898	51.9962																								
2850	-5.8561	50.7100	-1.3903	-38.0258	-1.3903	-38.0258	-5.8567	51.3507																								
2900	-5.7260	50.0540	-1.4392	-38.6690	-1.4392	-38.6690	-5.7266	50.7062																								
2950	-5.5987	49.3991	-1.4891	-39.3110	-1.4891	-39.3110	-5.5993	50.0626																								
3000	-5.4742	48.7451	-1.5399	-39.9520	-1.5399	-39.9520	-5.4749	49.4200																								
3050	-5.3525	48.0921	-1.5916	-40.5918	-1.5916	-40.5918	-5.3531	48.7784																								
3100	-5.2333	47.4400	-1.6442	-41.2305	-1.6442	-41.2305	-5.2340	48.1378																								
3150	-5.1167	46.7890	-1.6978	-41.8681	-1.6978	-41.8681	-5.1174	47.4982																								
3200	-5.0026	46.1389	-1.7522	-42.5045	-1.7522	-42.5045	-5.0033	46.8596																								
3250	-4.8908	45.4898	-1.8077	-43.1398	-1.8077	-43.1398	-4.8915	46.2220																								
3300	-4.7814	44.8417	-1.8640	-43.7739	-1.8640	-43.7739	-4.7821	45.5854																								
3350	-4.6743	44.1946	-1.9213	-44.4069	-1.9213	-44.4069	-4.6750	44.9497																								
3400	-4.5694	43.5485	-1.9796	-45.0388	-1.9796	-45.0388	-4.5701	44.3151																								
3450	-4.4666	42.9033	-2.0389	-45.6694	-2.0389	-45.6694	-4.4673	43.6815																								
3500	-4.3659	42.2592	-2.0991	-46.2989	-2.0991	-46.2989	-4.3666	43.0489																								
3550	-4.2672	41.6160	-2.1603	-46.9272	-2.1603	-46.9272	-4.2680	42.4173																								
3600	-4.1706	40.9739	-2.2226	-47.5544	-2.2226	-47.5544	-4.1713	41.7866																								
3650	-4.0758	40.3327	-2.2858	-48.1803	-2.2858	-48.1803	-4.0766	41.1570																								
3700	-3.9830	39.6925	-2.3500	-48.8051	-2.3500	-48.8051	-3.9838	40.5284																								
3750	-3.8920	39.0533	-2.4153	-49.4286	-2.4153	-49.4286	-3.8928	39.9008																								
3800	-3.8028	38.4151	-2.4816	-50.0510	-2.4816	-50.0510	-3.8036	39.2742																								
3850	-3.7153	37.7778	-2.5490	-50.6721	-2.5490	-50.6721	-3.7161	38.6485																								
3900	-3.6296	37.1415	-2.6174	-51.2921	-2.6174	-51.2921	-3.6304	38.0239																								
3950	-3.5455	36.5062	-2.6869	-51.9108	-2.6869	-51.9108	-3.5463	37.4002																								
4000	-3.4630	35.8719	-2.7575	-52.5283	-2.7575	-52.5283	-3.4639	36.7776																								
4050	-3.3822	35.2386	-2.8292	-53.1447	-2.8292	-53.1447	-3.3830	36.1559																								
4100	-3.3029	34.6062	-2.9020	-53.7597	-2.9020	-53.7597	-3.3038	35.5352																								
4150	-3.2252	33.9747	-2.9759	-54.3736	-2.9759	-54.3736	-3.2260	34.9154																								
4200	-3.1489	33.3443	-3.0510	-54.9862	-3.0510	-54.9862	-3.1498	34.2967																								
4250	-3.0741	32.7147	-3.1272	-55.5976	-3.1272	-55.5976	-3.0750	33.6789																								
4300	-3.0008	32.0861	-3.2046	-56.2077	-3.2046	-56.2077	-3.0016	33.0620																								
4350	-2.9288	31.4585	-3.2832	-56.8166	-3.2832	-56.8166	-2.9297	32.4462																								
4400	-2.8582	30.8318	-3.3630	-57.4243	-3.3630	-57.4243	-2.8591	31.8312																								
4450	-2.7890	30.2060	-3.4440	-58.0307	-3.4440	-58.0307	-2.7899	31.2172																								
4500	-2.7211	29.5811	-3.5263	-58.6358	-3.5263	-58.6358	-2.7220	30.6042																								
4550	-2.6545	28.9572	-3.6099	-59.2397	-3.6099	-59.2397	-2.6553	29.9921																								
4600	-2.5891	28.3341	-3.6947	-59.8424	-3.6947	-59.8424	-2.5900	29.3809																								
4650	-2.5250	27.7119	-3.7808	-60.4437	-3.7808	-60.4437	-2.5259	28.7706																								
4700	-2.4621	27.0907	-3.8683	-61.0438	-3.8683	-61.0438	-2.4630	28.1612																								
4750	-2.4004	26.4703	-3.9571	-61.6426	-3.9571	-61.6426	-2.4013	27.5527																								
4800	-2.3399	25.8508	-4.0473	-62.2401	-4.0473	-62.2401	-2.3408	26.9452																								
4850	-2.2805	25.2322	-4.1390	-62.8363	-4.1390	-62.8363	-2.2815	26.3385																								
4900	-2.2223	24.6144	-4.2320	-63.4312	-4.2320	-63.4312	-2.2232	25.7326																								
4950	-2.1652	23.9974	-4.3265	-64.0248	-4.3265	-64.0248	-2.1661	25.1277																								
5000	-2.1092	23.3813	-4.4225	-64.6171	-4.4225	-64.6171	-2.1101	24.5236																								
5050	-2.0542	22.7661	-4.5200	-65.2080	-4.5200	-65.2080	-2.0552	23.9204																								
5100	-2.0003	22.1516	-4.6190	-65.7976	-4.6190	-65.7976	-2.0013	23.3180																								
5150	-1.9475	21.5380	-4.7196	-66.3859	-4.7196	-66.3859	-1.9484	22.7164																								
5200	-1.8957	20.9251	-4.8219	-66.9728	-4.8219	-66.9728	-1.8966	22.1157																								
5250	-1.8448	20.3131	-4.9258	-67.5583	-4.9258	-67.5583	-1.8458	21.5157																								
5300	-1.7950	19.7018	-5.0313	-68.1425	-5.0313	-68.1425	-1.7959	20.9166																								
5350	-1.7461	19.0913	-5.1386	-68.7252	-5.1386	-68.7252	-1.7471	20.3183																								
5400	-1.6982	18.4816	-5.2477	-69.3065	-5.2477	-69.3065	-1.6992	19.7207																								
5450	-1.6513	17.8726	-5.3586	-69.8864	-5.3586	-69.8864	-1.6522	19.1239																								
5500	-1.6052	17.2643	-5.4713	-70.4649	-5.4713	-70.4649	-1.6062	18.5279																								
5550	-1.5601	16.6567	-5.5859	-71.0418	-5.5859	-71.0418	-1.5610	17.9326																								
5600	-1.5159	16.0499	-5.7025	-71.6173	-5.7025	-71.6173	-1.5168	17.3381																								
5650	-1.4726	15.4438	-5.8211	-72.1913	-5.8211	-72.1913	-1.4735	16.7442																								
5700	-1.4301	14.8383	-5.9417	-72.7637	-5.9417	-72.7637	-1.4310	16.1511																								
5750	-1.3885	14.2335	-6.0644	-73.3345	-6.0644	-73.3345	-1.3894	15.5587																								
5800	-1.3478	13.6294	-6.1893	-73.9037	-6.1893	-73.9037	-1.3487	14.9670																								
5850	-1.3079	13.0259	-6.3164	-74.4713	-6.3164	-74.4713	-1.3088	14.3760																								
5900	-1.2688	12.4231	-6.4458	-75.0372	-6.4458	-75.0372	-1.2697	13.7856																								
5950	-1.2305	11.8209	-6.5776	-75.6014	-6.5776	-75.6014	-1.2314	13.1959																								
6000	-1.1931	11.2193	-6.7118	-76.1639	-6.7118	-76.1639	-1.1940	12.6068																								
6050	-1.1564	10.6183	-6.8485	-76.7245	-6.8485	-76.7245	-1.1573	12.0183																								
6100	-1.1205	10.0179	-6.9877	-77.2833	-6.9877	-77.2833	-1.1214	11.4305																								
6150	-1.0854	9.4180	-7.1297	-77.8402	-7.1297	-77.8402	-1.0863	10.8432																								
6200	-1.0511	8.8188	-7.2744	-78.3951	-7.2744	-78.3951	-1.0520	10.2566																								
6250	-1.0175	8.2200	-7.4219	-78.9480	-7.4219	-78.9480	-1.0184	9.6705																								
6300	-0.9847	7.6218	-7.5723	-79.4987	-7.5723	-79.4987	-0.9855	9.0850																								
6350	-0.9526	7.0241	-7.7259	-80.0473	-7.7259	-80.0473	-0.9534	8.5000																								
6400	-0.9213	6.4269	-7.8825	-80.5937	-7.8825	-80.5937	-0.9221	7.9156																								
6450	-0.8906	5.8302	-8.0424	-81.1376	-8.0424	-81.1376	-0.8914	7.3317																								
6500	-0.8607	5.2340	-8.2058	-81.6792	-8.2058	-81.6792	-0.8615	6.7483																								
6550	-0.8315	4.6382	-8.3726	-82.2181	-8.3726	-82.2181	-0.8323	6.1654																								
6600	-0.8030	4.0429	-8.5431	-82.7544	-8.5431	-82.7544	-0.8038	5.5830																								
6650	-0.7752	3.4480	-8.7173	-83.2878	-8.7173	-83.2878	-0.7759	5.0011																								
6700	-0.7481	2.8536	-8.8956	-83.8183	-8.8956	-83.8183	-0.7488	4.4196																								
6750	-0.7216	2.2595	-9.0779	-84.3457	-9.0779	-84.3457	-0.7223	3.8386																								
6800	-0.6959	1.6658	-9.2646	-84.8699	-9.2646	-84.8699	-0.6966	3.2580																								
6850	-0.6708	1.0726	-9.4557	-85.3905	-9.4557	-85.3905	-0.6714	2.6778																								
6900	-0.6463	0.4797	-9.6515	-85.9075	-9.6515	-85.9075	-0.6470	2.0980																								
6950	-0.6226	-0.1129	-9.8522	-86.4205	-9.8522	-86.4205	-0.6232	1.5187																								
7000	-0.5994	-0.7051	-10.0580	-86.9294	-10.0580	-86.9294	-0.6000	0.9397																								
7050	-0.5769	-1.2970	-10.2692	-87.4339	-10.2692	-87.4339	-0.5775	0.3610																								
7100	-0.5551	-1.8886	-10.4861	-87.9336	-10.4861	-87.9336	-0.5557	-0.2172																								
7150	-0.5339	-2.4799	-10.7088	-88.4282	-10.7088	-88.4282	-0.5345	-0.7952																								
7200	-0.5133	-3.0709	-10.9379	-88.9173	-10.9379	-88.9173	-0.5139	-1.3728																								
7250	-0.4934	-3.6616	-11.1735	-89.4006	-11.1735	-89.4006	-0.4939	-1.9501																								
7300	-0.4741	-4.2520	-11.4160	-89.8774	-11.4160	-89.8774	-0.4746	-2.5270																								
7350	-0.4554	-4.8423	-11.6659	-90.3474	-11.6659	-90.3474	-0.4558	-3.1037																								
7400	-0.4373	-5.4322	-11.9235	-90.8098	-11.9235	-90.8098	-0.4377	-3.6801																								
7450	-0.4198	-6.0220	-12.1894	-91.2640	-12.1894	-91.2640	-0.4202	-4.2563																								
7500	-0.4030	-6.6116	-12.4641	-91.7092	-12.4641	-91.7092	-0.4033	-4.8322																								
7550	-0.3867	-7.2009	-12.7481	-92.1445	-12.7481	-92.1445	-0.3870	-5.4078																								
7600	-0.3710	-7.7901	-13.0420	-92.5690	-13.0420	-92.5690	-0.3713	-5.9832																								
7650	-0.3560	-8.3791	-13.3466	-92.9815	-13.3466	-92.9815	-0.3562	-6.5584																								
7700	-0.3415	-8.9679	-13.6626	-93.3806	-13.6626	-93.3806	-0.3417	-7.1333																								
7750	-0.3276	-9.5566	-13.9908	-93.7648	-13.9908	-93.7648	-0.3278	-7.7081																								
7800	-0.3144	-10.1452	-14.3322	-94.1324	-14.3322	-94.1324	-0.3145	-8.2827																								
7850	-0.3017	-10.7336	-14.6879	-94.4813	-14.6879	-94.4813	-0.3018	-8.8571																								
7900	-0.2895	-11.3220	-15.0590	-94.8089	-15.0590	-94.8089	-0.2896	-9.4313																								
7950	-0.2780	-11.9102	-15.4470	-95.1125	-15.4470	-95.1125	-0.2780	-10.0054																								
8000	-0.2671	-12.4983	-15.8533	-95.3886	-15.8533	-95.3886	-0.2671	-10.5793																								
8050	-0.2567	-13.0864	-16.2797	-95.6329	-16.2797	-95.6329	-0.2566	-11.1531																								
8100	-0.2469	-13.6744	-16.7282	-95.8405	-16.7282	-95.8405	-0.2468	-11.7267																								
8150	-0.2377	-14.2623	-17.2012	-96.0051	-17.2012	-96.0051	-0.2375	-12.3002																								
8200	-0.2291	-14.8502	-17.7013	-96.1193	-17.7013	-96.1193	-0.2289	-12.8737																								
8250	-0.2210	-15.4380	-18.2317	-96.1734	-18.2317	-96.1734	-0.2207	-13.4470																								
8300	-0.2135	-16.0258	-18.7962	-96.1554	-18.7962	-96.1554	-0.2132	-14.0202																								
8350	-0.2066	-16.6136	-19.3993	-96.0498	-19.3993	-96.0498	-0.2062	-14.5933																								
8400	-0.2003	-17.2014	-20.0463	-95.8364	-20.0463	-95.8364	-0.1998	-15.1664																								
8450	-0.1945	-17.7892	-20.7437	-95.4883	-20.7437	-95.4883	-0.1940	-15.7394																								
8500	-0.1893	-18.3769	-21.4996	-94.9691	-21.4996	-94.9691	-0.1887	-16.3123																								
8550	-0.1846	-18.9647	-22.3239	-94.2284	-22.3239	-94.2284	-0.1840	-16.8852																								
8600	-0.1806	-19.5526	-23.2288	-93.1942	-23.2288	-93.1942	-0.1799	-17.4580																								
8650	-0.1771	-20.1404	-24.2299	-91.7608	-24.2299	-91.7608	-0.1763	-18.0308																								
8700	-0.1741	-20.7283	-25.3465	-89.7679	-25.3465	-89.7679	-0.1733	-18.6036																								
8750	-0.1717	-21.3163	-26.6018	-86.9626	-26.6018	-86.9626	-0.1708	-19.1763																								
8800	-0.1699	-21.9043	-28.0212	-82.9296	-28.0212	-82.9296	-0.1689	-19.7490																								
8850	-0.1687	-22.4924	-29.6220	-76.9657	-29.6220	-76.9657	-0.1676	-20.3217																								
8900	-0.1680	-23.0805	-31.3773	-67.8840	-31.3773	-67.8840	-0.1669	-20.8944																								
8950	-0.1679	-23.6688	-33.1052	-53.9417	-33.1052	-53.9417	-0.1667	-21.4671																								
9000	-0.1684	-24.2571	-34.2723	-34.0301	-34.2723	-34.0301	-0.1671	-22.0398																								
9050	-0.1695	-24.8455	-34.1743	-11.2821	-34.1743	-11.2821	-0.1680	-22.6125																								
9100	-0.1711	-25.4340	-32.8832	7.8606	-32.8832	7.8606	-0.1696	-23.1852																								
9150	-0.1733	-26.0226	-31.1288	21.0266	-31.1288	21.0266	-0.1717	-23.7579																								
9200	-0.1760	-26.6113	-29.3882	29.5862	-29.3882	29.5862	-0.1743	-24.3306																								
9250	-0.1794	-27.2001	-27.8114	35.2264	-27.8114	35.2264	-0.1776	-24.9034																								
9300	-0.1833	-27.7891	-26.4149	39.0557	-26.4149	39.0557	-0.1814	-25.4762																								
9350	-0.1878	-28.3782	-25.1792	41.7273	-25.1792	41.7273	-0.1858	-26.0490																								
9400	-0.1928	-28.9674	-24.0788	43.6283	-24.0788	43.6283	-0.1907	-26.6219																								
9450	-0.1985	-29.5568	-23.0910	44.9958	-23.0910	44.9958	-0.1962	-27.1948																								
9500	-0.2047	-30.1463	-22.1970	45.9809	-22.1970	45.9809	-0.2024	-27.7678																								
9550	-0.2115	-30.7360	-21.3819	46.6836	-21.3819	46.6836	-0.2091	-28.3408																								
9600	-0.2189	-31.3258	-20.6337	47.1724	-20.6337	47.1724	-0.2163	-28.9138																								
9650	-0.2269	-31.9158	-19.9427	47.4953	-19.9427	47.4953	-0.2242	-29.4870																								
9700	-0.2355	-32.5059	-19.3013	47.6873	-19.3013	47.6873	-0.2327	-30.0601																								
9750	-0.2447	-33.0963	-18.7029	47.7742	-18.7029	47.7742	-0.2417	-30.6334																								
9800	-0.2545	-33.6868	-18.1425	47.7754	-18.1425	47.7754	-0.2513	-31.2067																								
9850	-0.2648	-34.2775	-17.6157	47.7059	-17.6157	47.7059	-0.2616	-31.7801																								
9900	-0.2758	-34.8684	-17.1187	47.5773	-17.1187	47.5773	-0.2724	-32.3536																								
9950	-0.2874	-35.4595	-16.6485	47.3988	-16.6485	47.3988	-0.2839	-32.9271																								
10000	-0.2996	-36.0508	-16.2024	47.1779	-16.2024	47.1779	-0.2959	-33.5008																								
																																
																																
																																
																																
																																
																																
																																
																																
																																
																																
