!	AVX	Thin	Film	Operation	Date:	2004																																																																		
!	Description:	"Series,"	Thin	"Film,"	"LGA,"	RF	Inductors																																																																	
!	Part	Number:	L060312nH																																																																					
!	50	MHz	-	5	GHz																																																																			
!	Serial	Measurements																																																																						
!																																																																								
#	mhz	S	db	R	50																																																																			
!	S11	S11	S21	S21	S12	S12	S22	S22																																																																
!	dB	Phase	dB	Phase	dB	Phase	dB	Phase																																																																
50	-28.88715657	83.3792289	-0.029560627	-2.210260972	-0.029560627	-2.210260972	-28.88716884	83.40863114																																																																
75	-25.51744679	82.88817899	-0.042948833	-3.264837599	-0.042948833	-3.264837599	-25.51746858	82.93255557																																																																
100	-23.12062006	82.1836986	-0.058098874	-4.308889951	-0.058098874	-4.308889951	-23.12065005	82.24293476																																																																
125	-21.26057336	81.38064955	-0.075197242	-5.344740139	-0.075197242	-5.344740139	-21.26061174	81.45476597																																																																
150	-19.74186141	80.52388261	-0.094325788	-6.373536515	-0.094325788	-6.373536515	-19.74190802	80.61286074																																																																
175	-18.45979938	79.63499311	-0.115522334	-7.39589927	-0.115522334	-7.39589927	-18.45985425	79.73883709																																																																
200	-17.35170882	78.72588133	-0.138802256	-8.412168983	-0.138802256	-8.412168983	-17.35177196	78.84459439																																																																
225	-16.37706138	77.80374071	-0.164167917	-9.422522789	-0.164167917	-9.422522789	-16.37713286	77.93733451																																																																
250	-15.50812609	76.87324595	-0.191613402	-10.42703644	-0.191613402	-10.42703644	-15.5082059	77.02172448																																																																
275	-14.72508625	75.93760099	-0.221127112	-11.42571944	-0.221127112	-11.42571944	-14.72517437	76.10096912																																																																
300	-14.01328359	74.99910561	-0.252693341	-12.41853749	-0.252693341	-12.41853749	-14.01338	75.17736795																																																																
325	-13.36156705	74.05947324	-0.286293263	-13.40542668	-0.286293263	-13.40542668	-13.36167174	74.25263487																																																																
350	-12.76125348	73.12002286	-0.321905603	-14.38630317	-0.321905603	-14.38630317	-12.76136641	73.32808745																																																																
375	-12.20544672	72.18179534	-0.359507133	-15.36107043	-0.359507133	-15.36107043	-12.20556786	72.40476788																																																																
400	-11.68857679	71.24563343	-0.399073013	-16.32962384	-0.399073013	-16.32962384	-11.68870609	71.48351797																																																																
425	-11.20607839	70.31223134	-0.440577091	-17.2918547	-0.440577091	-17.2918547	-11.20621582	70.56503208																																																																
450	-10.75416146	69.38217092	-0.483992116	-18.2476528	-0.483992116	-18.2476528	-10.75430696	69.64989226																																																																
475	-10.32964365	68.4559469	-0.529289935	-19.19690859	-0.529289935	-19.19690859	-10.32979719	68.73859282																																																																
500	-9.92982574	67.53398441	-0.576441663	-20.13951494	-0.576441663	-20.13951494	-9.929987245	67.8315584																																																																
525	-9.552398649	66.61662932	-0.625417636	-21.07536525	-0.625417636	-21.07536525	-9.552568376	66.92918627																																																																
550	-9.195365593	65.70427058	-0.67618842	-22.00436884	-0.67618842	-22.00436884	-9.195542888	66.03171499																																																																
575	-8.856996553	64.7971246	-0.728723247	-22.92642406	-0.728723247	-22.92642406	-8.857181653	65.13950973																																																																
600	-8.535773356	63.89547177	-0.782991827	-23.8414469	-0.782991827	-23.8414469	-8.535966079	64.25278163																																																																
625	-8.230361642	62.99950618	-0.838963205	-24.74935098	-0.838963205	-24.74935098	-8.230562183	63.37178769																																																																
650	-7.939576784	62.10945001	-0.896606986	-25.65006638	-0.896606986	-25.65006638	-7.939784954	62.49668672																																																																
675	-7.662365957	61.22546907	-0.955892411	-26.54352332	-0.955892411	-26.54352332	-7.662581674	61.62766232																																																																
700	-7.397786735	60.34771065	-1.016788953	-27.42966068	-1.016788953	-27.42966068	-7.398009979	60.7648731																																																																
725	-7.144991995	59.47631668	-1.079266359	-28.3084253	-1.079266359	-28.3084253	-7.145222655	59.90844501																																																																
750	-6.903218257	58.61141329	-1.143294387	-29.17976782	-1.143294387	-29.17976782	-6.903456164	59.0584932																																																																
775	-6.671774774	57.75312391	-1.208842848	-30.04364327	-1.208842848	-30.04364327	-6.672019595	58.21511054																																																																
800	-6.450024035	56.90141454	-1.275884674	-30.90004224	-1.275884674	-30.90004224	-6.4502765	57.37846263																																																																
825	-6.237402009	56.05648765	-1.344388079	-31.74890688	-1.344388079	-31.74890688	-6.237661824	56.54856273																																																																
850	-6.033377674	55.21838394	-1.414326405	-32.59023571	-1.414326405	-32.59023571	-6.033644622	55.72546308																																																																
875	-5.837468551	54.38716505	-1.485672005	-33.42401627	-1.485672005	-33.42401627	-5.83774233	54.90920763																																																																
900	-5.649232359	53.56284204	-1.558397038	-34.25023449	-1.558397038	-34.25023449	-5.649513059	54.09988596																																																																
925	-5.468261253	52.74548192	-1.632474218	-35.06888247	-1.632474218	-35.06888247	-5.468548688	53.29751229																																																																
950	-5.294169125	51.93505107	-1.707880669	-35.87999221	-1.707880669	-35.87999221	-5.294463447	52.50211543																																																																
975	-5.12661071	51.13163781	-1.784588853	-36.68355197	-1.784588853	-36.68355197	-5.126911556	51.71368383																																																																
1000	-4.965259382	50.33518708	-1.862574236	-37.47957517	-1.862574236	-37.47957517	-4.965567014	50.93229435																																																																
1025	-4.809809654	49.54575459	-1.941814109	-38.26809127	-1.941814109	-38.26809127	-4.810123746	50.15787616																																																																
1050	-4.65997679	48.76331766	-2.022286395	-39.04913204	-2.022286395	-39.04913204	-4.660297116	49.3904282																																																																
1075	-4.51549902	47.98782645	-2.103967278	-39.82270994	-2.103967278	-39.82270994	-4.515825862	48.630012																																																																
1100	-4.376123986	47.21928435	-2.186838326	-40.5888819	-2.186838326	-40.5888819	-4.376457258	47.87654306																																																																
1125	-4.24162286	46.45769257	-2.270877271	-41.34767096	-2.270877271	-41.34767096	-4.241962334	47.13000387																																																																
1150	-4.111776151	45.70300417	-2.356065476	-42.0991244	-2.356065476	-42.0991244	-4.112121741	46.39037409																																																																
1175	-3.986380541	44.95516989	-2.442383099	-42.84327776	-2.442383099	-42.84327776	-3.986732393	45.65765669																																																																
1200	-3.865237065	44.21419731	-2.529816989	-43.58021267	-2.529816989	-43.58021267	-3.865594626	44.93170293																																																																
1225	-3.748171265	43.47998318	-2.618344649	-44.30993849	-2.618344649	-44.30993849	-3.748534907	44.21261798																																																																
1250	-3.635003572	42.75254043	-2.707956655	-45.03255505	-2.707956655	-45.03255505	-3.63537275	43.50020709																																																																
1275	-3.525577361	42.03177515	-2.798633526	-45.74808682	-2.798633526	-45.74808682	-3.525952212	42.79453208																																																																
1300	-3.419737119	41.31764881	-2.890363082	-46.45660553	-2.890363082	-46.45660553	-3.420117551	42.0955027																																																																
1325	-3.317337445	40.61010534	-2.98313249	-47.15817385	-2.98313249	-47.15817385	-3.317723365	41.40306288																																																																
1350	-3.21824054	39.90908581	-3.076929871	-47.85285647	-3.076929871	-47.85285647	-3.218631856	40.71715387																																																																
1375	-3.12231572	39.21452894	-3.171744285	-48.54071983	-3.171744285	-48.54071983	-3.122712336	40.03771448																																																																
1400	-3.029438923	38.52637112	-3.267565744	-49.22183195	-3.267565744	-49.22183195	-3.029840744	39.36468127																																																																
1425	-2.939492289	37.84454682	-3.364385207	-49.89626224	-3.364385207	-49.89626224	-2.939899219	38.69798874																																																																
1450	-2.852363766	37.16898865	-3.462194582	-50.56408131	-3.462194582	-50.56408131	-2.852775706	38.03756965																																																																
1475	-2.76794674	36.49962773	-3.560986723	-51.22536083	-3.560986723	-51.22536083	-2.768363592	37.38335507																																																																
1500	-2.686139696	35.83639335	-3.660755449	-51.88017341	-3.660755449	-51.88017341	-2.686561362	36.73527485																																																																
1525	-2.606845936	35.17921414	-3.761495503	-52.52859227	-3.761495503	-52.52859227	-2.607272314	36.09325729																																																																
1550	-2.529973267	34.52801724	-3.863202591	-53.17069127	-3.863202591	-53.17069127	-2.530404255	35.45722989																																																																
1575	-2.455433743	33.88272904	-3.965873371	-53.80654476	-3.965873371	-53.80654476	-2.455869238	34.82711895																																																																
1600	-2.383143441	33.24327511	-4.069505429	-54.43622725	-4.069505429	-54.43622725	-2.383583339	34.20285027																																																																
1625	-2.313022201	32.60958039	-4.174097327	-55.0598136	-4.174097327	-55.0598136	-2.313466397	33.58434871																																																																
1650	-2.244993461	31.98156916	-4.279648537	-55.67737852	-4.279648537	-55.67737852	-2.245441851	32.9715392																																																																
1675	-2.178984022	31.35916552	-4.3861595	-56.28899676	-4.3861595	-56.28899676	-2.179436499	32.3643458																																																																
1700	-2.114923863	30.74229327	-4.493631639	-56.89474305	-4.493631639	-56.89474305	-2.115380318	31.76269209																																																																
1725	-2.052746011	30.13087602	-4.602067292	-57.49469164	-4.602067292	-57.49469164	-2.053206334	31.16650185																																																																
1750	-1.992386359	29.52483725	-4.711469748	-58.08891641	-4.711469748	-58.08891641	-1.992850441	30.5756989																																																																
1775	-1.933783503	28.92410047	-4.821843291	-58.67749092	-4.821843291	-58.67749092	-1.934251232	29.99020681																																																																
1800	-1.876878613	28.32858938	-4.933193176	-59.26048821	-4.933193176	-59.26048821	-1.877349876	29.40994906																																																																
1825	-1.821615358	27.73822776	-5.045525531	-59.83798023	-5.045525531	-59.83798023	-1.822090043	28.83485038																																																																
1850	-1.767939668	27.15293966	-5.158847597	-60.41003882	-5.158847597	-60.41003882	-1.76841766	28.26483453																																																																
1875	-1.715799715	26.57264984	-5.273167536	-60.97673475	-5.273167536	-60.97673475	-1.716280897	27.69982576																																																																
1900	-1.665145769	25.99728278	-5.388494527	-61.538138	-5.388494527	-61.538138	-1.665630024	27.1397493																																																																
1925	-1.615930143	25.4267637	-5.504838648	-62.09431718	-5.504838648	-62.09431718	-1.616417356	26.58453143																																																																
1950	-1.56810695	24.86101861	-5.622211272	-62.64534103	-5.622211272	-62.64534103	-1.568596997	26.0340963																																																																
1975	-1.521632238	24.29997379	-5.740624501	-63.19127602	-5.740624501	-63.19127602	-1.522125	25.48837149																																																																
2000	-1.476463718	23.743556	-5.860091667	-63.73218819	-5.860091667	-63.73218819	-1.476959074	24.94728381																																																																
2025	-1.432560812	23.19169345	-5.980627013	-64.26814184	-5.980627013	-64.26814184	-1.433058636	24.41076108																																																																
2050	-1.38988441	22.64431265	-6.102246147	-64.79920106	-6.102246147	-64.79920106	-1.390384585	23.87873211																																																																
2075	-1.348396988	22.10134409	-6.224965599	-65.325428	-6.224965599	-65.325428	-1.348899384	23.35112449																																																																
2100	-1.308062472	21.56271736	-6.348802955	-65.84688317	-6.348802955	-65.84688317	-1.308566961	22.82786882																																																																
2125	-1.268846174	21.02836305	-6.473776913	-66.36362556	-6.473776913	-66.36362556	-1.269352627	22.30889646																																																																
2150	-1.230714533	20.49821086	-6.599907951	-66.8757148	-6.599907951	-66.8757148	-1.231222822	21.79413705																																																																
2175	-1.193635545	19.97219393	-6.727216764	-67.38320557	-6.727216764	-67.38320557	-1.194145545	21.28352548																																																																
2200	-1.157578115	19.45024477	-6.855726303	-67.88615446	-6.855726303	-67.88615446	-1.158089689	20.77699186																																																																
2225	-1.122512465	18.93229706	-6.985460194	-68.38461438	-6.985460194	-68.38461438	-1.123025483	20.2744711																																																																
2250	-1.088409881	18.4182864	-7.116443541	-68.87863713	-7.116443541	-68.87863713	-1.0889242	19.77589682																																																																
2275	-1.055242724	17.90814602	-7.248702648	-69.36827224	-7.248702648	-69.36827224	-1.055758219	19.28120795																																																																
2300	-1.02298414	17.40181354	-7.382266251	-69.85357072	-7.382266251	-69.85357072	-1.023500661	18.79033411																																																																
2325	-0.991608722	16.8992259	-7.517162439	-70.33457518	-7.517162439	-70.33457518	-0.992126143	18.303221																																																																
2350	-0.961091866	16.40033114	-7.65342138	-70.81132856	-7.65342138	-70.81132856	-0.961610003	17.81980051																																																																
2375	-0.931408636	15.90503879	-7.791080031	-71.28388617	-7.791080031	-71.28388617	-0.931927421	17.34001517																																																																
2400	-0.902537282	15.41331601	-7.930166742	-71.75227264	-7.930166742	-71.75227264	-0.903056564	16.8638112																																																																
2425	-0.87445466	14.92509492	-8.070721753	-72.21653913	-8.070721753	-72.21653913	-0.874974269	16.39111223																																																																
2450	-0.847139624	14.44032001	-8.212781286	-72.67671827	-8.212781286	-72.67671827	-0.847659392	15.92186545																																																																
2475	-0.820571641	13.95893107	-8.356383849	-73.13284182	-8.356383849	-73.13284182	-0.821091436	15.45602185																																																																
2500	-0.794730602	13.48086988	-8.501571579	-73.58494378	-8.501571579	-73.58494378	-0.795250284	14.99352265																																																																
2525	-0.769597171	13.00608346	-8.648388313	-74.03305484	-8.648388313	-74.03305484	-0.770116581	14.53430758																																																																
2550	-0.745152646	12.53451201	-8.796880153	-74.47720326	-8.796880153	-74.47720326	-0.745671644	14.07832478																																																																
2575	-0.721379166	12.06610488	-8.947094317	-74.91741205	-8.947094317	-74.91741205	-0.721897602	13.6255207																																																																
2600	-0.698259444	11.60081268	-9.099080562	-75.35370202	-9.099080562	-75.35370202	-0.698777148	13.17584113																																																																
2625	-0.675776558	11.13857795	-9.252892461	-75.78609416	-9.252892461	-75.78609416	-0.676293383	12.72923534																																																																
2650	-0.653914583	10.67935965	-9.408583491	-76.21460046	-9.408583491	-76.21460046	-0.65443034	12.28565071																																																																
2675	-0.632657234	10.22308511	-9.566215908	-76.63924274	-9.566215908	-76.63924274	-0.633171815	11.84504039																																																																
2700	-0.611989836	9.769724182	-9.725847718	-77.06002407	-9.725847718	-77.06002407	-0.612503054	11.40734951																																																																
2725	-0.59189744	9.319220201	-9.887545469	-77.47695554	-9.887545469	-77.47695554	-0.592409124	10.97252697																																																																
2750	-0.572366107	8.871527122	-10.05137492	-77.89003587	-10.05137492	-77.89003587	-0.572876095	10.54053123																																																																
2775	-0.553382119	8.426593939	-10.21740717	-78.29926378	-10.21740717	-78.29926378	-0.55389027	10.11131908																																																																
2800	-0.534932089	7.984380673	-10.3857185	-78.70463703	-10.3857185	-78.70463703	-0.535438203	9.684830937																																																																
2825	-0.517003255	7.544836279	-10.55638708	-79.10614428	-10.55638708	-79.10614428	-0.517507172	9.261029982																																																																
