!	AVX	Thin	Film	Operation	Date:	2004			
!	Description:	"Series,"	Thin	"Film,"	"LGA,"	RF	Inductors		
!	Part	Number:	L06031r8nH						
!	50	MHz	-	20	GHz				
!	Serial	Measurements							
!									
#	mhz	S	db	R	50				
!	S11	S11	S21	S21	S12	S12	S22	S22	
!	dB	Phase	dB	Phase	dB	Phase	dB	Phase	
50	-48.85541747	83.74810793	-0.003262699	-0.380296945	-0.003262699	-0.380296945	-48.85527866	83.74637053	
100	-43.15625125	84.60309185	-0.005107453	-0.746435797	-0.005107453	-0.746435797	-43.15604306	84.60187538	
150	-39.79091247	84.84198406	-0.006740156	-1.109493735	-0.006740156	-1.109493735	-39.79061712	84.83914755	
200	-37.39105429	84.86427369	-0.008294406	-1.470845578	-0.008294406	-1.470845578	-37.39068342	84.8601078	
250	-35.52335739	84.7792033	-0.009825063	-1.831054726	-0.009825063	-1.831054726	-35.52291543	84.77357207	
300	-33.99364133	84.6310738	-0.01136136	-2.190420214	-0.01136136	-2.190420214	-33.99313223	84.62392026	
350	-32.69788716	84.44196352	-0.012921148	-2.549123873	-0.012921148	-2.549123873	-32.69731421	84.43325214	
400	-31.57380506	84.22435072	-0.014516301	-2.907286203	-0.014516301	-2.907286203	-31.57317096	84.21404252
450	-30.58111298	83.98591202	-0.016155195	-3.264991912	-0.016155195	-3.264991912	-30.58042004	83.9739778
500	-29.69224773	83.73168455	-0.017844006	-3.622303189	-0.017844006	-3.622303189	-29.69149796	83.71809545
550	-28.88751367	83.46512928	-0.019587438	-3.979267222	-0.019587438	-3.979267222	-28.88670888	83.44986815
600	-28.15234532	83.18872554	-0.021389171	-4.335920745	-0.021389171	-4.335920745	-28.1514871	83.17177439
650	-27.47566741	82.90436786	-0.023252145	-4.692292834	-0.023252145	-4.692292834	-27.47475631	82.8855765
700	-26.84885544	82.61323622	-0.02517876	-5.048407459	-0.02517876	-5.048407459	-26.84789454	82.59286197
750	-26.26507183	82.31660284	-0.027170982	-5.404283594	-0.027170982	-5.404283594	-26.26406144	82.29449895
800	-25.71879449	82.01524254	-0.029230466	-5.759937392	-0.029230466	-5.759937392	-25.7177357	81.99139895
850	-25.20550496	81.70989338	-0.0313586	-6.115382069	-0.0313586	-6.115382069	-25.20439807	81.68417411
900	-24.72145315	81.40095887	-0.033556583	-6.470629388	-0.033556583	-6.470629388	-24.72029995	81.37351653
950	-24.26349845	81.08894176	-0.035825435	-6.825688832	-0.035825435	-6.825688832	-24.26230019	81.05982466
1000	-23.8289832	80.77428478	-0.038166034	-7.18056833	-0.038166034	-7.18056833	-23.82774019	80.74340468
1050	-23.41563477	80.45724716	-0.040579151	-7.535275058	-0.040579151	-7.535275058	-23.4143479	80.42462572
1100	-23.02149786	80.13812166	-0.04306546	-7.889815093	-0.04306546	-7.889815093	-23.02016771	80.103727
1150	-22.64487771	79.81713935	-0.045625548	-8.24419341	-0.045625548	-8.24419341	-22.64350473	79.78093198
1200	-22.28429462	79.49450927	-0.048259935	-8.598414474	-0.048259935	-8.598414474	-22.28287912	79.45642222
1250	-21.93844359	79.17023758	-0.050969121	-8.952483561	-0.050969121	-8.952483561	-21.93698756	79.13052791
1300	-21.60618561	78.84466476	-0.053753466	-9.306402141	-0.053753466	-9.306402141	-21.60468891	78.80320534
1350	-21.28649924	78.51791847	-0.056613368	-9.660174506	-0.056613368	-9.660174506	-21.28496185	78.47458268
1400	-20.9784794	78.19000447	-0.059549132	-10.01380212	-0.059549132	-10.01380212	-20.97690225	78.14488306
1450	-20.6813138	77.86106815	-0.062561058	-10.36728755	-0.062561058	-10.36728755	-20.67969737	77.81416124
1500	-20.39427309	77.53119848	-0.065649406	-10.72063264	-0.065649406	-10.72063264	-20.39261784	77.48250686
1550	-20.11669943	77.20047504	-0.068814409	-11.07383896	-0.068814409	-11.07383896	-20.11500581	77.14999973
1600	-19.84799746	76.86896895	-0.072056274	-11.4269078	-0.072056274	-11.4269078	-19.84626589	76.81671162
1650	-19.58762658	76.53674441	-0.075375188	-11.77984025	-0.075375188	-11.77984025	-19.58585747	76.48270686
1700	-19.33509445	76.20385919	-0.078771316	-12.13263722	-0.078771316	-12.13263722	-19.3332882	76.1480437
1750	-19.08995141	75.87036553	-0.082244809	-12.48529941	-0.082244809	-12.48529941	-19.08810838	75.812775
1800	-18.8517857	75.53631149	-0.085795797	-12.83782737	-0.085795797	-12.83782737	-18.84990624	75.4769482
1850	-18.62021923	75.20173967	-0.089424398	-13.19022153	-0.089424398	-13.19022153	-18.6183037	75.14060774
1900	-18.39490412	74.8666899	-0.093130715	-13.54248214	-0.093130715	-13.54248214	-18.39295285	74.80379333
1950	-18.17551951	74.53119878	-0.096914841	-13.89460938	-0.096914841	-13.89460938	-18.17353281	74.46654128
2000	-17.9617688	74.19529942	-0.100776855	-14.24660328	-0.100776855	-14.24660328	-17.95974699	74.12888546
2050	-17.75337731	73.85902258	-0.104716827	-14.59846379	-0.104716827	-14.59846379	-17.75132068	73.79085682
2100	-17.55009015	73.52239659	-0.108734816	-14.95019079	-0.108734816	-14.95019079	-17.54799898	73.45248399
2150	-17.35167034	73.18544731	-0.112830874	-15.30178403	-0.112830874	-15.30178403	-17.34954492	73.11379383
2200	-17.15789727	72.84820006	-0.117005043	-15.65324321	-0.117005043	-15.65324321	-17.15573784	72.77480991
2250	-16.96856501	72.51067606	-0.121257359	-16.00456797	-0.121257359	-16.00456797	-16.96637185	72.43555645
2300	-16.78348134	72.17289778	-0.125587848	-16.35575785	-0.125587848	-16.35575785	-16.78125468	72.09605329
2350	-16.60246619	71.83488271	-0.129996533	-16.70681239	-0.129996533	-16.70681239	-16.60020628	71.75632239
2400	-16.42535107	71.4966516	-0.134483427	-17.05773101	-0.134483427	-17.05773101	-16.42305813	71.41637993
2450	-16.25197762	71.15821928	-0.13904854	-17.40851313	-0.13904854	-17.40851313	-16.24965189	71.07624561
2500	-16.08219728	70.8196038	-0.143691874	-17.75915807	-0.143691874	-17.75915807	-16.07983897	70.73593379
2550	-15.91587015	70.4808193	-0.148413427	-18.10966516	-0.148413427	-18.10966516	-15.91347947	70.3954608
2600	-15.75286445	70.14188	-0.153213192	-18.46003366	-0.153213192	-18.46003366	-15.7504416	70.05484107
2650	-15.59305597	69.80279949	-0.158091158	-18.8102628	-0.158091158	-18.8102628	-15.59060115	69.71408804
2700	-15.43632734	69.46358972	-0.16304731	-19.16035178	-0.16304731	-19.16035178	-15.43384075	69.37321522
2750	-15.28256779	69.12426392	-0.168081624	-19.51029975	-0.168081624	-19.51029975	-15.2800496	69.03223356
2800	-15.13167232	68.78483194	-0.173194079	-19.86010586	-0.173194079	-19.86010586	-15.12912272	68.69115599
2850	-14.98354165	68.4453056	-0.178384645	-20.20976921	-0.178384645	-20.20976921	-14.98096081	68.34999233
2900	-14.83808164	68.10569551	-0.183653288	-20.55928883	-0.183653288	-20.55928883	-14.83546971	68.00875261
2950	-14.6952027	67.7660086	-0.188999981	-20.90866391	-0.188999981	-20.90866391	-14.69255988	67.66744921
3000	-14.55482024	67.42625793	-0.194424673	-21.2578933	-0.194424673	-21.2578933	-14.55214666	67.32608799
3050	-14.41685332	67.08644907	-0.199927334	-21.60697618	-0.199927334	-21.60697618	-14.41414914	66.9846808
3100	-14.28122509	66.74658912	-0.20550792	-21.9559115	-0.20550792	-21.9559115	-14.27849049	66.64323754
3150	-14.14786286	66.4066915	-0.211166369	-22.30469815	-0.211166369	-22.30469815	-14.14509795	66.30176104
3200	-14.01669664	66.06675976	-0.216902643	-22.65333516	-0.216902643	-22.65333516	-14.01390157	65.96026311
3250	-13.88766006	65.72680169	-0.222716685	-23.0018214	-0.222716685	-23.0018214	-13.88483496	65.61875089
3300	-13.76068973	65.38682502	-0.22860844	-23.35015592	-0.22860844	-23.35015592	-13.75783474	65.27723054
3350	-13.63572509	65.04683649	-0.234577849	-23.69833766	-0.234577849	-23.69833766	-13.63284035	64.9357089
3400	-13.51270825	64.70684167	-0.240624853	-24.04636537	-0.240624853	-24.04636537	-13.50979386	64.59419376
3450	-13.39158384	64.36684712	-0.246749388	-24.39423803	-0.246749388	-24.39423803	-13.38863994	64.25269095
3500	-13.2722989	64.02685877	-0.252951389	-24.7419545	-0.252951389	-24.7419545	-13.2693256	63.91120662
3550	-13.15480268	63.6868823	-0.259230789	-25.08951367	-0.259230789	-25.08951367	-13.1518001	63.56974671
3600	-13.03904657	63.34692322	-0.265587519	-25.43691441	-0.265587519	-25.43691441	-13.03601482	63.22831692
3650	-12.92498395	63.00698681	-0.272021508	-25.78415556	-0.272021508	-25.78415556	-12.92192314	62.8869228
3700	-12.8125701	62.66707818	-0.278532681	-26.13123597	-0.278532681	-26.13123597	-12.80948033	62.54556966
3750	-12.70176209	62.32720225	-0.285120965	-26.4781545	-0.285120965	-26.4781545	-12.69864346	62.20426267
3800	-12.59251867	61.98736381	-0.291786281	-26.82490997	-0.291786281	-26.82490997	-12.58937128	61.86300682
3850	-12.48480022	61.64756744	-0.298528552	-27.17150123	-0.298528552	-27.17150123	-12.48162417	61.52180695
3900	-12.37856864	61.30781762	-0.305347697	-27.51792708	-0.305347697	-27.51792708	-12.37536402	61.18066775
3950	-12.27378727	60.96811866	-0.312243633	-27.86418636	-0.312243633	-27.86418636	-12.27055417	60.83959376
4000	-12.17042083	60.62847476	-0.319216276	-28.21027788	-0.319216276	-28.21027788	-12.16715934	60.49858941
4050	-12.06843535	60.28888998	-0.326265542	-28.55620046	-0.326265542	-28.55620046	-12.06514555	60.15765897
4100	-11.9677981	59.94936827	-0.333391343	-28.90195291	-0.333391343	-28.90195291	-11.96448007	59.81680662
4150	-11.86847752	59.60991345	-0.340593591	-29.24753403	-0.340593591	-29.24753403	-11.86513134	59.4760364
4200	-11.7704432	59.27052924	-0.347872196	-29.59294264	-0.347872196	-29.59294264	-11.76706895	59.13535229
4250	-11.67366578	58.93121927	-0.355227066	-29.93817754	-0.355227066	-29.93817754	-11.67026353	58.7947581
4300	-11.57811694	58.59198708	-0.362658108	-30.28323752	-0.362658108	-30.28323752	-11.57468676	58.45425757
4350	-11.48376931	58.25283605	-0.37016523	-30.62812141	-0.37016523	-30.62812141	-11.48031128	58.11385441
4400	-11.39059649	57.91376956	-0.377748334	-30.97282798	-0.377748334	-30.97282798	-11.38711067	57.77355212
4450	-11.29857293	57.57479086	-0.385407324	-31.31735605	-0.385407324	-31.31735605	-11.29505939	57.4333542
4500	-11.20767395	57.23590313	-0.393142103	-31.66170441	-0.393142103	-31.66170441	-11.20413275	57.09326405
4550	-11.11787568	56.89710946	-0.40095257	-32.00587187	-0.40095257	-32.00587187	-11.11430688	56.753285
4600	-11.02915503	56.55841286	-0.408838626	-32.34985723	-0.408838626	-32.34985723	-11.02555868	56.41342028
4650	-10.94148963	56.21981633	-0.416800169	-32.69365928	-0.416800169	-32.69365928	-10.9378658	56.07367305
4700	-10.85485784	55.8813227	-0.424837096	-33.03727684	-0.424837096	-33.03727684	-10.85120658	55.73404645
4750	-10.76923871	55.54293481	-0.432949303	-33.38070871	-0.432949303	-33.38070871	-10.76556007	55.39454351
4800	-10.68461192	55.20465544	-0.441136684	-33.72395369	-0.441136684	-33.72395369	-10.68090595	55.05516719
4850	-10.60095778	54.86648727	-0.449399135	-34.06701059	-0.449399135	-34.06701059	-10.59722453	54.71592042
4900	-10.51825721	54.52843294	-0.457736547	-34.40987822	-0.457736547	-34.40987822	-10.51449673	54.37680606
4950	-10.4364917	54.19049502	-0.466148814	-34.75255539	-0.466148814	-34.75255539	-10.43270403	54.03782693
5000	-10.3556433	53.85267608	-0.474635824	-35.09504091	-0.474635824	-35.09504091	-10.35182848	53.69898575
5050	-10.27569456	53.51497857	-0.483197469	-35.43733361	-0.483197469	-35.43733361	-10.27185264	53.36028524
5100	-10.19662859	53.17740493	-0.491833636	-35.77943229	-0.491833636	-35.77943229	-10.1927596	53.02172805
5150	-10.11842894	52.83995754	-0.500544215	-36.1213358	-0.500544215	-36.1213358	-10.11453292	52.68331679
5200	-10.04107966	52.50263873	-0.509329092	-36.46304294	-0.509329092	-36.46304294	-10.03715664	52.34505401
5250	-9.96456524	52.16545079	-0.518188154	-36.80455255	-0.518188154	-36.80455255	-9.960615262	52.00694223
5300	-9.888870616	51.82839602	-0.527121285	-37.14586345	-0.527121285	-37.14586345	-9.884893709	51.66898388
5350	-9.813981134	51.49147658	-0.53612837	-37.48697449	-0.53612837	-37.48697449	-9.809977327	51.33118142
5400	-9.739882543	51.15469464	-0.545209292	-37.82788451	-0.545209292	-37.82788451	-9.735851866	50.99353724
5450	-9.666560994	50.81805241	-0.554363934	-38.16859234	-0.554363934	-38.16859234	-9.662503472	50.65605365
5500	-9.594002982	50.48155177	-0.56359218	-38.50909684	-0.56359218	-38.50909684	-9.589918641	50.31873308
5550	-9.522195403	50.14519499	-0.572893909	-38.84939686	-0.572893909	-38.84939686	-9.518084267	49.98157768
5600	-9.451125472	49.808984	-0.582269002	-39.18949126	-0.582269002	-39.18949126	-9.446987562	49.64458974
5650	-9.380780749	49.4729208	-0.59171734	-39.52937889	-0.59171734	-39.52937889	-9.376616086	49.30777144
5700	-9.311149128	49.13700737	-0.601238799	-39.86905861	-0.601238799	-39.86905861	-9.30695773	48.97112497
5750	-9.242218793	48.80124562	-0.610833259	-40.2085293	-0.610833259	-40.2085293	-9.238000678	48.63465245
5800	-9.173978244	48.46563739	-0.620500599	-40.54778984	-0.620500599	-40.54778984	-9.169733427	48.29835603
5850	-9.10641626	48.13018444	-0.630240695	-40.88683912	-0.630240695	-40.88683912	-9.102144756	47.96223786
5900	-9.039521944	47.79488898	-0.640053421	-41.22567598	-0.640053421	-41.22567598	-9.035223765	47.6262997
5950	-8.973284631	47.4597527	-0.649938652	-41.56429933	-0.649938652	-41.56429933	-8.968959787	47.29054366
6000	-8.90769386	47.12477669	-0.659896273	-41.90270813	-0.659896273	-41.90270813	-8.903342362	46.95497225
6050	-8.84273956	46.78996345	-0.669926149	-42.24090121	-0.669926149	-42.24090121	-8.838361417	46.61958684
6100	-8.778411817	46.45531447	-0.680028156	-42.57887749	-0.680028156	-42.57887749	-8.774007035	46.28438956
6150	-8.71470099	46.12083161	-0.690202165	-42.91663586	-0.690202165	-42.91663586	-8.710269572	45.94938218
6200	-8.651597609	45.78651615	-0.700448055	-43.25417529	-0.700448055	-43.25417529	-8.647139562	45.61456687
6250	-8.58909252	45.45237017	-0.71076569	-43.59149466	-0.71076569	-43.59149466	-8.584607844	45.27994518
6300	-8.527176714	45.11839516	-0.721154946	-43.92859289	-0.721154946	-43.92859289	-8.52266541	44.94551903
6350	-8.465841361	44.78459219	-0.7316157	-44.26546901	-0.7316157	-44.26546901	-8.461303431	44.61129061
6400	-8.405077935	44.45096338	-0.742147816	-44.60212187	-0.742147816	-44.60212187	-8.400513375	44.27726131
6450	-8.344878043	44.11751016	-0.752751166	-44.93855045	-0.752751166	-44.93855045	-8.340286852	43.94343298
6500	-8.285233516	43.78423426	-0.763425614	-45.27475365	-0.763425614	-45.27475365	-8.280615686	43.60980721
6550	-8.226136283	43.45113664	-0.774171042	-45.61073053	-0.774171042	-45.61073053	-8.221491811	43.27638611
6600	-8.167578555	43.11821917	-0.78498731	-45.94648	-0.78498731	-45.94648	-8.162907433	42.9431711
6650	-8.109552705	42.78548355	-0.795874282	-46.28200098	-0.795874282	-46.28200098	-8.104854922	42.6101637
6700	-8.052051176	42.45293067	-0.806831837	-46.61729255	-0.806831837	-46.61729255	-8.047326723	42.27736595
6750	-7.995066655	42.12056196	-0.817859842	-46.95235368	-0.817859842	-46.95235368	-7.990315522	41.94477947
6800	-7.938592001	41.78837926	-0.828958159	-47.28718331	-0.828958159	-47.28718331	-7.933814174	41.61240556
6850	-7.882620204	41.4563838	-0.840126652	-47.62178044	-0.840126652	-47.62178044	-7.877815668	41.28024595
6900	-7.827144322	41.12457643	-0.851365204	-47.95614419	-0.851365204	-47.95614419	-7.822313065	40.94830254
6950	-7.772157744	40.79295931	-0.862673659	-48.2902734	-0.862673659	-48.2902734	-7.767299746	40.61657636
7000	-7.717653811	40.46153339	-0.874051899	-48.6241672	-0.874051899	-48.6241672	-7.712769054	40.28506915
7050	-7.663626087	40.13029977	-0.885499787	-48.95782462	-0.885499787	-48.95782462	-7.658714551	39.95378261
7100	-7.610068261	39.79925964	-0.897017189	-49.29124469	-0.897017189	-49.29124469	-7.605129929	39.62271835
7150	-7.556974191	39.4684149	-0.908603961	-49.62442639	-0.908603961	-49.62442639	-7.552009037	39.29187737
7200	-7.504337759	39.13776623	-0.920259982	-49.95736884	-0.920259982	-49.95736884	-7.499345762	38.96126152
7250	-7.452153016	38.80731477	-0.931985118	-50.29007112	-0.931985118	-50.29007112	-7.447134151	38.63087232
7300	-7.40041425	38.47706249	-0.943779211	-50.62253216	-0.943779211	-50.62253216	-7.39536849	38.30071073
7350	-7.349115641	38.14700987	-0.955642151	-50.95475116	-0.955642151	-50.95475116	-7.34404296	37.9707786
7400	-7.298251649	37.81715826	-0.967573792	-51.28672716	-0.967573792	-51.28672716	-7.293152017	37.64107725
7450	-7.247816791	37.48750883	-0.979573998	-51.61845924	-0.979573998	-51.61845924	-7.24269018	37.31160809
7500	-7.197805668	37.15806281	-0.991642638	-51.94994651	-0.991642638	-51.94994651	-7.192652046	36.98237235
7550	-7.148213032	36.82882122	-1.00377957	-52.28118806	-1.00377957	-52.28118806	-7.143032366	36.65337152
7600	-7.099033717	36.49978515	-1.015984657	-52.61218299	-1.015984657	-52.61218299	-7.093825975	36.32460698
7650	-7.050262612	36.17095585	-1.028257771	-52.94293044	-1.028257771	-52.94293044	-7.045027758	35.99607987
7700	-7.001894762	35.84233429	-1.040598771	-53.27342952	-1.040598771	-53.27342952	-6.996632759	35.66779162
7750	-6.953925288	35.51392149	-1.053007518	-53.60367936	-1.053007518	-53.60367936	-6.948636101	35.33974357
7800	-6.906349383	35.18571857	-1.065483879	-53.9336791	-1.065483879	-53.9336791	-6.901032971	35.01193693
7850	-6.85916234	34.85772655	-1.078027718	-54.2634279	-1.078027718	-54.2634279	-6.853818664	34.68437297
7900	-6.812359574	34.52994629	-1.090638888	-54.5929249	-1.090638888	-54.5929249	-6.806988594	34.35705312
7950	-6.765936449	34.20237921	-1.10331728	-54.9221693	-1.10331728	-54.9221693	-6.760538118	34.02997813
8000	-6.71988859	33.87502594	-1.116062735	-55.25116025	-1.116062735	-55.25116025	-6.714462867	33.70314962
8050	-6.674211665	33.54788731	-1.128875105	-55.57989688	-1.128875105	-55.57989688	-6.668758507	33.37656901
8100	-6.62890127	33.22096468	-1.141754283	-55.90837846	-1.141754283	-55.90837846	-6.623420628	33.05023699
8150	-6.583953228	32.89425881	-1.15470012	-56.23660416	-1.15470012	-56.23660416	-6.578445054	32.72415495
8200	-6.53936339	32.56777063	-1.16771248	-56.56457317	-1.16771248	-56.56457317	-6.533827635	32.39832405
8250	-6.495127681	32.24150105	-1.180791228	-56.89228471	-1.180791228	-56.89228471	-6.489564295	32.07274546
8300	-6.451242094	31.91545097	-1.193936226	-57.21973801	-1.193936226	-57.21973801	-6.445651025	31.74742031
8350	-6.407702692	31.58962128	-1.20714734	-57.54693228	-1.20714734	-57.54693228	-6.402083888	31.42234973
8400	-6.364505606	31.26401285	-1.220424434	-57.87386678	-1.220424434	-57.87386678	-6.358859012	31.09753482
8450	-6.32164703	30.93862652	-1.233767372	-58.20054074	-1.233767372	-58.20054074	-6.315972591	30.77297669
8500	-6.279123224	30.61346315	-1.247176019	-58.52695342	-1.247176019	-58.52695342	-6.273420883	30.44867642
8550	-6.236930511	30.28852357	-1.26065024	-58.85310409	-1.26065024	-58.85310409	-6.231200209	30.12463509
8600	-6.195065272	29.96380858	-1.2741899	-59.17899201	-1.2741899	-59.17899201	-6.189306951	29.80085376
8650	-6.153523951	29.63931899	-1.287794865	-59.50461646	-1.287794865	-59.50461646	-6.147737549	29.47733346
8700	-6.112303047	29.31505559	-1.301464999	-59.82997674	-1.301464999	-59.82997674	-6.106488503	29.15407524
8750	-6.07139912	28.99101915	-1.31520017	-60.15507214	-1.31520017	-60.15507214	-6.06555637	28.83108012
8800	-6.030808781	28.66721043	-1.329000243	-60.47990196	-1.329000243	-60.47990196	-6.02493776	28.5083491
8850	-5.990528699	28.34363018	-1.342865084	-60.80446552	-1.342865084	-60.80446552	-5.984629342	28.18588318
8900	-5.950555594	28.02027913	-1.35679456	-61.12876214	-1.35679456	-61.12876214	-5.944627833	27.86368335
8950	-5.910886238	27.69715801	-1.370788539	-61.45279115	-1.370788539	-61.45279115	-5.904930005	27.54175057
9000	-5.871517455	27.37426752	-1.384846887	-61.7765519	-1.384846887	-61.7765519	-5.86553268	27.22008581
9050	-5.832446119	27.05160835	-1.398969473	-62.10004373	-1.398969473	-62.10004373	-5.82643273	26.89869001
9100	-5.79366915	26.72918119	-1.413156165	-62.42326599	-1.413156165	-62.42326599	-5.787627075	26.5775641
9150	-5.755183518	26.4069867	-1.42740683	-62.74621806	-1.42740683	-62.74621806	-5.749112683	26.25670901
9200	-5.716986238	26.08502554	-1.441721339	-63.06889931	-1.441721339	-63.06889931	-5.710886568	25.93612565
9250	-5.679074372	25.76329836	-1.456099561	-63.39130911	-1.456099561	-63.39130911	-5.672945789	25.61581491
9300	-5.641445025	25.44180578	-1.470541365	-63.71344687	-1.470541365	-63.71344687	-5.635287452	25.29577769
