!	AVX	Thin	Film	Operation	Date:		2004	
!	Description:		"Series,"	Thin	"Film,"	"LGA,"	RF	Inductors
!	Part	Number:	L06032r7nH					
!	50	MHz	-	15	GHz			
!	Serial	Measurements						
!								
#	mhz	S	db	R	50			
!	S11	S11	S21	S21	S12	S12	S22	S22
!	dB	Phase	dB	Phase	dB	Phase	dB	Phase
50	-42.85583224	82.76851834	-0.007484889	-0.555779281	-0.007484889	-0.555779281	-42.85578601	82.78386969
100	-37.23989004	83.19746818	-0.012699257	-1.075702446	-0.012699257	-1.075702446	-37.23981502	83.22768508
150	-33.9299168	83.19714845	-0.017578091	-1.586271211	-0.017578091	-1.586271211	-33.92981107	83.24158025
200	-31.57084599	83.03659796	-0.022383198	-2.091497002	-0.022383198	-2.091497002	-31.57072024	83.09567983
250	-29.73522854	82.79246001	-0.027230585	-2.593079715	-0.027230585	-2.593079715	-29.7350852	82.86617917
300	-28.23186923	82.49715339	-0.03218488	-3.091939945	-0.03218488	-3.091939945	-28.2317101	82.5855038
350	-26.95845547	82.16744807	-0.037286742	-3.588646275	-0.037286742	-3.588646275	-26.95828195	82.27042835
400	-25.85375829	81.81313789	-0.04256381	-4.083580454	-0.04256381	-4.083580454	-25.85357139	81.93073862
450	-24.87819752	81.44041878	-0.048035926	-4.577014149	-0.048035926	-4.577014149	-24.87799815	81.57264303
500	-24.00469698	81.05346475	-0.053717918	-5.069149194	-0.053717918	-5.069149194	-24.00448585	81.20030808
550	-23.21391203	80.65520622	-0.059621231	-5.560140567	-0.059621231	-5.560140567	-23.21368977	80.81667152
600	-22.49153793	80.2477836	-0.065754922	-6.050110456	-0.065754922	-6.050110456	-22.49130509	80.42387171
650	-21.82669685	79.8328023	-0.072126315	-6.539157255	-0.072126315	-6.539157255	-21.82645386	80.02351478
700	-21.21092284	79.4114967	-0.07874144	-7.027361598	-0.07874144	-7.027361598	-21.21067012	79.61683527
750	-20.63749704	78.98483475	-0.085605338	-7.514790589	-0.085605338	-7.514790589	-20.63723494	79.20480173
800	-20.10099731	78.55358455	-0.092722286	-8.001500789	-0.092722286	-8.001500789	-20.10072613	78.7881913
850	-19.59698469	78.11838581	-0.100095948	-8.487540206	-0.100095948	-8.487540206	-19.59670465	78.36761625
900	-19.12177791	77.67972491	-0.107729521	-8.972950572	-0.107729521	-8.972950572	-19.12148936	77.94361639
950	-18.67229173	77.23805147	-0.115625788	-9.457767496	-0.115625788	-9.457767496	-18.67199488	77.51659514
1000	-18.24591333	76.79371549	-0.123787229	-9.942022448	-0.123787229	-9.942022448	-18.24560834	77.08691689
1050	-17.84041139	76.34702659	-0.132216048	-10.42574285	-0.132216048	-10.42574285	-17.84009828	76.65487672
1100	-17.45386461	75.89824458	-0.140914232	-10.90895296	-0.140914232	-10.90895296	-17.45354338	76.22073089
1150	-17.08460487	75.44756034	-0.14988363	-11.39167548	-0.14988363	-11.39167548	-17.08427589	75.78473041
1200	-16.73117872	74.99514815	-0.159125879	-11.87392919	-0.159125879	-11.87392919	-16.73084316	75.34708483
1250	-16.3923103	74.54126419	-0.168642509	-12.35573146	-0.168642509	-12.35573146	-16.39196691	74.90787224
1300	-16.0668743	74.08599421	-0.178434865	-12.83709626	-0.178434865	-12.83709626	-16.06652359	74.46730073
1350	-15.75386337	73.62946387	-0.188504483	-13.3180425	-0.188504483	-13.3180425	-15.7535054	74.0254959
1400	-15.4523929	73.17180227	-0.198852422	-13.79857861	-0.198852422	-13.79857861	-15.45202775	73.58256141
1450	-15.16166252	72.7131048	-0.209479935	-14.27871785	-0.209479935	-14.27871785	-15.16129026	73.13860174
1500	-14.88095499	72.25346122	-0.220388157	-14.75847094	-0.220388157	-14.75847094	-14.88057567	72.693707
1550	-14.60962332	71.79295185	-0.231578173	-15.23784773	-0.231578173	-15.23784773	-14.60923698	72.24795782
1600	-14.34708185	71.33164835	-0.243051032	-15.71685728	-0.243051032	-15.71685728	-14.34668854	71.80142706
1650	-14.09279877	70.86961607	-0.254807751	-16.19550792	-0.254807751	-16.19550792	-14.09239851	71.35417965
1700	-13.84628967	70.40691337	-0.26684932	-16.67380736	-0.26684932	-16.67380736	-13.84588248	70.90627493
1750	-13.60711207	69.94359377	-0.279176708	-17.15176273	-0.279176708	-17.15176273	-13.60669797	70.45776609
1800	-13.37486071	69.47970502	-0.291790867	-17.62938066	-0.291790867	-17.62938066	-13.37443971	70.0087023
1850	-13.1491635	69.01529137	-0.304692738	-18.10666732	-0.304692738	-18.10666732	-13.1487356	69.55912766
1900	-12.92967795	68.55039328	-0.317883251	-18.58362845	-0.317883251	-18.58362845	-12.92924315	69.10908241
1950	-12.7160881	68.08504601	-0.331363334	-19.06026949	-0.331363334	-19.06026949	-12.71564639	68.65860494
2000	-12.50810196	67.61928477	-0.345133906	-19.53659541	-0.345133906	-19.53659541	-12.50765333	68.20772791
2050	-12.30544896	67.15313933	-0.359195894	-20.01261101	-0.359195894	-20.01261101	-12.30499339	67.75648357
2100	-12.10787808	66.68663953	-0.373550217	-20.48832067	-0.373550217	-20.48832067	-12.10741555	67.30489952
2150	-11.91515587	66.21981082	-0.388197808	-20.96372862	-0.388197808	-20.96372862	-11.91468634	66.85300294
2200	-11.7270648	65.7526757	-0.403139609	-21.43883896	-0.403139609	-21.43883896	-11.72658825	66.40081979
2250	-11.54340214	65.28525856	-0.418376557	-21.91365533	-0.418376557	-21.91365533	-11.54291852	65.94837099
2300	-11.36397827	64.81757921	-0.433909611	-22.38818137	-0.433909611	-22.38818137	-11.36348755	65.49567828
2350	-11.18861585	64.34965745	-0.449739736	-22.86242044	-0.449739736	-22.86242044	-11.18811797	65.04276057
2400	-11.01714849	63.88150963	-0.465867925	-23.336376	-0.465867925	-23.336376	-11.01664341	64.58963687
2450	-10.84942011	63.41314784	-0.48229518	-23.81005123	-0.48229518	-23.81005123	-10.84890779	64.13632825
2500	-10.68528462	62.94460214	-0.499022457	-24.28344825	-0.499022457	-24.28344825	-10.68476497	63.68283738
2550	-10.52460335	62.47587081	-0.516050859	-24.75657105	-0.516050859	-24.75657105	-10.52407632	63.22919231
2600	-10.36724662	62.00697465	-0.533381403	-25.22942186	-0.533381403	-25.22942186	-10.36671215	62.77540012
2650	-10.2130914	61.5379173	-0.551015209	-25.7020041	-0.551015209	-25.7020041	-10.21254945	62.32148049
2700	-10.06202321	61.06873462	-0.568953213	-26.17431805	-0.568953213	-26.17431805	-10.06147363	61.86742563
2750	-9.913930759	60.59940331	-0.587196751	-26.64636941	-0.587196751	-26.64636941	-9.913373546	61.41327364
2800	-9.768711551	60.12995423	-0.605746833	-27.11815877	-0.605746833	-27.11815877	-9.768146603	60.9590177
2850	-9.626267218	59.66039163	-0.624604654	-27.5896889	-0.624604654	-27.5896889	-9.625694452	60.50467144
2900	-9.486504632	59.19072269	-0.643771417	-28.0609623	-0.643771417	-28.0609623	-9.485923968	60.05024475
2950	-9.349335619	58.72095777	-0.663248324	-28.53198099	-0.663248324	-28.53198099	-9.348746963	59.59574408
3000	-9.21467619	58.25110578	-0.683036637	-29.00274742	-0.683036637	-29.00274742	-9.214079437	59.14117513
3050	-9.082446707	57.78116645	-0.703137612	-29.47326344	-0.703137612	-29.47326344	-9.081841781	58.68655298
3100	-8.952571029	57.31115165	-0.723552597	-29.94353178	-0.723552597	-29.94353178	-8.951957827	58.23187761
3150	-8.824976789	56.84106306	-0.744282947	-30.41355471	-0.744282947	-30.41355471	-8.824355219	57.77715917
3200	-8.699595556	56.3709141	-0.765329954	-30.88333335	-0.765329954	-30.88333335	-8.698965492	57.32239759
3250	-8.576361095	55.9007016	-0.786695112	-31.35287085	-0.786695112	-31.35287085	-8.575722441	56.86760418
3300	-8.455210809	55.43043278	-0.80837984	-31.82216898	-0.80837984	-31.82216898	-8.454563454	56.41278198
3350	-8.336084741	54.96011177	-0.830385621	-32.29122985	-0.830385621	-32.29122985	-8.335428572	55.95793565
3400	-8.218925571	54.48974235	-0.852713973	-32.76005554	-0.852713973	-32.76005554	-8.218260473	55.50306945
3450	-8.103678468	54.01932796	-0.875366457	-33.22864815	-0.875366457	-33.22864815	-8.10300432	55.04818734
3500	-7.990290941	53.54887171	-0.898344671	-33.69700977	-0.898344671	-33.69700977	-7.989607621	54.59329291
3550	-7.878712709	53.07837638	-0.921650255	-34.1651425	-0.921650255	-34.1651425	-7.878020092	54.1383895
3600	-7.76889558	52.60784448	-0.945284891	-34.63304843	-0.945284891	-34.63304843	-7.768193539	53.6834801
3650	-7.660793335	52.1372782	-0.969250305	-35.10072967	-0.969250305	-35.10072967	-7.660081738	53.22856744
3700	-7.554361618	51.66667948	-0.993548266	-35.56818832	-0.993548266	-35.56818832	-7.553640332	52.77365399
3750	-7.449557843	51.19605	-1.018180592	-36.03542652	-1.018180592	-36.03542652	-7.44882673	52.31874194
3800	-7.346341095	50.72539115	-1.043149144	-36.50244641	-1.043149144	-36.50244641	-7.345600016	51.86383324
3850	-7.244672046	50.25470411	-1.068455835	-36.96925012	-1.068455835	-36.96925012	-7.243920858	51.40892959
3900	-7.144512872	49.7839898	-1.094102624	-37.43583983	-1.094102624	-37.43583983	-7.143751429	50.95403248
3950	-7.045827179	49.31324893	-1.120091525	-37.90221773	-1.120091525	-37.90221773	-7.045055334	50.49914313
4000	-6.94857993	48.84248198	-1.146424601	-38.36838601	-1.146424601	-38.36838601	-6.94779753	50.04426258
4050	-6.852737377	48.37168921	-1.173103969	-38.8343469	-1.173103969	-38.8343469	-6.851944269	49.58939167
4100	-6.758267003	47.90087068	-1.200131804	-39.30010265	-1.200131804	-39.30010265	-6.757463028	49.13453099
4150	-6.665137454	47.43002622	-1.227510334	-39.76565552	-1.227510334	-39.76565552	-6.664322452	48.67968099
4200	-6.573318495	46.95915552	-1.255241847	-40.23100779	-1.255241847	-40.23100779	-6.572492303	48.22484187
4250	-6.482780949	46.48825803	-1.283328688	-40.69616179	-1.283328688	-40.69616179	-6.481943401	47.77001367
4300	-6.39349665	46.01733303	-1.311773266	-41.16111984	-1.311773266	-41.16111984	-6.392647576	47.31519626
4350	-6.305438395	45.54637956	-1.340578053	-41.62588431	-1.340578053	-41.62588431	-6.304577623	46.86038935
4400	-6.218579912	45.07539662	-1.369745581	-42.09045759	-1.369745581	-42.09045759	-6.217707266	46.40559241
4450	-6.132895801	44.60438292	-1.39927845	-42.55484207	-1.39927845	-42.55484207	-6.132011103	45.95080478
4500	-6.048361508	44.13333703	-1.429179328	-43.01904021	-1.429179328	-43.01904021	-6.047464575	45.49602564
4550	-5.96495328	43.66225735	-1.459450952	-43.48305447	-1.459450952	-43.48305447	-5.964043929	45.04125401
4600	-5.882648132	43.19114202	-1.490096134	-43.94688735	-1.490096134	-43.94688735	-5.881726175	44.58648879
4650	-5.801423841	42.71998938	-1.521117746	-44.41054131	-1.521117746	-44.41054131	-5.800489086	44.13172855
4700	-5.721258854	42.24879714	-1.55251875	-44.87401895	-1.55251875	-44.87401895	-5.720311106	43.67697194
4750	-5.642132323	41.77756317	-1.584302175	-45.3373228	-1.584302175	-45.3373228	-5.641171384	43.2222173
4800	-5.564024019	41.30628488	-1.616471138	-45.80045551	-1.616471138	-45.80045551	-5.56304969	42.767463
4850	-5.48691437	40.8349599	-1.649028826	-46.26341965	-1.649028826	-46.26341965	-5.485926448	42.31270704
4900	-5.410784394	40.36358559	-1.681978512	-46.72621785	-1.681978512	-46.72621785	-5.409782669	41.85794736
4950	-5.335615649	39.89215881	-1.715323564	-47.18885286	-1.715323564	-47.18885286	-5.334599913	41.40318195
5000	-5.261390334	39.42067728	-1.749067405	-47.6513272	-1.749067405	-47.6513272	-5.260360368	40.94840812
5050	-5.188091047	38.94913711	-1.783213599	-48.11364376	-1.783213599	-48.11364376	-5.187046637	40.49362381
5100	-5.115700994	38.4775353	-1.817765763	-48.57580521	-1.817765763	-48.57580521	-5.114641919	40.03882633
5150	-5.044203847	38.00586855	-1.852727616	-49.03781429	-1.852727616	-49.03781429	-5.043129882	39.58401288
5200	-4.973583737	37.5341332	-1.888102982	-49.4996738	-1.888102982	-49.4996738	-4.972494654	39.12918065
5250	-4.903825265	37.06232563	-1.923895777	-49.96138653	-1.923895777	-49.96138653	-4.902720832	38.67432666
5300	-4.834913463	36.59044203	-1.96011002	-50.42295528	-1.96011002	-50.42295528	-4.833793444	38.21944779
5350	-4.766833794	36.11847854	-1.996749833	-50.88438287	-1.996749833	-50.88438287	-4.76569795	37.76454076
5400	-4.699572127	35.64643113	-2.033819445	-51.34567211	-2.033819445	-51.34567211	-4.698420213	37.30960217
5450	-4.633114615	35.17429452	-2.071323253	-51.80682616	-2.071323253	-51.80682616	-4.631946393	36.85462905
5500	-4.567448006	34.70206562	-2.109265652	-52.26784757	-2.109265652	-52.26784757	-4.566263223	36.39961717
5550	-4.502559317	34.22974005	-2.147651207	-52.72873915	-2.147651207	-52.72873915	-4.501357714	35.9445628
5600	-4.438435834	33.75731261	-2.186484646	-53.18950399	-2.186484646	-53.18950399	-4.437217154	35.4894623
5650	-4.375065255	33.28477859	-2.225770784	-53.65014497	-2.225770784	-53.65014497	-4.373829238	35.0343117
5700	-4.312435592	32.8121329	-2.265514571	-54.11066502	-2.265514571	-54.11066502	-4.311181975	34.57910708
5750	-4.250535232	32.33937117	-2.305721055	-54.57106693	-2.305721055	-54.57106693	-4.249263741	34.12384382
5800	-4.18935279	31.86648781	-2.346395464	-55.03135368	-2.346395464	-55.03135368	-4.188063153	33.66851788
5850	-4.128877235	31.39347782	-2.387543131	-55.49152814	-2.387543131	-55.49152814	-4.127569173	33.21312466
5900	-4.069097791	30.92033574	-2.429169553	-55.95159322	-2.429169553	-55.95159322	-4.067771021	32.75765961
5950	-4.010003982	30.44705595	-2.471280358	-56.4115518	-2.471280358	-56.4115518	-4.008658218	32.3021182
6000	-3.951585607	29.97363313	-2.513881322	-56.87140673	-2.513881322	-56.87140673	-3.950220557	31.84649538
6050	-3.893832707	29.50006129	-2.556978389	-57.3311609	-2.556978389	-57.3311609	-3.892448077	31.39078644
6100	-3.836735567	29.02633438	-2.600577672	-57.79081723	-2.600577672	-57.79081723	-3.835331058	30.93498634
6150	-3.780284748	28.55244646	-2.644685425	-58.2503785	-2.644685425	-58.2503785	-3.778860057	30.47908995
6200	-3.724471124	28.07839225	-2.689308018	-58.70984728	-2.689308018	-58.70984728	-3.723025936	30.02309168
6250	-3.669285646	27.60416469	-2.734452106	-59.16922657	-2.734452106	-59.16922657	-3.667819649	29.56698648
6300	-3.614719553	27.12975722	-2.780124481	-59.62851914	-2.780124481	-59.62851914	-3.613232432	29.11076899
6350	-3.560764372	26.65516396	-2.826332066	-60.08772753	-2.826332066	-60.08772753	-3.559255801	28.65443334
6400	-3.50741174	26.1803778	-2.873082054	-60.54685455	-2.873082054	-60.54685455	-3.505881392	28.19797398
6450	-3.454653596	25.70539244	-2.920381757	-61.00590268	-2.920381757	-61.00590268	-3.453101137	27.74138498
6500	-3.402481944	25.23020007	-2.968238803	-61.46487476	-2.968238803	-61.46487476	-3.400907042	27.28466073
6550	-3.350889259	24.75479545	-3.016660796	-61.92377268	-3.016660796	-61.92377268	-3.349291563	26.82779471
6600	-3.299867908	24.27917043	-3.065655807	-62.38259929	-3.065655807	-62.38259929	-3.29824707	26.37078098
6650	-3.249410547	23.80331756	-3.115232046	-62.841357	-3.115232046	-62.841357	-3.247766216	25.91361343
6700	-3.199510039	23.32722961	-3.165397924	-63.30004806	-3.165397924	-63.30004806	-3.197841857	25.45628566
6750	-3.150159422	22.85089933	-3.216162093	-63.75867466	-3.216162093	-63.75867466	-3.148467025	24.998791
6800	-3.101351985	22.37431963	-3.267533367	-64.2172386	-3.267533367	-64.2172386	-3.099634998	24.54112301
6850	-3.053081019	21.89748229	-3.319520972	-64.67574218	-3.319520972	-64.67574218	-3.051339068	24.08327495
6900	-3.005339992	21.42037873	-3.37213439	-65.13418756	-3.37213439	-65.13418756	-3.003572701	23.6252403
6950	-2.958122706	20.94300214	-3.425383191	-65.59257618	-3.425383191	-65.59257618	-2.956329685	23.16701173
7000	-2.911422979	20.4653441	-3.479277365	-66.05090982	-3.479277365	-66.05090982	-2.909603834	22.70858235
7050	-2.865234785	19.98739575	-3.533827184	-66.50919013	-3.533827184	-66.50919013	-2.863389125	22.24994553
7100	-2.819552415	19.50915058	-3.589043039	-66.96741806	-3.589043039	-66.96741806	-2.817679823	21.79109315
7150	-2.774369973	19.03059798	-3.644935992	-67.42559556	-3.644935992	-67.42559556	-2.772470047	21.33201866
7200	-2.729682096	18.55173136	-3.70151698	-67.88372303	-3.70151698	-67.88372303	-2.72775441	20.87271404
7250	-2.685483227	18.07254065	-3.758797655	-68.34180189	-3.758797655	-68.34180189	-2.683527363	20.41317211
7300	-2.641768085	17.59301695	-3.816789852	-68.79983289	-3.816789852	-68.79983289	-2.639783616	19.95338534
7350	-2.598531703	17.11315305	-3.875505525	-69.2578159	-3.875505525	-69.2578159	-2.596518183	19.49334552
7400	-2.555768869	16.63293829	-3.934957469	-69.71575202	-3.934957469	-69.71575202	-2.553725858	19.03304493
7450	-2.513474807	16.15236393	-3.995158461	-70.17364088	-3.995158461	-70.17364088	-2.511401857	18.57247607
7500	-2.471644718	15.67142084	-4.05612187	-70.63148255	-4.05612187	-70.63148255	-2.469541369	18.11163031
7550	-2.430273978	15.19009961	-4.117861398	-71.08927656	-4.117861398	-71.08927656	-2.428139766	17.65049957
7600	-2.389358107	14.70839062	-4.180391132	-71.54702209	-4.180391132	-71.54702209	-2.387192562	17.18907598
7650	-2.348892682	14.22628434	-4.243725693	-72.00471833	-4.243725693	-72.00471833	-2.346695323	16.72735071
7700	-2.308873448	13.74377098	-4.307880076	-72.46236388	-4.307880076	-72.46236388	-2.30664379	16.2653155
7750	-2.269296235	13.2608407	-4.372869795	-72.9199572	-4.372869795	-72.9199572	-2.267033782	15.8029616
7800	-2.230157017	12.77748345	-4.438710799	-73.37749621	-4.438710799	-73.37749621	-2.227861268	15.34028055
7850	-2.191451843	12.29368917	-4.505419611	-73.83497865	-4.505419611	-73.83497865	-2.189122288	14.87726328
7900	-2.15317691	11.80944759	-4.573013214	-74.29240167	-4.573013214	-74.29240167	-2.150813031	14.41390115
7950	-2.115328529	11.32474827	-4.641509123	-74.74976196	-4.641509123	-74.74976196	-2.112929804	13.95018551
8000	-2.077903	10.83958102	-4.71092565	-75.20705636	-4.71092565	-75.20705636	-2.075468888	13.48610595
8050	-2.040896946	10.35393488	-4.781281285	-75.66428009	-4.781281285	-75.66428009	-2.038426911	13.02165499
8100	-2.004306879	9.867799407	-4.85259555	-76.12142899	-4.85259555	-76.12142899	-2.001800366	12.55682208
8150	-1.968129536	9.381163672	-4.924888373	-76.5784977	-4.924888373	-76.5784977	-1.965585985	12.09159824
8200	-1.932361723	8.894016725	-4.998180415	-77.03548044	-4.998180415	-77.03548044	-1.929780565	11.62597399
8250	-1.897000345	8.406347495	-5.072493035	-77.49237081	-5.072493035	-77.49237081	-1.894381003	11.15993974
8300	-1.86204241	7.91814479	-5.14784832	-77.94916174	-5.14784832	-77.94916174	-1.859384295	10.6934858
8350	-1.827485019	7.429397301	-5.22426912	-78.40584548	-5.22426912	-78.40584548	-1.824787534	10.22660239
8400	-1.79332537	6.940093597	-5.301779081	-78.86241348	-5.301779081	-78.86241348	-1.790587909	9.759279626
8450	-1.759560759	6.450222133	-5.380402675	-79.31885645	-5.380402675	-79.31885645	-1.756782706	9.291507536
8500	-1.726188573	5.959771243	-5.460165245	-79.7751642	-5.460165245	-79.7751642	-1.723369302	8.823276051
8550	-1.693206296	5.468729144	-5.541093038	-80.23132566	-5.541093038	-80.23132566	-1.690345169	8.354575007
8600	-1.6606115	4.977083936	-5.623213253	-80.68732877	-5.623213253	-80.68732877	-1.657707873	7.885394147
8650	-1.628401854	4.484823601	-5.706554079	-81.14316045	-5.706554079	-81.14316045	-1.625455067	7.415723122
8700	-1.596575114	3.991936006	-5.791144744	-81.59880653	-5.791144744	-81.59880653	-1.5935845	6.94555149
8750	-1.565129128	3.498408898	-5.877015569	-82.05425164	-5.877015569	-82.05425164	-1.562094007	6.474868721
8800	-1.534061834	3.004229919	-5.964198011	-82.50947916	-5.964198011	-82.50947916	-1.530981517	6.003664191
8850	-1.503371256	2.50938657	-6.052724735	-82.96447114	-6.052724735	-82.96447114	-1.50024504	5.531927195
8900	-1.473055511	2.013866271	-6.142629651	-83.41920819	-6.142629651	-83.41920819	-1.469882682	5.059646932
8950	-1.4431128	1.517656306	-6.233947997	-83.87366938	-6.233947997	-83.87366938	-1.439892634	4.586812519
9000	-1.413541414	1.020743851	-6.326716395	-84.32783216	-6.326716395	-84.32783216	-1.410273173	4.113412987
9050	-1.384339729	0.52311597	-6.420972928	-84.78167219	-6.420972928	-84.78167219	-1.381022664	3.639437283
9100	-1.355506203	0.024759593	-6.516757232	-85.2351633	-6.516757232	-85.2351633	-1.352139552	3.164874275
9150	-1.327039403	-0.474338382	-6.614110489	-85.68827723	-6.614110489	-85.68827723	-1.323622388	2.689712732
9200	-1.298937946	-0.974191283	-6.713075687	-86.14098363	-6.713075687	-86.14098363	-1.295469781	2.213941371
9250	-1.271200559	-1.474812473	-6.813697545	-86.59324979	-6.813697545	-86.59324979	-1.267680442	1.737548811
9300	-1.243826051	-1.976215436	-6.916022682	-87.04504053	-6.916022682	-87.04504053	-1.240253166	1.260523598
