! AVX Thin Film Operation		Date: May 2002 
! Description: Accu-L® Series, Thin Film, SMD, RF Inductors
! Part Number: L08053R9CEWTR
! 50 MHz  -  14.05 GHz
! Serial Measurements
!
# mhz S db R 50
!	S11		S21		S12		S22
!	dB	Phase	dB	Phase	dB	Phase	dB	Phase
50	-41.934	83.05	-9.296e-3	-0.74	-9.296e-3	-0.74	-41.934	83.046
85	-37.781	83.04	-0.012	-1.22	-0.012	-1.22	-37.781	83.034
120	-34.983	83.031	-0.015	-1.701	-0.015	-1.701	-34.983	83.023
155	-32.87	83.022	-0.018	-2.182	-0.018	-2.182	-32.87	83.012
190	-31.171	83.012	-0.021	-2.662	-0.021	-2.662	-31.171	83
225	-29.765	82.829	-0.024	-3.14	-0.024	-3.14	-29.765	82.814
260	-28.56	82.576	-0.028	-3.617	-0.028	-3.617	-28.56	82.559
295	-27.501	82.323	-0.031	-4.093	-0.031	-4.093	-27.501	82.303
330	-26.565	81.999	-0.034	-4.568	-0.034	-4.568	-26.565	81.977
365	-25.721	81.663	-0.038	-5.043	-0.038	-5.043	-25.721	81.639
400	-24.952	81.328	-0.041	-5.517	-0.041	-5.517	-24.952	81.301
435	-24.25	80.952	-0.045	-5.99	-0.045	-5.99	-24.25	80.924
470	-23.601	80.577	-0.049	-6.462	-0.049	-6.462	-23.601	80.547
505	-22.998	80.199	-0.053	-6.935	-0.053	-6.935	-22.998	80.166
540	-22.436	79.801	-0.057	-7.406	-0.057	-7.406	-22.436	79.766
575	-21.909	79.404	-0.062	-7.877	-0.062	-7.877	-21.909	79.366
610	-21.413	79.003	-0.066	-8.348	-0.066	-8.348	-21.413	78.963
645	-20.946	78.591	-0.071	-8.818	-0.071	-8.818	-20.946	78.549
680	-20.503	78.18	-0.076	-9.288	-0.076	-9.288	-20.503	78.135
715	-20.082	77.764	-0.081	-9.757	-0.081	-9.757	-20.082	77.718
750	-19.682	77.344	-0.086	-10.226	-0.086	-10.226	-19.682	77.295
785	-19.3	76.923	-0.091	-10.694	-0.091	-10.694	-19.3	76.872
820	-18.935	76.499	-0.097	-11.162	-0.097	-11.162	-18.935	76.445
855	-18.586	76.072	-0.103	-11.63	-0.103	-11.63	-18.586	76.016
890	-18.25	75.645	-0.108	-12.097	-0.108	-12.097	-18.25	75.587
925	-17.928	75.215	-0.114	-12.563	-0.114	-12.563	-17.928	75.154
960	-17.619	74.783	-0.121	-13.029	-0.121	-13.029	-17.619	74.721
995	-17.32	74.352	-0.127	-13.496	-0.127	-13.496	-17.32	74.287
1030	-17.032	73.917	-0.133	-13.961	-0.133	-13.961	-17.032	73.85
1065	-16.755	73.483	-0.14	-14.425	-0.14	-14.425	-16.755	73.413
1100	-16.485	73.048	-0.147	-14.89	-0.147	-14.89	-16.485	72.977
1135	-16.226	72.611	-0.154	-15.354	-0.154	-15.354	-16.226	72.537
1170	-15.974	72.174	-0.161	-15.817	-0.161	-15.817	-15.974	72.098
1205	-15.73	71.737	-0.169	-16.281	-0.169	-16.281	-15.73	71.659
1240	-15.494	71.299	-0.176	-16.743	-0.176	-16.743	-15.494	71.218
1275	-15.264	70.86	-0.184	-17.205	-0.184	-17.205	-15.264	70.777
1310	-15.04	70.422	-0.192	-17.667	-0.192	-17.667	-15.04	70.336
1345	-14.823	69.982	-0.2	-18.128	-0.2	-18.128	-14.823	69.895
1380	-14.612	69.543	-0.208	-18.589	-0.208	-18.589	-14.612	69.453
1415	-14.406	69.103	-0.216	-19.049	-0.216	-19.049	-14.406	69.011
1450	-14.206	68.663	-0.225	-19.509	-0.225	-19.509	-14.206	68.568
1485	-14.011	68.223	-0.233	-19.969	-0.233	-19.969	-14.011	68.126
1520	-13.82	67.783	-0.242	-20.427	-0.242	-20.427	-13.82	67.684
1555	-13.635	67.342	-0.251	-20.885	-0.251	-20.885	-13.635	67.241
1590	-13.453	66.902	-0.26	-21.344	-0.26	-21.344	-13.453	66.798
1625	-13.277	66.462	-0.27	-21.801	-0.27	-21.801	-13.277	66.356
1660	-13.104	66.021	-0.279	-22.257	-0.279	-22.257	-13.104	65.913
1695	-12.934	65.581	-0.289	-22.714	-0.289	-22.714	-12.934	65.471
1730	-12.769	65.141	-0.299	-23.17	-0.299	-23.17	-12.769	65.028
1765	-12.608	64.701	-0.309	-23.625	-0.309	-23.625	-12.608	64.586
1800	-12.449	64.261	-0.318	-24.08	-0.318	-24.08	-12.449	64.144
1835	-12.295	63.821	-0.329	-24.534	-0.329	-24.534	-12.295	63.702
1870	-12.143	63.382	-0.339	-24.987	-0.339	-24.987	-12.143	63.26
1905	-11.995	62.942	-0.35	-25.441	-0.35	-25.441	-11.995	62.818
1940	-11.85	62.503	-0.36	-25.893	-0.36	-25.893	-11.85	62.377
1975	-11.707	62.064	-0.371	-26.345	-0.371	-26.345	-11.707	61.935
2010	-11.567	61.625	-0.382	-26.797	-0.382	-26.797	-11.567	61.494
2045	-11.43	61.187	-0.393	-27.248	-0.393	-27.248	-11.43	61.054
2080	-11.296	60.749	-0.405	-27.698	-0.405	-27.698	-11.296	60.613
2115	-11.164	60.311	-0.416	-28.148	-0.416	-28.148	-11.164	60.173
2150	-11.035	59.873	-0.428	-28.597	-0.428	-28.597	-11.035	59.733
2185	-10.908	59.436	-0.439	-29.046	-0.439	-29.046	-10.908	59.294
2220	-10.783	58.999	-0.451	-29.494	-0.451	-29.494	-10.783	58.855
2255	-10.661	58.563	-0.463	-29.941	-0.463	-29.941	-10.661	58.416
2290	-10.54	58.126	-0.475	-30.388	-0.475	-30.388	-10.54	57.977
2325	-10.422	57.691	-0.488	-30.835	-0.488	-30.835	-10.422	57.539
2360	-10.306	57.256	-0.5	-31.28	-0.5	-31.28	-10.306	57.102
2395	-10.192	56.82	-0.513	-31.726	-0.513	-31.726	-10.192	56.664
2430	-10.08	56.386	-0.525	-32.17	-0.525	-32.17	-10.08	56.228
2465	-9.97	55.952	-0.538	-32.614	-0.538	-32.614	-9.97	55.791
2500	-9.861	55.518	-0.551	-33.058	-0.551	-33.058	-9.861	55.355
2535	-9.755	55.085	-0.564	-33.5	-0.564	-33.5	-9.755	54.92
2570	-9.65	54.652	-0.577	-33.942	-0.577	-33.942	-9.65	54.484
2605	-9.547	54.219	-0.591	-34.384	-0.591	-34.384	-9.547	54.049
2640	-9.446	53.788	-0.604	-34.824	-0.604	-34.824	-9.446	53.615
2675	-9.346	53.356	-0.618	-35.265	-0.618	-35.265	-9.346	53.182
2710	-9.247	52.925	-0.632	-35.705	-0.632	-35.705	-9.247	52.748
2745	-9.151	52.495	-0.646	-36.143	-0.646	-36.143	-9.151	52.316
2780	-9.055	52.065	-0.659	-36.582	-0.659	-36.582	-9.055	51.883
2815	-8.962	51.635	-0.674	-37.02	-0.674	-37.02	-8.962	51.451
2850	-8.869	51.206	-0.688	-37.457	-0.688	-37.457	-8.869	51.02
2885	-8.778	50.777	-0.702	-37.893	-0.702	-37.893	-8.778	50.589
2920	-8.689	50.349	-0.717	-38.329	-0.717	-38.329	-8.689	50.159
2955	-8.601	49.922	-0.731	-38.764	-0.731	-38.764	-8.601	49.729
2990	-8.513	49.495	-0.746	-39.199	-0.746	-39.199	-8.513	49.299
3025	-8.428	49.069	-0.761	-39.633	-0.761	-39.633	-8.428	48.871
3060	-8.344	48.643	-0.776	-40.066	-0.776	-40.066	-8.344	48.443
3095	-8.26	48.217	-0.791	-40.5	-0.791	-40.5	-8.26	48.015
3130	-8.178	47.792	-0.806	-40.931	-0.806	-40.931	-8.178	47.588
3165	-8.098	47.368	-0.821	-41.363	-0.821	-41.363	-8.098	47.161
3200	-8.018	46.944	-0.837	-41.794	-0.837	-41.794	-8.018	46.735
3235	-7.939	46.521	-0.852	-42.223	-0.852	-42.223	-7.939	46.31
3270	-7.862	46.099	-0.868	-42.653	-0.868	-42.653	-7.862	45.885
3305	-7.785	45.676	-0.883	-43.082	-0.883	-43.082	-7.785	45.46
3340	-7.71	45.255	-0.899	-43.51	-0.899	-43.51	-7.71	45.036
3375	-7.636	44.834	-0.915	-43.938	-0.915	-43.938	-7.636	44.613
3410	-7.562	44.413	-0.931	-44.365	-0.931	-44.365	-7.562	44.19
3445	-7.49	43.994	-0.947	-44.791	-0.947	-44.791	-7.49	43.768
3480	-7.419	43.574	-0.963	-45.216	-0.963	-45.216	-7.419	43.346
3515	-7.349	43.156	-0.98	-45.641	-0.98	-45.641	-7.349	42.925
3550	-7.279	42.738	-0.996	-46.065	-0.996	-46.065	-7.279	42.505
3585	-7.211	42.32	-1.013	-46.489	-1.013	-46.489	-7.211	42.085
3620	-7.143	41.903	-1.029	-46.912	-1.029	-46.912	-7.143	41.666
3655	-7.077	41.487	-1.046	-47.334	-1.046	-47.334	-7.077	41.247
3690	-7.011	41.071	-1.063	-47.757	-1.063	-47.757	-7.011	40.829
3725	-6.946	40.656	-1.08	-48.177	-1.08	-48.177	-6.946	40.411
3760	-6.882	40.241	-1.097	-48.598	-1.097	-48.598	-6.882	39.994
3795	-6.818	39.827	-1.114	-49.018	-1.114	-49.018	-6.818	39.578
3830	-6.756	39.413	-1.131	-49.437	-1.131	-49.437	-6.756	39.162
3865	-6.694	39.001	-1.148	-49.855	-1.148	-49.855	-6.694	38.747
3900	-6.633	38.588	-1.165	-50.273	-1.165	-50.273	-6.633	38.332
3935	-6.573	38.177	-1.183	-50.69	-1.183	-50.69	-6.573	37.918
3970	-6.514	37.765	-1.2	-51.107	-1.2	-51.107	-6.514	37.505
4005	-6.455	37.354	-1.218	-51.523	-1.218	-51.523	-6.455	37.091
4040	-6.397	36.945	-1.236	-51.938	-1.236	-51.938	-6.397	36.679
4075	-6.34	36.535	-1.253	-52.353	-1.253	-52.353	-6.34	36.268
4110	-6.283	36.126	-1.271	-52.767	-1.271	-52.767	-6.283	35.856
4145	-6.228	35.719	-1.289	-53.18	-1.289	-53.18	-6.228	35.446
4180	-6.172	35.311	-1.307	-53.593	-1.307	-53.593	-6.172	35.036
4215	-6.118	34.904	-1.325	-54.005	-1.325	-54.005	-6.118	34.626
4250	-6.064	34.497	-1.343	-54.416	-1.343	-54.416	-6.064	34.218
4285	-6.011	34.091	-1.362	-54.827	-1.362	-54.827	-6.011	33.809
4320	-5.958	33.686	-1.38	-55.237	-1.38	-55.237	-5.958	33.402
4355	-5.907	33.282	-1.398	-55.647	-1.398	-55.647	-5.907	32.995
4390	-5.855	32.877	-1.417	-56.056	-1.417	-56.056	-5.855	32.588
4425	-5.805	32.474	-1.435	-56.464	-1.435	-56.464	-5.805	32.182
4460	-5.755	32.071	-1.454	-56.871	-1.454	-56.871	-5.755	31.777
4495	-5.705	31.668	-1.472	-57.279	-1.472	-57.279	-5.705	31.371
4530	-5.656	31.267	-1.491	-57.685	-1.491	-57.685	-5.656	30.968
4565	-5.608	30.865	-1.51	-58.091	-1.51	-58.091	-5.608	30.564
4600	-5.56	30.464	-1.529	-58.497	-1.529	-58.497	-5.56	30.16
4635	-5.513	30.064	-1.548	-58.901	-1.548	-58.901	-5.513	29.758
4670	-5.466	29.665	-1.567	-59.305	-1.567	-59.305	-5.466	29.356
4705	-5.42	29.266	-1.586	-59.709	-1.586	-59.709	-5.42	28.955
4740	-5.375	28.868	-1.605	-60.111	-1.605	-60.111	-5.375	28.554
4775	-5.33	28.47	-1.624	-60.513	-1.624	-60.513	-5.33	28.154
4810	-5.285	28.072	-1.643	-60.915	-1.643	-60.915	-5.285	27.754
4845	-5.241	27.676	-1.662	-61.316	-1.662	-61.316	-5.241	27.355
4880	-5.197	27.279	-1.682	-61.717	-1.682	-61.717	-5.197	26.956
4915	-5.154	26.884	-1.701	-62.117	-1.701	-62.117	-5.154	26.558
4950	-5.112	26.489	-1.72	-62.516	-1.72	-62.516	-5.112	26.161
4985	-5.07	26.094	-1.74	-62.915	-1.74	-62.915	-5.07	25.763
5020	-5.028	25.7	-1.759	-63.313	-1.759	-63.313	-5.028	25.367
5055	-4.987	25.307	-1.779	-63.71	-1.779	-63.71	-4.987	24.971
5090	-4.946	24.914	-1.799	-64.107	-1.799	-64.107	-4.946	24.576
5125	-4.906	24.521	-1.818	-64.504	-1.818	-64.504	-4.906	24.181
5160	-4.866	24.13	-1.838	-64.899	-1.838	-64.899	-4.866	23.787
5195	-4.827	23.738	-1.858	-65.295	-1.858	-65.295	-4.827	23.393
5230	-4.788	23.347	-1.878	-65.69	-1.878	-65.69	-4.788	23
5265	-4.75	22.957	-1.897	-66.084	-1.897	-66.084	-4.75	22.607
5300	-4.711	22.567	-1.917	-66.478	-1.917	-66.478	-4.711	22.214
5335	-4.674	22.178	-1.937	-66.871	-1.937	-66.871	-4.674	21.823
5370	-4.637	21.789	-1.957	-67.263	-1.957	-67.263	-4.637	21.432
5405	-4.6	21.401	-1.977	-67.656	-1.977	-67.656	-4.6	21.041
5440	-4.564	21.014	-1.997	-68.047	-1.997	-68.047	-4.563	20.651
5475	-4.527	20.626	-2.017	-68.438	-2.017	-68.438	-4.527	20.261
5510	-4.492	20.239	-2.038	-68.829	-2.038	-68.829	-4.492	19.872
5545	-4.457	19.853	-2.058	-69.218	-2.058	-69.218	-4.456	19.483
5580	-4.422	19.468	-2.078	-69.608	-2.078	-69.608	-4.422	19.095
5615	-4.387	19.082	-2.098	-69.997	-2.098	-69.997	-4.387	18.707
5650	-4.353	18.698	-2.119	-70.385	-2.119	-70.385	-4.353	18.32
5685	-4.319	18.313	-2.139	-70.773	-2.139	-70.773	-4.319	17.933
5720	-4.286	17.93	-2.159	-71.161	-2.159	-71.161	-4.286	17.546
5755	-4.253	17.546	-2.18	-71.547	-2.18	-71.547	-4.253	17.161
5790	-4.22	17.163	-2.2	-71.934	-2.2	-71.934	-4.22	16.775
5825	-4.188	16.781	-2.221	-72.32	-2.221	-72.32	-4.188	16.39
5860	-4.156	16.399	-2.241	-72.705	-2.241	-72.705	-4.156	16.006
5895	-4.124	16.017	-2.262	-73.091	-2.262	-73.091	-4.124	15.621
5930	-4.093	15.637	-2.282	-73.475	-2.282	-73.475	-4.092	15.238
5965	-4.062	15.256	-2.303	-73.859	-2.303	-73.859	-4.061	14.855
6000	-4.031	14.876	-2.323	-74.243	-2.323	-74.243	-4.031	14.472
6035	-4	14.496	-2.344	-74.626	-2.344	-74.626	-4	14.09
6070	-3.97	14.117	-2.364	-75.009	-2.364	-75.009	-3.97	13.708
6105	-3.941	13.738	-2.385	-75.391	-2.385	-75.391	-3.94	13.326
6140	-3.911	13.36	-2.406	-75.773	-2.406	-75.773	-3.911	12.945
6175	-3.882	12.982	-2.427	-76.155	-2.427	-76.155	-3.882	12.565
6210	-3.853	12.604	-2.447	-76.536	-2.447	-76.536	-3.853	12.184
6245	-3.825	12.227	-2.468	-76.916	-2.468	-76.916	-3.825	11.805
6280	-3.796	11.85	-2.489	-77.296	-2.489	-77.296	-3.796	11.425
6315	-3.768	11.474	-2.51	-77.676	-2.51	-77.676	-3.768	11.046
6350	-3.741	11.098	-2.53	-78.055	-2.53	-78.055	-3.741	10.667
6385	-3.713	10.722	-2.551	-78.435	-2.551	-78.435	-3.713	10.289
6420	-3.686	10.347	-2.572	-78.813	-2.572	-78.813	-3.686	9.911
6455	-3.66	9.972	-2.593	-79.191	-2.593	-79.191	-3.659	9.534
6490	-3.633	9.597	-2.614	-79.569	-2.614	-79.569	-3.633	9.156
6525	-3.607	9.223	-2.635	-79.946	-2.635	-79.946	-3.607	8.78
6560	-3.581	8.85	-2.655	-80.323	-2.655	-80.323	-3.581	8.403
6595	-3.555	8.476	-2.676	-80.7	-2.676	-80.7	-3.555	8.027
6630	-3.529	8.103	-2.697	-81.076	-2.697	-81.076	-3.529	7.651
6665	-3.504	7.731	-2.718	-81.452	-2.718	-81.452	-3.504	7.276
6700	-3.479	7.358	-2.739	-81.828	-2.739	-81.828	-3.479	6.9
6735	-3.454	6.986	-2.76	-82.203	-2.76	-82.203	-3.454	6.526
6770	-3.43	6.615	-2.781	-82.578	-2.781	-82.578	-3.43	6.151
6805	-3.406	6.243	-2.802	-82.953	-2.802	-82.953	-3.406	5.777
6840	-3.382	5.872	-2.823	-83.327	-2.823	-83.327	-3.382	5.403
6875	-3.358	5.501	-2.844	-83.701	-2.844	-83.701	-3.358	5.03
6910	-3.334	5.131	-2.865	-84.075	-2.865	-84.075	-3.334	4.656
6945	-3.311	4.761	-2.886	-84.448	-2.886	-84.448	-3.311	4.283
6980	-3.288	4.391	-2.907	-84.821	-2.907	-84.821	-3.288	3.911
7015	-3.265	4.021	-2.928	-85.194	-2.928	-85.194	-3.265	3.538
7050	-3.243	3.652	-2.948	-85.567	-2.948	-85.567	-3.243	3.166
7085	-3.22	3.283	-2.969	-85.939	-2.969	-85.939	-3.22	2.794
7120	-3.198	2.914	-2.99	-86.311	-2.99	-86.311	-3.198	2.422
7155	-3.176	2.546	-3.011	-86.682	-3.011	-86.682	-3.176	2.051
7190	-3.155	2.178	-3.032	-87.054	-3.032	-87.054	-3.155	1.68
7225	-3.133	1.81	-3.053	-87.425	-3.053	-87.425	-3.133	1.309
7260	-3.112	1.442	-3.074	-87.796	-3.074	-87.796	-3.112	0.938
7295	-3.091	1.074	-3.095	-88.167	-3.095	-88.167	-3.091	0.568
7330	-3.07	0.707	-3.116	-88.537	-3.116	-88.537	-3.07	0.197
7365	-3.05	0.34	-3.137	-88.907	-3.137	-88.907	-3.049	-0.173
7400	-3.029	-0.027	-3.158	-89.278	-3.158	-89.278	-3.029	-0.543
7435	-3.009	-0.393	-3.179	-89.647	-3.179	-89.647	-3.009	-0.912
7470	-2.989	-0.76	-3.2	-90.017	-3.2	-90.017	-2.989	-1.282
7505	-2.969	-1.126	-3.22	-90.386	-3.22	-90.386	-2.969	-1.651
7540	-2.95	-1.492	-3.241	-90.755	-3.241	-90.755	-2.949	-2.02
7575	-2.93	-1.858	-3.262	-91.125	-3.262	-91.125	-2.93	-2.389
7610	-2.911	-2.223	-3.283	-91.493	-3.283	-91.493	-2.911	-2.758
7645	-2.892	-2.589	-3.304	-91.862	-3.304	-91.862	-2.892	-3.126
7680	-2.873	-2.954	-3.325	-92.231	-3.325	-92.231	-2.873	-3.495
7715	-2.854	-3.319	-3.345	-92.599	-3.345	-92.599	-2.854	-3.863
7750	-2.836	-3.684	-3.366	-92.967	-3.366	-92.967	-2.836	-4.232
7785	-2.817	-4.049	-3.387	-93.336	-3.387	-93.336	-2.817	-4.6
7820	-2.799	-4.414	-3.408	-93.704	-3.408	-93.704	-2.799	-4.968
7855	-2.782	-4.779	-3.428	-94.071	-3.428	-94.071	-2.781	-5.336
7890	-2.764	-5.143	-3.449	-94.439	-3.449	-94.439	-2.764	-5.703
7925	-2.746	-5.508	-3.47	-94.807	-3.47	-94.807	-2.746	-6.071
7960	-2.729	-5.872	-3.49	-95.175	-3.49	-95.175	-2.729	-6.439
7995	-2.712	-6.236	-3.511	-95.542	-3.511	-95.542	-2.711	-6.806
8030	-2.695	-6.6	-3.531	-95.91	-3.531	-95.91	-2.694	-7.174
8065	-2.678	-6.964	-3.552	-96.277	-3.552	-96.277	-2.678	-7.541
8100	-2.661	-7.328	-3.573	-96.644	-3.573	-96.644	-2.661	-7.909
8135	-2.644	-7.692	-3.593	-97.012	-3.593	-97.012	-2.644	-8.276
8170	-2.628	-8.056	-3.613	-97.379	-3.613	-97.379	-2.628	-8.643
8205	-2.612	-8.42	-3.634	-97.746	-3.634	-97.746	-2.612	-9.011
8240	-2.596	-8.784	-3.654	-98.113	-3.654	-98.113	-2.596	-9.378
8275	-2.58	-9.148	-3.675	-98.48	-3.675	-98.48	-2.58	-9.745
8310	-2.564	-9.511	-3.695	-98.848	-3.695	-98.848	-2.564	-10.113
8345	-2.549	-9.875	-3.715	-99.215	-3.715	-99.215	-2.549	-10.48
8380	-2.533	-10.239	-3.736	-99.582	-3.736	-99.582	-2.533	-10.847
8415	-2.518	-10.603	-3.756	-99.949	-3.756	-99.949	-2.518	-11.215
8450	-2.503	-10.966	-3.776	-100.317	-3.776	-100.317	-2.503	-11.582
8485	-2.488	-11.33	-3.796	-100.684	-3.796	-100.684	-2.488	-11.95
8520	-2.473	-11.694	-3.816	-101.051	-3.816	-101.051	-2.473	-12.317
8555	-2.459	-12.058	-3.836	-101.419	-3.836	-101.419	-2.459	-12.685
8590	-2.444	-12.422	-3.856	-101.786	-3.856	-101.786	-2.444	-13.053
8625	-2.43	-12.786	-3.876	-102.154	-3.876	-102.154	-2.43	-13.421
8660	-2.416	-13.15	-3.896	-102.522	-3.896	-102.522	-2.416	-13.788
8695	-2.402	-13.514	-3.916	-102.889	-3.916	-102.889	-2.402	-14.156
8730	-2.388	-13.878	-3.936	-103.257	-3.936	-103.257	-2.388	-14.525
8765	-2.374	-14.243	-3.956	-103.625	-3.956	-103.625	-2.374	-14.893
8800	-2.361	-14.607	-3.975	-103.993	-3.975	-103.993	-2.361	-15.261
8835	-2.347	-14.972	-3.995	-104.362	-3.995	-104.362	-2.347	-15.63
8870	-2.334	-15.337	-4.015	-104.73	-4.015	-104.73	-2.334	-15.999
8905	-2.321	-15.701	-4.034	-105.099	-4.034	-105.099	-2.321	-16.368
8940	-2.308	-16.067	-4.054	-105.468	-4.054	-105.468	-2.308	-16.737
8975	-2.295	-16.432	-4.073	-105.837	-4.073	-105.837	-2.295	-17.106
9010	-2.282	-16.797	-4.092	-106.206	-4.092	-106.206	-2.282	-17.476
9045	-2.27	-17.163	-4.112	-106.576	-4.112	-106.576	-2.27	-17.846
9080	-2.257	-17.528	-4.131	-106.946	-4.131	-106.946	-2.257	-18.216
9115	-2.245	-17.894	-4.15	-107.316	-4.15	-107.316	-2.245	-18.586
9150	-2.233	-18.261	-4.169	-107.686	-4.169	-107.686	-2.233	-18.957
9185	-2.221	-18.627	-4.188	-108.057	-4.188	-108.057	-2.221	-19.327
9220	-2.209	-18.994	-4.207	-108.428	-4.207	-108.428	-2.209	-19.698
9255	-2.197	-19.361	-4.226	-108.799	-4.226	-108.799	-2.197	-20.07
9290	-2.186	-19.728	-4.245	-109.17	-4.245	-109.17	-2.186	-20.441
9325	-2.174	-20.096	-4.264	-109.542	-4.264	-109.542	-2.174	-20.814
9360	-2.163	-20.463	-4.282	-109.914	-4.282	-109.914	-2.163	-21.186
9395	-2.152	-20.831	-4.301	-110.287	-4.301	-110.287	-2.152	-21.559
9430	-2.141	-21.2	-4.319	-110.66	-4.319	-110.66	-2.141	-21.932
9465	-2.13	-21.569	-4.338	-111.033	-4.338	-111.033	-2.13	-22.306
9500	-2.119	-21.938	-4.356	-111.406	-4.356	-111.406	-2.119	-22.679
9535	-2.108	-22.308	-4.374	-111.781	-4.374	-111.781	-2.108	-23.054
9570	-2.098	-22.677	-4.392	-112.155	-4.392	-112.155	-2.098	-23.429
9605	-2.087	-23.047	-4.41	-112.53	-4.41	-112.53	-2.087	-23.804
9640	-2.077	-23.418	-4.428	-112.906	-4.428	-112.906	-2.077	-24.18
9675	-2.067	-23.789	-4.446	-113.282	-4.446	-113.282	-2.067	-24.556
9710	-2.057	-24.161	-4.464	-113.658	-4.464	-113.658	-2.057	-24.932
9745	-2.047	-24.533	-4.481	-114.035	-4.481	-114.035	-2.047	-25.31
9780	-2.037	-24.906	-4.499	-114.413	-4.499	-114.413	-2.037	-25.687
9815	-2.028	-25.278	-4.516	-114.791	-4.516	-114.791	-2.028	-26.066
9850	-2.018	-25.652	-4.534	-115.17	-4.534	-115.17	-2.018	-26.445
9885	-2.009	-26.026	-4.551	-115.549	-4.551	-115.549	-2.009	-26.824
9920	-2	-26.401	-4.568	-115.929	-4.568	-115.929	-2	-27.204
9955	-1.991	-26.776	-4.585	-116.309	-4.585	-116.309	-1.991	-27.585
9990	-1.982	-27.151	-4.602	-116.69	-4.602	-116.69	-1.982	-27.966
10025	-1.973	-27.528	-4.619	-117.072	-4.619	-117.072	-1.973	-28.348
10060	-1.964	-27.905	-4.635	-117.455	-4.635	-117.455	-1.964	-28.731
10095	-1.955	-28.281	-4.652	-117.838	-4.652	-117.838	-1.956	-29.113
10130	-1.947	-28.66	-4.668	-118.222	-4.668	-118.222	-1.947	-29.498
10165	-1.939	-29.039	-4.684	-118.607	-4.684	-118.607	-1.939	-29.883
10200	-1.93	-29.418	-4.7	-118.992	-4.7	-118.992	-1.931	-30.267
10235	-1.923	-29.799	-4.716	-119.379	-4.716	-119.379	-1.923	-30.654
10270	-1.915	-30.179	-4.732	-119.766	-4.732	-119.766	-1.915	-31.041
10305	-1.907	-30.56	-4.747	-120.153	-4.747	-120.153	-1.907	-31.429
10340	-1.899	-30.943	-4.763	-120.543	-4.763	-120.543	-1.9	-31.818
10375	-1.892	-31.326	-4.778	-120.933	-4.778	-120.933	-1.892	-32.208
10410	-1.884	-31.71	-4.793	-121.323	-4.793	-121.323	-1.885	-32.598
10445	-1.877	-32.096	-4.808	-121.715	-4.808	-121.715	-1.878	-32.99
10480	-1.87	-32.481	-4.823	-122.108	-4.823	-122.108	-1.87	-33.382
10515	-1.863	-32.867	-4.838	-122.501	-4.838	-122.501	-1.863	-33.775
10550	-1.856	-33.255	-4.852	-122.896	-4.852	-122.896	-1.857	-34.17
10585	-1.85	-33.643	-4.866	-123.292	-4.866	-123.292	-1.85	-34.565
10620	-1.843	-34.033	-4.88	-123.689	-4.88	-123.689	-1.844	-34.962
10655	-1.837	-34.423	-4.894	-124.087	-4.894	-124.087	-1.837	-35.36
10690	-1.83	-34.814	-4.908	-124.485	-4.908	-124.485	-1.831	-35.758
10725	-1.824	-35.207	-4.921	-124.886	-4.921	-124.886	-1.825	-36.158
10760	-1.818	-35.6	-4.934	-125.288	-4.934	-125.288	-1.819	-36.559
10795	-1.813	-35.994	-4.948	-125.69	-4.948	-125.69	-1.813	-36.961
10830	-1.807	-36.391	-4.96	-126.095	-4.96	-126.095	-1.808	-37.365
10865	-1.801	-36.787	-4.973	-126.501	-4.973	-126.501	-1.802	-37.77
10900	-1.796	-37.184	-4.985	-126.906	-4.985	-126.906	-1.797	-38.175
10935	-1.791	-37.585	-4.997	-127.316	-4.997	-127.316	-1.792	-38.583
