! AVX Thin Film Operation		Date: May 2002 
! Description: Accu-L® Series, Thin Film, SMD, RF Inductors
! Part Number: L0805100GEWTR
! 50 MHz  -  6.05 GHz
! Serial Measurements
!
# mhz S db R 50
!	S11		S21		S12		S22
!	dB	Phase	dB	Phase	dB	Phase	dB	Phase
50	-30.901	85.136	-0.011	-1.9	-0.011	-1.9	-30.901	85.136
65	-28.776	84.674	-0.018	-2.436	-0.018	-2.436	-28.776	84.674
80	-27.07	84.213	-0.025	-2.973	-0.025	-2.973	-27.07	84.213
95	-25.645	83.751	-0.033	-3.509	-0.033	-3.509	-25.645	83.751
110	-24.421	83.29	-0.04	-4.045	-0.04	-4.045	-24.421	83.29
125	-23.348	82.828	-0.047	-4.581	-0.047	-4.581	-23.348	82.828
140	-22.394	82.367	-0.055	-5.117	-0.055	-5.117	-22.394	82.367
155	-21.534	81.905	-0.062	-5.653	-0.062	-5.653	-21.534	81.905
170	-20.751	81.444	-0.069	-6.189	-0.069	-6.189	-20.751	81.444
185	-20.034	80.982	-0.077	-6.726	-0.077	-6.726	-20.034	80.982
200	-19.371	80.521	-0.084	-7.262	-0.084	-7.262	-19.371	80.521
215	-18.765	80.02	-0.095	-7.792	-0.095	-7.792	-18.765	80.02
230	-18.199	79.52	-0.105	-8.323	-0.105	-8.323	-18.199	79.52
245	-17.668	79.019	-0.116	-8.854	-0.116	-8.854	-17.668	79.019
260	-17.167	78.518	-0.127	-9.385	-0.127	-9.385	-17.167	78.518
275	-16.694	78.017	-0.137	-9.915	-0.137	-9.915	-16.694	78.017
290	-16.245	77.517	-0.148	-10.446	-0.148	-10.446	-16.245	77.517
305	-15.821	77.012	-0.159	-10.975	-0.159	-10.975	-15.821	77.012
320	-15.421	76.5	-0.173	-11.501	-0.173	-11.501	-15.421	76.5
335	-15.039	75.988	-0.187	-12.027	-0.187	-12.027	-15.039	75.988
350	-14.674	75.476	-0.201	-12.553	-0.201	-12.553	-14.674	75.476
365	-14.322	74.964	-0.215	-13.079	-0.215	-13.079	-14.322	74.964
380	-13.985	74.452	-0.229	-13.606	-0.229	-13.606	-13.985	74.452
395	-13.66	73.94	-0.243	-14.132	-0.243	-14.132	-13.66	73.94
410	-13.351	73.425	-0.259	-14.655	-0.259	-14.655	-13.351	73.425
425	-13.055	72.91	-0.277	-15.176	-0.277	-15.176	-13.055	72.91
440	-12.769	72.394	-0.294	-15.698	-0.294	-15.698	-12.769	72.394
455	-12.492	71.879	-0.311	-16.219	-0.311	-16.219	-12.492	71.879
470	-12.223	71.363	-0.329	-16.741	-0.329	-16.741	-12.223	71.363
485	-11.963	70.847	-0.346	-17.262	-0.346	-17.262	-11.963	70.847
500	-11.71	70.332	-0.363	-17.784	-0.363	-17.784	-11.71	70.332
515	-11.47	69.816	-0.384	-18.3	-0.384	-18.3	-11.47	69.816
530	-11.237	69.301	-0.405	-18.817	-0.405	-18.817	-11.237	69.301
545	-11.009	68.785	-0.425	-19.334	-0.425	-19.334	-11.009	68.785
560	-10.788	68.269	-0.446	-19.85	-0.446	-19.85	-10.788	68.269
575	-10.572	67.754	-0.467	-20.367	-0.467	-20.367	-10.572	67.754
590	-10.361	67.238	-0.488	-20.884	-0.488	-20.884	-10.361	67.238
605	-10.157	66.723	-0.509	-21.399	-0.509	-21.399	-10.157	66.723
620	-9.962	66.209	-0.533	-21.91	-0.533	-21.91	-9.962	66.209
635	-9.77	65.696	-0.557	-22.422	-0.557	-22.422	-9.77	65.696
650	-9.583	65.182	-0.581	-22.933	-0.581	-22.933	-9.583	65.182
665	-9.4	64.668	-0.605	-23.445	-0.605	-23.445	-9.4	64.668
680	-9.221	64.154	-0.63	-23.957	-0.63	-23.957	-9.221	64.154
695	-9.045	63.641	-0.654	-24.468	-0.654	-24.468	-9.045	63.641
710	-8.876	63.129	-0.68	-24.976	-0.68	-24.976	-8.876	63.129
725	-8.712	62.618	-0.707	-25.482	-0.707	-25.482	-8.712	62.618
740	-8.552	62.108	-0.735	-25.989	-0.735	-25.989	-8.552	62.108
755	-8.394	61.597	-0.762	-26.495	-0.762	-26.495	-8.394	61.597
770	-8.239	61.086	-0.79	-27.001	-0.79	-27.001	-8.239	61.086
785	-8.087	60.576	-0.817	-27.507	-0.817	-27.507	-8.087	60.576
800	-7.937	60.065	-0.845	-28.013	-0.845	-28.013	-7.937	60.065
815	-7.795	59.558	-0.876	-28.514	-0.876	-28.514	-7.795	59.558
830	-7.655	59.051	-0.906	-29.014	-0.906	-29.014	-7.655	59.051
845	-7.517	58.544	-0.937	-29.515	-0.937	-29.515	-7.517	58.544
860	-7.382	58.038	-0.968	-30.016	-0.968	-30.016	-7.382	58.038
875	-7.249	57.531	-0.999	-30.516	-0.999	-30.516	-7.249	57.531
890	-7.117	57.024	-1.03	-31.017	-1.03	-31.017	-7.117	57.024
905	-6.989	56.519	-1.062	-31.515	-1.06	-31.515	-6.989	56.519
920	-6.867	56.016	-1.096	-32.01	-1.1	-32.01	-6.867	56.016
935	-6.746	55.514	-1.13	-32.505	-1.13	-32.505	-6.746	55.514
950	-6.626	55.011	-1.164	-32.999	-1.16	-32.999	-6.626	55.011
965	-6.508	54.509	-1.198	-33.494	-1.2	-33.494	-6.508	54.509
980	-6.392	54.007	-1.233	-33.989	-1.23	-33.989	-6.392	54.007
995	-6.278	53.504	-1.268	-34.483	-1.27	-34.483	-6.278	53.504
1010	-6.167	53.005	-1.304	-34.974	-1.3	-34.974	-6.167	53.005
1025	-6.06	52.507	-1.341	-35.462	-1.34	-35.462	-6.06	52.507
1040	-5.954	52.01	-1.379	-35.951	-1.38	-35.951	-5.954	52.01
1055	-5.85	51.512	-1.416	-36.44	-1.42	-36.44	-5.85	51.512
1070	-5.746	51.015	-1.454	-36.928	-1.45	-36.928	-5.746	51.015
1085	-5.644	50.517	-1.492	-37.417	-1.49	-37.417	-5.644	50.517
1100	-5.543	50.02	-1.53	-37.905	-1.53	-37.905	-5.543	50.02
1115	-5.448	49.527	-1.571	-38.388	-1.57	-38.388	-5.448	49.527
1130	-5.353	49.035	-1.612	-38.87	-1.61	-38.87	-5.353	49.035
1145	-5.26	48.542	-1.653	-39.353	-1.65	-39.353	-5.26	48.542
1160	-5.167	48.05	-1.694	-39.835	-1.69	-39.835	-5.167	48.05
1175	-5.076	47.558	-1.735	-40.317	-1.74	-40.317	-5.076	47.558
1190	-4.985	47.065	-1.777	-40.8	-1.78	-40.8	-4.985	47.065
1205	-4.897	46.574	-1.82	-41.28	-1.82	-41.28	-4.897	46.574
1220	-4.812	46.087	-1.864	-41.756	-1.86	-41.756	-4.812	46.087
1235	-4.729	45.6	-1.908	-42.232	-1.91	-42.232	-4.729	45.6
1250	-4.646	45.113	-1.953	-42.709	-1.95	-42.709	-4.646	45.113
1265	-4.563	44.626	-1.998	-43.185	-2	-43.185	-4.563	44.626
1280	-4.482	44.139	-2.043	-43.661	-2.04	-43.661	-4.482	44.139
1295	-4.401	43.652	-2.088	-44.137	-2.09	-44.137	-4.401	43.652
1310	-4.324	43.168	-2.135	-44.609	-2.14	-44.609	-4.324	43.168
1325	-4.249	42.686	-2.183	-45.079	-2.18	-45.079	-4.249	42.686
1340	-4.174	42.204	-2.231	-45.549	-2.23	-45.549	-4.174	42.204
1355	-4.1	41.723	-2.279	-46.018	-2.28	-46.018	-4.1	41.723
1370	-4.027	41.241	-2.328	-46.488	-2.33	-46.488	-4.027	41.241
1385	-3.954	40.759	-2.377	-46.958	-2.38	-46.958	-3.954	40.759
1400	-3.882	40.277	-2.426	-47.428	-2.43	-47.428	-3.882	40.277
1415	-3.814	39.801	-2.477	-47.891	-2.48	-47.891	-3.814	39.801
1430	-3.747	39.325	-2.529	-48.355	-2.53	-48.355	-3.747	39.325
1445	-3.68	38.848	-2.581	-48.818	-2.58	-48.818	-3.68	38.848
1460	-3.614	38.372	-2.633	-49.282	-2.63	-49.282	-3.614	38.372
1475	-3.548	37.895	-2.685	-49.745	-2.69	-49.745	-3.548	37.895
1490	-3.483	37.419	-2.738	-50.209	-2.74	-50.209	-3.483	37.419
1505	-3.419	36.945	-2.792	-50.67	-2.79	-50.67	-3.419	36.945
1520	-3.358	36.473	-2.847	-51.128	-2.85	-51.128	-3.358	36.473
1535	-3.298	36.002	-2.903	-51.585	-2.9	-51.585	-3.298	36.002
1550	-3.238	35.531	-2.959	-52.042	-2.96	-52.042	-3.238	35.531
1565	-3.178	35.06	-3.015	-52.499	-3.02	-52.499	-3.178	35.06
1580	-3.119	34.589	-3.072	-52.957	-3.07	-52.957	-3.119	34.589
1595	-3.06	34.118	-3.129	-53.414	-3.13	-53.414	-3.06	34.118
1610	-3.004	33.651	-3.187	-53.867	-3.19	-53.867	-3.004	33.651
1625	-2.95	33.185	-3.247	-54.318	-3.25	-54.318	-2.95	33.185
1640	-2.896	32.719	-3.307	-54.769	-3.31	-54.769	-2.896	32.719
1655	-2.842	32.254	-3.367	-55.22	-3.37	-55.22	-2.842	32.254
1670	-2.788	31.788	-3.428	-55.671	-3.43	-55.671	-2.788	31.788
1685	-2.735	31.322	-3.489	-56.122	-3.49	-56.122	-2.735	31.322
1700	-2.682	30.856	-3.55	-56.573	-3.55	-56.573	-2.682	30.856
1715	-2.632	30.396	-3.614	-57.018	-3.61	-57.018	-2.632	30.396
1730	-2.583	29.935	-3.677	-57.463	-3.68	-57.463	-2.583	29.935
1745	-2.534	29.474	-3.742	-57.908	-3.74	-57.908	-2.534	29.474
1760	-2.486	29.013	-3.807	-58.353	-3.81	-58.353	-2.486	29.013
1775	-2.437	28.553	-3.872	-58.798	-3.87	-58.798	-2.437	28.553
1790	-2.389	28.092	-3.938	-59.243	-3.94	-59.243	-2.389	28.092
1805	-2.343	27.633	-4.005	-59.686	-4.01	-59.686	-2.343	27.633
1820	-2.298	27.177	-4.073	-60.125	-4.07	-60.125	-2.298	27.177
1835	-2.254	26.722	-4.141	-60.564	-4.14	-60.564	-2.254	26.722
1850	-2.21	26.266	-4.211	-61.003	-4.21	-61.003	-2.21	26.266
1865	-2.166	25.81	-4.281	-61.442	-4.28	-61.442	-2.166	25.81
1880	-2.122	25.354	-4.351	-61.881	-4.35	-61.881	-2.122	25.354
1895	-2.079	24.899	-4.422	-62.32	-4.42	-62.32	-2.079	24.899
1910	-2.038	24.446	-4.494	-62.755	-4.49	-62.755	-2.038	24.446
1925	-1.998	23.995	-4.568	-63.188	-4.57	-63.188	-1.998	23.995
1940	-1.958	23.544	-4.642	-63.621	-4.64	-63.621	-1.958	23.544
1955	-1.918	23.093	-4.716	-64.054	-4.72	-64.054	-1.918	23.093
1970	-1.878	22.642	-4.792	-64.488	-4.79	-64.488	-1.878	22.642
1985	-1.839	22.191	-4.867	-64.921	-4.87	-64.921	-1.839	22.191
2000	-1.8	21.74	-4.944	-65.354	-4.94	-65.354	-1.8	21.74
2015	-1.764	21.293	-5.022	-65.781	-5.02	-65.781	-1.764	21.293
2030	-1.728	20.847	-5.102	-66.208	-5.1	-66.208	-1.728	20.847
2045	-1.692	20.4	-5.181	-66.636	-5.18	-66.636	-1.692	20.4
2060	-1.656	19.954	-5.262	-67.063	-5.26	-67.063	-1.656	19.954
2075	-1.62	19.507	-5.343	-67.49	-5.34	-67.49	-1.62	19.507
2090	-1.585	19.061	-5.425	-67.917	-5.43	-67.917	-1.585	19.061
2105	-1.55	18.615	-5.509	-68.343	-5.51	-68.343	-1.55	18.615
2120	-1.517	18.173	-5.593	-68.764	-5.59	-68.764	-1.517	18.173
2135	-1.485	17.731	-5.679	-69.186	-5.68	-69.186	-1.485	17.731
2150	-1.453	17.288	-5.765	-69.607	-5.77	-69.607	-1.453	17.288
2165	-1.42	16.846	-5.853	-70.029	-5.85	-70.029	-1.42	16.846
2180	-1.388	16.404	-5.941	-70.45	-5.94	-70.45	-1.388	16.404
2195	-1.356	15.961	-6.03	-70.872	-6.03	-70.872	-1.356	15.961
2210	-1.326	15.522	-6.12	-71.29	-6.12	-71.29	-1.326	15.522
2225	-1.297	15.083	-6.212	-71.705	-6.21	-71.705	-1.297	15.083
2240	-1.268	14.645	-6.305	-72.121	-6.31	-72.121	-1.268	14.645
2255	-1.238	14.207	-6.399	-72.537	-6.4	-72.537	-1.238	14.207
2270	-1.209	13.768	-6.494	-72.953	-6.49	-72.953	-1.209	13.768
2285	-1.181	13.33	-6.59	-73.369	-6.59	-73.369	-1.181	13.33
2300	-1.152	12.891	-6.687	-73.784	-6.69	-73.784	-1.152	12.891
2315	-1.125	12.457	-6.785	-74.194	-6.79	-74.194	-1.125	12.457
2330	-1.099	12.022	-6.885	-74.604	-6.89	-74.604	-1.099	12.022
2345	-1.073	11.587	-6.987	-75.014	-6.99	-75.014	-1.073	11.587
2360	-1.047	11.152	-7.089	-75.424	-7.09	-75.424	-1.047	11.152
2375	-1.021	10.718	-7.193	-75.834	-7.19	-75.834	-1.021	10.718
2390	-0.995	10.283	-7.297	-76.244	-7.3	-76.244	-0.995	10.283
2405	-0.97	9.849	-7.404	-76.652	-7.4	-76.652	-0.97	9.849
2420	-0.947	9.418	-7.512	-77.056	-7.51	-77.056	-0.947	9.418
2435	-0.923	8.986	-7.622	-77.46	-7.62	-77.46	-0.923	8.986
2450	-0.9	8.555	-7.733	-77.864	-7.73	-77.864	-0.9	8.555
2465	-0.877	8.124	-7.845	-78.268	-7.85	-78.268	-0.877	8.124
2480	-0.853	7.692	-7.959	-78.672	-7.96	-78.672	-0.853	7.692
2495	-0.83	7.261	-8.074	-79.077	-8.07	-79.077	-0.83	7.261
2510	-0.809	6.832	-8.192	-79.476	-8.19	-79.476	-0.809	6.832
2525	-0.788	6.403	-8.311	-79.874	-8.31	-79.874	-0.788	6.403
2540	-0.767	5.975	-8.432	-80.272	-8.43	-80.272	-0.767	5.975
2555	-0.746	5.547	-8.554	-80.669	-8.55	-80.669	-0.746	5.547
2570	-0.725	5.118	-8.679	-81.067	-8.68	-81.067	-0.725	5.118
2585	-0.705	4.69	-8.805	-81.465	-8.81	-81.465	-0.705	4.69
2600	-0.684	4.262	-8.933	-81.862	-8.93	-81.862	-0.684	4.262
2615	-0.666	3.836	-9.063	-82.253	-9.06	-82.253	-0.666	3.836
2630	-0.647	3.41	-9.196	-82.644	-9.2	-82.644	-0.647	3.41
2645	-0.629	2.985	-9.33	-83.034	-9.33	-83.034	-0.629	2.985
2660	-0.611	2.559	-9.467	-83.425	-9.47	-83.425	-0.611	2.559
2675	-0.592	2.134	-9.606	-83.815	-9.61	-83.815	-0.592	2.134
2690	-0.574	1.708	-9.747	-84.206	-9.75	-84.206	-0.574	1.708
2705	-0.557	1.283	-9.89	-84.594	-9.89	-84.594	-0.557	1.283
2720	-0.541	0.86	-10.037	-84.976	-10	-84.976	-0.541	0.86
2735	-0.525	0.437	-10.186	-85.359	-10.2	-85.359	-0.525	0.437
2750	-0.509	0.014	-10.337	-85.741	-10.3	-85.741	-0.509	0.014
2765	-0.492	-0.409	-10.491	-86.124	-10.5	-86.124	-0.492	-0.409
2780	-0.477	-0.832	-10.648	-86.506	-10.6	-86.506	-0.477	-0.832
2795	-0.461	-1.255	-10.808	-86.889	-10.8	-86.889	-0.461	-1.255
2810	-0.446	-1.677	-10.971	-87.264	-11	-87.264	-0.446	-1.677
2825	-0.432	-2.098	-11.137	-87.636	-11.1	-87.636	-0.432	-2.098
2840	-0.418	-2.519	-11.307	-88.009	-11.3	-88.009	-0.418	-2.519
2855	-0.404	-2.94	-11.48	-88.381	-11.5	-88.381	-0.404	-2.94
2870	-0.39	-3.361	-11.656	-88.753	-11.7	-88.753	-0.39	-3.361
2885	-0.377	-3.782	-11.836	-89.125	-11.8	-89.125	-0.377	-3.782
2900	-0.363	-4.203	-12.02	-89.498	-12	-89.498	-0.363	-4.203
2915	-0.351	-4.622	-12.208	-89.856	-12.2	-89.856	-0.351	-4.622
2930	-0.339	-5.041	-12.401	-90.215	-12.4	-90.215	-0.339	-5.041
2945	-0.327	-5.461	-12.597	-90.573	-12.6	-90.573	-0.327	-5.461
2960	-0.315	-5.88	-12.799	-90.932	-12.8	-90.932	-0.315	-5.88
2975	-0.304	-6.299	-13.005	-91.29	-13	-91.29	-0.304	-6.299
2990	-0.292	-6.718	-13.216	-91.649	-13.2	-91.649	-0.292	-6.718
3005	-0.281	-7.137	-13.432	-92.001	-13.4	-92.001	-0.281	-7.137
3020	-0.271	-7.554	-13.654	-92.339	-13.7	-92.339	-0.271	-7.554
3035	-0.261	-7.972	-13.882	-92.677	-13.9	-92.677	-0.261	-7.972
3050	-0.251	-8.389	-14.116	-93.016	-14.1	-93.016	-0.251	-8.389
3065	-0.241	-8.807	-14.356	-93.354	-14.4	-93.354	-0.241	-8.807
3080	-0.231	-9.224	-14.603	-93.692	-14.6	-93.692	-0.231	-9.224
3095	-0.222	-9.642	-14.858	-94.031	-14.9	-94.031	-0.222	-9.642
3110	-0.213	-10.059	-15.12	-94.347	-15.1	-94.347	-0.213	-10.059
3125	-0.205	-10.475	-15.39	-94.651	-15.4	-94.651	-0.205	-10.475
3140	-0.197	-10.891	-15.669	-94.956	-15.7	-94.956	-0.197	-10.891
3155	-0.189	-11.308	-15.957	-95.261	-16	-95.261	-0.189	-11.308
3170	-0.181	-11.724	-16.256	-95.565	-16.3	-95.565	-0.181	-11.724
3185	-0.173	-12.14	-16.564	-95.87	-16.6	-95.87	-0.173	-12.14
3200	-0.165	-12.557	-16.884	-96.175	-16.9	-96.175	-0.165	-12.557
3215	-0.159	-12.972	-17.216	-96.415	-17.2	-96.415	-0.159	-12.972
3230	-0.153	-13.387	-17.561	-96.654	-17.6	-96.654	-0.153	-13.387
3245	-0.147	-13.802	-17.921	-96.894	-17.9	-96.894	-0.147	-13.802
3260	-0.141	-14.218	-18.296	-97.134	-18.3	-97.134	-0.141	-14.218
3275	-0.135	-14.633	-18.687	-97.373	-18.7	-97.373	-0.135	-14.633
3290	-0.128	-15.048	-19.098	-97.613	-19.1	-97.613	-0.128	-15.048
3305	-0.123	-15.463	-19.528	-97.8	-19.5	-97.8	-0.123	-15.463
3320	-0.119	-15.878	-19.98	-97.88	-20	-97.88	-0.119	-15.878
3335	-0.114	-16.292	-20.456	-97.961	-20.5	-97.961	-0.114	-16.292
3350	-0.11	-16.707	-20.96	-98.041	-21	-98.041	-0.11	-16.707
3365	-0.105	-17.122	-21.495	-98.122	-21.5	-98.122	-0.105	-17.122
3380	-0.101	-17.536	-22.065	-98.203	-22.1	-98.203	-0.101	-17.536
3395	-0.097	-17.951	-22.676	-98.283	-22.7	-98.283	-0.097	-17.951
3410	-0.094	-18.365	-23.328	-97.952	-23.3	-97.952	-0.094	-18.365
3425	-0.091	-18.779	-24.03	-97.414	-24	-97.414	-0.091	-18.779
3440	-0.088	-19.193	-24.794	-96.876	-24.8	-96.876	-0.088	-19.193
3455	-0.086	-19.607	-25.632	-96.339	-25.6	-96.339	-0.086	-19.607
3470	-0.083	-20.021	-26.56	-95.801	-26.6	-95.801	-0.083	-20.021
3485	-0.081	-20.435	-27.599	-95.263	-27.6	-95.263	-0.081	-20.435
3500	-0.078	-20.849	-28.779	-94.726	-28.8	-94.726	-0.078	-20.849
3515	-0.077	-21.263	-29.863	-83.371	-29.9	-83.371	-0.077	-21.263
3530	-0.076	-21.677	-31.103	-72.017	-31.1	-72.017	-0.076	-21.677
3545	-0.075	-22.091	-32.549	-60.662	-32.5	-60.662	-0.075	-22.091
3560	-0.075	-22.505	-34.285	-49.308	-34.3	-49.308	-0.075	-22.505
3575	-0.074	-22.918	-36.456	-37.953	-36.5	-37.953	-0.074	-22.918
3590	-0.073	-23.332	-39.359	-26.598	-39.4	-26.598	-0.073	-23.332
3605	-0.072	-23.746	-40.086	-15.331	-40.0	-15.331	-0.072	-23.746
3620	-0.073	-24.16	-37.305	-4.237	-37.3	-4.237	-0.073	-24.16
3635	-0.074	-24.574	-34.929	6.856	-34.9	6.856	-0.074	-24.574
3650	-0.075	-24.987	-33.065	17.95	-33.1	17.95	-0.075	-24.987
3665	-0.076	-25.401	-31.532	29.044	-31.5	29.044	-0.076	-25.401
3680	-0.076	-25.815	-30.229	40.137	-30.2	40.137	-0.076	-25.815
3695	-0.077	-26.229	-29.096	51.231	-29.1	51.231	-0.077	-26.229
3710	-0.079	-26.643	-27.955	55.282	-28	55.282	-0.079	-26.643
3725	-0.082	-27.057	-26.886	55.813	-26.9	55.813	-0.082	-27.057
3740	-0.084	-27.471	-25.933	56.343	-25.9	56.343	-0.084	-27.471
3755	-0.087	-27.885	-25.075	56.873	-25.1	56.873	-0.087	-27.885
3770	-0.089	-28.299	-24.295	57.403	-24.3	57.403	-0.089	-28.299
3785	-0.092	-28.713	-23.578	57.933	-23.6	57.933	-0.092	-28.713
3800	-0.094	-29.127	-22.917	58.464	-22.9	58.464	-0.094	-29.127
3815	-0.098	-29.541	-22.3	58.385	-22.3	58.385	-0.098	-29.541
3830	-0.103	-29.956	-21.724	58.306	-21.7	58.306	-0.103	-29.956
3845	-0.107	-30.37	-21.184	58.227	-21.2	58.227	-0.107	-30.37
3860	-0.111	-30.784	-20.676	58.149	-20.7	58.149	-0.111	-30.784
3875	-0.115	-31.199	-20.195	58.07	-20.2	58.07	-0.115	-31.199
3890	-0.119	-31.613	-19.74	57.991	-19.7	57.991	-0.119	-31.613
3905	-0.124	-32.028	-19.308	57.86	-19.3	57.86	-0.124	-32.028
3920	-0.13	-32.443	-18.898	57.625	-18.9	57.625	-0.13	-32.443
3935	-0.136	-32.858	-18.506	57.39	-18.5	57.39	-0.136	-32.858
3950	-0.141	-33.273	-18.131	57.155	-18.1	57.155	-0.141	-33.273
3965	-0.147	-33.688	-17.772	56.92	-17.8	56.92	-0.147	-33.688
3980	-0.153	-34.103	-17.426	56.685	-17.4	56.685	-0.153	-34.103
3995	-0.159	-34.518	-17.094	56.45	-17.1	56.45	-0.159	-34.518
4010	-0.166	-34.933	-16.776	56.172	-16.8	56.172	-0.166	-34.933
4025	-0.174	-35.349	-16.469	55.874	-16.5	55.874	-0.174	-35.349
4040	-0.181	-35.765	-16.173	55.576	-16.2	55.576	-0.181	-35.765
4055	-0.189	-36.18	-15.887	55.278	-15.9	55.278	-0.189	-36.18
4070	-0.196	-36.596	-15.609	54.98	-15.6	54.98	-0.196	-36.596
4085	-0.204	-37.012	-15.341	54.682	-15.3	54.682	-0.204	-37.012
4100	-0.211	-37.427	-15.08	54.384	-15.1	54.384	-0.211	-37.427
4115	-0.22	-37.844	-14.829	54.054	-14.8	54.054	-0.22	-37.844
4130	-0.23	-38.261	-14.585	53.725	-14.6	53.725	-0.23	-38.261
4145	-0.239	-38.677	-14.347	53.395	-14.3	53.395	-0.239	-38.677
4160	-0.248	-39.094	-14.116	53.065	-14.1	53.065	-0.248	-39.094
4175	-0.257	-39.511	-13.891	52.736	-13.9	52.736	-0.257	-39.511
4190	-0.267	-39.927	-13.672	52.406	-13.7	52.406	-0.267	-39.927
4205	-0.276	-40.344	-13.458	52.07	-13.5	52.07	-0.276	-40.344
4220	-0.287	-40.762	-13.251	51.723	-13.3	51.723	-0.287	-40.762
4235	-0.298	-41.18	-13.049	51.375	-13	51.375	-0.298	-41.18
4250	-0.309	-41.597	-12.851	51.027	-12.9	51.027	-0.309	-41.597
4265	-0.32	-42.015	-12.658	50.679	-12.7	50.679	-0.32	-42.015
4280	-0.331	-42.433	-12.469	50.331	-12.5	50.331	-0.331	-42.433
4295	-0.342	-42.851	-12.284	49.984	-12.3	49.984	-0.342	-42.851
4310	-0.354	-43.269	-12.104	49.628	-12.1	49.628	-0.354	-43.269
4325	-0.367	-43.688	-11.928	49.269	-11.9	49.269	-0.367	-43.688
4340	-0.38	-44.107	-11.756	48.91	-11.8	48.91	-0.38	-44.107
4355	-0.392	-44.526	-11.587	48.551	-11.6	48.551	-0.392	-44.526
4370	-0.405	-44.945	-11.421	48.191	-11.4	48.191	-0.405	-44.945
4385	-0.418	-45.363	-11.259	47.832	-11.3	47.832	-0.418	-45.363
4400	-0.431	-45.782	-11.099	47.473	-11.1	47.473	-0.431	-45.782
4415	-0.445	-46.203	-10.944	47.106	-10.9	47.106	-0.445	-46.203
4430	-0.46	-46.623	-10.792	46.739	-10.8	46.739	-0.46	-46.623
4445	-0.474	-47.043	-10.642	46.373	-10.6	46.373	-0.474	-47.043
4460	-0.488	-47.463	-10.495	46.006	-10.5	46.006	-0.488	-47.463
4475	-0.503	-47.883	-10.35	45.639	-10.4	45.639	-0.503	-47.883
4490	-0.518	-48.304	-10.208	45.272	-10.2	45.272	-0.518	-48.304
4505	-0.533	-48.724	-10.069	44.903	-10.1	44.903	-0.533	-48.724
4520	-0.549	-49.146	-9.933	44.531	-9.93	44.531	-0.549	-49.146
4535	-0.565	-49.567	-9.799	44.159	-9.8	44.159	-0.565	-49.567
4550	-0.581	-49.989	-9.667	43.787	-9.67	43.787	-0.581	-49.989
4565	-0.598	-50.411	-9.537	43.415	-9.54	43.415	-0.598	-50.411
4580	-0.614	-50.832	-9.409	43.042	-9.41	43.042	-0.614	-50.832
4595	-0.63	-51.254	-9.283	42.67	-9.28	42.67	-0.63	-51.254
4610	-0.648	-51.676	-9.16	42.295	-9.16	42.295	-0.648	-51.676
4625	-0.666	-52.099	-9.039	41.919	-9.04	41.919	-0.666	-52.099
4640	-0.684	-52.523	-8.92	41.543	-8.92	41.543	-0.684	-52.523
4655	-0.702	-52.946	-8.802	41.167	-8.8	41.167	-0.702	-52.946
4670	-0.72	-53.369	-8.686	40.791	-8.69	40.791	-0.72	-53.369
4685	-0.739	-53.792	-8.572	40.414	-8.57	40.414	-0.739	-53.792
4700	-0.757	-54.215	-8.459	40.038	-8.46	40.038	-0.757	-54.215
4715	-0.777	-54.64	-8.349	39.659	-8.35	39.659	-0.777	-54.64
4730	-0.797	-55.064	-8.24	39.28	-8.24	39.28	-0.797	-55.064
4745	-0.817	-55.489	-8.133	38.901	-8.13	38.901	-0.817	-55.489
4760	-0.837	-55.914	-8.027	38.522	-8.03	38.522	-0.837	-55.914
4775	-0.857	-56.339	-7.923	38.143	-7.92	38.143	-0.857	-56.339
4790	-0.877	-56.763	-7.82	37.764	-7.82	37.764	-0.877	-56.763
4805	-0.898	-57.188	-7.718	37.384	-7.72	37.384	-0.898	-57.188
4820	-0.92	-57.615	-7.619	37.003	-7.62	37.003	-0.92	-57.615
4835	-0.941	-58.041	-7.521	36.621	-7.52	36.621	-0.941	-58.041
