! AVX Thin Film Operation		Date: May 2002 
! Description: Accu-L® Series, Thin Film, SMD, RF Inductors
! Part Number: L0805180GEWTR
! 50 MHz  -  5.05 GHz
! Serial Measurements
!
# mhz S db R 50
!	S11		S21		S12		S22
!	dB	Phase	dB	Phase	dB	Phase	dB	Phase
50	-25.675	83.958	-9.855e-3	-3.237	-9.86e-3	-3.237	-25.675	83.958
62.5	-23.916	83.264	-0.027	-3.984	-0.027	-3.984	-23.916	83.264
75	-22.454	82.569	-0.045	-4.731	-0.045	-4.731	-22.454	82.569
87.5	-21.203	81.875	-0.063	-5.478	-0.063	-5.478	-21.203	81.875
100	-20.109	81.181	-0.08	-6.224	-0.08	-6.224	-20.109	81.181
112.5	-19.138	80.487	-0.098	-6.971	-0.098	-6.971	-19.138	80.487
125	-18.265	79.792	-0.116	-7.718	-0.116	-7.718	-18.265	79.792
137.5	-17.472	79.098	-0.133	-8.465	-0.133	-8.465	-17.472	79.098
150	-16.745	78.404	-0.151	-9.212	-0.151	-9.212	-16.745	78.404
162.5	-16.074	77.709	-0.169	-9.959	-0.169	-9.959	-16.074	77.709
175	-15.451	77.015	-0.187	-10.705	-0.187	-10.705	-15.451	77.015
187.5	-14.87	76.321	-0.205	-11.452	-0.205	-11.452	-14.87	76.321
200	-14.326	75.626	-0.223	-12.199	-0.223	-12.199	-14.326	75.626
212.5	-13.835	74.918	-0.249	-12.928	-0.249	-12.928	-13.835	74.918
225	-13.371	74.209	-0.276	-13.657	-0.276	-13.657	-13.371	74.209
237.5	-12.93	73.5	-0.302	-14.386	-0.302	-14.386	-12.93	73.5
250	-12.51	72.791	-0.329	-15.115	-0.329	-15.115	-12.51	72.791
262.5	-12.11	72.082	-0.356	-15.844	-0.356	-15.844	-12.11	72.082
275	-11.728	71.373	-0.383	-16.573	-0.383	-16.573	-11.728	71.373
287.5	-11.361	70.664	-0.41	-17.303	-0.41	-17.303	-11.361	70.664
300	-11.01	69.955	-0.437	-18.032	-0.437	-18.032	-11.01	69.955
312.5	-10.69	69.253	-0.472	-18.741	-0.472	-18.741	-10.69	69.253
325	-10.382	68.551	-0.507	-19.451	-0.507	-19.451	-10.382	68.551
337.5	-10.084	67.849	-0.542	-20.161	-0.542	-20.161	-10.084	67.849
350	-9.796	67.147	-0.577	-20.871	-0.577	-20.871	-9.796	67.147
362.5	-9.517	66.446	-0.613	-21.581	-0.613	-21.581	-9.517	66.446
375	-9.247	65.744	-0.648	-22.291	-0.648	-22.291	-9.247	65.744
387.5	-8.985	65.042	-0.684	-23.001	-0.684	-23.001	-8.985	65.042
400	-8.731	64.34	-0.72	-23.711	-0.72	-23.711	-8.731	64.34
412.5	-8.5	63.653	-0.763	-24.399	-0.763	-24.399	-8.5	63.653
425	-8.275	62.966	-0.807	-25.088	-0.807	-25.088	-8.275	62.966
437.5	-8.056	62.279	-0.85	-25.777	-0.85	-25.777	-8.056	62.279
450	-7.842	61.592	-0.894	-26.465	-0.894	-26.465	-7.842	61.592
462.5	-7.633	60.905	-0.938	-27.154	-0.938	-27.154	-7.633	60.905
475	-7.429	60.218	-0.982	-27.843	-0.982	-27.843	-7.429	60.218
487.5	-7.23	59.531	-1.026	-28.531	-1.03	-28.531	-7.23	59.531
500	-7.035	58.844	-1.071	-29.22	-1.07	-29.22	-7.035	58.844
512.5	-6.859	58.176	-1.122	-29.886	-1.12	-29.886	-6.859	58.176
525	-6.687	57.507	-1.173	-30.552	-1.17	-30.552	-6.687	57.507
537.5	-6.518	56.839	-1.225	-31.217	-1.23	-31.217	-6.518	56.839
550	-6.352	56.171	-1.276	-31.883	-1.28	-31.883	-6.352	56.171
562.5	-6.189	55.503	-1.329	-32.549	-1.33	-32.549	-6.189	55.503
575	-6.029	54.834	-1.381	-33.215	-1.38	-33.215	-6.029	54.834
587.5	-5.872	54.166	-1.434	-33.881	-1.43	-33.881	-5.872	54.166
600	-5.718	53.498	-1.487	-34.547	-1.49	-34.547	-5.718	53.498
612.5	-5.58	52.85	-1.545	-35.189	-1.55	-35.189	-5.58	52.85
625	-5.443	52.203	-1.604	-35.831	-1.6	-35.831	-5.443	52.203
637.5	-5.309	51.556	-1.663	-36.473	-1.66	-36.473	-5.309	51.556
650	-5.177	50.908	-1.723	-37.115	-1.72	-37.115	-5.177	50.908
662.5	-5.047	50.261	-1.783	-37.757	-1.78	-37.757	-5.047	50.261
675	-4.918	49.614	-1.843	-38.399	-1.84	-38.399	-4.918	49.614
687.5	-4.792	48.966	-1.904	-39.041	-1.9	-39.041	-4.792	48.966
700	-4.667	48.319	-1.966	-39.683	-1.97	-39.683	-4.667	48.319
712.5	-4.556	47.694	-2.031	-40.3	-2.03	-40.3	-4.556	47.694
725	-4.446	47.068	-2.098	-40.918	-2.1	-40.918	-4.446	47.068
737.5	-4.338	46.443	-2.164	-41.536	-2.16	-41.536	-4.338	46.443
750	-4.231	45.817	-2.232	-42.154	-2.23	-42.154	-4.231	45.817
762.5	-4.125	45.192	-2.299	-42.772	-2.3	-42.772	-4.125	45.192
775	-4.02	44.566	-2.368	-43.389	-2.37	-43.389	-4.02	44.566
787.5	-3.917	43.941	-2.437	-44.007	-2.44	-44.007	-3.917	43.941
800	-3.815	43.315	-2.506	-44.625	-2.51	-44.625	-3.815	43.315
812.5	-3.724	42.712	-2.579	-45.219	-2.58	-45.219	-3.724	42.712
825	-3.634	42.108	-2.653	-45.813	-2.65	-45.813	-3.634	42.108
837.5	-3.546	41.505	-2.727	-46.406	-2.73	-46.406	-3.546	41.505
850	-3.458	40.901	-2.802	-47	-2.8	-47	-3.458	40.901
862.5	-3.371	40.298	-2.878	-47.594	-2.88	-47.594	-3.371	40.298
875	-3.285	39.694	-2.954	-48.188	-2.95	-48.188	-3.285	39.694
887.5	-3.199	39.091	-3.031	-48.781	-3.03	-48.781	-3.199	39.091
900	-3.115	38.488	-3.108	-49.375	-3.11	-49.375	-3.115	38.488
912.5	-3.04	37.906	-3.189	-49.945	-3.19	-49.945	-3.04	37.906
925	-2.966	37.324	-3.27	-50.515	-3.27	-50.515	-2.966	37.324
937.5	-2.893	36.742	-3.352	-51.086	-3.35	-51.086	-2.893	36.742
950	-2.82	36.16	-3.435	-51.656	-3.44	-51.656	-2.82	36.16
962.5	-2.748	35.578	-3.519	-52.226	-3.52	-52.226	-2.748	35.578
975	-2.677	34.996	-3.603	-52.796	-3.6	-52.796	-2.677	34.996
987.5	-2.606	34.414	-3.688	-53.367	-3.69	-53.367	-2.606	34.414
1000	-2.535	33.832	-3.774	-53.937	-3.77	-53.937	-2.535	33.832
1012.5	-2.474	33.271	-3.863	-54.484	-3.86	-54.484	-2.474	33.271
1025	-2.412	32.71	-3.952	-55.032	-3.95	-55.032	-2.412	32.71
1037.5	-2.351	32.149	-4.042	-55.58	-4.04	-55.58	-2.351	32.149
1050	-2.291	31.587	-4.133	-56.127	-4.13	-56.127	-2.291	31.587
1062.5	-2.231	31.026	-4.225	-56.675	-4.23	-56.675	-2.231	31.026
1075	-2.171	30.465	-4.318	-57.222	-4.32	-57.222	-2.171	30.465
1087.5	-2.112	29.904	-4.412	-57.77	-4.41	-57.77	-2.112	29.904
1100	-2.053	29.343	-4.507	-58.317	-4.51	-58.317	-2.053	29.343
1112.5	-2.002	28.801	-4.604	-58.843	-4.6	-58.843	-2.002	28.801
1125	-1.951	28.259	-4.702	-59.369	-4.7	-59.369	-1.951	28.259
1137.5	-1.9	27.718	-4.801	-59.895	-4.8	-59.895	-1.9	27.718
1150	-1.85	27.176	-4.901	-60.421	-4.9	-60.421	-1.85	27.176
1162.5	-1.8	26.634	-5.002	-60.946	-5	-60.946	-1.8	26.634
1175	-1.75	26.092	-5.104	-61.472	-5.1	-61.472	-1.75	26.092
1187.5	-1.7	25.551	-5.208	-61.998	-5.21	-61.998	-1.7	25.551
1200	-1.651	25.009	-5.313	-62.524	-5.31	-62.524	-1.651	25.009
1212.5	-1.608	24.486	-5.419	-63.029	-5.42	-63.029	-1.608	24.486
1225	-1.566	23.962	-5.526	-63.534	-5.53	-63.534	-1.566	23.962
1237.5	-1.524	23.439	-5.635	-64.039	-5.64	-64.039	-1.524	23.439
1250	-1.482	22.915	-5.745	-64.544	-5.75	-64.544	-1.482	22.915
1262.5	-1.44	22.392	-5.857	-65.049	-5.86	-65.049	-1.44	22.392
1275	-1.398	21.868	-5.97	-65.554	-5.97	-65.554	-1.398	21.868
1287.5	-1.357	21.345	-6.084	-66.059	-6.08	-66.059	-1.357	21.345
1300	-1.315	20.821	-6.201	-66.564	-6.2	-66.564	-1.315	20.821
1312.5	-1.28	20.315	-6.318	-67.05	-6.32	-67.05	-1.28	20.315
1325	-1.244	19.808	-6.436	-67.535	-6.44	-67.535	-1.244	19.808
1337.5	-1.209	19.302	-6.556	-68.02	-6.56	-68.02	-1.209	19.302
1350	-1.174	18.795	-6.678	-68.505	-6.68	-68.505	-1.174	18.795
1362.5	-1.139	18.288	-6.802	-68.99	-6.8	-68.99	-1.139	18.288
1375	-1.104	17.782	-6.927	-69.475	-6.93	-69.475	-1.104	17.782
1387.5	-1.07	17.275	-7.054	-69.96	-7.05	-69.96	-1.07	17.275
1400	-1.035	16.768	-7.184	-70.446	-7.18	-70.446	-1.035	16.768
1412.5	-1.006	16.277	-7.313	-70.911	-7.31	-70.911	-1.006	16.277
1425	-0.977	15.786	-7.445	-71.377	-7.45	-71.377	-0.977	15.786
1437.5	-0.947	15.295	-7.579	-71.843	-7.58	-71.843	-0.947	15.295
1450	-0.918	14.803	-7.715	-72.309	-7.72	-72.309	-0.918	14.803
1462.5	-0.889	14.312	-7.853	-72.774	-7.85	-72.774	-0.889	14.312
1475	-0.86	13.821	-7.993	-73.24	-7.99	-73.24	-0.86	13.821
1487.5	-0.831	13.329	-8.136	-73.706	-8.14	-73.706	-0.831	13.329
1500	-0.803	12.838	-8.281	-74.171	-8.28	-74.171	-0.803	12.838
1512.5	-0.778	12.361	-8.426	-74.618	-8.43	-74.618	-0.778	12.361
1525	-0.754	11.883	-8.575	-75.064	-8.58	-75.064	-0.754	11.883
1537.5	-0.73	11.406	-8.725	-75.51	-8.73	-75.51	-0.73	11.406
1550	-0.706	10.929	-8.879	-75.957	-8.88	-75.957	-0.706	10.929
1562.5	-0.682	10.452	-9.035	-76.403	-9.04	-76.403	-0.682	10.452
1575	-0.658	9.974	-9.194	-76.849	-9.19	-76.849	-0.658	9.974
1587.5	-0.635	9.497	-9.356	-77.295	-9.36	-77.295	-0.635	9.497
1600	-0.611	9.02	-9.521	-77.742	-9.52	-77.742	-0.611	9.02
1612.5	-0.591	8.555	-9.686	-78.167	-9.69	-78.167	-0.591	8.555
1625	-0.571	8.09	-9.855	-78.593	-9.86	-78.593	-0.571	8.09
1637.5	-0.552	7.625	-10.028	-79.019	-10	-79.019	-0.552	7.625
1650	-0.532	7.16	-10.203	-79.444	-10.2	-79.444	-0.532	7.16
1662.5	-0.513	6.696	-10.383	-79.87	-10.4	-79.87	-0.513	6.696
1675	-0.493	6.231	-10.566	-80.296	-10.6	-80.296	-0.493	6.231
1687.5	-0.474	5.766	-10.753	-80.721	-10.8	-80.721	-0.474	5.766
1700	-0.454	5.301	-10.945	-81.147	-10.9	-81.147	-0.454	5.301
1712.5	-0.439	4.848	-11.137	-81.549	-11.1	-81.549	-0.439	4.848
1725	-0.423	4.394	-11.334	-81.95	-11.3	-81.95	-0.423	4.394
1737.5	-0.407	3.941	-11.536	-82.352	-11.5	-82.352	-0.407	3.941
1750	-0.392	3.487	-11.742	-82.754	-11.7	-82.754	-0.392	3.487
1762.5	-0.376	3.034	-11.953	-83.156	-12	-83.156	-0.376	3.034
1775	-0.36	2.58	-12.17	-83.557	-12.2	-83.557	-0.36	2.58
1787.5	-0.345	2.127	-12.392	-83.959	-12.4	-83.959	-0.345	2.127
1800	-0.329	1.673	-12.619	-84.361	-12.6	-84.361	-0.329	1.673
1812.5	-0.317	1.23	-12.85	-84.731	-12.9	-84.731	-0.317	1.23
1825	-0.305	0.786	-13.086	-85.101	-13.1	-85.101	-0.305	0.786
1837.5	-0.292	0.343	-13.329	-85.47	-13.3	-85.47	-0.292	0.343
1850	-0.28	-0.101	-13.579	-85.84	-13.6	-85.84	-0.28	-0.101
1862.5	-0.268	-0.544	-13.836	-86.21	-13.8	-86.21	-0.268	-0.544
1875	-0.256	-0.988	-14.101	-86.58	-14.1	-86.58	-0.256	-0.988
1887.5	-0.244	-1.431	-14.375	-86.95	-14.4	-86.95	-0.244	-1.431
1900	-0.232	-1.875	-14.657	-87.319	-14.7	-87.319	-0.232	-1.875
1912.5	-0.222	-2.309	-14.944	-87.637	-14.9	-87.637	-0.222	-2.309
1925	-0.213	-2.744	-15.241	-87.954	-15.2	-87.954	-0.213	-2.744
1937.5	-0.204	-3.179	-15.548	-88.271	-15.5	-88.271	-0.204	-3.179
1950	-0.195	-3.613	-15.866	-88.588	-15.9	-88.588	-0.195	-3.613
1962.5	-0.186	-4.048	-16.196	-88.906	-16.2	-88.906	-0.186	-4.048
1975	-0.177	-4.483	-16.54	-89.223	-16.5	-89.223	-0.177	-4.483
1987.5	-0.168	-4.917	-16.897	-89.54	-16.9	-89.54	-0.168	-4.917
2000	-0.159	-5.352	-17.27	-89.857	-17.3	-89.857	-0.159	-5.352
2012.5	-0.153	-5.779	-17.653	-90.057	-17.7	-90.057	-0.153	-5.779
2025	-0.146	-6.206	-18.052	-90.256	-18.1	-90.256	-0.146	-6.206
2037.5	-0.14	-6.633	-18.472	-90.455	-18.5	-90.455	-0.14	-6.633
2050	-0.134	-7.06	-18.912	-90.654	-18.9	-90.654	-0.134	-7.06
2062.5	-0.128	-7.486	-19.376	-90.853	-19.4	-90.853	-0.128	-7.486
2075	-0.121	-7.913	-19.866	-91.053	-19.9	-91.053	-0.121	-7.913
2087.5	-0.115	-8.34	-20.386	-91.252	-20.4	-91.252	-0.115	-8.34
2100	-0.109	-8.767	-20.938	-91.451	-20.9	-91.451	-0.109	-8.767
2112.5	-0.105	-9.187	-21.515	-91.191	-21.5	-91.191	-0.105	-9.187
2125	-0.102	-9.608	-22.132	-90.93	-22.1	-90.93	-0.102	-9.608
2137.5	-0.098	-10.028	-22.796	-90.67	-22.8	-90.67	-0.098	-10.028
2150	-0.094	-10.448	-23.516	-90.41	-23.5	-90.41	-0.094	-10.448
2162.5	-0.091	-10.868	-24.3	-90.149	-24.3	-90.149	-0.091	-10.868
2175	-0.087	-11.288	-25.163	-89.889	-25.2	-89.889	-0.087	-11.288
2187.5	-0.083	-11.708	-26.121	-89.629	-26.1	-89.629	-0.083	-11.708
2200	-0.08	-12.129	-27.197	-89.368	-27.2	-89.368	-0.08	-12.129
2212.5	-0.079	-12.543	-28.124	-77.452	-28.1	-77.452	-0.079	-12.543
2225	-0.077	-12.957	-29.161	-65.535	-29.2	-65.535	-0.077	-12.957
2237.5	-0.076	-13.372	-30.339	-53.618	-30.3	-53.618	-0.076	-13.372
2250	-0.075	-13.786	-31.703	-41.701	-31.7	-41.701	-0.075	-13.786
2262.5	-0.074	-14.2	-33.321	-29.785	-33.3	-29.785	-0.074	-14.2
2275	-0.073	-14.615	-35.311	-17.868	-35.3	-17.868	-0.073	-14.615
2287.5	-0.071	-15.029	-37.897	-5.951	-37.9	-5.951	-0.071	-15.029
2300	-0.07	-15.443	-41.596	5.966	-41.6	5.966	-0.07	-15.443
2312.5	-0.071	-15.853	-37.519	13.276	-37.5	13.276	-0.071	-15.853
2325	-0.072	-16.262	-34.755	20.587	-34.8	20.587	-0.072	-16.262
2337.5	-0.073	-16.671	-32.662	27.898	-32.7	27.898	-0.073	-16.671
2350	-0.075	-17.081	-30.976	35.209	-31	35.209	-0.075	-17.081
2362.5	-0.076	-17.49	-29.565	42.52	-29.6	42.52	-0.076	-17.49
2375	-0.077	-17.9	-28.351	49.831	-28.4	49.831	-0.077	-17.9
2387.5	-0.078	-18.309	-27.287	57.142	-27.3	57.142	-0.078	-18.309
2400	-0.079	-18.718	-26.339	64.453	-26.3	64.453	-0.079	-18.718
2412.5	-0.082	-19.124	-25.405	64.621	-25.4	64.621	-0.082	-19.124
2425	-0.085	-19.529	-24.562	64.79	-24.6	64.79	-0.085	-19.529
2437.5	-0.089	-19.934	-23.794	64.958	-23.8	64.958	-0.089	-19.934
2450	-0.092	-20.339	-23.088	65.127	-23.1	65.127	-0.092	-20.339
2462.5	-0.095	-20.744	-22.435	65.296	-22.4	65.296	-0.095	-20.744
2475	-0.099	-21.15	-21.828	65.464	-21.8	65.464	-0.099	-21.15
2487.5	-0.102	-21.555	-21.26	65.633	-21.3	65.633	-0.102	-21.555
2500	-0.105	-21.96	-20.728	65.802	-20.7	65.802	-0.105	-21.96
2512.5	-0.111	-22.362	-20.232	65.61	-20.2	65.61	-0.111	-22.362
2525	-0.116	-22.764	-19.763	65.418	-19.8	65.418	-0.116	-22.764
2537.5	-0.121	-23.165	-19.319	65.226	-19.3	65.226	-0.121	-23.165
2550	-0.127	-23.567	-18.896	65.034	-18.9	65.034	-0.127	-23.567
2562.5	-0.132	-23.969	-18.492	64.842	-18.5	64.842	-0.132	-23.969
2575	-0.138	-24.371	-18.107	64.65	-18.1	64.65	-0.138	-24.371
2587.5	-0.143	-24.773	-17.737	64.459	-17.7	64.459	-0.143	-24.773
2600	-0.148	-25.174	-17.383	64.267	-17.4	64.267	-0.148	-25.174
2612.5	-0.156	-25.573	-17.049	63.982	-17	63.982	-0.156	-25.573
2625	-0.163	-25.972	-16.726	63.697	-16.7	63.697	-0.163	-25.972
2637.5	-0.171	-26.371	-16.416	63.412	-16.4	63.412	-0.171	-26.371
2650	-0.178	-26.77	-16.116	63.127	-16.1	63.127	-0.178	-26.77
2662.5	-0.186	-27.169	-15.826	62.842	-15.8	62.842	-0.186	-27.169
2675	-0.193	-27.568	-15.545	62.557	-15.5	62.557	-0.193	-27.568
2687.5	-0.201	-27.967	-15.273	62.272	-15.3	62.272	-0.201	-27.967
2700	-0.208	-28.366	-15.01	61.987	-15	61.987	-0.208	-28.366
2712.5	-0.218	-28.763	-14.758	61.665	-14.8	61.665	-0.218	-28.763
2725	-0.227	-29.16	-14.514	61.343	-14.5	61.343	-0.227	-29.16
2737.5	-0.237	-29.557	-14.276	61.022	-14.3	61.022	-0.237	-29.557
2750	-0.246	-29.954	-14.045	60.7	-14	60.7	-0.246	-29.954
2762.5	-0.256	-30.351	-13.819	60.379	-13.8	60.379	-0.256	-30.351
2775	-0.265	-30.748	-13.6	60.057	-13.6	60.057	-0.265	-30.748
2787.5	-0.275	-31.144	-13.385	59.736	-13.4	59.736	-0.275	-31.144
2800	-0.284	-31.541	-13.176	59.414	-13.2	59.414	-0.284	-31.541
2812.5	-0.296	-31.937	-12.976	59.075	-13	59.075	-0.296	-31.937
2825	-0.307	-32.332	-12.78	58.736	-12.8	58.736	-0.307	-32.332
2837.5	-0.319	-32.727	-12.588	58.397	-12.6	58.397	-0.319	-32.727
2850	-0.33	-33.122	-12.401	58.057	-12.4	58.057	-0.33	-33.122
2862.5	-0.342	-33.518	-12.217	57.718	-12.2	57.718	-0.342	-33.518
2875	-0.353	-33.913	-12.037	57.379	-12	57.379	-0.353	-33.913
2887.5	-0.365	-34.308	-11.861	57.04	-11.9	57.04	-0.365	-34.308
2900	-0.377	-34.703	-11.688	56.701	-11.7	56.701	-0.377	-34.703
2912.5	-0.39	-35.098	-11.522	56.352	-11.5	56.352	-0.39	-35.098
2925	-0.404	-35.492	-11.359	56.003	-11.4	56.003	-0.404	-35.492
2937.5	-0.417	-35.886	-11.199	55.655	-11.2	55.655	-0.417	-35.886
2950	-0.431	-36.28	-11.042	55.306	-11	55.306	-0.431	-36.28
2962.5	-0.444	-36.675	-10.888	54.957	-10.9	54.957	-0.444	-36.675
2975	-0.458	-37.069	-10.736	54.608	-10.7	54.608	-0.458	-37.069
2987.5	-0.472	-37.463	-10.587	54.26	-10.6	54.26	-0.472	-37.463
3000	-0.485	-37.857	-10.441	53.911	-10.4	53.911	-0.485	-37.857
3012.5	-0.501	-38.251	-10.299	53.556	-10.3	53.556	-0.501	-38.251
3025	-0.517	-38.644	-10.16	53.202	-10.2	53.202	-0.517	-38.644
3037.5	-0.532	-39.038	-10.023	52.848	-10	52.848	-0.532	-39.038
3050	-0.548	-39.432	-9.889	52.493	-9.89	52.493	-0.548	-39.432
3062.5	-0.564	-39.825	-9.756	52.139	-9.76	52.139	-0.564	-39.825
3075	-0.579	-40.219	-9.625	51.784	-9.63	51.784	-0.579	-40.219
3087.5	-0.595	-40.613	-9.496	51.43	-9.5	51.43	-0.595	-40.613
3100	-0.611	-41.006	-9.369	51.075	-9.37	51.075	-0.611	-41.006
3112.5	-0.629	-41.4	-9.247	50.717	-9.25	50.717	-0.629	-41.4
3125	-0.646	-41.793	-9.126	50.359	-9.13	50.359	-0.646	-41.793
3137.5	-0.664	-42.187	-9.007	50.001	-9.01	50.001	-0.664	-42.187
3150	-0.682	-42.58	-8.889	49.643	-8.89	49.643	-0.682	-42.58
3162.5	-0.7	-42.974	-8.773	49.285	-8.77	49.285	-0.7	-42.974
3175	-0.718	-43.367	-8.659	48.927	-8.66	48.927	-0.718	-43.367
3187.5	-0.735	-43.761	-8.546	48.569	-8.55	48.569	-0.735	-43.761
3200	-0.753	-44.154	-8.434	48.211	-8.43	48.211	-0.753	-44.154
3212.5	-0.773	-44.548	-8.327	47.85	-8.33	47.85	-0.773	-44.548
3225	-0.793	-44.942	-8.22	47.489	-8.22	47.489	-0.793	-44.942
3237.5	-0.813	-45.335	-8.115	47.129	-8.12	47.129	-0.813	-45.335
3250	-0.833	-45.729	-8.011	46.768	-8.01	46.768	-0.833	-45.729
3262.5	-0.853	-46.123	-7.908	46.407	-7.91	46.407	-0.853	-46.123
3275	-0.873	-46.517	-7.807	46.047	-7.81	46.047	-0.873	-46.517
3287.5	-0.893	-46.91	-7.706	45.686	-7.71	45.686	-0.893	-46.91
3300	-0.913	-47.304	-7.607	45.326	-7.61	45.326	-0.913	-47.304
3312.5	-0.936	-47.699	-7.511	44.963	-7.51	44.963	-0.936	-47.699
3325	-0.958	-48.093	-7.417	44.601	-7.42	44.601	-0.958	-48.093
3337.5	-0.98	-48.487	-7.323	44.238	-7.32	44.238	-0.98	-48.487
3350	-1.002	-48.882	-7.23	43.876	-7.23	43.876	-1.002	-48.882
3362.5	-1.024	-49.276	-7.138	43.513	-7.14	43.513	-1.024	-49.276
3375	-1.047	-49.671	-7.047	43.151	-7.05	43.151	-1.047	-49.671
3387.5	-1.069	-50.065	-6.957	42.788	-6.96	42.788	-1.069	-50.065
3400	-1.092	-50.46	-6.868	42.426	-6.87	42.426	-1.092	-50.46
3412.5	-1.116	-50.855	-6.782	42.062	-6.78	42.062	-1.116	-50.855
3425	-1.14	-51.25	-6.697	41.698	-6.7	41.698	-1.14	-51.25
3437.5	-1.165	-51.646	-6.613	41.334	-6.61	41.334	-1.165	-51.646
3450	-1.19	-52.041	-6.529	40.97	-6.53	40.97	-1.19	-52.041
3462.5	-1.214	-52.437	-6.447	40.606	-6.45	40.606	-1.214	-52.437
3475	-1.239	-52.832	-6.365	40.242	-6.37	40.242	-1.239	-52.832
3487.5	-1.264	-53.228	-6.284	39.878	-6.28	39.878	-1.264	-53.228
3500	-1.289	-53.623	-6.203	39.514	-6.2	39.514	-1.289	-53.623
3512.5	-1.315	-54.02	-6.126	39.149	-6.13	39.149	-1.315	-54.02
3525	-1.342	-54.417	-6.049	38.783	-6.05	38.783	-1.342	-54.417
3537.5	-1.369	-54.814	-5.972	38.418	-5.97	38.418	-1.369	-54.814
3550	-1.396	-55.211	-5.897	38.053	-5.9	38.053	-1.396	-55.211
3562.5	-1.424	-55.607	-5.822	37.688	-5.82	37.688	-1.424	-55.607
3575	-1.451	-56.004	-5.747	37.323	-5.75	37.323	-1.451	-56.004
3587.5	-1.478	-56.401	-5.674	36.957	-5.67	36.957	-1.478	-56.401
3600	-1.505	-56.798	-5.601	36.592	-5.6	36.592	-1.505	-56.798
3612.5	-1.535	-57.197	-5.53	36.226	-5.53	36.226	-1.535	-57.197
3625	-1.564	-57.595	-5.46	35.86	-5.46	35.86	-1.564	-57.595
3637.5	-1.594	-57.994	-5.391	35.493	-5.39	35.493	-1.594	-57.994
3650	-1.623	-58.392	-5.322	35.127	-5.32	35.127	-1.623	-58.392
3662.5	-1.653	-58.791	-5.254	34.761	-5.25	34.761	-1.653	-58.791
3675	-1.683	-59.189	-5.186	34.395	-5.19	34.395	-1.683	-59.189
3687.5	-1.713	-59.588	-5.119	34.028	-5.12	34.028	-1.713	-59.588
3700	-1.743	-59.986	-5.052	33.662	-5.05	33.662	-1.743	-59.986
3712.5	-1.775	-60.387	-4.988	33.295	-4.99	33.295	-1.775	-60.387
3725	-1.807	-60.788	-4.924	32.928	-4.92	32.928	-1.807	-60.788
3737.5	-1.84	-61.188	-4.861	32.56	-4.86	32.56	-1.84	-61.188
3750	-1.872	-61.589	-4.798	32.193	-4.8	32.193	-1.872	-61.589
3762.5	-1.904	-61.99	-4.736	31.826	-4.74	31.826	-1.904	-61.99
3775	-1.937	-62.39	-4.674	31.459	-4.67	31.459	-1.937	-62.39
3787.5	-1.97	-62.791	-4.612	31.092	-4.61	31.092	-1.97	-62.791
3800	-2.003	-63.192	-4.551	30.724	-4.55	30.724	-2.003	-63.192
3812.5	-2.038	-63.595	-4.492	30.356	-4.49	30.356	-2.038	-63.595
3825	-2.073	-63.998	-4.434	29.988	-4.43	29.988	-2.073	-63.998
3837.5	-2.108	-64.401	-4.376	29.62	-4.38	29.62	-2.108	-64.401
3850	-2.143	-64.804	-4.319	29.252	-4.32	29.252	-2.143	-64.804
3862.5	-2.178	-65.207	-4.262	28.884	-4.26	28.884	-2.178	-65.207
3875	-2.214	-65.61	-4.205	28.516	-4.21	28.516	-2.214	-65.61
3887.5	-2.25	-66.013	-4.148	28.148	-4.15	28.148	-2.25	-66.013
3900	-2.286	-66.416	-4.092	27.78	-4.09	27.78	-2.286	-66.416
3912.5	-2.323	-66.822	-4.039	27.411	-4.04	27.411	-2.323	-66.822
3925	-2.361	-67.228	-3.985	27.042	-3.99	27.042	-2.361	-67.228
3937.5	-2.4	-67.634	-3.932	26.674	-3.93	26.674	-2.4	-67.634
3950	-2.438	-68.039	-3.879	26.305	-3.88	26.305	-2.438	-68.039
3962.5	-2.477	-68.445	-3.827	25.936	-3.83	25.936	-2.477	-68.445
3975	-2.515	-68.851	-3.775	25.567	-3.78	25.567	-2.515	-68.851
3987.5	-2.554	-69.257	-3.723	25.198	-3.72	25.198	-2.554	-69.257
4000	-2.593	-69.663	-3.671	24.83	-3.67	24.83	-2.593	-69.663
