! AVX Thin Film Operation		Date: May 2002 
! Description: Accu-L® Series, Thin Film, SMD, RF Inductors
! Part Number: L08054R7CEWTR
! 50 MHz  -  12.05 GHz
! Serial Measurements
!
# mhz S db R 50
!	S11		S21		S12		S22
!	dB	Phase	dB	Phase	dB	Phase	dB	Phase
50	-37.705	86.68	-4.724e-3	-1.007	-4.724e-3	-1.007	-37.705	86.714
80	-33.786	86.242	-8.28e-3	-1.59	-8.28e-3	-1.59	-33.785	86.297
110	-31.094	85.804	-0.012	-2.173	-0.012	-2.173	-31.094	85.879
140	-29.043	85.366	-0.015	-2.756	-0.015	-2.756	-29.043	85.461
170	-27.384	84.928	-0.019	-3.339	-0.019	-3.339	-27.384	85.044
200	-25.992	84.49	-0.023	-3.922	-0.023	-3.922	-25.992	84.626
230	-24.801	83.972	-0.027	-4.502	-0.027	-4.502	-24.801	84.129
260	-23.754	83.454	-0.032	-5.083	-0.032	-5.083	-23.753	83.631
290	-22.819	82.936	-0.037	-5.663	-0.037	-5.663	-22.819	83.134
320	-21.979	82.401	-0.043	-6.243	-0.043	-6.243	-21.978	82.619
350	-21.214	81.857	-0.049	-6.821	-0.049	-6.821	-21.214	82.095
380	-20.511	81.313	-0.056	-7.4	-0.056	-7.4	-20.511	81.571
410	-19.862	80.765	-0.063	-7.978	-0.063	-7.978	-19.862	81.044
440	-19.261	80.209	-0.07	-8.555	-0.07	-8.555	-19.261	80.508
470	-18.699	79.653	-0.078	-9.132	-0.078	-9.132	-18.699	79.972
500	-18.171	79.097	-0.086	-9.709	-0.086	-9.709	-18.171	79.437
530	-17.677	78.535	-0.095	-10.284	-0.095	-10.284	-17.676	78.895
560	-17.209	77.973	-0.105	-10.86	-0.105	-10.86	-17.208	78.353
590	-16.765	77.41	-0.114	-11.435	-0.114	-11.435	-16.765	77.811
620	-16.345	76.846	-0.124	-12.009	-0.124	-12.009	-16.345	77.267
650	-15.945	76.281	-0.135	-12.583	-0.135	-12.583	-15.945	76.722
680	-15.563	75.715	-0.146	-13.156	-0.146	-13.156	-15.563	76.177
710	-15.198	75.149	-0.157	-13.729	-0.157	-13.729	-15.198	75.631
740	-14.85	74.582	-0.169	-14.301	-0.169	-14.301	-14.85	75.085
770	-14.515	74.015	-0.182	-14.873	-0.182	-14.873	-14.515	74.538
800	-14.193	73.448	-0.194	-15.445	-0.194	-15.445	-14.192	73.991
830	-13.885	72.881	-0.208	-16.015	-0.208	-16.015	-13.884	73.444
860	-13.587	72.313	-0.221	-16.585	-0.221	-16.585	-13.587	72.896
890	-13.3	71.745	-0.235	-17.154	-0.235	-17.154	-13.3	72.349
920	-13.024	71.178	-0.25	-17.723	-0.25	-17.723	-13.023	71.802
950	-12.757	70.61	-0.265	-18.291	-0.265	-18.291	-12.756	71.255
980	-12.498	70.043	-0.28	-18.858	-0.28	-18.858	-12.497	70.708
1010	-12.247	69.476	-0.296	-19.426	-0.296	-19.426	-12.247	70.161
1040	-12.006	68.909	-0.313	-19.991	-0.313	-19.991	-12.005	69.614
1070	-11.77	68.342	-0.329	-20.557	-0.329	-20.557	-11.77	69.068
1100	-11.541	67.776	-0.346	-21.122	-0.346	-21.122	-11.541	68.521
1130	-11.321	67.21	-0.364	-21.686	-0.364	-21.686	-11.321	67.976
1160	-11.106	66.644	-0.382	-22.249	-0.382	-22.249	-11.106	67.431
1190	-10.897	66.079	-0.401	-22.812	-0.401	-22.812	-10.896	66.885
1220	-10.694	65.514	-0.42	-23.374	-0.42	-23.374	-10.693	66.341
1250	-10.496	64.95	-0.439	-23.935	-0.439	-23.935	-10.496	65.797
1280	-10.303	64.386	-0.459	-24.496	-0.459	-24.496	-10.303	65.253
1310	-10.115	63.822	-0.479	-25.056	-0.479	-25.056	-10.115	64.71
1340	-9.933	63.26	-0.5	-25.614	-0.5	-25.614	-9.932	64.168
1370	-9.754	62.698	-0.521	-26.173	-0.521	-26.173	-9.754	63.626
1400	-9.579	62.135	-0.542	-26.731	-0.542	-26.731	-9.579	63.083
1430	-9.41	61.575	-0.565	-27.287	-0.565	-27.287	-9.41	62.543
1460	-9.245	61.014	-0.587	-27.843	-0.587	-27.843	-9.244	62.003
1490	-9.082	60.454	-0.61	-28.399	-0.61	-28.399	-9.081	61.463
1520	-8.924	59.895	-0.633	-28.953	-0.633	-28.953	-8.923	60.924
1550	-8.77	59.337	-0.657	-29.506	-0.657	-29.506	-8.769	60.386
1580	-8.618	58.778	-0.681	-30.059	-0.681	-30.059	-8.617	59.848
1610	-8.47	58.221	-0.705	-30.611	-0.705	-30.611	-8.469	59.311
1640	-8.326	57.665	-0.73	-31.161	-0.73	-31.161	-8.325	58.775
1670	-8.184	57.109	-0.756	-31.711	-0.756	-31.711	-8.183	58.239
1700	-8.044	56.553	-0.781	-32.262	-0.781	-32.262	-8.044	57.703
1730	-7.909	55.999	-0.808	-32.809	-0.808	-32.809	-7.909	57.17
1760	-7.777	55.445	-0.834	-33.357	-0.834	-33.357	-7.776	56.636
1790	-7.646	54.892	-0.861	-33.904	-0.861	-33.904	-7.645	56.103
1820	-7.518	54.34	-0.889	-34.45	-0.889	-34.45	-7.518	55.571
1850	-7.393	53.789	-0.917	-34.994	-0.917	-34.994	-7.393	55.04
1880	-7.27	53.238	-0.945	-35.539	-0.945	-35.539	-7.27	54.509
1910	-7.15	52.688	-0.974	-36.083	-0.974	-36.083	-7.149	53.979
1940	-7.032	52.139	-1.003	-36.624	-1.003	-36.624	-7.032	53.451
1970	-6.917	51.591	-1.033	-37.166	-1.033	-37.166	-6.916	52.923
2000	-6.802	51.042	-1.062	-37.708	-1.062	-37.708	-6.802	52.394
2030	-6.692	50.496	-1.093	-38.246	-1.093	-38.246	-6.691	51.869
2060	-6.582	49.951	-1.124	-38.785	-1.124	-38.785	-6.582	51.343
2090	-6.475	49.405	-1.155	-39.324	-1.155	-39.324	-6.474	50.817
2120	-6.369	48.861	-1.187	-39.86	-1.187	-39.86	-6.369	50.293
2150	-6.266	48.318	-1.219	-40.396	-1.219	-40.396	-6.266	49.771
2180	-6.164	47.775	-1.251	-40.932	-1.251	-40.932	-6.164	49.248
2210	-6.064	47.232	-1.284	-41.467	-1.284	-41.467	-6.063	48.726
2240	-5.966	46.692	-1.317	-41.999	-1.317	-41.999	-5.966	48.205
2270	-5.87	46.152	-1.351	-42.532	-1.351	-42.532	-5.869	47.685
2300	-5.775	45.611	-1.385	-43.065	-1.385	-43.065	-5.774	47.165
2330	-5.682	45.074	-1.42	-43.595	-1.42	-43.595	-5.681	46.647
2360	-5.591	44.536	-1.455	-44.124	-1.455	-44.124	-5.59	46.13
2390	-5.5	43.999	-1.49	-44.654	-1.49	-44.654	-5.5	45.612
2420	-5.412	43.463	-1.526	-45.182	-1.526	-45.182	-5.411	45.097
2450	-5.325	42.928	-1.562	-45.708	-1.562	-45.708	-5.325	44.582
2480	-5.239	42.393	-1.598	-46.235	-1.598	-46.235	-5.239	44.067
2510	-5.155	41.86	-1.635	-46.761	-1.635	-46.761	-5.154	43.554
2540	-5.073	41.328	-1.673	-47.285	-1.673	-47.285	-5.072	43.042
2570	-4.991	40.796	-1.711	-47.809	-1.711	-47.809	-4.991	42.53
2600	-4.911	40.264	-1.749	-48.332	-1.749	-48.332	-4.91	42.018
2630	-4.832	39.734	-1.788	-48.853	-1.788	-48.853	-4.832	41.508
2660	-4.755	39.205	-1.827	-49.374	-1.827	-49.374	-4.754	40.999
2690	-4.678	38.676	-1.866	-49.895	-1.866	-49.895	-4.677	40.49
2720	-4.603	38.149	-1.906	-50.414	-1.906	-50.414	-4.602	39.983
2750	-4.529	37.622	-1.947	-50.932	-1.947	-50.932	-4.529	39.476
2780	-4.456	37.095	-1.987	-51.45	-1.987	-51.45	-4.456	38.97
2810	-4.384	36.57	-2.028	-51.967	-2.028	-51.967	-4.384	38.464
2840	-4.314	36.046	-2.07	-52.482	-2.07	-52.482	-4.314	37.96
2870	-4.245	35.522	-2.112	-52.997	-2.112	-52.997	-4.244	37.456
2900	-4.176	34.998	-2.154	-53.512	-2.154	-53.512	-4.175	36.952
2930	-4.109	34.477	-2.198	-54.024	-2.198	-54.024	-4.108	36.451
2960	-4.043	33.956	-2.241	-54.537	-2.241	-54.537	-4.042	35.95
2990	-3.977	33.435	-2.285	-55.049	-2.285	-55.049	-3.976	35.449
3020	-3.912	32.915	-2.329	-55.56	-2.329	-55.56	-3.912	34.949
3050	-3.849	32.397	-2.374	-56.069	-2.374	-56.069	-3.849	34.45
3080	-3.787	31.878	-2.419	-56.579	-2.419	-56.579	-3.786	33.952
3110	-3.725	31.36	-2.464	-57.087	-2.464	-57.087	-3.724	33.454
3140	-3.664	30.844	-2.51	-57.594	-2.51	-57.594	-3.664	32.957
3170	-3.605	30.328	-2.557	-58.101	-2.557	-58.101	-3.604	32.461
3200	-3.545	29.812	-2.603	-58.608	-2.603	-58.608	-3.544	31.965
3230	-3.488	29.299	-2.651	-59.113	-2.651	-59.113	-3.487	31.471
3260	-3.43	28.785	-2.699	-59.617	-2.699	-59.617	-3.43	30.977
3290	-3.374	28.271	-2.747	-60.121	-2.747	-60.121	-3.373	30.484
3320	-3.318	27.759	-2.796	-60.624	-2.796	-60.624	-3.317	29.991
3350	-3.264	27.248	-2.845	-61.126	-2.845	-61.126	-3.263	29.5
3380	-3.209	26.737	-2.894	-61.628	-2.894	-61.628	-3.209	29.008
3410	-3.156	26.226	-2.944	-62.129	-2.944	-62.129	-3.155	28.517
3440	-3.104	25.717	-2.995	-62.628	-2.995	-62.628	-3.103	28.028
3470	-3.052	25.208	-3.046	-63.128	-3.046	-63.128	-3.051	27.539
3500	-3	24.699	-3.098	-63.627	-3.098	-63.627	-3	27.05
3530	-2.951	24.192	-3.15	-64.125	-3.15	-64.125	-2.95	26.562
3560	-2.901	23.685	-3.202	-64.622	-3.202	-64.622	-2.9	26.075
3590	-2.852	23.179	-3.255	-65.119	-3.255	-65.119	-2.851	25.588
3620	-2.804	22.673	-3.309	-65.615	-3.309	-65.615	-2.803	25.102
3650	-2.756	22.168	-3.363	-66.11	-3.363	-66.11	-2.755	24.617
3680	-2.709	21.664	-3.418	-66.605	-3.418	-66.605	-2.708	24.132
3710	-2.663	21.16	-3.473	-67.099	-3.473	-67.099	-2.662	23.648
3740	-2.617	20.657	-3.528	-67.592	-3.528	-67.592	-2.616	23.164
3770	-2.572	20.154	-3.585	-68.085	-3.585	-68.085	-2.571	22.681
3800	-2.527	19.651	-3.641	-68.577	-3.641	-68.577	-2.527	22.198
3830	-2.484	19.15	-3.698	-69.068	-3.698	-69.068	-2.483	21.717
3860	-2.441	18.649	-3.756	-69.559	-3.756	-69.559	-2.44	21.235
3890	-2.398	18.148	-3.814	-70.05	-3.814	-70.05	-2.397	20.754
3920	-2.356	17.649	-3.873	-70.54	-3.873	-70.54	-2.355	20.273
3950	-2.315	17.149	-3.933	-71.029	-3.933	-71.029	-2.314	19.794
3980	-2.274	16.65	-3.993	-71.518	-3.993	-71.518	-2.273	19.314
4010	-2.233	16.151	-4.053	-72.006	-4.053	-72.006	-2.232	18.835
4040	-2.194	15.654	-4.115	-72.493	-4.115	-72.493	-2.193	18.356
4070	-2.154	15.156	-4.177	-72.981	-4.177	-72.981	-2.153	17.878
4100	-2.115	14.659	-4.239	-73.468	-4.239	-73.468	-2.114	17.4
4130	-2.077	14.163	-4.302	-73.954	-4.302	-73.954	-2.076	16.923
4160	-2.039	13.666	-4.366	-74.439	-4.366	-74.439	-2.039	16.446
4190	-2.002	13.17	-4.43	-74.925	-4.43	-74.925	-2.001	15.97
4220	-1.965	12.675	-4.495	-75.409	-4.495	-75.409	-1.964	15.494
4250	-1.929	12.18	-4.561	-75.894	-4.561	-75.894	-1.928	15.018
4280	-1.893	11.686	-4.627	-76.378	-4.627	-76.378	-1.892	14.543
4310	-1.858	11.191	-4.694	-76.861	-4.694	-76.861	-1.857	14.068
4340	-1.823	10.698	-4.761	-77.344	-4.761	-77.344	-1.822	13.593
4370	-1.789	10.204	-4.83	-77.827	-4.83	-77.827	-1.788	13.119
4400	-1.755	9.711	-4.899	-78.309	-4.899	-78.309	-1.754	12.644
4430	-1.722	9.218	-4.968	-78.791	-4.968	-78.791	-1.721	12.171
4460	-1.689	8.726	-5.039	-79.272	-5.039	-79.272	-1.688	11.698
4490	-1.656	8.233	-5.11	-79.754	-5.11	-79.754	-1.655	11.224
4520	-1.624	7.741	-5.182	-80.235	-5.182	-80.235	-1.623	10.752
4550	-1.592	7.25	-5.255	-80.715	-5.255	-80.715	-1.591	10.279
4580	-1.561	6.758	-5.328	-81.195	-5.328	-81.195	-1.56	9.806
4610	-1.53	6.267	-5.403	-81.675	-5.403	-81.675	-1.529	9.334
4640	-1.499	5.776	-5.478	-82.154	-5.478	-82.154	-1.499	8.862
4670	-1.469	5.286	-5.554	-82.634	-5.554	-82.634	-1.468	8.391
4700	-1.439	4.795	-5.63	-83.113	-5.63	-83.113	-1.438	7.919
4730	-1.41	4.305	-5.708	-83.592	-5.708	-83.592	-1.41	7.447
4760	-1.382	3.815	-5.787	-84.07	-5.787	-84.07	-1.381	6.976
4790	-1.353	3.325	-5.866	-84.548	-5.866	-84.548	-1.352	6.505
4820	-1.325	2.835	-5.947	-85.026	-5.947	-85.026	-1.324	6.034
4850	-1.297	2.345	-6.028	-85.504	-6.028	-85.504	-1.296	5.563
4880	-1.27	1.856	-6.11	-85.982	-6.11	-85.982	-1.269	5.092
4910	-1.243	1.366	-6.193	-86.459	-6.193	-86.459	-1.242	4.621
4940	-1.216	0.877	-6.278	-86.936	-6.278	-86.936	-1.215	4.151
4970	-1.19	0.388	-6.363	-87.413	-6.363	-87.413	-1.189	3.68
5000	-1.164	-0.101	-6.449	-87.89	-6.449	-87.89	-1.163	3.21
5030	-1.138	-0.59	-6.537	-88.367	-6.537	-88.367	-1.138	2.739
5060	-1.113	-1.079	-6.625	-88.843	-6.625	-88.843	-1.112	2.269
5090	-1.088	-1.568	-6.714	-89.32	-6.714	-89.32	-1.087	1.798
5120	-1.064	-2.057	-6.805	-89.796	-6.805	-89.796	-1.063	1.327
5150	-1.04	-2.546	-6.897	-90.272	-6.897	-90.272	-1.039	0.857
5180	-1.016	-3.035	-6.99	-90.748	-6.99	-90.748	-1.015	0.386
5210	-0.992	-3.524	-7.084	-91.224	-7.084	-91.224	-0.991	-0.084
5240	-0.969	-4.013	-7.18	-91.7	-7.18	-91.7	-0.968	-0.555
5270	-0.946	-4.502	-7.276	-92.176	-7.276	-92.176	-0.945	-1.026
5300	-0.923	-4.991	-7.374	-92.652	-7.374	-92.652	-0.923	-1.497
5330	-0.902	-5.48	-7.474	-93.127	-7.474	-93.127	-0.901	-1.968
5360	-0.88	-5.969	-7.575	-93.603	-7.575	-93.603	-0.879	-2.44
5390	-0.858	-6.459	-7.677	-94.079	-7.677	-94.079	-0.857	-2.911
5420	-0.837	-6.948	-7.78	-94.554	-7.78	-94.554	-0.836	-3.382
5450	-0.816	-7.438	-7.886	-95.03	-7.886	-95.03	-0.815	-3.854
5480	-0.795	-7.928	-7.992	-95.505	-7.992	-95.505	-0.794	-4.326
5510	-0.775	-8.418	-8.1	-95.981	-8.1	-95.981	-0.774	-4.798
5540	-0.755	-8.908	-8.21	-96.456	-8.21	-96.456	-0.754	-5.271
5570	-0.735	-9.398	-8.322	-96.932	-8.322	-96.932	-0.734	-5.743
5600	-0.715	-9.888	-8.435	-97.407	-8.435	-97.407	-0.715	-6.216
5630	-0.696	-10.379	-8.55	-97.883	-8.55	-97.883	-0.696	-6.689
5660	-0.678	-10.87	-8.667	-98.358	-8.667	-98.358	-0.677	-7.163
5690	-0.659	-11.361	-8.785	-98.834	-8.785	-98.834	-0.658	-7.636
5720	-0.641	-11.853	-8.906	-99.31	-8.906	-99.31	-0.64	-8.11
5750	-0.623	-12.345	-9.029	-99.785	-9.029	-99.785	-0.622	-8.585
5780	-0.605	-12.837	-9.153	-100.261	-9.153	-100.261	-0.604	-9.059
5810	-0.587	-13.329	-9.28	-100.737	-9.28	-100.737	-0.587	-9.534
5840	-0.571	-13.822	-9.409	-101.212	-9.409	-101.212	-0.57	-10.01
5870	-0.554	-14.314	-9.54	-101.688	-9.54	-101.688	-0.553	-10.486
5900	-0.537	-14.807	-9.673	-102.164	-9.673	-102.164	-0.536	-10.961
5930	-0.521	-15.301	-9.81	-102.64	-9.81	-102.64	-0.52	-11.438
5960	-0.505	-15.796	-9.948	-103.116	-9.948	-103.116	-0.504	-11.916
5990	-0.489	-16.29	-10.089	-103.591	-10.089	-103.591	-0.488	-12.393
6020	-0.474	-16.785	-10.233	-104.067	-10.233	-104.067	-0.473	-12.871
6050	-0.458	-17.28	-10.38	-104.543	-10.38	-104.543	-0.458	-13.35
6080	-0.443	-17.775	-10.529	-105.019	-10.529	-105.019	-0.443	-13.828
6110	-0.429	-18.271	-10.681	-105.495	-10.681	-105.495	-0.428	-14.308
6140	-0.415	-18.768	-10.837	-105.971	-10.837	-105.971	-0.414	-14.788
6170	-0.4	-19.265	-10.995	-106.447	-10.995	-106.447	-0.4	-15.269
6200	-0.386	-19.762	-11.157	-106.922	-11.157	-106.922	-0.386	-15.749
6230	-0.373	-20.261	-11.323	-107.398	-11.323	-107.398	-0.372	-16.231
6260	-0.36	-20.759	-11.492	-107.873	-11.492	-107.873	-0.359	-16.714
6290	-0.347	-21.258	-11.665	-108.349	-11.665	-108.349	-0.346	-17.196
6320	-0.334	-21.758	-11.842	-108.824	-11.842	-108.824	-0.333	-17.68
6350	-0.322	-22.258	-12.023	-109.299	-12.023	-109.299	-0.321	-18.164
6380	-0.309	-22.758	-12.208	-109.774	-12.208	-109.774	-0.309	-18.649
6410	-0.297	-23.259	-12.398	-110.248	-12.398	-110.248	-0.297	-19.134
6440	-0.286	-23.762	-12.593	-110.722	-12.593	-110.722	-0.285	-19.621
6470	-0.274	-24.264	-12.793	-111.196	-12.793	-111.196	-0.274	-20.107
6500	-0.263	-24.766	-12.997	-111.669	-12.997	-111.669	-0.262	-20.594
6530	-0.252	-25.271	-13.208	-112.141	-13.208	-112.141	-0.252	-21.083
6560	-0.242	-25.775	-13.424	-112.613	-13.424	-112.613	-0.241	-21.572
6590	-0.231	-26.28	-13.646	-113.085	-13.646	-113.085	-0.231	-22.062
6620	-0.221	-26.786	-13.875	-113.555	-13.875	-113.555	-0.221	-22.552
6650	-0.211	-27.292	-14.11	-114.024	-14.11	-114.024	-0.211	-23.044
6680	-0.202	-27.799	-14.353	-114.493	-14.353	-114.493	-0.201	-23.536
6710	-0.192	-28.306	-14.603	-114.961	-14.603	-114.961	-0.192	-24.028
6740	-0.183	-28.816	-14.861	-115.425	-14.861	-115.425	-0.183	-24.523
6770	-0.175	-29.325	-15.128	-115.889	-15.128	-115.889	-0.174	-25.017
6800	-0.166	-29.834	-15.403	-116.354	-15.403	-116.354	-0.166	-25.512
6830	-0.158	-30.345	-15.69	-116.811	-15.69	-116.811	-0.158	-26.009
6860	-0.15	-30.857	-15.987	-117.269	-15.987	-117.269	-0.15	-26.506
6890	-0.142	-31.369	-16.294	-117.726	-16.294	-117.726	-0.142	-27.004
6920	-0.135	-31.882	-16.614	-118.176	-16.614	-118.176	-0.135	-27.503
6950	-0.128	-32.396	-16.947	-118.622	-16.947	-118.622	-0.128	-28.003
6980	-0.121	-32.91	-17.294	-119.068	-17.294	-119.068	-0.121	-28.504
7010	-0.114	-33.426	-17.656	-119.508	-17.656	-119.508	-0.114	-29.005
7040	-0.108	-33.943	-18.036	-119.936	-18.036	-119.936	-0.108	-29.509
7070	-0.102	-34.46	-18.433	-120.364	-18.433	-120.364	-0.102	-30.013
7100	-0.096	-34.977	-18.85	-120.792	-18.85	-120.792	-0.096	-30.516
7130	-0.091	-35.497	-19.291	-121.189	-19.291	-121.189	-0.091	-31.023
7160	-0.086	-36.017	-19.756	-121.587	-19.756	-121.587	-0.086	-31.53
7190	-0.08	-36.537	-20.247	-121.984	-20.247	-121.984	-0.08	-32.037
7220	-0.076	-37.059	-20.77	-122.343	-20.77	-122.343	-0.076	-32.546
7250	-0.072	-37.582	-21.329	-122.683	-21.329	-122.683	-0.072	-33.057
7280	-0.067	-38.105	-21.926	-123.024	-21.926	-123.024	-0.067	-33.567
7310	-0.064	-38.629	-22.568	-123.325	-22.568	-123.325	-0.064	-34.079
7340	-0.06	-39.155	-23.266	-123.548	-23.266	-123.548	-0.06	-34.593
7370	-0.057	-39.681	-24.025	-123.771	-24.025	-123.771	-0.057	-35.107
7400	-0.054	-40.208	-24.856	-123.993	-24.856	-123.993	-0.054	-35.622
7430	-0.051	-40.737	-25.781	-123.912	-25.781	-123.912	-0.052	-36.14
7460	-0.049	-41.266	-26.817	-123.83	-26.817	-123.83	-0.049	-36.657
7490	-0.047	-41.796	-27.994	-123.749	-27.994	-123.749	-0.047	-37.175
7520	-0.045	-42.327	-29.355	-122.822	-29.355	-122.822	-0.045	-37.696
7550	-0.044	-42.86	-30.971	-121.472	-30.971	-121.472	-0.044	-38.218
7580	-0.042	-43.393	-32.957	-120.122	-32.957	-120.122	-0.043	-38.74
7610	-0.041	-43.927	-35.289	-109.656	-35.289	-109.656	-0.042	-39.263
7640	-0.041	-44.463	-37.81	-80.957	-37.81	-80.957	-0.042	-39.789
7670	-0.041	-44.999	-41.375	-52.258	-41.375	-52.258	-0.041	-40.315
7700	-0.04	-45.536	-47.529	-23.558	-47.529	-23.558	-0.041	-40.841
7730	-0.041	-46.075	-40.527	-6.174	-40.527	-6.174	-0.042	-41.371
7760	-0.042	-46.615	-36.701	11.21	-36.701	11.21	-0.043	-41.901
7790	-0.043	-47.155	-34.054	28.594	-34.054	28.594	-0.043	-42.431
7820	-0.044	-47.697	-31.864	35.044	-31.864	35.044	-0.045	-42.964
7850	-0.046	-48.24	-30.05	36.027	-30.05	36.027	-0.047	-43.498
7880	-0.048	-48.784	-28.551	37.01	-28.551	37.01	-0.048	-44.033
7910	-0.05	-49.328	-27.267	37.663	-27.267	37.663	-0.05	-44.568
7940	-0.053	-49.875	-26.141	37.657	-26.141	37.657	-0.053	-45.107
7970	-0.055	-50.422	-25.143	37.652	-25.143	37.652	-0.056	-45.646
8000	-0.058	-50.969	-24.249	37.646	-24.249	37.646	-0.059	-46.185
8030	-0.062	-51.52	-23.432	37.372	-23.432	37.372	-0.063	-46.728
8060	-0.066	-52.07	-22.685	37.099	-22.685	37.099	-0.067	-47.271
8090	-0.07	-52.621	-21.998	36.825	-21.998	36.825	-0.071	-47.814
8120	-0.075	-53.174	-21.358	36.477	-21.358	36.477	-0.076	-48.36
8150	-0.08	-53.729	-20.761	36.091	-20.761	36.091	-0.081	-48.908
8180	-0.085	-54.283	-20.202	35.705	-20.202	35.705	-0.086	-49.456
8210	-0.09	-54.839	-19.676	35.299	-19.676	35.299	-0.092	-50.005
8240	-0.097	-55.397	-19.178	34.854	-19.178	34.854	-0.098	-50.558
8270	-0.103	-55.955	-18.708	34.409	-18.708	34.409	-0.104	-51.11
8300	-0.109	-56.513	-18.261	33.964	-18.261	33.964	-0.111	-51.662
8330	-0.117	-57.075	-17.834	33.483	-17.834	33.483	-0.118	-52.219
8360	-0.124	-57.637	-17.428	33.003	-17.428	33.003	-0.126	-52.777
8390	-0.132	-58.199	-17.039	32.522	-17.039	32.522	-0.133	-53.334
8420	-0.14	-58.763	-16.666	32.025	-16.666	32.025	-0.141	-53.894
8450	-0.148	-59.328	-16.308	31.52	-16.308	31.52	-0.15	-54.456
8480	-0.157	-59.894	-15.964	31.015	-15.964	31.015	-0.159	-55.018
8510	-0.166	-60.461	-15.633	30.504	-15.633	30.504	-0.168	-55.581
8540	-0.176	-61.03	-15.313	29.981	-15.313	29.981	-0.178	-56.148
8570	-0.186	-61.6	-15.004	29.459	-15.004	29.459	-0.188	-56.714
8600	-0.196	-62.169	-14.706	28.936	-14.706	28.936	-0.198	-57.281
8630	-0.207	-62.742	-14.417	28.4	-14.417	28.4	-0.209	-57.852
8660	-0.218	-63.315	-14.138	27.864	-14.138	27.864	-0.221	-58.424
8690	-0.23	-63.888	-13.867	27.328	-13.867	27.328	-0.232	-58.995
8720	-0.242	-64.463	-13.604	26.784	-13.604	26.784	-0.244	-59.57
8750	-0.254	-65.04	-13.348	26.237	-13.348	26.237	-0.257	-60.146
8780	-0.267	-65.616	-13.1	25.69	-13.1	25.69	-0.269	-60.722
8810	-0.28	-66.194	-12.859	25.139	-12.859	25.139	-0.283	-61.3
8840	-0.294	-66.774	-12.624	24.583	-12.624	24.583	-0.296	-61.881
8870	-0.308	-67.354	-12.395	24.026	-12.395	24.026	-0.31	-62.462
8900	-0.322	-67.934	-12.172	23.47	-12.172	23.47	-0.324	-63.043
8930	-0.337	-68.518	-11.954	22.905	-11.954	22.905	-0.34	-63.629
8960	-0.352	-69.101	-11.742	22.341	-11.742	22.341	-0.355	-64.214
8990	-0.367	-69.685	-11.535	21.776	-11.535	21.776	-0.371	-64.8
9020	-0.384	-70.271	-11.333	21.207	-11.333	21.207	-0.387	-65.389
9050	-0.4	-70.857	-11.135	20.635	-11.135	20.635	-0.404	-65.98
9080	-0.417	-71.444	-10.942	20.063	-10.942	20.063	-0.421	-66.57
9110	-0.434	-72.032	-10.753	19.489	-10.753	19.489	-0.438	-67.163
9140	-0.452	-72.622	-10.569	18.911	-10.569	18.911	-0.456	-67.758
9170	-0.471	-73.212	-10.388	18.333	-10.388	18.333	-0.474	-68.353
9200	-0.489	-73.802	-10.211	17.755	-10.211	17.755	-0.493	-68.949
9230	-0.508	-74.395	-10.037	17.171	-10.037	17.171	-0.512	-69.549
9260	-0.528	-74.988	-9.868	16.587	-9.868	16.587	-0.532	-70.149
9290	-0.548	-75.581	-9.701	16.003	-9.701	16.003	-0.552	-70.749
9320	-0.568	-76.176	-9.538	15.415	-9.538	15.415	-0.573	-71.352
