! AVX Thin Film Operation		Date: May 2002 
! Description: Accu-L® Series, Thin Film, SMD, RF Inductors
! Part Number: L08055R6CEWTR
! 50 MHz  -  10.05 GHz
! Serial Measurements
!
# mhz S db R 50
!	S11		S21		S12		S22
!	dB	Phase	dB	Phase	dB	Phase	dB	Phase
50	-36.641	85.933	-6.93e-3	-1.118	-6.93e-3	-1.118	-36.641	85.933
75	-33.307	85.541	-0.011	-1.652	-0.011	-1.652	-33.307	85.541
100	-30.904	85.15	-0.015	-2.185	-0.015	-2.185	-30.904	85.15
125	-29.024	84.759	-0.019	-2.719	-0.019	-2.719	-29.024	84.759
150	-27.479	84.367	-0.023	-3.253	-0.023	-3.253	-27.479	84.367
175	-26.168	83.976	-0.027	-3.786	-0.027	-3.786	-26.168	83.976
200	-25.029	83.584	-0.031	-4.32	-0.031	-4.32	-25.029	83.584
225	-24.032	83.114	-0.036	-4.85	-0.036	-4.85	-24.032	83.114
250	-23.137	82.644	-0.041	-5.38	-0.041	-5.38	-23.137	82.644
275	-22.326	82.173	-0.047	-5.91	-0.047	-5.91	-22.326	82.173
300	-21.585	81.703	-0.052	-6.44	-0.052	-6.44	-21.585	81.703
325	-20.907	81.207	-0.059	-6.968	-0.059	-6.968	-20.907	81.207
350	-20.279	80.712	-0.065	-7.496	-0.065	-7.496	-20.279	80.712
375	-19.693	80.216	-0.072	-8.024	-0.072	-8.024	-19.693	80.216
400	-19.144	79.72	-0.079	-8.551	-0.079	-8.551	-19.144	79.72
425	-18.631	79.213	-0.087	-9.077	-0.087	-9.077	-18.631	79.213
450	-18.148	78.706	-0.095	-9.603	-0.095	-9.603	-18.148	78.706
475	-17.69	78.199	-0.104	-10.128	-0.104	-10.128	-17.69	78.199
500	-17.255	77.692	-0.112	-10.654	-0.112	-10.654	-17.255	77.692
525	-16.844	77.179	-0.122	-11.177	-0.122	-11.177	-16.844	77.179
550	-16.452	76.666	-0.131	-11.701	-0.131	-11.701	-16.452	76.666
575	-16.077	76.154	-0.141	-12.224	-0.141	-12.224	-16.077	76.154
600	-15.718	75.641	-0.151	-12.748	-0.151	-12.748	-15.718	75.641
625	-15.376	75.125	-0.162	-13.269	-0.162	-13.269	-15.376	75.125
650	-15.047	74.609	-0.173	-13.79	-0.173	-13.79	-15.047	74.609
675	-14.73	74.094	-0.184	-14.312	-0.184	-14.312	-14.73	74.094
700	-14.424	73.578	-0.196	-14.833	-0.196	-14.833	-14.424	73.578
725	-14.132	73.061	-0.208	-15.352	-0.208	-15.352	-14.132	73.061
750	-13.85	72.544	-0.221	-15.871	-0.221	-15.871	-13.85	72.544
775	-13.576	72.027	-0.234	-16.39	-0.234	-16.39	-13.576	72.027
800	-13.311	71.511	-0.247	-16.909	-0.247	-16.909	-13.311	71.511
825	-13.056	70.994	-0.261	-17.426	-0.261	-17.426	-13.056	70.994
850	-12.809	70.476	-0.275	-17.942	-0.275	-17.942	-12.809	70.476
875	-12.569	69.959	-0.289	-18.459	-0.289	-18.459	-12.569	69.959
900	-12.335	69.442	-0.304	-18.976	-0.304	-18.976	-12.335	69.442
925	-12.111	68.926	-0.319	-19.49	-0.319	-19.49	-12.111	68.926
950	-11.892	68.41	-0.335	-20.004	-0.335	-20.004	-11.892	68.41
975	-11.678	67.893	-0.351	-20.518	-0.351	-20.518	-11.678	67.893
1000	-11.469	67.377	-0.366	-21.032	-0.366	-21.032	-11.469	67.377
1025	-11.269	66.861	-0.383	-21.544	-0.383	-21.544	-11.269	66.861
1050	-11.073	66.346	-0.401	-22.056	-0.401	-22.056	-11.073	66.346
1075	-10.881	65.831	-0.418	-22.567	-0.418	-22.567	-10.881	65.831
1100	-10.693	65.315	-0.435	-23.079	-0.435	-23.079	-10.693	65.315
1125	-10.512	64.802	-0.454	-23.587	-0.454	-23.587	-10.512	64.802
1150	-10.335	64.288	-0.472	-24.096	-0.472	-24.096	-10.335	64.288
1175	-10.161	63.774	-0.491	-24.605	-0.491	-24.605	-10.161	63.774
1200	-9.991	63.26	-0.509	-25.114	-0.509	-25.114	-9.991	63.26
1225	-9.827	62.748	-0.529	-25.62	-0.529	-25.62	-9.827	62.748
1250	-9.665	62.236	-0.549	-26.126	-0.549	-26.126	-9.665	62.236
1275	-9.507	61.725	-0.57	-26.632	-0.57	-26.632	-9.507	61.725
1300	-9.352	61.213	-0.59	-27.138	-0.59	-27.138	-9.352	61.213
1325	-9.202	60.703	-0.611	-27.641	-0.611	-27.641	-9.202	60.703
1350	-9.054	60.193	-0.633	-28.144	-0.633	-28.144	-9.054	60.193
1375	-8.909	59.683	-0.654	-28.647	-0.654	-28.647	-8.909	59.683
1400	-8.766	59.174	-0.676	-29.15	-0.676	-29.15	-8.766	59.174
1425	-8.629	58.666	-0.698	-29.65	-0.698	-29.65	-8.629	58.666
1450	-8.493	58.159	-0.721	-30.149	-0.721	-30.149	-8.493	58.159
1475	-8.359	57.651	-0.744	-30.649	-0.744	-30.649	-8.359	57.651
1500	-8.228	57.144	-0.767	-31.149	-0.767	-31.149	-8.228	57.144
1525	-8.101	56.639	-0.791	-31.646	-0.791	-31.646	-8.101	56.639
1550	-7.976	56.134	-0.816	-32.143	-0.816	-32.143	-7.976	56.134
1575	-7.852	55.629	-0.84	-32.64	-0.84	-32.64	-7.852	55.629
1600	-7.73	55.124	-0.864	-33.137	-0.864	-33.137	-7.73	55.124
1625	-7.613	54.622	-0.89	-33.63	-0.89	-33.63	-7.613	54.622
1650	-7.497	54.12	-0.916	-34.124	-0.916	-34.124	-7.497	54.12
1675	-7.382	53.617	-0.941	-34.618	-0.941	-34.618	-7.382	53.617
1700	-7.269	53.115	-0.967	-35.111	-0.967	-35.111	-7.269	53.115
1725	-7.16	52.616	-0.994	-35.602	-0.994	-35.602	-7.16	52.616
1750	-7.052	52.116	-1.021	-36.092	-1.021	-36.092	-7.052	52.116
1775	-6.946	51.617	-1.048	-36.583	-1.048	-36.583	-6.946	51.617
1800	-6.84	51.117	-1.075	-37.073	-1.075	-37.073	-6.84	51.117
1825	-6.739	50.621	-1.104	-37.56	-1.104	-37.56	-6.739	50.621
1850	-6.638	50.124	-1.132	-38.047	-1.132	-38.047	-6.638	50.124
1875	-6.539	49.627	-1.161	-38.535	-1.161	-38.535	-6.539	49.627
1900	-6.44	49.131	-1.189	-39.022	-1.189	-39.022	-6.44	49.131
1925	-6.346	48.637	-1.219	-39.506	-1.219	-39.506	-6.346	48.637
1950	-6.252	48.144	-1.249	-39.989	-1.249	-39.989	-6.252	48.144
1975	-6.159	47.65	-1.278	-40.473	-1.278	-40.473	-6.159	47.65
2000	-6.067	47.156	-1.308	-40.957	-1.308	-40.957	-6.067	47.156
2025	-5.978	46.666	-1.339	-41.438	-1.339	-41.438	-5.978	46.666
2050	-5.89	46.175	-1.37	-41.918	-1.37	-41.918	-5.89	46.175
2075	-5.803	45.684	-1.402	-42.399	-1.402	-42.399	-5.803	45.684
2100	-5.717	45.193	-1.433	-42.879	-1.433	-42.879	-5.717	45.193
2125	-5.634	44.706	-1.465	-43.356	-1.465	-43.356	-5.634	44.706
2150	-5.551	44.218	-1.498	-43.833	-1.498	-43.833	-5.551	44.218
2175	-5.469	43.73	-1.53	-44.311	-1.53	-44.311	-5.469	43.73
2200	-5.388	43.243	-1.563	-44.788	-1.563	-44.788	-5.388	43.243
2225	-5.31	42.758	-1.597	-45.262	-1.597	-45.262	-5.31	42.758
2250	-5.233	42.274	-1.63	-45.736	-1.63	-45.736	-5.233	42.274
2275	-5.156	41.789	-1.664	-46.21	-1.664	-46.21	-5.156	41.789
2300	-5.08	41.304	-1.698	-46.683	-1.698	-46.683	-5.08	41.304
2325	-5.006	40.823	-1.733	-47.154	-1.733	-47.154	-5.006	40.823
2350	-4.933	40.341	-1.769	-47.625	-1.769	-47.625	-4.933	40.341
2375	-4.861	39.86	-1.804	-48.095	-1.804	-48.095	-4.861	39.86
2400	-4.789	39.378	-1.839	-48.566	-1.839	-48.566	-4.789	39.378
2425	-4.72	38.899	-1.876	-49.033	-1.876	-49.033	-4.72	38.899
2450	-4.652	38.421	-1.912	-49.5	-1.912	-49.5	-4.652	38.421
2475	-4.583	37.942	-1.949	-49.968	-1.949	-49.968	-4.583	37.942
2500	-4.516	37.464	-1.986	-50.435	-1.986	-50.435	-4.516	37.464
2525	-4.45	36.988	-2.023	-50.899	-2.023	-50.899	-4.45	36.988
2550	-4.386	36.512	-2.061	-51.363	-2.061	-51.363	-4.386	36.512
2575	-4.321	36.037	-2.099	-51.827	-2.099	-51.827	-4.321	36.037
2600	-4.257	35.561	-2.137	-52.291	-2.137	-52.291	-4.257	35.561
2625	-4.196	35.089	-2.176	-52.752	-2.176	-52.752	-4.196	35.089
2650	-4.135	34.616	-2.216	-53.213	-2.216	-53.213	-4.135	34.616
2675	-4.074	34.143	-2.255	-53.674	-2.255	-53.674	-4.074	34.143
2700	-4.014	33.671	-2.295	-54.135	-2.295	-54.135	-4.014	33.671
2725	-3.955	33.201	-2.335	-54.593	-2.335	-54.593	-3.955	33.201
2750	-3.897	32.731	-2.376	-55.051	-2.376	-55.051	-3.897	32.731
2775	-3.84	32.262	-2.416	-55.508	-2.416	-55.508	-3.84	32.262
2800	-3.783	31.792	-2.457	-55.966	-2.457	-55.966	-3.783	31.792
2825	-3.728	31.325	-2.499	-56.421	-2.499	-56.421	-3.728	31.325
2850	-3.673	30.858	-2.541	-56.876	-2.541	-56.876	-3.673	30.858
2875	-3.619	30.391	-2.584	-57.33	-2.584	-57.33	-3.619	30.391
2900	-3.565	29.924	-2.626	-57.785	-2.626	-57.785	-3.565	29.924
2925	-3.512	29.46	-2.669	-58.237	-2.669	-58.237	-3.512	29.46
2950	-3.461	28.996	-2.713	-58.689	-2.713	-58.689	-3.461	28.996
2975	-3.409	28.532	-2.756	-59.14	-2.756	-59.14	-3.409	28.532
3000	-3.358	28.068	-2.8	-59.592	-2.8	-59.592	-3.358	28.068
3025	-3.308	27.606	-2.845	-60.041	-2.845	-60.041	-3.308	27.606
3050	-3.259	27.145	-2.89	-60.49	-2.89	-60.49	-3.259	27.145
3075	-3.21	26.683	-2.935	-60.939	-2.935	-60.939	-3.21	26.683
3100	-3.162	26.222	-2.98	-61.387	-2.98	-61.387	-3.162	26.222
3125	-3.115	25.763	-3.027	-61.834	-3.027	-61.834	-3.115	25.763
3150	-3.068	25.304	-3.073	-62.28	-3.073	-62.28	-3.068	25.304
3175	-3.022	24.845	-3.12	-62.726	-3.12	-62.726	-3.022	24.845
3200	-2.976	24.387	-3.167	-63.172	-3.167	-63.172	-2.976	24.387
3225	-2.931	23.93	-3.214	-63.615	-3.214	-63.615	-2.931	23.93
3250	-2.887	23.474	-3.262	-64.058	-3.262	-64.058	-2.887	23.474
3275	-2.843	23.018	-3.31	-64.502	-3.31	-64.502	-2.843	23.018
3300	-2.799	22.561	-3.359	-64.945	-3.359	-64.945	-2.799	22.561
3325	-2.757	22.107	-3.408	-65.386	-3.408	-65.386	-2.757	22.107
3350	-2.715	21.653	-3.458	-65.826	-3.458	-65.826	-2.715	21.653
3375	-2.673	21.2	-3.508	-66.267	-3.508	-66.267	-2.673	21.2
3400	-2.632	20.746	-3.558	-66.708	-3.558	-66.708	-2.632	20.746
3425	-2.592	20.294	-3.609	-67.146	-3.609	-67.146	-2.592	20.294
3450	-2.552	19.842	-3.66	-67.584	-3.66	-67.584	-2.552	19.842
3475	-2.512	19.391	-3.711	-68.022	-3.711	-68.022	-2.512	19.391
3500	-2.473	18.939	-3.763	-68.461	-3.763	-68.461	-2.473	18.939
3525	-2.435	18.49	-3.816	-68.896	-3.816	-68.896	-2.435	18.49
3550	-2.397	18.04	-3.869	-69.332	-3.869	-69.332	-2.397	18.04
3575	-2.359	17.591	-3.922	-69.768	-3.922	-69.768	-2.359	17.591
3600	-2.321	17.141	-3.975	-70.204	-3.975	-70.204	-2.321	17.141
3625	-2.285	16.694	-4.03	-70.637	-4.03	-70.637	-2.285	16.694
3650	-2.249	16.247	-4.084	-71.071	-4.084	-71.071	-2.249	16.247
3675	-2.213	15.799	-4.139	-71.504	-4.139	-71.504	-2.213	15.799
3700	-2.177	15.352	-4.195	-71.938	-4.195	-71.938	-2.177	15.352
3725	-2.143	14.906	-4.251	-72.369	-4.251	-72.369	-2.143	14.906
3750	-2.109	14.461	-4.307	-72.8	-4.307	-72.8	-2.109	14.461
3775	-2.074	14.016	-4.364	-73.232	-4.364	-73.232	-2.074	14.016
3800	-2.04	13.57	-4.421	-73.663	-4.421	-73.663	-2.04	13.57
3825	-2.008	13.127	-4.479	-74.092	-4.479	-74.092	-2.008	13.127
3850	-1.975	12.683	-4.538	-74.521	-4.538	-74.521	-1.975	12.683
3875	-1.943	12.239	-4.597	-74.95	-4.597	-74.95	-1.943	12.239
3900	-1.91	11.796	-4.656	-75.38	-4.656	-75.38	-1.91	11.796
3925	-1.879	11.354	-4.716	-75.807	-4.716	-75.807	-1.879	11.354
3950	-1.848	10.912	-4.776	-76.234	-4.776	-76.234	-1.848	10.912
3975	-1.817	10.47	-4.837	-76.662	-4.837	-76.662	-1.817	10.47
4000	-1.786	10.028	-4.899	-77.089	-4.899	-77.089	-1.786	10.028
4025	-1.757	9.588	-4.961	-77.514	-4.961	-77.514	-1.757	9.588
4050	-1.727	9.147	-5.023	-77.94	-5.023	-77.94	-1.727	9.147
4075	-1.698	8.707	-5.087	-78.365	-5.087	-78.365	-1.698	8.707
4100	-1.668	8.266	-5.15	-78.79	-5.15	-78.79	-1.668	8.266
4125	-1.64	7.828	-5.215	-79.214	-5.215	-79.214	-1.64	7.828
4150	-1.612	7.389	-5.279	-79.638	-5.279	-79.638	-1.612	7.389
4175	-1.584	6.95	-5.345	-80.061	-5.345	-80.061	-1.584	6.95
4200	-1.556	6.511	-5.411	-80.485	-5.411	-80.485	-1.556	6.511
4225	-1.529	6.073	-5.477	-80.907	-5.477	-80.907	-1.529	6.073
4250	-1.502	5.635	-5.545	-81.329	-5.545	-81.329	-1.502	5.635
4275	-1.476	5.198	-5.613	-81.751	-5.613	-81.751	-1.476	5.198
4300	-1.449	4.76	-5.681	-82.173	-5.681	-82.173	-1.449	4.76
4325	-1.424	4.323	-5.75	-82.594	-5.75	-82.594	-1.424	4.323
4350	-1.398	3.887	-5.82	-83.015	-5.82	-83.015	-1.398	3.887
4375	-1.373	3.45	-5.891	-83.435	-5.891	-83.435	-1.373	3.45
4400	-1.348	3.014	-5.962	-83.856	-5.962	-83.856	-1.348	3.014
4425	-1.323	2.578	-6.034	-84.275	-6.034	-84.275	-1.323	2.578
4450	-1.299	2.143	-6.106	-84.694	-6.106	-84.694	-1.299	2.143
4475	-1.275	1.707	-6.18	-85.113	-6.18	-85.113	-1.275	1.707
4500	-1.251	1.272	-6.254	-85.532	-6.254	-85.532	-1.251	1.272
4525	-1.228	0.837	-6.329	-85.95	-6.329	-85.95	-1.228	0.837
4550	-1.205	0.402	-6.404	-86.368	-6.404	-86.368	-1.205	0.402
4575	-1.182	-0.033	-6.48	-86.786	-6.48	-86.786	-1.182	-0.033
4600	-1.159	-0.467	-6.557	-87.204	-6.557	-87.204	-1.159	-0.467
4625	-1.137	-0.901	-6.635	-87.62	-6.635	-87.62	-1.137	-0.901
4650	-1.115	-1.335	-6.714	-88.037	-6.714	-88.037	-1.115	-1.335
4675	-1.093	-1.769	-6.794	-88.454	-6.794	-88.454	-1.093	-1.769
4700	-1.072	-2.203	-6.874	-88.87	-6.874	-88.87	-1.072	-2.203
4725	-1.051	-2.637	-6.955	-89.286	-6.955	-89.286	-1.051	-2.637
4750	-1.03	-3.07	-7.038	-89.701	-7.038	-89.701	-1.03	-3.07
4775	-1.009	-3.504	-7.121	-90.117	-7.121	-90.117	-1.009	-3.504
4800	-0.989	-3.937	-7.204	-90.533	-7.204	-90.533	-0.989	-3.937
4825	-0.969	-4.37	-7.289	-90.947	-7.289	-90.947	-0.969	-4.37
4850	-0.949	-4.803	-7.375	-91.362	-7.375	-91.362	-0.949	-4.803
4875	-0.929	-5.236	-7.462	-91.776	-7.462	-91.776	-0.929	-5.236
4900	-0.91	-5.669	-7.55	-92.191	-7.55	-92.191	-0.91	-5.669
4925	-0.891	-6.102	-7.639	-92.604	-7.639	-92.604	-0.891	-6.102
4950	-0.872	-6.535	-7.729	-93.018	-7.729	-93.018	-0.872	-6.535
4975	-0.854	-6.968	-7.82	-93.431	-7.82	-93.431	-0.854	-6.968
5000	-0.835	-7.4	-7.912	-93.845	-7.912	-93.845	-0.835	-7.4
5025	-0.817	-7.833	-8.005	-94.258	-8.005	-94.258	-0.817	-7.833
5050	-0.799	-8.266	-8.1	-94.67	-8.1	-94.67	-0.799	-8.266
5075	-0.782	-8.698	-8.195	-95.083	-8.195	-95.083	-0.782	-8.698
5100	-0.764	-9.131	-8.292	-95.495	-8.292	-95.495	-0.764	-9.131
5125	-0.747	-9.564	-8.39	-95.907	-8.39	-95.907	-0.747	-9.564
5150	-0.73	-9.997	-8.489	-96.319	-8.489	-96.319	-0.73	-9.997
5175	-0.714	-10.429	-8.59	-96.731	-8.59	-96.731	-0.714	-10.429
5200	-0.697	-10.862	-8.691	-97.142	-8.691	-97.142	-0.697	-10.862
5225	-0.681	-11.295	-8.795	-97.553	-8.795	-97.553	-0.681	-11.295
5250	-0.665	-11.728	-8.899	-97.964	-8.899	-97.964	-0.665	-11.728
5275	-0.649	-12.161	-9.005	-98.375	-9.005	-98.375	-0.649	-12.161
5300	-0.634	-12.594	-9.113	-98.786	-9.113	-98.786	-0.634	-12.594
5325	-0.619	-13.027	-9.222	-99.196	-9.222	-99.196	-0.619	-13.027
5350	-0.604	-13.46	-9.333	-99.606	-9.333	-99.606	-0.604	-13.46
5375	-0.589	-13.893	-9.445	-100.016	-9.445	-100.016	-0.589	-13.893
5400	-0.574	-14.327	-9.558	-100.426	-9.558	-100.426	-0.574	-14.327
5425	-0.56	-14.76	-9.674	-100.835	-9.674	-100.835	-0.56	-14.76
5450	-0.546	-15.194	-9.791	-101.244	-9.791	-101.244	-0.546	-15.194
5475	-0.532	-15.628	-9.91	-101.653	-9.91	-101.653	-0.532	-15.628
5500	-0.518	-16.062	-10.031	-102.061	-10.031	-102.061	-0.518	-16.062
5525	-0.504	-16.496	-10.154	-102.469	-10.154	-102.469	-0.504	-16.496
5550	-0.491	-16.931	-10.279	-102.877	-10.279	-102.877	-0.491	-16.931
5575	-0.478	-17.365	-10.405	-103.285	-10.405	-103.285	-0.478	-17.365
5600	-0.465	-17.799	-10.534	-103.693	-10.534	-103.693	-0.465	-17.799
5625	-0.452	-18.235	-10.665	-104.099	-10.665	-104.099	-0.452	-18.235
5650	-0.44	-18.67	-10.798	-104.506	-10.798	-104.506	-0.44	-18.67
5675	-0.428	-19.105	-10.933	-104.912	-10.933	-104.912	-0.428	-19.105
5700	-0.415	-19.54	-11.071	-105.319	-11.071	-105.319	-0.415	-19.54
5725	-0.404	-19.976	-11.211	-105.723	-11.211	-105.723	-0.404	-19.976
5750	-0.392	-20.412	-11.354	-106.128	-11.354	-106.128	-0.392	-20.412
5775	-0.381	-20.848	-11.5	-106.533	-11.5	-106.533	-0.381	-20.848
5800	-0.369	-21.285	-11.647	-106.938	-11.647	-106.938	-0.369	-21.285
5825	-0.359	-21.722	-11.799	-107.34	-11.799	-107.34	-0.359	-21.722
5850	-0.348	-22.159	-11.953	-107.743	-11.953	-107.743	-0.348	-22.159
5875	-0.337	-22.596	-12.109	-108.146	-12.109	-108.146	-0.337	-22.596
5900	-0.326	-23.033	-12.269	-108.548	-12.269	-108.548	-0.326	-23.033
5925	-0.316	-23.472	-12.433	-108.948	-12.433	-108.948	-0.316	-23.472
5950	-0.307	-23.91	-12.599	-109.348	-12.599	-109.348	-0.307	-23.91
5975	-0.297	-24.349	-12.769	-109.748	-12.769	-109.748	-0.297	-24.349
6000	-0.287	-24.787	-12.943	-110.147	-12.943	-110.147	-0.287	-24.787
6025	-0.278	-25.227	-13.121	-110.543	-13.121	-110.543	-0.278	-25.227
6050	-0.269	-25.667	-13.303	-110.939	-13.303	-110.939	-0.269	-25.667
6075	-0.259	-26.107	-13.489	-111.335	-13.489	-111.335	-0.259	-26.107
6100	-0.25	-26.546	-13.679	-111.731	-13.679	-111.731	-0.25	-26.546
6125	-0.242	-26.988	-13.874	-112.122	-13.874	-112.122	-0.242	-26.988
6150	-0.234	-27.429	-14.074	-112.513	-14.074	-112.513	-0.234	-27.429
6175	-0.225	-27.87	-14.279	-112.903	-14.279	-112.903	-0.225	-27.87
6200	-0.217	-28.312	-14.488	-113.294	-14.488	-113.294	-0.217	-28.312
6225	-0.21	-28.755	-14.705	-113.677	-14.705	-113.677	-0.21	-28.755
6250	-0.202	-29.198	-14.926	-114.06	-14.926	-114.06	-0.202	-29.198
6275	-0.194	-29.641	-15.154	-114.443	-15.154	-114.443	-0.194	-29.641
6300	-0.187	-30.084	-15.387	-114.827	-15.387	-114.827	-0.187	-30.084
6325	-0.18	-30.528	-15.629	-115.199	-15.629	-115.199	-0.18	-30.528
6350	-0.174	-30.973	-15.878	-115.571	-15.878	-115.571	-0.174	-30.973
6375	-0.167	-31.418	-16.134	-115.943	-16.134	-115.943	-0.167	-31.418
6400	-0.16	-31.862	-16.398	-116.316	-16.398	-116.316	-0.16	-31.862
6425	-0.154	-32.309	-16.672	-116.672	-16.672	-116.672	-0.154	-32.309
6450	-0.148	-32.756	-16.954	-117.028	-16.954	-117.028	-0.148	-32.756
6475	-0.142	-33.202	-17.247	-117.384	-17.247	-117.384	-0.142	-33.202
6500	-0.136	-33.649	-17.549	-117.74	-17.549	-117.74	-0.136	-33.649
6525	-0.131	-34.098	-17.865	-118.07	-17.865	-118.07	-0.131	-34.098
6550	-0.126	-34.546	-18.192	-118.4	-18.192	-118.4	-0.126	-34.546
6575	-0.121	-34.995	-18.532	-118.731	-18.532	-118.731	-0.121	-34.995
6600	-0.116	-35.444	-18.887	-119.061	-18.887	-119.061	-0.116	-35.444
6625	-0.111	-35.895	-19.258	-119.349	-19.258	-119.349	-0.111	-35.895
6650	-0.107	-36.346	-19.646	-119.637	-19.646	-119.637	-0.107	-36.346
6675	-0.103	-36.796	-20.053	-119.925	-20.053	-119.925	-0.103	-36.796
6700	-0.098	-37.247	-20.479	-120.213	-20.479	-120.213	-0.098	-37.247
6725	-0.095	-37.7	-20.93	-120.424	-20.93	-120.424	-0.095	-37.7
6750	-0.091	-38.154	-21.406	-120.635	-21.406	-120.635	-0.091	-38.154
6775	-0.088	-38.607	-21.909	-120.846	-21.909	-120.846	-0.088	-38.607
6800	-0.084	-39.06	-22.444	-121.057	-22.444	-121.057	-0.084	-39.06
6825	-0.082	-39.515	-23.016	-121.108	-23.016	-121.108	-0.082	-39.515
6850	-0.079	-39.971	-23.629	-121.159	-23.629	-121.159	-0.079	-39.971
6875	-0.076	-40.426	-24.288	-121.211	-24.288	-121.211	-0.076	-40.426
6900	-0.074	-40.882	-25.001	-121.262	-25.001	-121.262	-0.074	-40.882
6925	-0.072	-41.34	-25.78	-120.898	-25.78	-120.898	-0.072	-41.34
6950	-0.07	-41.798	-26.636	-120.533	-26.636	-120.533	-0.07	-41.798
6975	-0.068	-42.256	-27.585	-120.169	-27.585	-120.169	-0.068	-42.256
7000	-0.066	-42.714	-28.651	-119.804	-28.651	-119.804	-0.066	-42.714
7025	-0.065	-43.175	-29.849	-117.671	-29.849	-117.671	-0.065	-43.175
7050	-0.064	-43.635	-31.239	-115.537	-31.239	-115.537	-0.064	-43.635
7075	-0.063	-44.096	-32.895	-113.403	-32.895	-113.403	-0.063	-44.096
7100	-0.062	-44.557	-34.943	-111.27	-34.943	-111.27	-0.062	-44.557
7125	-0.062	-45.02	-36.42	-87.829	-36.42	-87.829	-0.062	-45.02
7150	-0.062	-45.483	-38.2	-64.388	-38.2	-64.388	-0.062	-45.483
7175	-0.061	-45.947	-40.441	-40.948	-40.441	-40.948	-0.061	-45.947
7200	-0.061	-46.41	-43.471	-17.507	-43.471	-17.507	-0.061	-46.41
7225	-0.062	-46.876	-39.247	-5.543	-39.247	-5.543	-0.062	-46.876
7250	-0.063	-47.342	-36.417	6.422	-36.417	6.422	-0.063	-47.342
7275	-0.063	-47.808	-34.286	18.386	-34.286	18.386	-0.063	-47.808
7300	-0.064	-48.275	-32.577	30.351	-32.577	30.351	-0.064	-48.275
7325	-0.066	-48.744	-30.933	31.603	-30.933	31.603	-0.066	-48.744
7350	-0.067	-49.213	-29.551	32.856	-29.551	32.856	-0.067	-49.213
7375	-0.069	-49.682	-28.36	34.108	-28.36	34.108	-0.069	-49.682
7400	-0.07	-50.151	-27.312	35.361	-27.312	35.361	-0.07	-50.151
7425	-0.073	-50.623	-26.361	35.538	-26.361	35.538	-0.073	-50.623
7450	-0.075	-51.095	-25.505	35.715	-25.505	35.715	-0.075	-51.095
7475	-0.078	-51.566	-24.725	35.892	-24.725	35.892	-0.078	-51.566
7500	-0.08	-52.038	-24.01	36.068	-24.01	36.068	-0.08	-52.038
7525	-0.084	-52.513	-23.344	35.935	-23.344	35.935	-0.084	-52.513
7550	-0.087	-52.988	-22.725	35.801	-22.725	35.801	-0.087	-52.988
7575	-0.091	-53.463	-22.147	35.667	-22.147	35.667	-0.091	-53.463
7600	-0.094	-53.938	-21.605	35.534	-21.605	35.534	-0.094	-53.938
7625	-0.098	-54.416	-21.092	35.267	-21.092	35.267	-0.098	-54.416
7650	-0.103	-54.894	-20.608	35.001	-20.608	35.001	-0.103	-54.894
7675	-0.107	-55.372	-20.149	34.734	-20.149	34.734	-0.107	-55.372
7700	-0.112	-55.85	-19.714	34.468	-19.714	34.468	-0.112	-55.85
7725	-0.117	-56.331	-19.297	34.131	-19.297	34.131	-0.117	-56.331
7750	-0.122	-56.812	-18.899	33.795	-18.899	33.795	-0.122	-56.812
7775	-0.128	-57.293	-18.518	33.458	-18.518	33.458	-0.128	-57.293
