!	AVX Thin Film Operation							
!	Date:	Febr.	2009					
!	Description: Accu-L® Series Thin Film SMD RF Inductors							
!	Part Number: L08051R5BGWTR							
!	25MHz-6GHz							
!	Serial	Measurements						
!								
#	mhz	S	db	R	50			
!	S11	S11	S21	S21	S12	S12	S22	S22
!	dB	Phase	dB	Phase	dB	Phase	dB	Phase
25	-54.087	84.373	-0.002	-0.189	-0.002	-0.189	-54.087	84.373
50	-48.35	85.456	-0.002	-0.372	-0.002	-0.372	-48.35	85.456
75	-44.963	85.88	-0.003	-0.553	-0.003	-0.553	-44.963	85.88
100	-42.547	86.078	-0.004	-0.733	-0.004	-0.733	-42.547	86.078
125	-40.668	86.165	-0.004	-0.913	-0.004	-0.913	-40.668	86.165
150	-39.128	86.189	-0.005	-1.093	-0.005	-1.093	-39.128	86.189
175	-37.825	86.171	-0.006	-1.272	-0.006	-1.272	-37.825	86.171
200	-36.694	86.125	-0.006	-1.451	-0.006	-1.451	-36.694	86.125
225	-35.695	86.059	-0.007	-1.63	-0.007	-1.63	-35.695	86.059
250	-34.801	85.977	-0.008	-1.808	-0.008	-1.808	-34.801	85.977
275	-33.991	85.883	-0.008	-1.987	-0.008	-1.987	-33.991	85.883
300	-33.252	85.779	-0.009	-2.165	-0.009	-2.165	-33.252	85.779
325	-32.571	85.667	-0.01	-2.343	-0.01	-2.343	-32.571	85.667
350	-31.94	85.549	-0.01	-2.521	-0.01	-2.521	-31.94	85.549
375	-31.353	85.425	-0.011	-2.699	-0.011	-2.699	-31.353	85.425
400	-30.803	85.297	-0.012	-2.877	-0.012	-2.877	-30.803	85.297
425	-30.287	85.165	-0.012	-3.055	-0.012	-3.055	-30.287	85.165
450	-29.8	85.03	-0.013	-3.233	-0.013	-3.233	-29.8	85.03
475	-29.339	84.892	-0.014	-3.411	-0.014	-3.411	-29.339	84.892
500	-28.902	84.751	-0.015	-3.589	-0.015	-3.589	-28.902	84.751
525	-28.485	84.608	-0.016	-3.766	-0.016	-3.766	-28.485	84.608
550	-28.089	84.462	-0.016	-3.944	-0.016	-3.944	-28.089	84.462
575	-27.71	84.315	-0.017	-4.121	-0.017	-4.121	-27.71	84.315
600	-27.346	84.167	-0.018	-4.299	-0.018	-4.299	-27.346	84.167
625	-26.998	84.016	-0.019	-4.476	-0.019	-4.476	-26.998	84.016
650	-26.664	83.865	-0.02	-4.653	-0.02	-4.653	-26.664	83.865
675	-26.342	83.712	-0.021	-4.83	-0.021	-4.83	-26.342	83.712
700	-26.031	83.558	-0.022	-5.008	-0.022	-5.008	-26.031	83.558
725	-25.732	83.404	-0.023	-5.185	-0.023	-5.185	-25.732	83.404
750	-25.442	83.248	-0.024	-5.362	-0.024	-5.362	-25.442	83.248
775	-25.163	83.091	-0.025	-5.539	-0.025	-5.539	-25.163	83.091
800	-24.892	82.934	-0.026	-5.716	-0.026	-5.716	-24.892	82.934
825	-24.629	82.776	-0.027	-5.893	-0.027	-5.893	-24.629	82.776
850	-24.375	82.617	-0.028	-6.07	-0.028	-6.07	-24.375	82.617
875	-24.127	82.458	-0.03	-6.247	-0.03	-6.247	-24.127	82.458
900	-23.887	82.298	-0.031	-6.423	-0.031	-6.423	-23.887	82.298
925	-23.653	82.137	-0.032	-6.6	-0.032	-6.6	-23.653	82.137
950	-23.426	81.976	-0.033	-6.777	-0.033	-6.777	-23.426	81.976
975	-23.204	81.815	-0.034	-6.953	-0.034	-6.953	-23.204	81.815
1000	-22.988	81.653	-0.036	-7.13	-0.036	-7.13	-22.988	81.653
1025	-22.778	81.491	-0.037	-7.307	-0.037	-7.307	-22.778	81.491
1050	-22.573	81.328	-0.038	-7.483	-0.038	-7.483	-22.573	81.328
1075	-22.372	81.165	-0.04	-7.66	-0.04	-7.66	-22.372	81.165
1100	-22.176	81.002	-0.041	-7.836	-0.041	-7.836	-22.176	81.002
1125	-21.985	80.838	-0.042	-8.012	-0.042	-8.012	-21.985	80.838
1150	-21.798	80.674	-0.044	-8.189	-0.044	-8.189	-21.798	80.674
1175	-21.614	80.51	-0.045	-8.365	-0.045	-8.365	-21.614	80.51
1200	-21.435	80.345	-0.047	-8.541	-0.047	-8.541	-21.435	80.345
1225	-21.26	80.18	-0.048	-8.717	-0.048	-8.717	-21.26	80.18
1250	-21.088	80.015	-0.05	-8.893	-0.05	-8.893	-21.088	80.015
1275	-20.919	79.85	-0.051	-9.069	-0.051	-9.069	-20.919	79.85
1300	-20.754	79.685	-0.053	-9.246	-0.053	-9.246	-20.754	79.685
1325	-20.592	79.519	-0.054	-9.421	-0.054	-9.421	-20.592	79.519
1350	-20.433	79.353	-0.056	-9.597	-0.056	-9.597	-20.433	79.353
1375	-20.277	79.187	-0.057	-9.773	-0.057	-9.773	-20.277	79.187
1400	-20.124	79.021	-0.059	-9.949	-0.059	-9.949	-20.124	79.021
1425	-19.974	78.855	-0.061	-10.125	-0.061	-10.125	-19.974	78.855
1450	-19.826	78.689	-0.062	-10.301	-0.062	-10.301	-19.826	78.689
1475	-19.681	78.522	-0.064	-10.476	-0.064	-10.476	-19.681	78.522
1500	-19.538	78.355	-0.066	-10.652	-0.066	-10.652	-19.538	78.355
1525	-19.398	78.189	-0.068	-10.828	-0.068	-10.828	-19.398	78.189
1550	-19.26	78.022	-0.069	-11.003	-0.069	-11.003	-19.26	78.022
1575	-19.125	77.855	-0.071	-11.179	-0.071	-11.179	-19.125	77.855
1600	-18.991	77.688	-0.073	-11.354	-0.073	-11.354	-18.991	77.688
1625	-18.86	77.52	-0.075	-11.529	-0.075	-11.529	-18.86	77.52
1650	-18.731	77.353	-0.077	-11.705	-0.077	-11.705	-18.731	77.353
1675	-18.603	77.186	-0.079	-11.88	-0.079	-11.88	-18.603	77.186
1700	-18.478	77.018	-0.081	-12.055	-0.081	-12.055	-18.478	77.018
1725	-18.355	76.851	-0.083	-12.23	-0.083	-12.23	-18.355	76.851
1750	-18.233	76.683	-0.085	-12.405	-0.085	-12.405	-18.233	76.683
1775	-18.113	76.515	-0.087	-12.58	-0.087	-12.58	-18.113	76.515
1800	-17.995	76.348	-0.089	-12.755	-0.089	-12.755	-17.995	76.348
1825	-17.878	76.18	-0.091	-12.93	-0.091	-12.93	-17.878	76.18
1850	-17.764	76.012	-0.093	-13.105	-0.093	-13.105	-17.764	76.012
1875	-17.65	75.844	-0.095	-13.28	-0.095	-13.28	-17.65	75.844
1900	-17.539	75.676	-0.097	-13.455	-0.097	-13.455	-17.539	75.676
1925	-17.428	75.508	-0.099	-13.63	-0.099	-13.63	-17.428	75.508
1950	-17.32	75.34	-0.101	-13.804	-0.101	-13.804	-17.32	75.34
1975	-17.212	75.172	-0.104	-13.979	-0.104	-13.979	-17.212	75.172
2000	-17.106	75.004	-0.106	-14.153	-0.106	-14.153	-17.106	75.004
2025	-17.002	74.836	-0.108	-14.328	-0.108	-14.328	-17.002	74.836
2050	-16.899	74.668	-0.11	-14.502	-0.11	-14.502	-16.899	74.668
2075	-16.797	74.5	-0.113	-14.677	-0.113	-14.677	-16.797	74.5
2100	-16.696	74.331	-0.115	-14.851	-0.115	-14.851	-16.696	74.331
2125	-16.597	74.163	-0.117	-15.025	-0.117	-15.025	-16.597	74.163
2150	-16.499	73.995	-0.12	-15.199	-0.12	-15.199	-16.499	73.995
2175	-16.402	73.827	-0.122	-15.373	-0.122	-15.373	-16.402	73.827
2200	-16.306	73.659	-0.124	-15.548	-0.124	-15.548	-16.306	73.659
2225	-16.211	73.49	-0.127	-15.722	-0.127	-15.722	-16.211	73.49
2250	-16.118	73.322	-0.129	-15.895	-0.129	-15.895	-16.118	73.322
2275	-16.025	73.154	-0.132	-16.069	-0.132	-16.069	-16.025	73.154
2300	-15.934	72.986	-0.134	-16.243	-0.134	-16.243	-15.934	72.986
2325	-15.843	72.817	-0.137	-16.417	-0.137	-16.417	-15.843	72.817
2350	-15.754	72.649	-0.139	-16.591	-0.139	-16.591	-15.754	72.649
2375	-15.666	72.481	-0.142	-16.764	-0.142	-16.764	-15.666	72.481
2400	-15.578	72.313	-0.145	-16.938	-0.145	-16.938	-15.578	72.313
2425	-15.492	72.144	-0.147	-17.111	-0.147	-17.111	-15.492	72.144
2450	-15.406	71.976	-0.15	-17.285	-0.15	-17.285	-15.406	71.976
2475	-15.322	71.808	-0.152	-17.458	-0.152	-17.458	-15.322	71.808
2500	-15.238	71.64	-0.155	-17.631	-0.155	-17.631	-15.238	71.64
2525	-15.155	71.472	-0.158	-17.804	-0.158	-17.804	-15.155	71.472
2550	-15.073	71.304	-0.161	-17.978	-0.161	-17.978	-15.073	71.304
2575	-14.992	71.135	-0.163	-18.151	-0.163	-18.151	-14.992	71.135
2600	-14.912	70.967	-0.166	-18.324	-0.166	-18.324	-14.912	70.967
2625	-14.832	70.799	-0.169	-18.497	-0.169	-18.497	-14.832	70.799
2650	-14.754	70.631	-0.172	-18.669	-0.172	-18.669	-14.754	70.631
2675	-14.676	70.463	-0.175	-18.842	-0.175	-18.842	-14.676	70.463
2700	-14.599	70.295	-0.178	-19.015	-0.178	-19.015	-14.599	70.295
2725	-14.522	70.127	-0.18	-19.188	-0.18	-19.188	-14.522	70.127
2750	-14.447	69.959	-0.183	-19.36	-0.183	-19.36	-14.447	69.959
2775	-14.372	69.791	-0.186	-19.533	-0.186	-19.533	-14.372	69.791
2800	-14.298	69.623	-0.189	-19.705	-0.189	-19.705	-14.298	69.623
2825	-14.224	69.456	-0.192	-19.878	-0.192	-19.878	-14.224	69.456
2850	-14.152	69.288	-0.195	-20.05	-0.195	-20.05	-14.152	69.288
2875	-14.08	69.12	-0.198	-20.222	-0.198	-20.222	-14.08	69.12
2900	-14.008	68.952	-0.201	-20.394	-0.201	-20.394	-14.008	68.952
2925	-13.938	68.785	-0.204	-20.566	-0.204	-20.566	-13.938	68.785
2950	-13.868	68.617	-0.207	-20.738	-0.207	-20.738	-13.868	68.617
2975	-13.798	68.449	-0.211	-20.91	-0.211	-20.91	-13.798	68.449
3000	-13.729	68.282	-0.214	-21.082	-0.214	-21.082	-13.729	68.282
3025	-13.661	68.114	-0.217	-21.254	-0.217	-21.254	-13.661	68.114
3050	-13.594	67.947	-0.22	-21.426	-0.22	-21.426	-13.594	67.947
3075	-13.527	67.779	-0.223	-21.597	-0.223	-21.597	-13.527	67.779
3100	-13.46	67.612	-0.227	-21.769	-0.227	-21.769	-13.46	67.612
3125	-13.395	67.444	-0.23	-21.94	-0.23	-21.94	-13.395	67.444
3150	-13.329	67.277	-0.233	-22.112	-0.233	-22.112	-13.329	67.277
3175	-13.265	67.11	-0.236	-22.283	-0.236	-22.283	-13.265	67.11
3200	-13.201	66.943	-0.24	-22.454	-0.24	-22.454	-13.201	66.943
3225	-13.137	66.776	-0.243	-22.625	-0.243	-22.625	-13.137	66.776
3250	-13.074	66.608	-0.246	-22.796	-0.246	-22.796	-13.074	66.608
3275	-13.012	66.441	-0.25	-22.967	-0.25	-22.967	-13.012	66.441
3300	-12.95	66.274	-0.253	-23.138	-0.253	-23.138	-12.95	66.274
3325	-12.889	66.107	-0.257	-23.309	-0.257	-23.309	-12.889	66.107
3350	-12.828	65.941	-0.26	-23.48	-0.26	-23.48	-12.828	65.941
3375	-12.767	65.774	-0.263	-23.651	-0.263	-23.651	-12.767	65.774
3400	-12.707	65.607	-0.267	-23.821	-0.267	-23.821	-12.707	65.607
3425	-12.648	65.44	-0.27	-23.992	-0.27	-23.992	-12.648	65.44
3450	-12.589	65.274	-0.274	-24.162	-0.274	-24.162	-12.589	65.274
3475	-12.53	65.107	-0.277	-24.332	-0.277	-24.332	-12.53	65.107
3500	-12.472	64.94	-0.281	-24.503	-0.281	-24.503	-12.472	64.94
3525	-12.415	64.774	-0.285	-24.673	-0.285	-24.673	-12.415	64.774
3550	-12.358	64.608	-0.288	-24.843	-0.288	-24.843	-12.358	64.608
3575	-12.301	64.441	-0.292	-25.013	-0.292	-25.013	-12.301	64.441
3600	-12.245	64.275	-0.296	-25.183	-0.296	-25.183	-12.245	64.275
3625	-12.189	64.109	-0.299	-25.353	-0.299	-25.353	-12.189	64.109
3650	-12.134	63.942	-0.303	-25.522	-0.303	-25.522	-12.134	63.942
3675	-12.079	63.776	-0.307	-25.692	-0.307	-25.692	-12.079	63.776
3700	-12.025	63.61	-0.31	-25.862	-0.31	-25.862	-12.025	63.61
3725	-11.971	63.444	-0.314	-26.031	-0.314	-26.031	-11.971	63.444
3750	-11.917	63.279	-0.318	-26.201	-0.318	-26.201	-11.917	63.279
3775	-11.864	63.113	-0.322	-26.37	-0.322	-26.37	-11.864	63.113
3800	-11.811	62.947	-0.325	-26.539	-0.325	-26.539	-11.811	62.947
3825	-11.758	62.781	-0.329	-26.708	-0.329	-26.708	-11.758	62.781
3850	-11.706	62.616	-0.333	-26.877	-0.333	-26.877	-11.706	62.616
3875	-11.655	62.45	-0.337	-27.046	-0.337	-27.046	-11.655	62.45
3900	-11.603	62.285	-0.341	-27.215	-0.341	-27.215	-11.603	62.285
3925	-11.552	62.119	-0.345	-27.384	-0.345	-27.384	-11.552	62.119
3950	-11.502	61.954	-0.349	-27.553	-0.349	-27.553	-11.502	61.954
3975	-11.452	61.789	-0.353	-27.721	-0.353	-27.721	-11.452	61.789
4000	-11.402	61.623	-0.357	-27.89	-0.357	-27.89	-11.402	61.623
4025	-11.352	61.458	-0.361	-28.058	-0.361	-28.058	-11.352	61.458
4050	-11.303	61.293	-0.365	-28.226	-0.365	-28.226	-11.303	61.293
4075	-11.255	61.128	-0.369	-28.395	-0.369	-28.395	-11.255	61.128
4100	-11.206	60.963	-0.373	-28.563	-0.373	-28.563	-11.206	60.963
4125	-11.158	60.799	-0.377	-28.731	-0.377	-28.731	-11.158	60.799
4150	-11.11	60.634	-0.381	-28.899	-0.381	-28.899	-11.11	60.634
4175	-11.063	60.469	-0.385	-29.067	-0.385	-29.067	-11.063	60.469
4200	-11.016	60.305	-0.389	-29.234	-0.389	-29.234	-11.016	60.305
4225	-10.969	60.14	-0.393	-29.402	-0.393	-29.402	-10.969	60.14
4250	-10.923	59.976	-0.398	-29.57	-0.398	-29.57	-10.923	59.976
4275	-10.876	59.811	-0.402	-29.737	-0.402	-29.737	-10.876	59.811
4300	-10.831	59.647	-0.406	-29.905	-0.406	-29.905	-10.831	59.647
4325	-10.785	59.483	-0.41	-30.072	-0.41	-30.072	-10.785	59.483
4350	-10.74	59.319	-0.414	-30.239	-0.414	-30.239	-10.74	59.319
4375	-10.695	59.155	-0.419	-30.406	-0.419	-30.406	-10.695	59.155
4400	-10.651	58.991	-0.423	-30.573	-0.423	-30.573	-10.651	58.991
4425	-10.606	58.827	-0.427	-30.74	-0.427	-30.74	-10.606	58.827
4450	-10.562	58.663	-0.432	-30.907	-0.432	-30.907	-10.562	58.663
4475	-10.519	58.499	-0.436	-31.074	-0.436	-31.074	-10.519	58.499
4500	-10.475	58.336	-0.44	-31.24	-0.44	-31.24	-10.475	58.336
4525	-10.432	58.172	-0.445	-31.407	-0.445	-31.407	-10.432	58.172
4550	-10.389	58.009	-0.449	-31.573	-0.449	-31.573	-10.389	58.009
4575	-10.347	57.846	-0.453	-31.74	-0.453	-31.74	-10.347	57.846
4600	-10.304	57.682	-0.458	-31.906	-0.458	-31.906	-10.304	57.682
4625	-10.262	57.519	-0.462	-32.072	-0.462	-32.072	-10.262	57.519
4650	-10.221	57.356	-0.467	-32.238	-0.467	-32.238	-10.221	57.356
4675	-10.179	57.193	-0.471	-32.404	-0.471	-32.404	-10.179	57.193
4700	-10.138	57.03	-0.476	-32.57	-0.476	-32.57	-10.138	57.03
4725	-10.097	56.867	-0.48	-32.736	-0.48	-32.736	-10.097	56.867
4750	-10.056	56.704	-0.485	-32.901	-0.485	-32.901	-10.056	56.704
4775	-10.016	56.542	-0.489	-33.067	-0.489	-33.067	-10.016	56.542
4800	-9.976	56.379	-0.494	-33.232	-0.494	-33.232	-9.976	56.379
4825	-9.936	56.217	-0.498	-33.398	-0.498	-33.398	-9.936	56.217
4850	-9.896	56.054	-0.503	-33.563	-0.503	-33.563	-9.896	56.054
4875	-9.857	55.892	-0.508	-33.728	-0.508	-33.728	-9.857	55.892
4900	-9.818	55.73	-0.512	-33.893	-0.512	-33.893	-9.818	55.73
4925	-9.779	55.568	-0.517	-34.058	-0.517	-34.058	-9.779	55.568
4950	-9.74	55.406	-0.522	-34.223	-0.522	-34.223	-9.74	55.406
4975	-9.702	55.244	-0.526	-34.388	-0.526	-34.388	-9.702	55.244
5000	-9.664	55.082	-0.531	-34.552	-0.531	-34.552	-9.664	55.082
5025	-9.626	54.92	-0.536	-34.717	-0.536	-34.717	-9.626	54.92
5050	-9.588	54.759	-0.54	-34.881	-0.54	-34.881	-9.588	54.759
5075	-9.55	54.597	-0.545	-35.046	-0.545	-35.046	-9.55	54.597
5100	-9.513	54.436	-0.55	-35.21	-0.55	-35.21	-9.513	54.436
5125	-9.476	54.274	-0.555	-35.374	-0.555	-35.374	-9.476	54.274
5150	-9.439	54.113	-0.56	-35.538	-0.56	-35.538	-9.439	54.113
5175	-9.403	53.952	-0.564	-35.702	-0.564	-35.702	-9.403	53.952
5200	-9.366	53.791	-0.569	-35.866	-0.569	-35.866	-9.366	53.791
5225	-9.33	53.63	-0.574	-36.03	-0.574	-36.03	-9.33	53.63
5250	-9.294	53.469	-0.579	-36.193	-0.579	-36.193	-9.294	53.469
5275	-9.258	53.308	-0.584	-36.357	-0.584	-36.357	-9.258	53.308
5300	-9.223	53.147	-0.589	-36.52	-0.589	-36.52	-9.223	53.147
5325	-9.187	52.987	-0.594	-36.684	-0.594	-36.684	-9.187	52.987
5350	-9.152	52.826	-0.598	-36.847	-0.598	-36.847	-9.152	52.826
5375	-9.117	52.666	-0.603	-37.01	-0.603	-37.01	-9.117	52.666
5400	-9.083	52.505	-0.608	-37.173	-0.608	-37.173	-9.083	52.505
5425	-9.048	52.345	-0.613	-37.336	-0.613	-37.336	-9.048	52.345
5450	-9.014	52.185	-0.618	-37.498	-0.618	-37.498	-9.014	52.185
5475	-8.98	52.025	-0.623	-37.661	-0.623	-37.661	-8.98	52.025
5500	-8.946	51.865	-0.628	-37.824	-0.628	-37.824	-8.946	51.865
5525	-8.912	51.705	-0.633	-37.986	-0.633	-37.986	-8.912	51.705
5550	-8.879	51.545	-0.639	-38.149	-0.639	-38.149	-8.879	51.545
5575	-8.845	51.386	-0.644	-38.311	-0.644	-38.311	-8.845	51.386
5600	-8.812	51.226	-0.649	-38.473	-0.649	-38.473	-8.812	51.226
5625	-8.779	51.067	-0.654	-38.635	-0.654	-38.635	-8.779	51.067
5650	-8.746	50.907	-0.659	-38.797	-0.659	-38.797	-8.746	50.907
5675	-8.714	50.748	-0.664	-38.959	-0.664	-38.959	-8.714	50.748
5700	-8.682	50.589	-0.669	-39.12	-0.669	-39.12	-8.682	50.589
5725	-8.649	50.43	-0.674	-39.282	-0.674	-39.282	-8.649	50.43
5750	-8.617	50.271	-0.679	-39.444	-0.679	-39.444	-8.617	50.271
5775	-8.585	50.112	-0.685	-39.605	-0.685	-39.605	-8.585	50.112
5800	-8.554	49.953	-0.69	-39.766	-0.69	-39.766	-8.554	49.953
5825	-8.522	49.795	-0.695	-39.927	-0.695	-39.927	-8.522	49.795
5850	-8.491	49.636	-0.7	-40.088	-0.7	-40.088	-8.491	49.636
5875	-8.46	49.478	-0.706	-40.249	-0.706	-40.249	-8.46	49.478
5900	-8.429	49.319	-0.711	-40.41	-0.711	-40.41	-8.429	49.319
5925	-8.398	49.161	-0.716	-40.571	-0.716	-40.571	-8.398	49.161
5950	-8.367	49.003	-0.721	-40.732	-0.721	-40.732	-8.367	49.003
5975	-8.337	48.845	-0.727	-40.892	-0.727	-40.892	-8.337	48.845
6000	-8.307	48.687	-0.732	-41.053	-0.732	-41.053	-8.307	48.687
