! AVX Thin Film Operation		Date: May 2002 
! Description: Accu-L® Series, Thin Film, SMD, RF Inductors
! Part Number: L08058R2CEWTR
! 50 MHz  -  8.05 GHz
! Serial Measurements
!
# mhz S db R 50
!	S11		S21		S12		S22
!	dB	Phase	dB	Phase	dB	Phase	dB	Phase
50	-32.755	85.107	-0.011	-1.574	-0.011	-1.574	-32.755	85.107
70	-30.033	84.635	-0.018	-2.164	-0.018	-2.164	-30.033	84.635
90	-27.965	84.162	-0.025	-2.754	-0.025	-2.754	-27.965	84.162
110	-26.295	83.689	-0.032	-3.344	-0.032	-3.344	-26.295	83.689
130	-24.895	83.217	-0.039	-3.934	-0.039	-3.934	-24.895	83.217
150	-23.69	82.744	-0.046	-4.524	-0.046	-4.524	-23.69	82.744
170	-22.632	82.271	-0.053	-5.115	-0.053	-5.115	-22.632	82.271
190	-21.688	81.799	-0.06	-5.705	-0.06	-5.705	-21.688	81.799
210	-20.844	81.295	-0.068	-6.292	-0.068	-6.292	-20.844	81.295
230	-20.08	80.762	-0.078	-6.876	-0.078	-6.876	-20.08	80.762
250	-19.378	80.229	-0.087	-7.461	-0.087	-7.461	-19.378	80.229
270	-18.728	79.695	-0.097	-8.045	-0.097	-8.045	-18.728	79.695
290	-18.124	79.162	-0.106	-8.63	-0.106	-8.63	-18.124	79.162
310	-17.563	78.619	-0.117	-9.212	-0.117	-9.212	-17.563	78.619
330	-17.039	78.066	-0.13	-9.792	-0.13	-9.792	-17.039	78.066
350	-16.546	77.513	-0.142	-10.372	-0.142	-10.372	-16.546	77.513
370	-16.079	76.96	-0.155	-10.953	-0.155	-10.953	-16.079	76.96
390	-15.635	76.407	-0.167	-11.533	-0.167	-11.533	-15.635	76.407
410	-15.217	75.851	-0.181	-12.111	-0.181	-12.111	-15.217	75.851
430	-14.821	75.29	-0.196	-12.687	-0.196	-12.687	-14.821	75.29
450	-14.442	74.729	-0.211	-13.263	-0.211	-13.263	-14.442	74.729
470	-14.079	74.169	-0.227	-13.84	-0.227	-13.84	-14.079	74.169
490	-13.73	73.608	-0.242	-14.416	-0.242	-14.416	-13.73	73.608
510	-13.398	73.046	-0.259	-14.99	-0.259	-14.99	-13.398	73.046
530	-13.081	72.482	-0.277	-15.562	-0.277	-15.562	-13.081	72.482
550	-12.775	71.918	-0.295	-16.134	-0.295	-16.134	-12.775	71.918
570	-12.479	71.355	-0.313	-16.706	-0.313	-16.706	-12.479	71.355
590	-12.193	70.791	-0.331	-17.279	-0.331	-17.279	-12.193	70.791
610	-11.919	70.227	-0.351	-17.849	-0.351	-17.849	-11.919	70.227
630	-11.655	69.663	-0.372	-18.417	-0.372	-18.417	-11.655	69.663
650	-11.4	69.098	-0.393	-18.985	-0.393	-18.985	-11.4	69.098
670	-11.152	68.534	-0.414	-19.553	-0.414	-19.553	-11.152	68.534
690	-10.91	67.97	-0.435	-20.121	-0.435	-20.121	-10.91	67.97
710	-10.678	67.406	-0.457	-20.687	-0.457	-20.687	-10.678	67.406
730	-10.454	66.843	-0.481	-21.251	-0.481	-21.251	-10.454	66.843
750	-10.236	66.28	-0.505	-21.815	-0.505	-21.815	-10.236	66.28
770	-10.023	65.717	-0.529	-22.378	-0.529	-22.378	-10.023	65.717
790	-9.815	65.153	-0.553	-22.942	-0.553	-22.942	-9.815	65.153
810	-9.615	64.591	-0.578	-23.504	-0.578	-23.504	-9.615	64.591
830	-9.421	64.03	-0.604	-24.063	-0.604	-24.063	-9.421	64.03
850	-9.231	63.469	-0.631	-24.622	-0.631	-24.622	-9.231	63.469
870	-9.046	62.908	-0.658	-25.181	-0.658	-25.181	-9.046	62.908
890	-8.864	62.346	-0.685	-25.741	-0.685	-25.741	-8.864	62.346
910	-8.689	61.787	-0.713	-26.298	-0.713	-26.298	-8.689	61.787
930	-8.519	61.228	-0.742	-26.852	-0.742	-26.852	-8.519	61.228
950	-8.352	60.67	-0.772	-27.407	-0.772	-27.407	-8.352	60.67
970	-8.188	60.111	-0.802	-27.962	-0.802	-27.962	-8.188	60.111
990	-8.028	59.553	-0.831	-28.516	-0.831	-28.516	-8.028	59.553
1010	-7.872	58.996	-0.862	-29.069	-0.862	-29.069	-7.872	58.996
1030	-7.722	58.441	-0.895	-29.618	-0.895	-29.618	-7.722	58.441
1050	-7.574	57.886	-0.927	-30.168	-0.927	-30.168	-7.574	57.886
1070	-7.428	57.331	-0.96	-30.718	-0.96	-30.718	-7.428	57.331
1090	-7.285	56.775	-0.992	-31.268	-0.992	-31.268	-7.285	56.775
1110	-7.146	56.222	-1.026	-31.815	-1.026	-31.815	-7.146	56.222
1130	-7.012	55.671	-1.061	-32.36	-1.061	-32.36	-7.012	55.671
1150	-6.879	55.119	-1.097	-32.905	-1.097	-32.905	-6.879	55.119
1170	-6.748	54.568	-1.132	-33.45	-1.132	-33.45	-6.748	54.568
1190	-6.62	54.016	-1.168	-33.995	-1.168	-33.995	-6.62	54.016
1210	-6.495	53.466	-1.204	-34.537	-1.204	-34.537	-6.495	53.466
1230	-6.374	52.919	-1.242	-35.077	-1.242	-35.077	-6.374	52.919
1250	-6.255	52.371	-1.281	-35.617	-1.281	-35.617	-6.255	52.371
1270	-6.137	51.824	-1.319	-36.157	-1.319	-36.157	-6.137	51.824
1290	-6.021	51.276	-1.357	-36.696	-1.357	-36.696	-6.021	51.276
1310	-5.908	50.731	-1.397	-37.234	-1.397	-37.234	-5.908	50.731
1330	-5.799	50.187	-1.438	-37.769	-1.438	-37.769	-5.799	50.187
1350	-5.691	49.644	-1.479	-38.303	-1.479	-38.303	-5.691	49.644
1370	-5.584	49.1	-1.521	-38.838	-1.521	-38.838	-5.584	49.1
1390	-5.479	48.557	-1.562	-39.373	-1.562	-39.373	-5.479	48.557
1410	-5.376	48.015	-1.605	-39.905	-1.605	-39.905	-5.376	48.015
1430	-5.277	47.476	-1.649	-40.434	-1.649	-40.434	-5.277	47.476
1450	-5.179	46.937	-1.693	-40.964	-1.693	-40.964	-5.179	46.937
1470	-5.082	46.398	-1.737	-41.494	-1.737	-41.494	-5.082	46.398
1490	-4.986	45.859	-1.782	-42.023	-1.782	-42.023	-4.986	45.859
1510	-4.892	45.321	-1.827	-42.55	-1.827	-42.55	-4.892	45.321
1530	-4.802	44.787	-1.874	-43.075	-1.874	-43.075	-4.802	44.787
1550	-4.712	44.252	-1.921	-43.599	-1.921	-43.599	-4.712	44.252
1570	-4.624	43.717	-1.969	-44.124	-1.969	-44.124	-4.624	43.717
1590	-4.536	43.182	-2.016	-44.648	-2.016	-44.648	-4.536	43.182
1610	-4.451	42.649	-2.065	-45.17	-2.065	-45.17	-4.451	42.649
1630	-4.368	42.119	-2.115	-45.689	-2.115	-45.689	-4.368	42.119
1650	-4.286	41.588	-2.165	-46.208	-2.165	-46.208	-4.286	41.588
1670	-4.205	41.058	-2.216	-46.728	-2.216	-46.728	-4.205	41.058
1690	-4.124	40.527	-2.266	-47.247	-2.266	-47.247	-4.124	40.527
1710	-4.046	39.999	-2.318	-47.764	-2.318	-47.764	-4.046	39.999
1730	-3.971	39.473	-2.372	-48.278	-2.372	-48.278	-3.971	39.473
1750	-3.895	38.946	-2.425	-48.792	-2.425	-48.792	-3.895	38.946
1770	-3.821	38.42	-2.479	-49.306	-2.479	-49.306	-3.821	38.42
1790	-3.747	37.894	-2.533	-49.82	-2.533	-49.82	-3.747	37.894
1810	-3.675	37.37	-2.588	-50.332	-2.588	-50.332	-3.675	37.37
1830	-3.606	36.848	-2.644	-50.841	-2.644	-50.841	-3.606	36.848
1850	-3.537	36.326	-2.701	-51.35	-2.701	-51.35	-3.537	36.326
1870	-3.468	35.804	-2.758	-51.86	-2.758	-51.86	-3.468	35.804
1890	-3.4	35.282	-2.816	-52.369	-2.816	-52.369	-3.4	35.282
1910	-3.334	34.762	-2.874	-52.876	-2.874	-52.876	-3.334	34.762
1930	-3.27	34.245	-2.934	-53.38	-2.934	-53.38	-3.27	34.245
1950	-3.207	33.727	-2.994	-53.884	-2.994	-53.884	-3.207	33.727
1970	-3.144	33.209	-3.055	-54.388	-3.055	-54.388	-3.144	33.209
1990	-3.081	32.691	-3.116	-54.892	-3.116	-54.892	-3.081	32.691
2010	-3.021	32.176	-3.178	-55.394	-3.178	-55.394	-3.021	32.176
2030	-2.962	31.662	-3.241	-55.894	-3.241	-55.894	-2.962	31.662
2050	-2.903	31.148	-3.305	-56.393	-3.305	-56.393	-2.903	31.148
2070	-2.845	30.634	-3.37	-56.892	-3.37	-56.892	-2.845	30.634
2090	-2.787	30.121	-3.434	-57.392	-3.434	-57.392	-2.787	30.121
2110	-2.731	29.609	-3.5	-57.889	-3.5	-57.889	-2.731	29.609
2130	-2.677	29.099	-3.567	-58.383	-3.567	-58.383	-2.677	29.099
2150	-2.623	28.589	-3.635	-58.878	-3.635	-58.878	-2.623	28.589
2170	-2.57	28.08	-3.703	-59.373	-3.703	-59.373	-2.57	28.08
2190	-2.516	27.57	-3.772	-59.867	-3.772	-59.867	-2.516	27.57
2210	-2.465	27.062	-3.842	-60.36	-3.842	-60.36	-2.465	27.062
2230	-2.415	26.556	-3.913	-60.85	-3.913	-60.85	-2.415	26.556
2250	-2.365	26.05	-3.985	-61.34	-3.985	-61.34	-2.365	26.05
2270	-2.315	25.544	-4.057	-61.83	-4.057	-61.83	-2.315	25.544
2290	-2.266	25.038	-4.13	-62.32	-4.13	-62.32	-2.266	25.038
2310	-2.218	24.533	-4.204	-62.807	-4.204	-62.807	-2.218	24.533
2330	-2.172	24.031	-4.28	-63.293	-4.28	-63.293	-2.172	24.031
2350	-2.126	23.528	-4.356	-63.779	-4.356	-63.779	-2.126	23.528
2370	-2.081	23.026	-4.432	-64.264	-4.432	-64.264	-2.081	23.026
2390	-2.035	22.523	-4.51	-64.75	-4.51	-64.75	-2.035	22.523
2410	-1.991	22.022	-4.589	-65.233	-4.589	-65.233	-1.991	22.022
2430	-1.949	21.523	-4.669	-65.714	-4.669	-65.714	-1.949	21.523
2450	-1.906	21.024	-4.75	-66.195	-4.75	-66.195	-1.906	21.024
2470	-1.864	20.525	-4.831	-66.677	-4.831	-66.677	-1.864	20.525
2490	-1.822	20.025	-4.913	-67.158	-4.913	-67.158	-1.822	20.025
2510	-1.782	19.528	-4.997	-67.637	-4.997	-67.637	-1.782	19.528
2530	-1.742	19.032	-5.082	-68.114	-5.082	-68.114	-1.742	19.032
2550	-1.703	18.536	-5.168	-68.591	-5.168	-68.591	-1.703	18.536
2570	-1.664	18.039	-5.255	-69.067	-5.255	-69.067	-1.664	18.039
2590	-1.626	17.543	-5.343	-69.544	-5.343	-69.544	-1.626	17.543
2610	-1.588	17.049	-5.432	-70.019	-5.432	-70.019	-1.588	17.049
2630	-1.552	16.555	-5.522	-70.492	-5.522	-70.492	-1.552	16.555
2650	-1.516	16.062	-5.614	-70.965	-5.614	-70.965	-1.516	16.062
2670	-1.48	15.569	-5.707	-71.437	-5.707	-71.437	-1.48	15.569
2690	-1.444	15.076	-5.8	-71.91	-5.8	-71.91	-1.444	15.076
2710	-1.41	14.584	-5.895	-72.381	-5.895	-72.381	-1.41	14.584
2730	-1.376	14.093	-5.992	-72.849	-5.992	-72.849	-1.376	14.093
2750	-1.343	13.602	-6.09	-73.318	-6.09	-73.318	-1.343	13.602
2770	-1.31	13.112	-6.189	-73.786	-6.189	-73.786	-1.31	13.112
2790	-1.277	12.621	-6.289	-74.255	-6.289	-74.255	-1.277	12.621
2810	-1.246	12.132	-6.391	-74.721	-6.391	-74.721	-1.246	12.132
2830	-1.215	11.643	-6.494	-75.186	-6.494	-75.186	-1.215	11.643
2850	-1.185	11.155	-6.599	-75.65	-6.599	-75.65	-1.185	11.155
2870	-1.154	10.667	-6.705	-76.114	-6.705	-76.114	-1.154	10.667
2890	-1.124	10.178	-6.812	-76.579	-6.812	-76.579	-1.124	10.178
2910	-1.095	9.691	-6.922	-77.041	-6.922	-77.041	-1.095	9.691
2930	-1.067	9.205	-7.033	-77.501	-7.033	-77.501	-1.067	9.205
2950	-1.039	8.719	-7.145	-77.961	-7.145	-77.961	-1.039	8.719
2970	-1.011	8.233	-7.259	-78.422	-7.259	-78.422	-1.011	8.233
2990	-0.983	7.746	-7.375	-78.882	-7.375	-78.882	-0.983	7.746
3010	-0.956	7.261	-7.493	-79.34	-7.493	-79.34	-0.956	7.261
3030	-0.931	6.777	-7.613	-79.796	-7.613	-79.796	-0.931	6.777
3050	-0.905	6.293	-7.734	-80.251	-7.734	-80.251	-0.905	6.293
3070	-0.88	5.808	-7.857	-80.707	-7.857	-80.707	-0.88	5.808
3090	-0.854	5.324	-7.982	-81.163	-7.982	-81.163	-0.854	5.324
3110	-0.83	4.84	-8.11	-81.616	-8.11	-81.616	-0.83	4.84
3130	-0.806	4.357	-8.239	-82.067	-8.239	-82.067	-0.806	4.357
3150	-0.783	3.875	-8.371	-82.518	-8.371	-82.518	-0.783	3.875
3170	-0.76	3.392	-8.505	-82.97	-8.505	-82.97	-0.76	3.392
3190	-0.737	2.909	-8.641	-83.421	-8.641	-83.421	-0.737	2.909
3210	-0.715	2.427	-8.78	-83.869	-8.78	-83.869	-0.715	2.427
3230	-0.693	1.946	-8.921	-84.315	-8.921	-84.315	-0.693	1.946
3250	-0.672	1.464	-9.065	-84.761	-9.065	-84.761	-0.672	1.464
3270	-0.651	0.983	-9.211	-85.207	-9.211	-85.207	-0.651	0.983
3290	-0.63	0.501	-9.359	-85.652	-9.359	-85.652	-0.63	0.501
3310	-0.61	0.02	-9.511	-86.095	-9.511	-86.095	-0.61	0.02
3330	-0.591	-0.46	-9.666	-86.535	-9.666	-86.535	-0.591	-0.46
3350	-0.572	-0.941	-9.824	-86.975	-9.824	-86.975	-0.572	-0.941
3370	-0.553	-1.421	-9.985	-87.414	-9.985	-87.414	-0.553	-1.421
3390	-0.534	-1.901	-10.149	-87.854	-10.149	-87.854	-0.534	-1.901
3410	-0.516	-2.381	-10.316	-88.29	-10.316	-88.29	-0.516	-2.381
3430	-0.499	-2.861	-10.488	-88.722	-10.488	-88.722	-0.499	-2.861
3450	-0.482	-3.341	-10.662	-89.155	-10.662	-89.155	-0.482	-3.341
3470	-0.465	-3.82	-10.841	-89.587	-10.841	-89.587	-0.465	-3.82
3490	-0.448	-4.3	-11.023	-90.019	-11.023	-90.019	-0.448	-4.3
3510	-0.431	-4.779	-11.21	-90.447	-11.21	-90.447	-0.431	-4.779
3530	-0.416	-5.259	-11.401	-90.869	-11.401	-90.869	-0.416	-5.259
3550	-0.401	-5.738	-11.597	-91.292	-11.597	-91.292	-0.401	-5.738
3570	-0.386	-6.217	-11.797	-91.715	-11.797	-91.715	-0.386	-6.217
3590	-0.371	-6.696	-12.002	-92.138	-12.002	-92.138	-0.371	-6.696
3610	-0.357	-7.175	-12.212	-92.554	-12.212	-92.554	-0.357	-7.175
3630	-0.343	-7.654	-12.429	-92.964	-12.429	-92.964	-0.343	-7.654
3650	-0.33	-8.132	-12.65	-93.373	-12.65	-93.373	-0.33	-8.132
3670	-0.317	-8.611	-12.878	-93.783	-12.878	-93.783	-0.317	-8.611
3690	-0.304	-9.09	-13.112	-94.193	-13.112	-94.193	-0.304	-9.09
3710	-0.291	-9.569	-13.353	-94.593	-13.353	-94.593	-0.291	-9.569
3730	-0.28	-10.048	-13.601	-94.983	-13.601	-94.983	-0.28	-10.048
3750	-0.268	-10.527	-13.857	-95.374	-13.857	-95.374	-0.268	-10.527
3770	-0.257	-11.005	-14.12	-95.765	-14.12	-95.765	-0.257	-11.005
3790	-0.245	-11.484	-14.392	-96.156	-14.392	-96.156	-0.245	-11.484
3810	-0.235	-11.963	-14.673	-96.531	-14.673	-96.531	-0.235	-11.963
3830	-0.225	-12.442	-14.964	-96.892	-14.964	-96.892	-0.225	-12.442
3850	-0.216	-12.921	-15.266	-97.253	-15.266	-97.253	-0.216	-12.921
3870	-0.206	-13.4	-15.578	-97.614	-15.578	-97.614	-0.206	-13.4
3890	-0.196	-13.879	-15.902	-97.975	-15.902	-97.975	-0.196	-13.879
3910	-0.187	-14.358	-16.239	-98.31	-16.239	-98.31	-0.187	-14.358
3930	-0.18	-14.838	-16.59	-98.62	-16.59	-98.62	-0.18	-14.838
3950	-0.172	-15.317	-16.957	-98.93	-16.957	-98.93	-0.172	-15.317
3970	-0.164	-15.796	-17.339	-99.239	-17.339	-99.239	-0.164	-15.796
3990	-0.156	-16.276	-17.739	-99.549	-17.739	-99.549	-0.156	-16.276
4010	-0.149	-16.756	-18.159	-99.808	-18.159	-99.808	-0.149	-16.756
4030	-0.143	-17.236	-18.601	-100.017	-18.601	-100.017	-0.143	-17.236
4050	-0.136	-17.716	-19.066	-100.226	-19.066	-100.226	-0.136	-17.716
4070	-0.13	-18.196	-19.558	-100.435	-19.558	-100.435	-0.13	-18.196
4090	-0.124	-18.676	-20.08	-100.645	-20.08	-100.645	-0.124	-18.676
4110	-0.119	-19.156	-20.635	-100.732	-20.635	-100.732	-0.119	-19.156
4130	-0.114	-19.637	-21.228	-100.697	-21.228	-100.697	-0.114	-19.637
4150	-0.11	-20.118	-21.864	-100.663	-21.864	-100.663	-0.11	-20.118
4170	-0.105	-20.599	-22.551	-100.629	-22.551	-100.629	-0.105	-20.599
4190	-0.101	-21.08	-23.297	-100.594	-23.297	-100.594	-0.101	-21.08
4210	-0.097	-21.561	-24.11	-100.118	-24.11	-100.118	-0.097	-21.561
4230	-0.095	-22.043	-25.003	-99.199	-25.003	-99.199	-0.095	-22.043
4250	-0.092	-22.525	-25.998	-98.28	-25.998	-98.28	-0.092	-22.525
4270	-0.089	-23.007	-27.122	-97.361	-27.122	-97.361	-0.089	-23.007
4290	-0.086	-23.489	-28.414	-96.442	-28.414	-96.442	-0.086	-23.489
4310	-0.085	-23.971	-29.801	-90.388	-29.801	-90.388	-0.085	-23.971
4330	-0.084	-24.454	-31.299	-79.198	-31.299	-79.198	-0.084	-24.454
4350	-0.082	-24.937	-33.109	-68.009	-33.109	-68.009	-0.082	-24.937
4370	-0.081	-25.42	-35.399	-56.82	-35.399	-56.82	-0.081	-25.42
4390	-0.08	-25.904	-38.517	-45.631	-38.517	-45.631	-0.08	-25.904
4410	-0.08	-26.387	-38.903	-31.315	-38.903	-31.315	-0.08	-26.387
4430	-0.081	-26.872	-36.227	-13.873	-36.227	-13.873	-0.081	-26.872
4450	-0.082	-27.356	-34.185	3.569	-34.185	3.569	-0.082	-27.356
4470	-0.082	-27.841	-32.532	21.01	-32.532	21.01	-0.082	-27.841
4490	-0.083	-28.325	-31.144	38.452	-31.144	38.452	-0.083	-28.325
4510	-0.085	-28.81	-29.679	47.827	-29.679	47.827	-0.085	-28.81
4530	-0.087	-29.296	-28.2	49.135	-28.2	49.135	-0.087	-29.296
4550	-0.09	-29.782	-26.937	50.443	-26.937	50.443	-0.09	-29.782
4570	-0.092	-30.268	-25.834	51.75	-25.834	51.75	-0.092	-30.268
4590	-0.094	-30.754	-24.855	53.058	-24.855	53.058	-0.094	-30.754
4610	-0.098	-31.241	-23.969	53.765	-23.969	53.765	-0.098	-31.241
4630	-0.102	-31.728	-23.159	53.871	-23.159	53.871	-0.102	-31.728
4650	-0.106	-32.216	-22.418	53.978	-22.418	53.978	-0.106	-32.216
4670	-0.11	-32.704	-21.735	54.084	-21.735	54.084	-0.11	-32.704
4690	-0.115	-33.191	-21.102	54.191	-21.102	54.191	-0.115	-33.191
4710	-0.12	-33.679	-20.511	54.15	-20.511	54.15	-0.12	-33.679
4730	-0.126	-34.169	-19.957	53.961	-19.957	53.961	-0.126	-34.169
4750	-0.132	-34.658	-19.436	53.772	-19.436	53.772	-0.132	-34.658
4770	-0.138	-35.147	-18.944	53.583	-18.944	53.583	-0.138	-35.147
4790	-0.144	-35.637	-18.479	53.395	-18.479	53.395	-0.144	-35.637
4810	-0.15	-36.127	-18.038	53.147	-18.038	53.147	-0.15	-36.127
4830	-0.158	-36.618	-17.617	52.841	-17.617	52.841	-0.158	-36.618
4850	-0.166	-37.109	-17.216	52.535	-17.216	52.535	-0.166	-37.109
4870	-0.174	-37.6	-16.833	52.229	-16.833	52.229	-0.174	-37.6
4890	-0.182	-38.091	-16.466	51.923	-16.466	51.923	-0.182	-38.091
4910	-0.19	-38.583	-16.114	51.588	-16.114	51.588	-0.19	-38.583
4930	-0.2	-39.076	-15.776	51.223	-15.776	51.223	-0.2	-39.076
4950	-0.209	-39.569	-15.451	50.859	-15.451	50.859	-0.209	-39.569
4970	-0.219	-40.062	-15.137	50.494	-15.137	50.494	-0.219	-40.062
4990	-0.229	-40.554	-14.835	50.129	-14.835	50.129	-0.229	-40.554
5010	-0.239	-41.048	-14.543	49.748	-14.543	49.748	-0.239	-41.048
5030	-0.251	-41.543	-14.26	49.349	-14.26	49.349	-0.251	-41.543
5050	-0.262	-42.038	-13.987	48.95	-13.987	48.95	-0.262	-42.038
5070	-0.274	-42.533	-13.722	48.551	-13.722	48.551	-0.274	-42.533
5090	-0.285	-43.027	-13.465	48.153	-13.465	48.153	-0.285	-43.027
5110	-0.298	-43.523	-13.216	47.743	-13.216	47.743	-0.298	-43.523
5130	-0.311	-44.02	-12.974	47.323	-12.974	47.323	-0.311	-44.02
5150	-0.324	-44.516	-12.739	46.902	-12.739	46.902	-0.324	-44.516
5170	-0.338	-45.013	-12.51	46.482	-12.51	46.482	-0.338	-45.013
5190	-0.351	-45.51	-12.287	46.062	-12.287	46.062	-0.351	-45.51
5210	-0.366	-46.007	-12.07	45.634	-12.07	45.634	-0.366	-46.007
5230	-0.381	-46.506	-11.858	45.198	-11.858	45.198	-0.381	-46.506
5250	-0.396	-47.005	-11.652	44.763	-11.652	44.763	-0.396	-47.005
5270	-0.412	-47.503	-11.451	44.328	-11.451	44.328	-0.412	-47.503
5290	-0.427	-48.002	-11.254	43.893	-11.254	43.893	-0.427	-48.002
5310	-0.444	-48.501	-11.062	43.452	-11.062	43.452	-0.444	-48.501
5330	-0.461	-49.002	-10.875	43.006	-10.875	43.006	-0.461	-49.002
5350	-0.478	-49.502	-10.692	42.56	-10.692	42.56	-0.478	-49.502
5370	-0.496	-50.002	-10.513	42.114	-10.513	42.114	-0.496	-50.002
5390	-0.513	-50.503	-10.337	41.668	-10.337	41.668	-0.513	-50.503
5410	-0.532	-51.004	-10.166	41.218	-10.166	41.218	-0.532	-51.004
5430	-0.551	-51.506	-9.998	40.764	-9.998	40.764	-0.551	-51.506
5450	-0.57	-52.009	-9.834	40.31	-9.834	40.31	-0.57	-52.009
5470	-0.59	-52.511	-9.673	39.856	-9.673	39.856	-0.59	-52.511
5490	-0.609	-53.013	-9.514	39.402	-9.514	39.402	-0.609	-53.013
5510	-0.63	-53.516	-9.36	38.944	-9.36	38.944	-0.63	-53.516
5530	-0.651	-54.02	-9.208	38.484	-9.208	38.484	-0.651	-54.02
5550	-0.673	-54.524	-9.06	38.024	-9.06	38.024	-0.673	-54.524
5570	-0.694	-55.028	-8.913	37.563	-8.913	37.563	-0.694	-55.028
5590	-0.716	-55.532	-8.77	37.103	-8.77	37.103	-0.716	-55.532
5610	-0.739	-56.036	-8.629	36.64	-8.629	36.64	-0.739	-56.036
5630	-0.762	-56.542	-8.491	36.175	-8.491	36.175	-0.762	-56.542
5650	-0.786	-57.047	-8.356	35.709	-8.356	35.709	-0.786	-57.047
5670	-0.81	-57.553	-8.223	35.244	-8.223	35.244	-0.81	-57.553
5690	-0.833	-58.058	-8.091	34.779	-8.091	34.779	-0.833	-58.058
5710	-0.858	-58.565	-7.963	34.312	-7.963	34.312	-0.858	-58.565
5730	-0.884	-59.072	-7.837	33.842	-7.837	33.842	-0.884	-59.072
5750	-0.91	-59.579	-7.713	33.373	-7.713	33.373	-0.91	-59.579
5770	-0.936	-60.086	-7.59	32.904	-7.59	32.904	-0.936	-60.086
5790	-0.962	-60.593	-7.47	32.435	-7.47	32.435	-0.962	-60.593
5810	-0.989	-61.1	-7.352	31.964	-7.352	31.964	-0.989	-61.1
5830	-1.017	-61.609	-7.236	31.491	-7.236	31.491	-1.017	-61.609
5850	-1.045	-62.117	-7.122	31.019	-7.122	31.019	-1.045	-62.117
5870	-1.073	-62.626	-7.009	30.547	-7.009	30.547	-1.073	-62.626
5890	-1.102	-63.134	-6.898	30.074	-6.898	30.074	-1.102	-63.134
5910	-1.131	-63.643	-6.789	29.601	-6.789	29.601	-1.131	-63.643
5930	-1.161	-64.152	-6.683	29.126	-6.683	29.126	-1.161	-64.152
5950	-1.192	-64.662	-6.577	28.651	-6.577	28.651	-1.192	-64.662
5970	-1.223	-65.171	-6.473	28.176	-6.473	28.176	-1.223	-65.171
5990	-1.253	-65.681	-6.37	27.701	-6.37	27.701	-1.253	-65.681
6010	-1.285	-66.191	-6.27	27.226	-6.27	27.226	-1.285	-66.191
6030	-1.318	-66.701	-6.171	26.749	-6.171	26.749	-1.318	-66.701
6050	-1.351	-67.212	-6.074	26.272	-6.074	26.272	-1.351	-67.212
6070	-1.384	-67.723	-5.977	25.795	-5.977	25.795	-1.384	-67.723
6090	-1.417	-68.233	-5.882	25.319	-5.882	25.319	-1.417	-68.233
6110	-1.451	-68.744	-5.789	24.841	-5.789	24.841	-1.451	-68.744
6130	-1.486	-69.255	-5.697	24.363	-5.697	24.363	-1.486	-69.255
6150	-1.521	-69.767	-5.607	23.885	-5.607	23.885	-1.521	-69.767
6170	-1.557	-70.278	-5.517	23.407	-5.517	23.407	-1.557	-70.278
6190	-1.592	-70.789	-5.429	22.929	-5.429	22.929	-1.592	-70.789
6210	-1.629	-71.301	-5.342	22.451	-5.342	22.451	-1.629	-71.301
6230	-1.667	-71.813	-5.257	21.972	-5.257	21.972	-1.667	-71.813
6250	-1.704	-72.325	-5.173	21.493	-5.173	21.493	-1.704	-72.325
6270	-1.742	-72.837	-5.09	21.014	-5.09	21.014	-1.742	-72.837
6290	-1.781	-73.349	-5.008	20.535	-5.008	20.535	-1.781	-73.349
