! AVX Thin Film Operation		Date: May 2002 
! Description: Accu-L® Series, Thin Film, SMD, RF Inductors
! Part Number: L08052R2CEWTR
! 50 MHz  -  18.05 GHz
! Serial Measurements
!
# mhz S db R 50
!	S11		S21		S12		S22
!	dB	Phase	dB	Phase	dB	Phase	dB	Phase
50	-46.21	85.519	-3.595e-3	-0.564	-3.595e-3	-0.564	-46.21	85.521
95	-40.973	85.404	-5.184e-3	-1.053	-5.184e-3	-1.053	-40.973	85.41
140	-37.729	85.289	-6.773e-3	-1.541	-6.773e-3	-1.541	-37.729	85.299
185	-35.372	85.174	-8.363e-3	-2.029	-8.363e-3	-2.029	-35.372	85.188
230	-33.53	84.93	-0.01	-2.516	-0.01	-2.516	-33.53	84.948
275	-32.016	84.622	-0.012	-3.003	-0.012	-3.003	-32.016	84.642
320	-30.73	84.283	-0.013	-3.489	-0.013	-3.489	-30.73	84.307
365	-29.613	83.908	-0.015	-3.974	-0.015	-3.974	-29.613	83.936
410	-28.624	83.526	-0.017	-4.459	-0.017	-4.459	-28.624	83.557
455	-27.739	83.118	-0.019	-4.943	-0.019	-4.943	-27.739	83.153
500	-26.936	82.711	-0.021	-5.427	-0.021	-5.427	-26.936	82.749
545	-26.204	82.285	-0.024	-5.911	-0.024	-5.911	-26.204	82.327
590	-25.528	81.859	-0.026	-6.395	-0.026	-6.395	-25.529	81.904
635	-24.903	81.424	-0.029	-6.878	-0.029	-6.878	-24.903	81.473
680	-24.32	80.987	-0.031	-7.361	-0.031	-7.361	-24.321	81.039
725	-23.775	80.545	-0.034	-7.844	-0.034	-7.844	-23.776	80.6
770	-23.263	80.099	-0.037	-8.326	-0.037	-8.326	-23.263	80.158
815	-22.78	79.652	-0.04	-8.809	-0.04	-8.809	-22.78	79.715
860	-22.323	79.201	-0.043	-9.291	-0.043	-9.291	-22.323	79.267
905	-21.889	78.749	-0.046	-9.773	-0.046	-9.773	-21.889	78.819
950	-21.477	78.294	-0.049	-10.254	-0.049	-10.254	-21.477	78.367
995	-21.084	77.839	-0.053	-10.736	-0.053	-10.736	-21.084	77.915
1040	-20.709	77.381	-0.056	-11.217	-0.056	-11.217	-20.709	77.461
1085	-20.349	76.922	-0.06	-11.698	-0.06	-11.698	-20.349	77.006
1130	-20.005	76.462	-0.064	-12.178	-0.064	-12.178	-20.005	76.549
1175	-19.674	76.001	-0.068	-12.659	-0.068	-12.659	-19.674	76.092
1220	-19.355	75.54	-0.072	-13.139	-0.072	-13.139	-19.356	75.634
1265	-19.049	75.077	-0.076	-13.619	-0.076	-13.619	-19.049	75.175
1310	-18.753	74.614	-0.08	-14.099	-0.08	-14.099	-18.754	74.716
1355	-18.468	74.15	-0.085	-14.578	-0.085	-14.578	-18.468	74.255
1400	-18.192	73.686	-0.089	-15.058	-0.089	-15.058	-18.192	73.795
1445	-17.925	73.221	-0.094	-15.537	-0.094	-15.537	-17.926	73.333
1490	-17.667	72.756	-0.098	-16.016	-0.098	-16.016	-17.667	72.872
1535	-17.416	72.29	-0.103	-16.494	-0.103	-16.494	-17.417	72.41
1580	-17.173	71.824	-0.108	-16.973	-0.108	-16.973	-17.173	71.947
1625	-16.937	71.358	-0.114	-17.451	-0.114	-17.451	-16.938	71.484
1670	-16.708	70.892	-0.119	-17.929	-0.119	-17.929	-16.708	71.021
1715	-16.485	70.425	-0.124	-18.406	-0.124	-18.406	-16.485	70.558
1760	-16.268	69.958	-0.13	-18.884	-0.13	-18.884	-16.268	70.095
1805	-16.056	69.491	-0.135	-19.361	-0.135	-19.361	-16.057	69.631
1850	-15.851	69.024	-0.141	-19.837	-0.141	-19.837	-15.851	69.168
1895	-15.65	68.556	-0.147	-20.314	-0.147	-20.314	-15.65	68.704
1940	-15.455	68.089	-0.153	-20.79	-0.153	-20.79	-15.455	68.24
1985	-15.264	67.621	-0.159	-21.266	-0.159	-21.266	-15.264	67.776
2030	-15.077	67.154	-0.165	-21.742	-0.165	-21.742	-15.078	67.312
2075	-14.895	66.686	-0.171	-22.218	-0.171	-22.218	-14.896	66.848
2120	-14.717	66.219	-0.178	-22.693	-0.178	-22.693	-14.718	66.385
2165	-14.543	65.751	-0.184	-23.168	-0.184	-23.168	-14.544	65.921
2210	-14.373	65.284	-0.191	-23.642	-0.191	-23.642	-14.373	65.457
2255	-14.207	64.816	-0.198	-24.117	-0.198	-24.117	-14.207	64.993
2300	-14.043	64.349	-0.205	-24.591	-0.205	-24.591	-14.044	64.529
2345	-13.884	63.882	-0.212	-25.064	-0.212	-25.064	-13.885	64.065
2390	-13.728	63.415	-0.219	-25.538	-0.219	-25.538	-13.728	63.602
2435	-13.575	62.947	-0.226	-26.011	-0.226	-26.011	-13.575	63.138
2480	-13.425	62.48	-0.233	-26.484	-0.233	-26.484	-13.425	62.675
2525	-13.278	62.014	-0.241	-26.956	-0.241	-26.956	-13.278	62.212
2570	-13.133	61.547	-0.248	-27.428	-0.248	-27.428	-13.134	61.749
2615	-12.992	61.08	-0.256	-27.9	-0.256	-27.9	-12.992	61.286
2660	-12.853	60.614	-0.264	-28.372	-0.264	-28.372	-12.853	60.823
2705	-12.716	60.148	-0.272	-28.843	-0.272	-28.843	-12.717	60.36
2750	-12.583	59.681	-0.28	-29.314	-0.28	-29.314	-12.583	59.898
2795	-12.451	59.215	-0.288	-29.785	-0.288	-29.785	-12.452	59.435
2840	-12.322	58.75	-0.296	-30.255	-0.296	-30.255	-12.323	58.973
2885	-12.195	58.284	-0.304	-30.725	-0.304	-30.725	-12.196	58.511
2930	-12.071	57.819	-0.313	-31.194	-0.313	-31.194	-12.071	58.05
2975	-11.948	57.354	-0.321	-31.664	-0.321	-31.664	-11.949	57.588
3020	-11.828	56.889	-0.33	-32.133	-0.33	-32.133	-11.828	57.127
3065	-11.709	56.424	-0.339	-32.601	-0.339	-32.601	-11.71	56.666
3110	-11.593	55.96	-0.347	-33.069	-0.347	-33.069	-11.593	56.205
3155	-11.479	55.496	-0.356	-33.537	-0.356	-33.537	-11.479	55.745
3200	-11.366	55.032	-0.365	-34.005	-0.365	-34.005	-11.366	55.285
3245	-11.255	54.568	-0.374	-34.472	-0.374	-34.472	-11.255	54.825
3290	-11.146	54.105	-0.384	-34.939	-0.384	-34.939	-11.146	54.365
3335	-11.038	53.642	-0.393	-35.405	-0.393	-35.405	-11.039	53.905
3380	-10.933	53.179	-0.402	-35.871	-0.402	-35.871	-10.933	53.446
3425	-10.829	52.716	-0.412	-36.337	-0.412	-36.337	-10.829	52.987
3470	-10.726	52.254	-0.422	-36.802	-0.422	-36.802	-10.727	52.529
3515	-10.625	51.791	-0.431	-37.268	-0.431	-37.268	-10.625	52.07
3560	-10.526	51.33	-0.441	-37.732	-0.441	-37.732	-10.526	51.612
3605	-10.427	50.868	-0.451	-38.197	-0.451	-38.197	-10.428	51.154
3650	-10.331	50.407	-0.461	-38.66	-0.461	-38.66	-10.332	50.697
3695	-10.236	49.946	-0.471	-39.124	-0.471	-39.124	-10.236	50.24
3740	-10.142	49.485	-0.481	-39.587	-0.481	-39.587	-10.143	49.783
3785	-10.049	49.025	-0.492	-40.05	-0.492	-40.05	-10.05	49.326
3830	-9.958	48.565	-0.502	-40.513	-0.502	-40.513	-9.959	48.87
3875	-9.869	48.105	-0.513	-40.975	-0.513	-40.975	-9.869	48.414
3920	-9.78	47.646	-0.523	-41.436	-0.523	-41.436	-9.78	47.958
3965	-9.693	47.187	-0.534	-41.898	-0.534	-41.898	-9.693	47.503
4010	-9.606	46.728	-0.544	-42.359	-0.544	-42.359	-9.607	47.048
4055	-9.521	46.27	-0.555	-42.819	-0.555	-42.819	-9.522	46.593
4100	-9.437	45.811	-0.566	-43.28	-0.566	-43.28	-9.438	46.139
4145	-9.355	45.354	-0.577	-43.739	-0.577	-43.739	-9.355	45.685
4190	-9.273	44.896	-0.588	-44.199	-0.588	-44.199	-9.274	45.231
4235	-9.193	44.439	-0.599	-44.658	-0.599	-44.658	-9.193	44.778
4280	-9.113	43.982	-0.611	-45.116	-0.611	-45.116	-9.114	44.325
4325	-9.035	43.526	-0.622	-45.575	-0.622	-45.575	-9.035	43.872
4370	-8.957	43.07	-0.633	-46.032	-0.633	-46.032	-8.958	43.42
4415	-8.881	42.614	-0.645	-46.49	-0.645	-46.49	-8.882	42.968
4460	-8.806	42.159	-0.656	-46.947	-0.656	-46.947	-8.806	42.516
4505	-8.731	41.703	-0.668	-47.404	-0.668	-47.404	-8.732	42.065
4550	-8.658	41.249	-0.68	-47.86	-0.68	-47.86	-8.658	41.614
4595	-8.585	40.794	-0.692	-48.316	-0.692	-48.316	-8.586	41.163
4640	-8.513	40.34	-0.703	-48.772	-0.703	-48.772	-8.514	40.713
4685	-8.443	39.886	-0.715	-49.227	-0.715	-49.227	-8.443	40.263
4730	-8.373	39.433	-0.727	-49.682	-0.727	-49.682	-8.373	39.814
4775	-8.304	38.98	-0.74	-50.136	-0.74	-50.136	-8.304	39.365
4820	-8.235	38.527	-0.752	-50.59	-0.752	-50.59	-8.236	38.916
4865	-8.168	38.075	-0.764	-51.044	-0.764	-51.044	-8.169	38.467
4910	-8.101	37.623	-0.776	-51.497	-0.776	-51.497	-8.102	38.019
4955	-8.036	37.171	-0.789	-51.95	-0.789	-51.95	-8.036	37.571
5000	-7.971	36.72	-0.801	-52.403	-0.801	-52.403	-7.971	37.124
5045	-7.907	36.269	-0.814	-52.854	-0.814	-52.854	-7.907	36.677
5090	-7.843	35.818	-0.826	-53.306	-0.826	-53.306	-7.844	36.23
5135	-7.78	35.368	-0.839	-53.758	-0.839	-53.758	-7.781	35.784
5180	-7.718	34.918	-0.852	-54.209	-0.852	-54.209	-7.719	35.338
5225	-7.657	34.469	-0.864	-54.659	-0.864	-54.659	-7.658	34.892
5270	-7.597	34.02	-0.877	-55.109	-0.877	-55.109	-7.597	34.447
5315	-7.537	33.571	-0.89	-55.559	-0.89	-55.559	-7.538	34.002
5360	-7.478	33.122	-0.903	-56.008	-0.903	-56.008	-7.479	33.558
5405	-7.419	32.674	-0.916	-56.458	-0.916	-56.458	-7.42	33.113
5450	-7.362	32.226	-0.929	-56.906	-0.929	-56.906	-7.362	32.67
5495	-7.304	31.779	-0.942	-57.355	-0.942	-57.355	-7.305	32.226
5540	-7.248	31.332	-0.956	-57.802	-0.956	-57.802	-7.249	31.783
5585	-7.192	30.885	-0.969	-58.25	-0.969	-58.25	-7.193	31.34
5630	-7.137	30.439	-0.982	-58.697	-0.982	-58.697	-7.138	30.898
5675	-7.083	29.993	-0.996	-59.144	-0.996	-59.144	-7.083	30.456
5720	-7.029	29.547	-1.009	-59.59	-1.009	-59.59	-7.029	30.014
5765	-6.975	29.102	-1.023	-60.036	-1.023	-60.036	-6.976	29.573
5810	-6.922	28.656	-1.036	-60.482	-1.036	-60.482	-6.923	29.132
5855	-6.87	28.212	-1.05	-60.927	-1.05	-60.927	-6.871	28.691
5900	-6.818	27.767	-1.064	-61.372	-1.064	-61.372	-6.819	28.251
5945	-6.768	27.323	-1.077	-61.817	-1.077	-61.817	-6.768	27.811
5990	-6.717	26.88	-1.091	-62.261	-1.091	-62.261	-6.718	27.371
6035	-6.667	26.437	-1.105	-62.705	-1.105	-62.705	-6.668	26.932
6080	-6.618	25.993	-1.119	-63.148	-1.119	-63.148	-6.618	26.493
6125	-6.569	25.551	-1.133	-63.591	-1.133	-63.591	-6.569	26.055
6170	-6.521	25.109	-1.147	-64.034	-1.147	-64.034	-6.521	25.616
6215	-6.473	24.667	-1.161	-64.477	-1.161	-64.477	-6.473	25.178
6260	-6.425	24.225	-1.175	-64.919	-1.175	-64.919	-6.426	24.741
6305	-6.379	23.783	-1.189	-65.361	-1.189	-65.361	-6.379	24.304
6350	-6.332	23.343	-1.203	-65.802	-1.203	-65.802	-6.333	23.867
6395	-6.286	22.902	-1.217	-66.243	-1.217	-66.243	-6.287	23.43
6440	-6.241	22.462	-1.231	-66.683	-1.231	-66.683	-6.242	22.994
6485	-6.196	22.021	-1.246	-67.124	-1.246	-67.124	-6.197	22.558
6530	-6.152	21.582	-1.26	-67.564	-1.26	-67.564	-6.153	22.123
6575	-6.108	21.142	-1.274	-68.004	-1.274	-68.004	-6.109	21.688
6620	-6.065	20.703	-1.289	-68.443	-1.289	-68.443	-6.065	21.253
6665	-6.022	20.265	-1.303	-68.882	-1.303	-68.882	-6.022	20.818
6710	-5.979	19.826	-1.318	-69.321	-1.318	-69.321	-5.98	20.384
6755	-5.937	19.388	-1.332	-69.759	-1.332	-69.759	-5.938	19.95
6800	-5.895	18.95	-1.347	-70.197	-1.347	-70.197	-5.896	19.516
6845	-5.854	18.512	-1.361	-70.635	-1.361	-70.635	-5.855	19.083
6890	-5.813	18.075	-1.376	-71.072	-1.376	-71.072	-5.814	18.65
6935	-5.773	17.638	-1.391	-71.509	-1.391	-71.509	-5.773	18.217
6980	-5.733	17.202	-1.405	-71.946	-1.405	-71.946	-5.733	17.785
7025	-5.693	16.765	-1.42	-72.383	-1.42	-72.383	-5.694	17.353
7070	-5.654	16.329	-1.435	-72.819	-1.435	-72.819	-5.655	16.921
7115	-5.615	15.893	-1.45	-73.255	-1.45	-73.255	-5.616	16.489
7160	-5.577	15.458	-1.465	-73.69	-1.465	-73.69	-5.577	16.058
7205	-5.539	15.022	-1.479	-74.126	-1.479	-74.126	-5.539	15.627
7250	-5.501	14.587	-1.494	-74.561	-1.494	-74.561	-5.502	15.196
7295	-5.464	14.153	-1.509	-74.996	-1.509	-74.996	-5.465	14.766
7340	-5.427	13.718	-1.524	-75.43	-1.524	-75.43	-5.428	14.336
7385	-5.391	13.284	-1.539	-75.864	-1.539	-75.864	-5.391	13.906
7430	-5.355	12.85	-1.554	-76.298	-1.554	-76.298	-5.355	13.477
7475	-5.319	12.416	-1.569	-76.732	-1.569	-76.732	-5.319	13.047
7520	-5.283	11.983	-1.584	-77.165	-1.584	-77.165	-5.284	12.618
7565	-5.248	11.55	-1.599	-77.598	-1.599	-77.598	-5.249	12.19
7610	-5.214	11.117	-1.614	-78.031	-1.614	-78.031	-5.214	11.761
7655	-5.179	10.684	-1.629	-78.464	-1.629	-78.464	-5.18	11.333
7700	-5.145	10.252	-1.644	-78.896	-1.644	-78.896	-5.146	10.905
7745	-5.112	9.82	-1.66	-79.328	-1.66	-79.328	-5.112	10.477
7790	-5.078	9.388	-1.675	-79.76	-1.675	-79.76	-5.079	10.049
7835	-5.045	8.956	-1.69	-80.191	-1.69	-80.191	-5.046	9.622
7880	-5.013	8.524	-1.705	-80.623	-1.705	-80.623	-5.013	9.195
7925	-4.98	8.093	-1.72	-81.054	-1.72	-81.054	-4.981	8.768
7970	-4.948	7.662	-1.735	-81.485	-1.735	-81.485	-4.949	8.342
8015	-4.917	7.231	-1.751	-81.916	-1.751	-81.916	-4.917	7.916
8060	-4.885	6.801	-1.766	-82.346	-1.766	-82.346	-4.886	7.489
8105	-4.854	6.37	-1.781	-82.776	-1.781	-82.776	-4.855	7.063
8150	-4.823	5.94	-1.796	-83.206	-1.796	-83.206	-4.824	6.638
8195	-4.793	5.51	-1.812	-83.636	-1.812	-83.636	-4.793	6.212
8240	-4.763	5.08	-1.827	-84.066	-1.827	-84.066	-4.763	5.787
8285	-4.733	4.65	-1.842	-84.495	-1.842	-84.495	-4.733	5.362
8330	-4.703	4.221	-1.858	-84.925	-1.858	-84.925	-4.704	4.937
8375	-4.674	3.791	-1.873	-85.354	-1.873	-85.354	-4.674	4.512
8420	-4.645	3.362	-1.888	-85.783	-1.888	-85.783	-4.645	4.088
8465	-4.616	2.933	-1.903	-86.211	-1.903	-86.211	-4.617	3.664
8510	-4.588	2.504	-1.919	-86.64	-1.919	-86.64	-4.588	3.239
8555	-4.559	2.076	-1.934	-87.068	-1.934	-87.068	-4.56	2.815
8600	-4.531	1.647	-1.949	-87.497	-1.949	-87.497	-4.532	2.391
8645	-4.504	1.219	-1.965	-87.925	-1.965	-87.925	-4.504	1.968
8690	-4.476	0.79	-1.98	-88.353	-1.98	-88.353	-4.477	1.544
8735	-4.449	0.362	-1.995	-88.78	-1.995	-88.78	-4.45	1.121
8780	-4.423	-0.066	-2.011	-89.208	-2.011	-89.208	-4.423	0.698
8825	-4.396	-0.494	-2.026	-89.636	-2.026	-89.636	-4.397	0.275
8870	-4.37	-0.921	-2.041	-90.063	-2.041	-90.063	-4.37	-0.148
8915	-4.344	-1.349	-2.057	-90.49	-2.057	-90.49	-4.344	-0.571
8960	-4.318	-1.776	-2.072	-90.917	-2.072	-90.917	-4.318	-0.994
9005	-4.292	-2.204	-2.087	-91.344	-2.087	-91.344	-4.293	-1.416
9050	-4.267	-2.631	-2.103	-91.771	-2.103	-91.771	-4.268	-1.839
9095	-4.242	-3.058	-2.118	-92.198	-2.118	-92.198	-4.242	-2.261
9140	-4.217	-3.485	-2.133	-92.625	-2.133	-92.625	-4.218	-2.683
9185	-4.193	-3.913	-2.148	-93.052	-2.148	-93.052	-4.193	-3.105
9230	-4.168	-4.34	-2.164	-93.478	-2.164	-93.478	-4.169	-3.528
9275	-4.144	-4.766	-2.179	-93.905	-2.179	-93.905	-4.145	-3.95
9320	-4.12	-5.193	-2.194	-94.331	-2.194	-94.331	-4.121	-4.371
9365	-4.097	-5.62	-2.209	-94.757	-2.209	-94.757	-4.097	-4.793
9410	-4.073	-6.047	-2.225	-95.184	-2.225	-95.184	-4.074	-5.215
9455	-4.05	-6.474	-2.24	-95.61	-2.24	-95.61	-4.051	-5.637
9500	-4.027	-6.9	-2.255	-96.036	-2.255	-96.036	-4.028	-6.058
9545	-4.005	-7.327	-2.27	-96.462	-2.27	-96.462	-4.005	-6.48
9590	-3.982	-7.753	-2.285	-96.889	-2.285	-96.889	-3.983	-6.901
9635	-3.96	-8.18	-2.301	-97.315	-2.301	-97.315	-3.96	-7.323
9680	-3.938	-8.607	-2.316	-97.741	-2.316	-97.741	-3.938	-7.744
9725	-3.916	-9.033	-2.331	-98.167	-2.331	-98.167	-3.916	-8.166
9770	-3.894	-9.46	-2.346	-98.593	-2.346	-98.593	-3.895	-8.587
9815	-3.873	-9.886	-2.361	-99.019	-2.361	-99.019	-3.873	-9.009
9860	-3.852	-10.313	-2.376	-99.445	-2.376	-99.445	-3.852	-9.43
9905	-3.831	-10.74	-2.391	-99.871	-2.391	-99.871	-3.831	-9.852
9950	-3.81	-11.166	-2.406	-100.298	-2.406	-100.298	-3.811	-10.273
9995	-3.789	-11.593	-2.421	-100.724	-2.421	-100.724	-3.79	-10.694
10040	-3.769	-12.02	-2.436	-101.15	-2.436	-101.15	-3.77	-11.116
10085	-3.749	-12.446	-2.451	-101.576	-2.451	-101.576	-3.75	-11.537
10130	-3.729	-12.873	-2.466	-102.003	-2.466	-102.003	-3.73	-11.959
10175	-3.709	-13.3	-2.48	-102.429	-2.48	-102.429	-3.71	-12.381
10220	-3.69	-13.727	-2.495	-102.856	-2.495	-102.856	-3.69	-12.802
10265	-3.671	-14.154	-2.51	-103.282	-2.51	-103.282	-3.671	-13.224
10310	-3.651	-14.581	-2.525	-103.709	-2.525	-103.709	-3.652	-13.646
10355	-3.633	-15.009	-2.539	-104.136	-2.539	-104.136	-3.633	-14.068
10400	-3.614	-15.436	-2.554	-104.562	-2.554	-104.562	-3.614	-14.49
10445	-3.595	-15.864	-2.569	-104.989	-2.569	-104.989	-3.596	-14.912
10490	-3.577	-16.291	-2.583	-105.416	-2.583	-105.416	-3.577	-15.334
10535	-3.559	-16.719	-2.598	-105.844	-2.598	-105.844	-3.559	-15.756
10580	-3.541	-17.147	-2.612	-106.271	-2.612	-106.271	-3.541	-16.178
10625	-3.523	-17.575	-2.627	-106.698	-2.627	-106.698	-3.523	-16.601
10670	-3.505	-18.003	-2.641	-107.126	-2.641	-107.126	-3.506	-17.023
10715	-3.488	-18.431	-2.656	-107.554	-2.656	-107.554	-3.488	-17.446
10760	-3.471	-18.86	-2.67	-107.982	-2.67	-107.982	-3.471	-17.869
10805	-3.454	-19.288	-2.684	-108.41	-2.684	-108.41	-3.454	-18.292
10850	-3.437	-19.717	-2.698	-108.839	-2.698	-108.839	-3.437	-18.715
10895	-3.42	-20.146	-2.713	-109.267	-2.713	-109.267	-3.421	-19.139
10940	-3.404	-20.576	-2.727	-109.696	-2.727	-109.696	-3.404	-19.563
10985	-3.387	-21.005	-2.741	-110.125	-2.741	-110.125	-3.388	-19.986
11030	-3.371	-21.435	-2.755	-110.554	-2.755	-110.554	-3.372	-20.41
11075	-3.355	-21.865	-2.769	-110.984	-2.769	-110.984	-3.356	-20.834
11120	-3.34	-22.295	-2.783	-111.413	-2.783	-111.413	-3.34	-21.259
11165	-3.324	-22.726	-2.796	-111.844	-2.796	-111.844	-3.324	-21.684
11210	-3.309	-23.157	-2.81	-112.274	-2.81	-112.274	-3.309	-22.108
11255	-3.293	-23.588	-2.824	-112.704	-2.824	-112.704	-3.294	-22.534
11300	-3.278	-24.019	-2.838	-113.135	-2.838	-113.135	-3.279	-22.959
11345	-3.263	-24.451	-2.851	-113.566	-2.851	-113.566	-3.264	-23.385
11390	-3.249	-24.883	-2.865	-113.998	-2.865	-113.998	-3.249	-23.811
11435	-3.234	-25.315	-2.878	-114.43	-2.878	-114.43	-3.235	-24.237
11480	-3.22	-25.747	-2.892	-114.862	-2.892	-114.862	-3.22	-24.664
11525	-3.206	-26.18	-2.905	-115.294	-2.905	-115.294	-3.206	-25.091
11570	-3.192	-26.614	-2.918	-115.727	-2.918	-115.727	-3.192	-25.518
11615	-3.178	-27.047	-2.931	-116.16	-2.931	-116.16	-3.178	-25.945
11660	-3.164	-27.482	-2.944	-116.594	-2.944	-116.594	-3.164	-26.373
11705	-3.15	-27.916	-2.958	-117.028	-2.958	-117.028	-3.151	-26.801
11750	-3.137	-28.351	-2.97	-117.462	-2.97	-117.462	-3.137	-27.23
11795	-3.124	-28.786	-2.983	-117.897	-2.983	-117.897	-3.124	-27.659
11840	-3.111	-29.222	-2.996	-118.332	-2.996	-118.332	-3.111	-28.089
11885	-3.098	-29.658	-3.009	-118.768	-3.009	-118.768	-3.098	-28.518
11930	-3.085	-30.094	-3.021	-119.204	-3.021	-119.204	-3.086	-28.949
11975	-3.073	-30.531	-3.034	-119.641	-3.034	-119.641	-3.073	-29.379
12020	-3.061	-30.969	-3.046	-120.078	-3.046	-120.078	-3.061	-29.81
12065	-3.048	-31.407	-3.059	-120.516	-3.059	-120.516	-3.049	-30.242
12110	-3.036	-31.845	-3.071	-120.954	-3.071	-120.954	-3.037	-30.674
12155	-3.025	-32.285	-3.083	-121.393	-3.083	-121.393	-3.025	-31.107
12200	-3.013	-32.724	-3.095	-121.832	-3.095	-121.832	-3.013	-31.539
12245	-3.001	-33.164	-3.107	-122.272	-3.107	-122.272	-3.002	-31.973
12290	-2.99	-33.605	-3.119	-122.712	-3.119	-122.712	-2.99	-32.407
12335	-2.979	-34.046	-3.131	-123.153	-3.131	-123.153	-2.979	-32.842
12380	-2.968	-34.488	-3.142	-123.594	-3.142	-123.594	-2.968	-33.277
12425	-2.957	-34.93	-3.154	-124.037	-3.154	-124.037	-2.957	-33.713
12470	-2.946	-35.374	-3.165	-124.48	-3.165	-124.48	-2.947	-34.149
12515	-2.936	-35.817	-3.177	-124.923	-3.177	-124.923	-2.936	-34.586
12560	-2.925	-36.262	-3.188	-125.367	-3.188	-125.367	-2.926	-35.024
12605	-2.915	-36.706	-3.199	-125.812	-3.199	-125.812	-2.915	-35.461
12650	-2.905	-37.152	-3.21	-126.257	-3.21	-126.257	-2.905	-35.9
12695	-2.895	-37.599	-3.221	-126.703	-3.221	-126.703	-2.896	-36.34
12740	-2.886	-38.046	-3.231	-127.151	-3.231	-127.151	-2.886	-36.78
12785	-2.876	-38.494	-3.242	-127.598	-3.242	-127.598	-2.876	-37.221
12830	-2.867	-38.942	-3.252	-128.047	-3.252	-128.047	-2.867	-37.662
12875	-2.858	-39.392	-3.263	-128.496	-3.263	-128.496	-2.858	-38.105
12920	-2.849	-39.842	-3.273	-128.946	-3.273	-128.946	-2.849	-38.548
12965	-2.84	-40.293	-3.283	-129.397	-3.283	-129.397	-2.84	-38.991
13010	-2.831	-40.745	-3.293	-129.849	-3.293	-129.849	-2.831	-39.436
13055	-2.823	-41.198	-3.303	-130.302	-3.303	-130.302	-2.823	-39.881
13100	-2.815	-41.651	-3.312	-130.755	-3.312	-130.755	-2.815	-40.327
13145	-2.807	-42.106	-3.322	-131.21	-3.322	-131.21	-2.807	-40.775
13190	-2.799	-42.561	-3.331	-131.665	-3.331	-131.665	-2.799	-41.222
13235	-2.791	-43.017	-3.34	-132.121	-3.34	-132.121	-2.791	-41.671
13280	-2.783	-43.474	-3.349	-132.579	-3.349	-132.579	-2.783	-42.121
13325	-2.776	-43.932	-3.358	-133.037	-3.358	-133.037	-2.776	-42.571
13370	-2.769	-44.392	-3.367	-133.496	-3.367	-133.496	-2.769	-43.023
13415	-2.762	-44.852	-3.375	-133.957	-3.375	-133.957	-2.762	-43.475
13460	-2.755	-45.313	-3.384	-134.418	-3.384	-134.418	-2.755	-43.929
13505	-2.748	-45.775	-3.392	-134.88	-3.392	-134.88	-2.748	-44.383
13550	-2.742	-46.239	-3.4	-135.345	-3.4	-135.345	-2.742	-44.839
13595	-2.735	-46.703	-3.408	-135.809	-3.408	-135.809	-2.735	-45.295
13640	-2.729	-47.169	-3.415	-136.275	-3.415	-136.275	-2.729	-45.753
13685	-2.723	-47.635	-3.423	-136.742	-3.423	-136.742	-2.723	-46.211
13730	-2.718	-48.104	-3.43	-137.211	-3.43	-137.211	-2.718	-46.671
13775	-2.712	-48.573	-3.437	-137.68	-3.437	-137.68	-2.712	-47.132
13820	-2.707	-49.043	-3.444	-138.151	-3.444	-138.151	-2.707	-47.594
13865	-2.702	-49.515	-3.45	-138.624	-3.45	-138.624	-2.701	-48.058
