! AVX Thin Film Operation		Date: May 2002 
! Description: Accu-L® Series, Thin Film, SMD, RF Inductors
! Part Number: L08056R5CEWTR
! 50 MHz  -  10.05 GHz
! Serial Measurements
!
# mhz S db R 50
!	S11		S21		S12		S22
!	dB	Phase	dB	Phase	dB	Phase	dB	Phase
50	-35.278	85.671	-8.203e-3	-1.265	-8.203e-3	-1.265	-35.278	85.713
75	-31.956	85.219	-0.013	-1.866	-0.013	-1.866	-31.956	85.283
100	-29.559	84.768	-0.019	-2.467	-0.019	-2.467	-29.559	84.853
125	-27.683	84.317	-0.024	-3.067	-0.024	-3.067	-27.683	84.423
150	-26.14	83.866	-0.029	-3.668	-0.029	-3.668	-26.14	83.993
175	-24.831	83.414	-0.034	-4.269	-0.034	-4.269	-24.831	83.563
200	-23.693	82.963	-0.039	-4.87	-0.039	-4.87	-23.693	83.133
225	-22.698	82.432	-0.046	-5.467	-0.046	-5.467	-22.698	82.623
250	-21.805	81.901	-0.053	-6.064	-0.053	-6.064	-21.805	82.113
275	-20.995	81.369	-0.06	-6.66	-0.06	-6.66	-20.995	81.602
300	-20.254	80.838	-0.067	-7.257	-0.067	-7.257	-20.254	81.092
325	-19.578	80.28	-0.076	-7.852	-0.076	-7.852	-19.578	80.556
350	-18.95	79.723	-0.086	-8.446	-0.086	-8.446	-18.95	80.019
375	-18.365	79.165	-0.095	-9.04	-0.095	-9.04	-18.365	79.483
400	-17.817	78.608	-0.104	-9.634	-0.104	-9.634	-17.817	78.947
425	-17.305	78.038	-0.115	-10.226	-0.115	-10.226	-17.305	78.398
450	-16.823	77.469	-0.126	-10.818	-0.126	-10.818	-16.823	77.85
475	-16.365	76.899	-0.137	-11.41	-0.137	-11.41	-16.365	77.302
500	-15.931	76.33	-0.148	-12.002	-0.148	-12.002	-15.931	76.753
525	-15.521	75.754	-0.161	-12.592	-0.161	-12.592	-15.521	76.199
550	-15.13	75.178	-0.174	-13.182	-0.174	-13.182	-15.13	75.644
575	-14.755	74.603	-0.188	-13.772	-0.188	-13.772	-14.755	75.09
600	-14.396	74.027	-0.201	-14.361	-0.201	-14.361	-14.396	74.536
625	-14.055	73.448	-0.216	-14.949	-0.216	-14.949	-14.055	73.978
650	-13.727	72.869	-0.231	-15.537	-0.231	-15.537	-13.727	73.42
675	-13.411	72.29	-0.246	-16.125	-0.246	-16.125	-13.411	72.863
700	-13.106	71.711	-0.262	-16.713	-0.262	-16.713	-13.105	72.305
725	-12.814	71.131	-0.279	-17.298	-0.279	-17.298	-12.814	71.746
750	-12.532	70.55	-0.296	-17.884	-0.296	-17.884	-12.532	71.186
775	-12.259	69.97	-0.314	-18.47	-0.314	-18.47	-12.259	70.627
800	-11.995	69.389	-0.331	-19.055	-0.331	-19.055	-11.994	70.068
825	-11.741	68.808	-0.351	-19.639	-0.351	-19.639	-11.741	69.508
850	-11.495	68.227	-0.37	-20.223	-0.37	-20.223	-11.494	68.948
875	-11.255	67.646	-0.39	-20.806	-0.39	-20.806	-11.255	68.388
900	-11.022	67.064	-0.409	-21.39	-0.409	-21.39	-11.022	67.828
925	-10.798	66.483	-0.431	-21.971	-0.431	-21.971	-10.798	67.269
950	-10.579	65.902	-0.452	-22.553	-0.452	-22.553	-10.579	66.709
975	-10.367	65.321	-0.474	-23.134	-0.474	-23.134	-10.366	66.149
1000	-10.159	64.74	-0.496	-23.716	-0.496	-23.716	-10.158	65.59
1025	-9.959	64.16	-0.519	-24.295	-0.519	-24.295	-9.958	65.031
1050	-9.763	63.579	-0.543	-24.874	-0.543	-24.874	-9.763	64.472
1075	-9.572	62.999	-0.567	-25.453	-0.567	-25.453	-9.572	63.913
1100	-9.385	62.418	-0.591	-26.032	-0.591	-26.032	-9.385	63.354
1125	-9.205	61.839	-0.617	-26.609	-0.617	-26.609	-9.205	62.796
1150	-9.028	61.259	-0.643	-27.186	-0.643	-27.186	-9.028	62.237
1175	-8.855	60.68	-0.669	-27.763	-0.669	-27.763	-8.855	61.679
1200	-8.686	60.1	-0.695	-28.34	-0.695	-28.34	-8.686	61.121
1225	-8.522	59.522	-0.723	-28.915	-0.723	-28.915	-8.522	60.565
1250	-8.362	58.943	-0.751	-29.489	-0.751	-29.489	-8.362	60.008
1275	-8.204	58.365	-0.779	-30.064	-0.779	-30.064	-8.204	59.451
1300	-8.05	57.787	-0.807	-30.639	-0.807	-30.639	-8.049	58.894
1325	-7.9	57.21	-0.837	-31.211	-0.837	-31.211	-7.9	58.339
1350	-7.754	56.633	-0.867	-31.783	-0.867	-31.783	-7.753	57.784
1375	-7.609	56.056	-0.898	-32.355	-0.898	-32.355	-7.609	57.229
1400	-7.468	55.479	-0.928	-32.928	-0.928	-32.928	-7.467	56.673
1425	-7.331	54.904	-0.96	-33.498	-0.96	-33.498	-7.33	56.12
1450	-7.196	54.329	-0.993	-34.067	-0.993	-34.067	-7.196	55.566
1475	-7.063	53.753	-1.026	-34.637	-1.026	-34.637	-7.063	55.013
1500	-6.932	53.178	-1.058	-35.207	-1.058	-35.207	-6.932	54.459
1525	-6.806	52.604	-1.093	-35.775	-1.093	-35.775	-6.806	53.907
1550	-6.682	52.031	-1.127	-36.342	-1.127	-36.342	-6.682	53.355
1575	-6.559	51.457	-1.162	-36.909	-1.162	-36.909	-6.559	52.804
1600	-6.439	50.883	-1.197	-37.477	-1.197	-37.477	-6.438	52.252
1625	-6.322	50.312	-1.234	-38.042	-1.234	-38.042	-6.322	51.702
1650	-6.207	49.74	-1.271	-38.607	-1.271	-38.607	-6.207	51.152
1675	-6.093	49.168	-1.308	-39.172	-1.308	-39.172	-6.093	50.602
1700	-5.981	48.596	-1.346	-39.737	-1.346	-39.737	-5.981	50.052
1725	-5.873	48.026	-1.385	-40.3	-1.385	-40.3	-5.873	49.504
1750	-5.766	47.456	-1.424	-40.862	-1.424	-40.862	-5.766	48.956
1775	-5.661	46.886	-1.463	-41.425	-1.463	-41.425	-5.66	48.408
1800	-5.557	46.316	-1.503	-41.988	-1.503	-41.988	-5.556	47.86
1825	-5.456	45.748	-1.545	-42.548	-1.545	-42.548	-5.456	47.314
1850	-5.357	45.179	-1.586	-43.108	-1.586	-43.108	-5.356	46.768
1875	-5.258	44.611	-1.628	-43.668	-1.628	-43.668	-5.258	46.222
1900	-5.161	44.043	-1.67	-44.228	-1.67	-44.228	-5.161	45.676
1925	-5.067	43.477	-1.714	-44.786	-1.714	-44.786	-5.067	45.132
1950	-4.975	42.91	-1.758	-45.344	-1.758	-45.344	-4.974	44.588
1975	-4.883	42.344	-1.803	-45.902	-1.803	-45.902	-4.883	44.044
2000	-4.792	41.778	-1.847	-46.46	-1.847	-46.46	-4.792	43.499
2025	-4.705	41.213	-1.894	-47.015	-1.894	-47.015	-4.704	42.957
2050	-4.618	40.649	-1.94	-47.571	-1.94	-47.571	-4.618	42.415
2075	-4.532	40.084	-1.987	-48.126	-1.987	-48.126	-4.532	41.873
2100	-4.448	39.52	-2.034	-48.682	-2.034	-48.682	-4.447	41.331
2125	-4.366	38.957	-2.083	-49.235	-2.083	-49.235	-4.365	40.791
2150	-4.285	38.394	-2.132	-49.788	-2.132	-49.788	-4.284	40.251
2175	-4.204	37.832	-2.182	-50.341	-2.182	-50.341	-4.204	39.711
2200	-4.125	37.269	-2.232	-50.894	-2.232	-50.894	-4.124	39.17
2225	-4.048	36.708	-2.283	-51.445	-2.283	-51.445	-4.048	38.632
2250	-3.972	36.147	-2.335	-51.996	-2.335	-51.996	-3.972	38.094
2275	-3.897	35.586	-2.387	-52.547	-2.387	-52.547	-3.896	37.556
2300	-3.822	35.025	-2.44	-53.098	-2.44	-53.098	-3.822	37.017
2325	-3.75	34.466	-2.494	-53.647	-2.494	-53.647	-3.75	36.481
2350	-3.679	33.907	-2.549	-54.196	-2.549	-54.196	-3.679	35.945
2375	-3.609	33.348	-2.604	-54.745	-2.604	-54.745	-3.608	35.408
2400	-3.538	32.788	-2.659	-55.293	-2.659	-55.293	-3.538	34.872
2425	-3.471	32.231	-2.716	-55.84	-2.716	-55.84	-3.47	34.337
2450	-3.404	31.673	-2.774	-56.387	-2.774	-56.387	-3.403	33.803
2475	-3.338	31.116	-2.832	-56.933	-2.832	-56.933	-3.337	33.268
2500	-3.272	30.558	-2.89	-57.48	-2.89	-57.48	-3.271	32.733
2525	-3.208	30.002	-2.95	-58.025	-2.95	-58.025	-3.208	32.201
2550	-3.146	29.446	-3.011	-58.569	-3.011	-58.569	-3.145	31.668
2575	-3.083	28.89	-3.072	-59.114	-3.072	-59.114	-3.082	31.135
2600	-3.021	28.334	-3.133	-59.658	-3.133	-59.658	-3.02	30.602
2625	-2.962	27.779	-3.196	-60.201	-3.196	-60.201	-2.961	30.071
2650	-2.903	27.225	-3.26	-60.744	-3.26	-60.744	-2.902	29.539
2675	-2.844	26.67	-3.324	-61.287	-3.324	-61.287	-2.843	29.008
2700	-2.785	26.115	-3.389	-61.829	-3.389	-61.829	-2.785	28.477
2725	-2.729	25.562	-3.456	-62.37	-3.456	-62.37	-2.729	27.947
2750	-2.674	25.009	-3.523	-62.911	-3.523	-62.911	-2.673	27.417
2775	-2.619	24.456	-3.59	-63.452	-3.59	-63.452	-2.618	26.887
2800	-2.564	23.902	-3.658	-63.992	-3.658	-63.992	-2.563	26.358
2825	-2.511	23.35	-3.728	-64.531	-3.728	-64.531	-2.51	25.829
2850	-2.459	22.798	-3.799	-65.071	-3.799	-65.071	-2.458	25.301
2875	-2.407	22.246	-3.87	-65.61	-3.87	-65.61	-2.406	24.773
2900	-2.355	21.694	-3.942	-66.149	-3.942	-66.149	-2.354	24.244
2925	-2.306	21.143	-4.016	-66.686	-4.016	-66.686	-2.305	23.717
2950	-2.256	20.592	-4.09	-67.223	-4.09	-67.223	-2.255	23.19
2975	-2.207	20.041	-4.166	-67.761	-4.166	-67.761	-2.207	22.663
3000	-2.159	19.49	-4.241	-68.298	-4.241	-68.298	-2.158	22.136
3025	-2.112	18.94	-4.319	-68.834	-4.319	-68.834	-2.111	21.61
3050	-2.066	18.39	-4.398	-69.37	-4.398	-69.37	-2.065	21.084
3075	-2.02	17.84	-4.477	-69.905	-4.477	-69.905	-2.019	20.558
3100	-1.974	17.29	-4.557	-70.441	-4.557	-70.441	-1.973	20.033
3125	-1.93	16.741	-4.639	-70.975	-4.639	-70.975	-1.929	19.508
3150	-1.887	16.191	-4.722	-71.51	-4.722	-71.51	-1.886	18.983
3175	-1.843	15.642	-4.805	-72.044	-4.805	-72.044	-1.842	18.458
3200	-1.8	15.093	-4.89	-72.578	-4.89	-72.578	-1.799	17.933
3225	-1.759	14.544	-4.976	-73.111	-4.976	-73.111	-1.758	17.409
3250	-1.718	13.996	-5.064	-73.644	-5.064	-73.644	-1.717	16.885
3275	-1.677	13.447	-5.152	-74.176	-5.152	-74.176	-1.676	16.361
3300	-1.637	12.899	-5.242	-74.709	-5.242	-74.709	-1.636	15.837
3325	-1.598	12.351	-5.334	-75.241	-5.334	-75.241	-1.597	15.314
3350	-1.56	11.803	-5.426	-75.772	-5.426	-75.772	-1.559	14.791
3375	-1.521	11.255	-5.52	-76.304	-5.52	-76.304	-1.52	14.268
3400	-1.483	10.707	-5.615	-76.835	-5.615	-76.835	-1.482	13.745
3425	-1.447	10.159	-5.712	-77.365	-5.712	-77.365	-1.446	13.222
3450	-1.411	9.611	-5.81	-77.895	-5.81	-77.895	-1.41	12.699
3475	-1.375	9.063	-5.909	-78.425	-5.909	-78.425	-1.374	12.177
3500	-1.339	8.516	-6.01	-78.955	-6.01	-78.955	-1.338	11.654
3525	-1.305	7.968	-6.113	-79.484	-6.113	-79.484	-1.304	11.132
3550	-1.272	7.421	-6.217	-80.013	-6.217	-80.013	-1.27	10.61
3575	-1.238	6.873	-6.323	-80.542	-6.323	-80.542	-1.237	10.088
3600	-1.204	6.326	-6.43	-81.071	-6.43	-81.071	-1.203	9.566
3625	-1.173	5.778	-6.539	-81.598	-6.539	-81.598	-1.171	9.044
3650	-1.141	5.231	-6.651	-82.126	-6.651	-82.126	-1.14	8.522
3675	-1.109	4.683	-6.763	-82.653	-6.763	-82.653	-1.108	8.001
3700	-1.078	4.136	-6.877	-83.181	-6.877	-83.181	-1.077	7.479
3725	-1.048	3.588	-6.994	-83.707	-6.994	-83.707	-1.047	6.957
3750	-1.019	3.041	-7.113	-84.233	-7.113	-84.233	-1.018	6.436
3775	-0.989	2.493	-7.233	-84.76	-7.233	-84.76	-0.988	5.914
3800	-0.96	1.945	-7.355	-85.286	-7.355	-85.286	-0.959	5.392
3825	-0.933	1.398	-7.48	-85.811	-7.48	-85.811	-0.931	4.871
3850	-0.905	0.85	-7.607	-86.335	-7.607	-86.335	-0.904	4.349
3875	-0.878	0.302	-7.736	-86.86	-7.736	-86.86	-0.876	3.828
3900	-0.85	-0.246	-7.867	-87.385	-7.867	-87.385	-0.849	3.306
3925	-0.825	-0.794	-8.001	-87.908	-8.001	-87.908	-0.823	2.784
3950	-0.799	-1.343	-8.138	-88.431	-8.138	-88.431	-0.798	2.263
3975	-0.774	-1.891	-8.276	-88.955	-8.276	-88.955	-0.772	1.741
4000	-0.748	-2.439	-8.417	-89.478	-8.417	-89.478	-0.747	1.219
4025	-0.725	-2.988	-8.562	-89.999	-8.562	-89.999	-0.723	0.698
4050	-0.701	-3.537	-8.709	-90.52	-8.709	-90.52	-0.699	0.176
4075	-0.677	-4.086	-8.859	-91.042	-8.859	-91.042	-0.676	-0.346
4100	-0.654	-4.635	-9.012	-91.563	-9.012	-91.563	-0.652	-0.868
4125	-0.632	-5.185	-9.168	-92.082	-9.168	-92.082	-0.63	-1.391
4150	-0.61	-5.735	-9.328	-92.602	-9.328	-92.602	-0.609	-1.913
4175	-0.588	-6.284	-9.491	-93.121	-9.491	-93.121	-0.587	-2.435
4200	-0.567	-6.834	-9.657	-93.64	-9.657	-93.64	-0.565	-2.957
4225	-0.547	-7.385	-9.828	-94.156	-9.828	-94.156	-0.545	-3.48
4250	-0.527	-7.935	-10.002	-94.672	-10.002	-94.672	-0.525	-4.003
4275	-0.507	-8.486	-10.179	-95.189	-10.179	-95.189	-0.505	-4.526
4300	-0.487	-9.036	-10.361	-95.705	-10.361	-95.705	-0.485	-5.049
4325	-0.469	-9.588	-10.548	-96.218	-10.548	-96.218	-0.467	-5.572
4350	-0.451	-10.14	-10.739	-96.73	-10.739	-96.73	-0.449	-6.096
4375	-0.432	-10.691	-10.935	-97.243	-10.935	-97.243	-0.431	-6.619
4400	-0.414	-11.243	-11.135	-97.756	-11.135	-97.756	-0.412	-7.143
4425	-0.398	-11.796	-11.342	-98.263	-11.342	-98.263	-0.396	-7.667
4450	-0.381	-12.349	-11.553	-98.771	-11.553	-98.771	-0.38	-8.191
4475	-0.365	-12.902	-11.77	-99.278	-11.77	-99.278	-0.363	-8.716
4500	-0.349	-13.455	-11.993	-99.786	-11.993	-99.786	-0.347	-9.24
4525	-0.334	-14.009	-12.223	-100.286	-12.223	-100.286	-0.332	-9.765
4550	-0.319	-14.563	-12.46	-100.787	-12.46	-100.787	-0.317	-10.29
4575	-0.304	-15.117	-12.703	-101.287	-12.703	-101.287	-0.302	-10.815
4600	-0.29	-15.672	-12.953	-101.787	-12.953	-101.787	-0.288	-11.341
4625	-0.277	-16.227	-13.213	-102.277	-13.213	-102.277	-0.275	-11.867
4650	-0.264	-16.783	-13.481	-102.768	-13.481	-102.768	-0.262	-12.393
4675	-0.251	-17.339	-13.757	-103.258	-13.757	-103.258	-0.249	-12.919
4700	-0.238	-17.894	-14.042	-103.748	-14.042	-103.748	-0.236	-13.445
4725	-0.226	-18.452	-14.34	-104.222	-14.34	-104.222	-0.224	-13.973
4750	-0.215	-19.009	-14.647	-104.696	-14.647	-104.696	-0.213	-14.5
4775	-0.204	-19.566	-14.967	-105.17	-14.967	-105.17	-0.201	-15.027
4800	-0.192	-20.123	-15.298	-105.645	-15.298	-105.645	-0.19	-15.554
4825	-0.183	-20.682	-15.645	-106.094	-15.645	-106.094	-0.18	-16.083
4850	-0.173	-21.241	-16.006	-106.542	-16.006	-106.542	-0.171	-16.611
4875	-0.163	-21.8	-16.383	-106.991	-16.383	-106.991	-0.161	-17.14
4900	-0.154	-22.359	-16.777	-107.44	-16.777	-107.44	-0.151	-17.668
4925	-0.146	-22.92	-17.192	-107.845	-17.192	-107.845	-0.143	-18.198
4950	-0.138	-23.481	-17.628	-108.25	-17.628	-108.25	-0.135	-18.728
4975	-0.13	-24.042	-18.087	-108.654	-18.087	-108.654	-0.127	-19.257
5000	-0.122	-24.602	-18.572	-109.059	-18.572	-109.059	-0.119	-19.787
5025	-0.115	-25.165	-19.088	-109.379	-19.088	-109.379	-0.113	-20.318
5050	-0.109	-25.728	-19.637	-109.698	-19.637	-109.698	-0.107	-20.849
5075	-0.103	-26.29	-20.222	-110.017	-20.222	-110.017	-0.1	-21.38
5100	-0.096	-26.853	-20.85	-110.337	-20.85	-110.337	-0.094	-21.911
5125	-0.092	-27.418	-21.53	-110.458	-21.53	-110.458	-0.089	-22.444
5150	-0.087	-27.982	-22.267	-110.579	-22.267	-110.579	-0.085	-22.976
5175	-0.083	-28.547	-23.072	-110.7	-23.072	-110.7	-0.08	-23.509
5200	-0.078	-29.112	-23.96	-110.821	-23.96	-110.821	-0.075	-24.041
5225	-0.075	-29.678	-24.949	-110.288	-24.949	-110.288	-0.072	-24.575
5250	-0.072	-30.245	-26.064	-109.755	-26.064	-109.755	-0.069	-25.109
5275	-0.069	-30.812	-27.344	-109.222	-27.344	-109.222	-0.066	-25.643
5300	-0.066	-31.378	-28.846	-108.689	-28.846	-108.689	-0.063	-26.176
5325	-0.065	-31.947	-30.566	-102.16	-30.566	-102.16	-0.062	-26.712
5350	-0.064	-32.516	-32.715	-95.631	-32.715	-95.631	-0.061	-27.247
5375	-0.062	-33.085	-35.575	-89.102	-35.575	-89.102	-0.059	-27.782
5400	-0.061	-33.653	-39.869	-82.573	-39.869	-82.573	-0.058	-28.318
5425	-0.061	-34.224	-37.862	-52.157	-37.862	-52.157	-0.058	-28.854
5450	-0.062	-34.795	-36.232	-21.741	-36.232	-21.741	-0.059	-29.391
5475	-0.062	-35.366	-34.861	8.674	-34.861	8.674	-0.059	-29.928
5500	-0.063	-35.937	-33.677	39.09	-33.677	39.09	-0.059	-30.464
5525	-0.065	-36.51	-31.212	41.071	-31.212	41.071	-0.061	-31.002
5550	-0.067	-37.083	-29.295	43.052	-29.295	43.052	-0.064	-31.541
5575	-0.069	-37.656	-27.725	45.033	-27.725	45.033	-0.066	-32.079
5600	-0.071	-38.229	-26.396	47.014	-26.396	47.014	-0.068	-32.617
5625	-0.075	-38.804	-25.226	47.148	-25.226	47.148	-0.072	-33.156
5650	-0.079	-39.379	-24.195	47.282	-24.195	47.282	-0.075	-33.696
5675	-0.083	-39.954	-23.274	47.415	-23.274	47.415	-0.079	-34.235
5700	-0.087	-40.529	-22.441	47.549	-22.441	47.549	-0.083	-34.775
5725	-0.092	-41.107	-21.679	47.309	-21.679	47.309	-0.089	-35.316
5750	-0.098	-41.684	-20.978	47.069	-20.978	47.069	-0.094	-35.857
5775	-0.103	-42.261	-20.329	46.829	-20.329	46.829	-0.1	-36.397
5800	-0.109	-42.838	-19.726	46.589	-19.726	46.589	-0.105	-36.938
5825	-0.116	-43.418	-19.162	46.211	-19.162	46.211	-0.113	-37.48
5850	-0.124	-43.997	-18.632	45.833	-18.632	45.833	-0.12	-38.022
5875	-0.131	-44.577	-18.132	45.455	-18.132	45.455	-0.127	-38.565
5900	-0.139	-45.156	-17.66	45.076	-17.66	45.076	-0.135	-39.107
5925	-0.148	-45.737	-17.213	44.632	-17.213	44.632	-0.144	-39.65
5950	-0.157	-46.319	-16.787	44.187	-16.787	44.187	-0.153	-40.193
5975	-0.166	-46.9	-16.382	43.742	-16.382	43.742	-0.162	-40.736
6000	-0.175	-47.482	-15.994	43.297	-15.994	43.297	-0.171	-41.28
6025	-0.186	-48.065	-15.624	42.815	-15.624	42.815	-0.182	-41.824
6050	-0.197	-48.648	-15.269	42.332	-15.269	42.332	-0.193	-42.368
6075	-0.208	-49.232	-14.929	41.85	-14.929	41.85	-0.204	-42.913
6100	-0.219	-49.815	-14.601	41.367	-14.601	41.367	-0.215	-43.457
6125	-0.232	-50.401	-14.286	40.862	-14.286	40.862	-0.227	-44.002
6150	-0.245	-50.986	-13.982	40.356	-13.982	40.356	-0.24	-44.548
6175	-0.258	-51.571	-13.688	39.85	-13.688	39.85	-0.253	-45.093
6200	-0.27	-52.157	-13.404	39.344	-13.404	39.344	-0.266	-45.638
6225	-0.285	-52.744	-13.131	38.822	-13.131	38.822	-0.28	-46.184
6250	-0.3	-53.331	-12.866	38.3	-12.866	38.3	-0.295	-46.731
6275	-0.314	-53.918	-12.608	37.779	-12.608	37.779	-0.31	-47.277
6300	-0.329	-54.505	-12.358	37.257	-12.358	37.257	-0.324	-47.823
6325	-0.346	-55.094	-12.117	36.724	-12.117	36.724	-0.341	-48.369
6350	-0.362	-55.683	-11.882	36.191	-11.882	36.191	-0.357	-48.916
6375	-0.379	-56.272	-11.653	35.658	-11.653	35.658	-0.374	-49.463
6400	-0.395	-56.86	-11.43	35.125	-11.43	35.125	-0.39	-50.009
6425	-0.414	-57.451	-11.215	34.584	-11.215	34.584	-0.408	-50.557
6450	-0.432	-58.041	-11.005	34.043	-11.005	34.043	-0.427	-51.104
6475	-0.451	-58.632	-10.799	33.502	-10.799	33.502	-0.445	-51.651
6500	-0.469	-59.222	-10.599	32.961	-10.599	32.961	-0.464	-52.198
6525	-0.49	-59.814	-10.404	32.413	-10.404	32.413	-0.484	-52.745
6550	-0.51	-60.406	-10.214	31.866	-10.214	31.866	-0.504	-53.293
6575	-0.53	-60.998	-10.028	31.318	-10.028	31.318	-0.525	-53.84
6600	-0.551	-61.589	-9.846	30.771	-9.846	30.771	-0.545	-54.388
6625	-0.573	-62.183	-9.67	30.219	-9.67	30.219	-0.567	-54.935
6650	-0.595	-62.776	-9.497	29.667	-9.497	29.667	-0.589	-55.482
6675	-0.618	-63.369	-9.327	29.114	-9.327	29.114	-0.612	-56.03
6700	-0.64	-63.962	-9.161	28.562	-9.161	28.562	-0.634	-56.577
6725	-0.664	-64.556	-9	28.006	-9	28.006	-0.658	-57.124
6750	-0.689	-65.15	-8.841	27.45	-8.841	27.45	-0.682	-57.671
6775	-0.713	-65.744	-8.686	26.895	-8.686	26.895	-0.706	-58.218
6800	-0.737	-66.339	-8.533	26.339	-8.533	26.339	-0.731	-58.766
6825	-0.764	-66.934	-8.385	25.78	-8.385	25.78	-0.757	-59.312
6850	-0.79	-67.529	-8.24	25.221	-8.24	25.221	-0.783	-59.859
6875	-0.816	-68.124	-8.097	24.662	-8.097	24.662	-0.809	-60.406
6900	-0.843	-68.719	-7.956	24.104	-7.956	24.104	-0.836	-60.952
6925	-0.871	-69.315	-7.819	23.543	-7.819	23.543	-0.864	-61.498
6950	-0.899	-69.911	-7.685	22.982	-7.685	22.982	-0.892	-62.044
6975	-0.927	-70.506	-7.553	22.421	-7.553	22.421	-0.92	-62.59
7000	-0.956	-71.102	-7.422	21.86	-7.422	21.86	-0.948	-63.136
7025	-0.986	-71.699	-7.296	21.298	-7.296	21.298	-0.979	-63.681
7050	-1.016	-72.295	-7.171	20.736	-7.171	20.736	-1.009	-64.225
7075	-1.047	-72.891	-7.049	20.173	-7.049	20.173	-1.039	-64.77
7100	-1.077	-73.488	-6.928	19.611	-6.928	19.611	-1.069	-65.315
7125	-1.109	-74.084	-6.811	19.048	-6.811	19.048	-1.101	-65.859
7150	-1.141	-74.681	-6.695	18.484	-6.695	18.484	-1.134	-66.402
7175	-1.174	-75.278	-6.581	17.921	-6.581	17.921	-1.166	-66.946
7200	-1.206	-75.874	-6.468	17.358	-6.468	17.358	-1.198	-67.489
7225	-1.241	-76.471	-6.36	16.794	-6.36	16.794	-1.232	-68.031
7250	-1.275	-77.068	-6.252	16.23	-6.252	16.23	-1.267	-68.573
7275	-1.309	-77.664	-6.146	15.666	-6.146	15.666	-1.301	-69.115
7300	-1.344	-78.261	-6.041	15.102	-6.041	15.102	-1.335	-69.657
7325	-1.38	-78.858	-5.939	14.538	-5.939	14.538	-1.371	-70.197
7350	-1.417	-79.455	-5.839	13.975	-5.839	13.975	-1.408	-70.737
7375	-1.453	-80.051	-5.74	13.411	-5.74	13.411	-1.444	-71.277
7400	-1.49	-80.648	-5.642	12.847	-5.642	12.847	-1.481	-71.816
7425	-1.528	-81.244	-5.547	12.283	-5.547	12.283	-1.519	-72.354
7450	-1.567	-81.841	-5.454	11.72	-5.454	11.72	-1.557	-72.892
7475	-1.605	-82.437	-5.361	11.156	-5.361	11.156	-1.596	-73.429
7500	-1.644	-83.033	-5.269	10.593	-5.269	10.593	-1.634	-73.967
7525	-1.684	-83.629	-5.181	10.03	-5.181	10.03	-1.674	-74.502
7550	-1.725	-84.225	-5.094	9.467	-5.094	9.467	-1.715	-75.037
7575	-1.765	-84.821	-5.007	8.904	-5.007	8.904	-1.755	-75.572
7600	-1.806	-85.417	-4.921	8.341	-4.921	8.341	-1.796	-76.107
7625	-1.848	-86.012	-4.839	7.78	-4.839	7.78	-1.838	-76.64
7650	-1.891	-86.607	-4.757	7.218	-4.757	7.218	-1.88	-77.172
7675	-1.934	-87.202	-4.676	6.656	-4.676	6.656	-1.923	-77.704
7700	-1.977	-87.797	-4.595	6.094	-4.595	6.094	-1.966	-78.236
7725	-2.021	-88.391	-4.518	5.534	-4.518	5.534	-2.01	-78.765
7750	-2.066	-88.986	-4.441	4.974	-4.441	4.974	-2.054	-79.294
7775	-2.11	-89.58	-4.365	4.413	-4.365	4.413	-2.099	-79.823
7800	-2.155	-90.174	-4.29	3.853	-4.29	3.853	-2.144	-80.352
7825	-2.202	-90.767	-4.218	3.294	-4.218	3.294	-2.19	-80.877
7850	-2.248	-91.36	-4.146	2.736	-4.146	2.736	-2.236	-81.403
