! AVX Thin Film Operation		Date: May 2002 
! Description: Accu-L® Series, Thin Film, SMD, RF Inductors
! Part Number: L08052R7CEWTR
! 50 MHz  -  18.05 GHz
! Serial Measurements
!
# mhz S db R 50
!	S11		S21		S12		S22
!	dB	Phase	dB	Phase	dB	Phase	dB	Phase
50	-44.971	89.06	-6.08e-6	-0.6	-6.08e-6	-0.6	-44.971	89.059
95	-39.397	88.517	-1.028e-3	-1.14	-1.028e-3	-1.14	-39.397	88.516
140	-36.029	87.974	-2.05e-3	-1.68	-2.05e-3	-1.68	-36.029	87.973
185	-33.609	87.432	-3.072e-3	-2.219	-3.072e-3	-2.219	-33.609	87.429
230	-31.718	86.889	-4.432e-3	-2.759	-4.432e-3	-2.759	-31.718	86.886
275	-30.167	86.347	-5.962e-3	-3.299	-5.962e-3	-3.299	-30.167	86.343
320	-28.852	85.804	-7.716e-3	-3.839	-7.716e-3	-3.839	-28.852	85.8
365	-27.71	85.262	-9.751e-3	-4.378	-9.751e-3	-4.378	-27.71	85.258
410	-26.702	84.72	-0.012	-4.918	-0.012	-4.918	-26.702	84.715
455	-25.8	84.178	-0.014	-5.457	-0.014	-5.457	-25.8	84.172
500	-24.982	83.636	-0.017	-5.997	-0.017	-5.997	-24.982	83.63
545	-24.236	83.095	-0.02	-6.536	-0.02	-6.536	-24.236	83.088
590	-23.549	82.553	-0.023	-7.075	-0.023	-7.075	-23.549	82.546
635	-22.914	82.012	-0.026	-7.614	-0.026	-7.614	-22.914	82.004
680	-22.322	81.471	-0.03	-8.153	-0.03	-8.153	-22.322	81.462
725	-21.769	80.931	-0.034	-8.691	-0.034	-8.691	-21.769	80.921
770	-21.249	80.39	-0.038	-9.23	-0.038	-9.23	-21.249	80.38
815	-20.759	79.85	-0.042	-9.768	-0.042	-9.768	-20.759	79.839
860	-20.297	79.31	-0.047	-10.306	-0.047	-10.306	-20.297	79.298
905	-19.857	78.77	-0.051	-10.844	-0.051	-10.844	-19.857	78.758
950	-19.441	78.23	-0.056	-11.381	-0.056	-11.381	-19.441	78.218
995	-19.043	77.691	-0.061	-11.918	-0.061	-11.918	-19.043	77.678
1040	-18.664	77.152	-0.067	-12.455	-0.067	-12.455	-18.664	77.139
1085	-18.301	76.614	-0.072	-12.992	-0.072	-12.992	-18.301	76.6
1130	-17.953	76.076	-0.078	-13.528	-0.078	-13.528	-17.953	76.061
1175	-17.619	75.538	-0.084	-14.064	-0.084	-14.064	-17.619	75.523
1220	-17.299	75	-0.09	-14.6	-0.09	-14.6	-17.299	74.984
1265	-16.99	74.463	-0.097	-15.135	-0.097	-15.135	-16.99	74.447
1310	-16.692	73.926	-0.103	-15.67	-0.103	-15.67	-16.692	73.909
1355	-16.405	73.39	-0.11	-16.204	-0.11	-16.204	-16.406	73.373
1400	-16.128	72.854	-0.117	-16.739	-0.117	-16.739	-16.128	72.836
1445	-15.86	72.319	-0.125	-17.273	-0.125	-17.273	-15.86	72.3
1490	-15.601	71.784	-0.132	-17.806	-0.132	-17.806	-15.601	71.764
1535	-15.35	71.249	-0.14	-18.339	-0.14	-18.339	-15.35	71.229
1580	-15.106	70.715	-0.148	-18.872	-0.148	-18.872	-15.106	70.694
1625	-14.87	70.181	-0.156	-19.404	-0.156	-19.404	-14.87	70.16
1670	-14.64	69.648	-0.164	-19.936	-0.164	-19.936	-14.64	69.626
1715	-14.417	69.115	-0.173	-20.467	-0.173	-20.467	-14.417	69.093
1760	-14.201	68.583	-0.181	-20.998	-0.181	-20.998	-14.201	68.56
1805	-13.99	68.051	-0.19	-21.528	-0.19	-21.528	-13.99	68.027
1850	-13.785	67.52	-0.2	-22.058	-0.2	-22.058	-13.785	67.496
1895	-13.585	66.989	-0.209	-22.588	-0.209	-22.588	-13.585	66.964
1940	-13.39	66.459	-0.218	-23.116	-0.218	-23.116	-13.39	66.434
1985	-13.2	65.929	-0.228	-23.645	-0.228	-23.645	-13.2	65.903
2030	-13.015	65.4	-0.238	-24.173	-0.238	-24.173	-13.015	65.373
2075	-12.834	64.871	-0.248	-24.7	-0.248	-24.7	-12.834	64.844
2120	-12.658	64.343	-0.258	-25.227	-0.258	-25.227	-12.658	64.316
2165	-12.485	63.815	-0.269	-25.753	-0.269	-25.753	-12.485	63.788
2210	-12.317	63.288	-0.28	-26.279	-0.28	-26.279	-12.317	63.26
2255	-12.152	62.762	-0.291	-26.804	-0.291	-26.804	-12.152	62.733
2300	-11.991	62.236	-0.301	-27.329	-0.301	-27.329	-11.991	62.207
2345	-11.834	61.711	-0.313	-27.852	-0.313	-27.852	-11.834	61.681
2390	-11.679	61.187	-0.324	-28.376	-0.324	-28.376	-11.679	61.156
2435	-11.529	60.663	-0.336	-28.899	-0.336	-28.899	-11.529	60.632
2480	-11.381	60.139	-0.348	-29.421	-0.348	-29.421	-11.381	60.108
2525	-11.236	59.617	-0.36	-29.942	-0.36	-29.942	-11.236	59.585
2570	-11.095	59.095	-0.372	-30.463	-0.372	-30.463	-11.095	59.062
2615	-10.956	58.573	-0.384	-30.984	-0.384	-30.984	-10.956	58.54
2660	-10.82	58.053	-0.397	-31.503	-0.397	-31.503	-10.82	58.019
2705	-10.686	57.532	-0.409	-32.023	-0.409	-32.023	-10.686	57.498
2750	-10.555	57.013	-0.422	-32.541	-0.422	-32.541	-10.555	56.978
2795	-10.427	56.494	-0.435	-33.059	-0.435	-33.059	-10.427	56.459
2840	-10.301	55.977	-0.448	-33.576	-0.448	-33.576	-10.301	55.94
2885	-10.177	55.459	-0.462	-34.092	-0.462	-34.092	-10.177	55.422
2930	-10.056	54.942	-0.475	-34.608	-0.475	-34.608	-10.056	54.905
2975	-9.937	54.426	-0.489	-35.123	-0.489	-35.123	-9.937	54.388
3020	-9.82	53.911	-0.503	-35.637	-0.503	-35.637	-9.82	53.872
3065	-9.705	53.396	-0.517	-36.151	-0.517	-36.151	-9.705	53.357
3110	-9.592	52.882	-0.531	-36.664	-0.531	-36.664	-9.592	52.843
3155	-9.481	52.369	-0.545	-37.176	-0.545	-37.176	-9.482	52.329
3200	-9.372	51.856	-0.56	-37.688	-0.56	-37.688	-9.372	51.816
3245	-9.265	51.345	-0.574	-38.199	-0.574	-38.199	-9.266	51.304
3290	-9.16	50.834	-0.589	-38.709	-0.589	-38.709	-9.16	50.792
3335	-9.057	50.323	-0.604	-39.219	-0.604	-39.219	-9.057	50.281
3380	-8.955	49.814	-0.619	-39.728	-0.619	-39.728	-8.955	49.771
3425	-8.855	49.305	-0.634	-40.236	-0.634	-40.236	-8.855	49.262
3470	-8.757	48.797	-0.65	-40.743	-0.65	-40.743	-8.757	48.753
3515	-8.66	48.289	-0.665	-41.25	-0.665	-41.25	-8.66	48.245
3560	-8.565	47.783	-0.681	-41.756	-0.681	-41.756	-8.565	47.738
3605	-8.471	47.276	-0.697	-42.261	-0.697	-42.261	-8.471	47.231
3650	-8.379	46.771	-0.713	-42.765	-0.713	-42.765	-8.379	46.726
3695	-8.288	46.267	-0.729	-43.269	-0.729	-43.269	-8.288	46.22
3740	-8.199	45.763	-0.745	-43.772	-0.745	-43.772	-8.199	45.716
3785	-8.11	45.26	-0.761	-44.274	-0.761	-44.274	-8.111	45.213
3830	-8.024	44.758	-0.778	-44.776	-0.778	-44.776	-8.024	44.71
3875	-7.939	44.256	-0.794	-45.277	-0.794	-45.277	-7.939	44.208
3920	-7.855	43.756	-0.811	-45.777	-0.811	-45.777	-7.855	43.707
3965	-7.772	43.256	-0.828	-46.276	-0.828	-46.276	-7.772	43.206
4010	-7.691	42.756	-0.845	-46.775	-0.845	-46.775	-7.691	42.706
4055	-7.611	42.258	-0.862	-47.272	-0.862	-47.272	-7.611	42.207
4100	-7.531	41.76	-0.879	-47.77	-0.879	-47.77	-7.531	41.709
4145	-7.454	41.263	-0.896	-48.266	-0.896	-48.266	-7.454	41.212
4190	-7.377	40.767	-0.914	-48.761	-0.914	-48.761	-7.377	40.715
4235	-7.301	40.271	-0.932	-49.256	-0.932	-49.256	-7.302	40.219
4280	-7.227	39.777	-0.949	-49.75	-0.949	-49.75	-7.227	39.724
4325	-7.153	39.283	-0.967	-50.243	-0.967	-50.243	-7.154	39.229
4370	-7.081	38.79	-0.985	-50.736	-0.985	-50.736	-7.081	38.736
4415	-7.01	38.297	-1.003	-51.228	-1.003	-51.228	-7.01	38.242
4460	-6.94	37.805	-1.021	-51.719	-1.021	-51.719	-6.94	37.75
4505	-6.87	37.314	-1.039	-52.21	-1.039	-52.21	-6.87	37.259
4550	-6.802	36.824	-1.058	-52.699	-1.058	-52.699	-6.802	36.768
4595	-6.734	36.334	-1.076	-53.188	-1.076	-53.188	-6.734	36.278
4640	-6.668	35.846	-1.095	-53.676	-1.095	-53.676	-6.668	35.789
4685	-6.602	35.358	-1.113	-54.163	-1.113	-54.163	-6.603	35.3
4730	-6.538	34.871	-1.132	-54.65	-1.132	-54.65	-6.538	34.813
4775	-6.474	34.384	-1.151	-55.136	-1.151	-55.136	-6.474	34.326
4820	-6.411	33.898	-1.17	-55.621	-1.17	-55.621	-6.411	33.84
4865	-6.349	33.414	-1.189	-56.105	-1.189	-56.105	-6.349	33.354
4910	-6.288	32.929	-1.208	-56.589	-1.208	-56.589	-6.288	32.869
4955	-6.228	32.446	-1.227	-57.072	-1.227	-57.072	-6.228	32.386
5000	-6.168	31.962	-1.247	-57.555	-1.247	-57.555	-6.168	31.902
5045	-6.109	31.481	-1.266	-58.036	-1.266	-58.036	-6.109	31.42
5090	-6.051	30.999	-1.285	-58.517	-1.285	-58.517	-6.051	30.938
5135	-5.994	30.519	-1.305	-58.997	-1.305	-58.997	-5.994	30.457
5180	-5.938	30.039	-1.325	-59.476	-1.325	-59.476	-5.938	29.976
5225	-5.882	29.56	-1.344	-59.955	-1.344	-59.955	-5.882	29.497
5270	-5.827	29.081	-1.364	-60.433	-1.364	-60.433	-5.827	29.018
5315	-5.773	28.603	-1.384	-60.91	-1.384	-60.91	-5.773	28.539
5360	-5.719	28.126	-1.404	-61.387	-1.404	-61.387	-5.719	28.062
5405	-5.666	27.65	-1.424	-61.863	-1.424	-61.863	-5.666	27.585
5450	-5.614	27.174	-1.444	-62.338	-1.444	-62.338	-5.614	27.109
5495	-5.562	26.699	-1.465	-62.813	-1.465	-62.813	-5.562	26.633
5540	-5.512	26.225	-1.485	-63.286	-1.485	-63.286	-5.512	26.159
5585	-5.461	25.751	-1.505	-63.759	-1.505	-63.759	-5.461	25.685
5630	-5.412	25.278	-1.526	-64.232	-1.526	-64.232	-5.412	25.212
5675	-5.363	24.806	-1.546	-64.704	-1.546	-64.704	-5.363	24.739
5720	-5.314	24.334	-1.567	-65.175	-1.567	-65.175	-5.314	24.267
5765	-5.267	23.864	-1.587	-65.645	-1.587	-65.645	-5.267	23.796
5810	-5.219	23.393	-1.608	-66.115	-1.608	-66.115	-5.219	23.325
5855	-5.173	22.924	-1.629	-66.584	-1.629	-66.584	-5.173	22.855
5900	-5.127	22.454	-1.649	-67.053	-1.649	-67.053	-5.127	22.385
5945	-5.081	21.987	-1.67	-67.52	-1.67	-67.52	-5.082	21.917
5990	-5.036	21.519	-1.691	-67.988	-1.691	-67.988	-5.037	21.449
6035	-4.992	21.052	-1.712	-68.454	-1.712	-68.454	-4.992	20.981
6080	-4.948	20.585	-1.733	-68.92	-1.733	-68.92	-4.949	20.515
6125	-4.905	20.12	-1.754	-69.385	-1.754	-69.385	-4.905	20.048
6170	-4.862	19.655	-1.775	-69.85	-1.775	-69.85	-4.863	19.583
6215	-4.82	19.19	-1.796	-70.314	-1.796	-70.314	-4.82	19.118
6260	-4.779	18.726	-1.818	-70.778	-1.818	-70.778	-4.779	18.654
6305	-4.737	18.263	-1.839	-71.241	-1.839	-71.241	-4.737	18.19
6350	-4.697	17.8	-1.86	-71.703	-1.86	-71.703	-4.697	17.727
6395	-4.656	17.338	-1.882	-72.165	-1.882	-72.165	-4.656	17.264
6440	-4.617	16.877	-1.903	-72.625	-1.903	-72.625	-4.617	16.803
6485	-4.577	16.415	-1.924	-73.086	-1.924	-73.086	-4.578	16.341
6530	-4.539	15.955	-1.946	-73.546	-1.946	-73.546	-4.539	15.881
6575	-4.5	15.495	-1.967	-74.005	-1.967	-74.005	-4.501	15.421
6620	-4.462	15.036	-1.989	-74.464	-1.989	-74.464	-4.463	14.961
6665	-4.425	14.578	-2.011	-74.923	-2.011	-74.923	-4.425	14.502
6710	-4.388	14.119	-2.032	-75.381	-2.032	-75.381	-4.388	14.043
6755	-4.351	13.662	-2.054	-75.838	-2.054	-75.838	-4.352	13.586
6800	-4.315	13.204	-2.076	-76.295	-2.076	-76.295	-4.315	13.128
6845	-4.28	12.748	-2.097	-76.75	-2.097	-76.75	-4.28	12.671
6890	-4.244	12.292	-2.119	-77.206	-2.119	-77.206	-4.244	12.215
6935	-4.209	11.837	-2.141	-77.661	-2.141	-77.661	-4.21	11.759
6980	-4.175	11.382	-2.163	-78.116	-2.163	-78.116	-4.175	11.304
7025	-4.141	10.927	-2.185	-78.57	-2.185	-78.57	-4.141	10.849
7070	-4.107	10.473	-2.207	-79.024	-2.207	-79.024	-4.107	10.395
7115	-4.074	10.02	-2.228	-79.477	-2.228	-79.477	-4.074	9.941
7160	-4.041	9.567	-2.25	-79.93	-2.25	-79.93	-4.041	9.488
7205	-4.008	9.114	-2.272	-80.382	-2.272	-80.382	-4.009	9.035
7250	-3.976	8.662	-2.294	-80.834	-2.294	-80.834	-3.977	8.583
7295	-3.944	8.21	-2.316	-81.285	-2.316	-81.285	-3.945	8.13
7340	-3.913	7.759	-2.338	-81.736	-2.338	-81.736	-3.913	7.679
7385	-3.882	7.308	-2.36	-82.187	-2.36	-82.187	-3.882	7.228
7430	-3.851	6.858	-2.382	-82.637	-2.382	-82.637	-3.851	6.778
7475	-3.821	6.408	-2.405	-83.086	-2.405	-83.086	-3.821	6.327
7520	-3.791	5.958	-2.427	-83.536	-2.427	-83.536	-3.791	5.878
7565	-3.761	5.509	-2.449	-83.984	-2.449	-83.984	-3.761	5.428
7610	-3.732	5.061	-2.471	-84.433	-2.471	-84.433	-3.732	4.979
7655	-3.703	4.612	-2.493	-84.881	-2.493	-84.881	-3.703	4.531
7700	-3.674	4.164	-2.515	-85.329	-2.515	-85.329	-3.674	4.083
7745	-3.646	3.717	-2.537	-85.776	-2.537	-85.776	-3.646	3.635
7790	-3.617	3.27	-2.56	-86.223	-2.56	-86.223	-3.618	3.187
7835	-3.59	2.823	-2.582	-86.67	-2.582	-86.67	-3.59	2.741
7880	-3.562	2.376	-2.604	-87.116	-2.604	-87.116	-3.563	2.294
7925	-3.535	1.93	-2.626	-87.562	-2.626	-87.562	-3.535	1.848
7970	-3.508	1.484	-2.648	-88.007	-2.648	-88.007	-3.509	1.402
8015	-3.482	1.039	-2.67	-88.453	-2.67	-88.453	-3.482	0.956
8060	-3.456	0.594	-2.693	-88.898	-2.693	-88.898	-3.456	0.511
8105	-3.429	0.149	-2.715	-89.343	-2.715	-89.343	-3.43	0.065
8150	-3.404	-0.296	-2.737	-89.787	-2.737	-89.787	-3.404	-0.379
8195	-3.378	-0.74	-2.759	-90.231	-2.759	-90.231	-3.379	-0.824
8240	-3.353	-1.184	-2.781	-90.675	-2.781	-90.675	-3.354	-1.268
8285	-3.328	-1.628	-2.804	-91.119	-2.804	-91.119	-3.329	-1.712
8330	-3.304	-2.072	-2.826	-91.562	-2.826	-91.562	-3.304	-2.156
8375	-3.28	-2.515	-2.848	-92.005	-2.848	-92.005	-3.28	-2.599
8420	-3.256	-2.958	-2.87	-92.448	-2.87	-92.448	-3.256	-3.042
8465	-3.232	-3.401	-2.892	-92.891	-2.892	-92.891	-3.232	-3.485
8510	-3.208	-3.844	-2.915	-93.334	-2.915	-93.334	-3.209	-3.928
8555	-3.185	-4.286	-2.937	-93.776	-2.937	-93.776	-3.185	-4.37
8600	-3.162	-4.728	-2.959	-94.218	-2.959	-94.218	-3.162	-4.813
8645	-3.139	-5.17	-2.981	-94.66	-2.981	-94.66	-3.14	-5.254
8690	-3.117	-5.612	-3.003	-95.102	-3.003	-95.102	-3.117	-5.696
8735	-3.095	-6.054	-3.025	-95.544	-3.025	-95.544	-3.095	-6.138
8780	-3.073	-6.495	-3.047	-95.985	-3.047	-95.985	-3.073	-6.58
8825	-3.051	-6.937	-3.069	-96.427	-3.069	-96.427	-3.051	-7.021
8870	-3.029	-7.378	-3.091	-96.868	-3.091	-96.868	-3.03	-7.462
8915	-3.008	-7.819	-3.114	-97.309	-3.114	-97.309	-3.008	-7.904
8960	-2.987	-8.26	-3.136	-97.751	-3.136	-97.751	-2.987	-8.345
9005	-2.966	-8.701	-3.158	-98.192	-3.158	-98.192	-2.966	-8.786
9050	-2.946	-9.142	-3.18	-98.633	-3.18	-98.633	-2.946	-9.226
9095	-2.925	-9.583	-3.202	-99.073	-3.202	-99.073	-2.926	-9.667
9140	-2.905	-10.023	-3.223	-99.514	-3.223	-99.514	-2.905	-10.108
9185	-2.885	-10.464	-3.245	-99.955	-3.245	-99.955	-2.885	-10.548
9230	-2.865	-10.905	-3.267	-100.396	-3.267	-100.396	-2.866	-10.989
9275	-2.846	-11.345	-3.289	-100.837	-3.289	-100.837	-2.846	-11.429
9320	-2.827	-11.786	-3.311	-101.277	-3.311	-101.277	-2.827	-11.87
9365	-2.808	-12.226	-3.333	-101.718	-3.333	-101.718	-2.808	-12.31
9410	-2.789	-12.667	-3.355	-102.159	-3.355	-102.159	-2.789	-12.751
9455	-2.77	-13.107	-3.376	-102.6	-3.376	-102.6	-2.77	-13.191
9500	-2.752	-13.548	-3.398	-103.041	-3.398	-103.041	-2.752	-13.631
9545	-2.733	-13.988	-3.42	-103.482	-3.42	-103.482	-2.734	-14.072
9590	-2.715	-14.429	-3.441	-103.923	-3.441	-103.923	-2.716	-14.512
9635	-2.698	-14.87	-3.463	-104.364	-3.463	-104.364	-2.698	-14.953
9680	-2.68	-15.311	-3.485	-104.805	-3.485	-104.805	-2.68	-15.394
9725	-2.662	-15.751	-3.506	-105.246	-3.506	-105.246	-2.663	-15.834
9770	-2.645	-16.192	-3.528	-105.688	-3.528	-105.688	-2.646	-16.275
9815	-2.628	-16.634	-3.549	-106.129	-3.549	-106.129	-2.628	-16.716
9860	-2.611	-17.075	-3.571	-106.571	-3.571	-106.571	-2.612	-17.157
9905	-2.594	-17.516	-3.592	-107.013	-3.592	-107.013	-2.595	-17.598
9950	-2.578	-17.958	-3.613	-107.455	-3.613	-107.455	-2.578	-18.039
9995	-2.562	-18.399	-3.635	-107.897	-3.635	-107.897	-2.562	-18.481
10040	-2.546	-18.841	-3.656	-108.34	-3.656	-108.34	-2.546	-18.922
10085	-2.53	-19.283	-3.677	-108.782	-3.677	-108.782	-2.53	-19.364
10130	-2.514	-19.726	-3.698	-109.225	-3.698	-109.225	-2.514	-19.806
10175	-2.498	-20.168	-3.719	-109.668	-3.719	-109.668	-2.499	-20.248
10220	-2.483	-20.611	-3.74	-110.112	-3.74	-110.112	-2.483	-20.691
10265	-2.468	-21.054	-3.761	-110.556	-3.761	-110.556	-2.468	-21.133
10310	-2.452	-21.497	-3.782	-110.999	-3.782	-110.999	-2.453	-21.576
10355	-2.438	-21.941	-3.803	-111.444	-3.803	-111.444	-2.438	-22.019
10400	-2.423	-22.384	-3.824	-111.888	-3.824	-111.888	-2.423	-22.463
10445	-2.408	-22.829	-3.845	-112.334	-3.845	-112.334	-2.409	-22.907
10490	-2.394	-23.273	-3.865	-112.779	-3.865	-112.779	-2.394	-23.351
10535	-2.38	-23.718	-3.886	-113.225	-3.886	-113.225	-2.38	-23.795
10580	-2.366	-24.163	-3.906	-113.671	-3.906	-113.671	-2.366	-24.24
10625	-2.352	-24.609	-3.927	-114.117	-3.927	-114.117	-2.352	-24.685
10670	-2.338	-25.054	-3.947	-114.564	-3.947	-114.564	-2.339	-25.13
10715	-2.325	-25.501	-3.968	-115.012	-3.968	-115.012	-2.325	-25.576
10760	-2.311	-25.948	-3.988	-115.46	-3.988	-115.46	-2.312	-26.022
10805	-2.298	-26.395	-4.008	-115.908	-4.008	-115.908	-2.298	-26.469
10850	-2.285	-26.842	-4.028	-116.357	-4.028	-116.357	-2.285	-26.916
10895	-2.272	-27.29	-4.048	-116.806	-4.048	-116.806	-2.272	-27.363
10940	-2.259	-27.739	-4.068	-117.257	-4.068	-117.257	-2.26	-27.812
10985	-2.247	-28.188	-4.088	-117.707	-4.088	-117.707	-2.247	-28.26
11030	-2.234	-28.638	-4.108	-118.158	-4.108	-118.158	-2.235	-28.709
11075	-2.222	-29.088	-4.128	-118.61	-4.128	-118.61	-2.222	-29.159
11120	-2.21	-29.539	-4.147	-119.062	-4.147	-119.062	-2.21	-29.609
11165	-2.198	-29.99	-4.167	-119.515	-4.167	-119.515	-2.198	-30.059
11210	-2.186	-30.442	-4.187	-119.968	-4.187	-119.968	-2.186	-30.51
11255	-2.174	-30.895	-4.206	-120.423	-4.206	-120.423	-2.175	-30.963
11300	-2.163	-31.347	-4.225	-120.877	-4.225	-120.877	-2.163	-31.415
11345	-2.152	-31.802	-4.244	-121.333	-4.244	-121.333	-2.152	-31.868
11390	-2.14	-32.256	-4.263	-121.789	-4.263	-121.789	-2.141	-32.322
11435	-2.129	-32.711	-4.282	-122.247	-4.282	-122.247	-2.13	-32.776
11480	-2.118	-33.167	-4.301	-122.705	-4.301	-122.705	-2.119	-33.231
11525	-2.108	-33.624	-4.32	-123.164	-4.32	-123.164	-2.108	-33.687
11570	-2.097	-34.081	-4.339	-123.623	-4.339	-123.623	-2.097	-34.144
11615	-2.087	-34.54	-4.357	-124.083	-4.357	-124.083	-2.087	-34.601
11660	-2.076	-34.999	-4.376	-124.545	-4.376	-124.545	-2.077	-35.059
11705	-2.066	-35.458	-4.394	-125.007	-4.394	-125.007	-2.066	-35.518
11750	-2.056	-35.919	-4.412	-125.47	-4.412	-125.47	-2.057	-35.978
11795	-2.046	-36.38	-4.43	-125.934	-4.43	-125.934	-2.047	-36.438
11840	-2.037	-36.843	-4.448	-126.399	-4.448	-126.399	-2.037	-36.9
11885	-2.027	-37.306	-4.466	-126.865	-4.466	-126.865	-2.027	-37.362
11930	-2.018	-37.771	-4.484	-127.332	-4.484	-127.332	-2.018	-37.825
11975	-2.008	-38.236	-4.501	-127.8	-4.501	-127.8	-2.009	-38.289
12020	-1.999	-38.702	-4.519	-128.27	-4.519	-128.27	-2	-38.755
12065	-1.99	-39.17	-4.536	-128.74	-4.536	-128.74	-1.991	-39.221
12110	-1.982	-39.638	-4.553	-129.211	-4.553	-129.211	-1.982	-39.688
12155	-1.973	-40.108	-4.57	-129.684	-4.57	-129.684	-1.973	-40.156
12200	-1.964	-40.578	-4.587	-130.157	-4.587	-130.157	-1.965	-40.625
12245	-1.956	-41.05	-4.604	-130.633	-4.604	-130.633	-1.956	-41.096
12290	-1.948	-41.522	-4.62	-131.109	-4.62	-131.109	-1.948	-41.567
12335	-1.94	-41.997	-4.637	-131.587	-4.637	-131.587	-1.94	-42.04
12380	-1.932	-42.472	-4.653	-132.066	-4.653	-132.066	-1.932	-42.514
12425	-1.924	-42.948	-4.669	-132.546	-4.669	-132.546	-1.925	-42.989
12470	-1.917	-43.426	-4.685	-133.028	-4.685	-133.028	-1.917	-43.465
12515	-1.909	-43.904	-4.701	-133.511	-4.701	-133.511	-1.909	-43.943
12560	-1.902	-44.385	-4.716	-133.995	-4.716	-133.995	-1.902	-44.422
12605	-1.895	-44.866	-4.731	-134.481	-4.731	-134.481	-1.895	-44.901
12650	-1.888	-45.35	-4.747	-134.969	-4.747	-134.969	-1.888	-45.384
12695	-1.881	-45.834	-4.762	-135.457	-4.762	-135.457	-1.881	-45.866
12740	-1.874	-46.32	-4.776	-135.949	-4.776	-135.949	-1.875	-46.351
12785	-1.868	-46.807	-4.791	-136.441	-4.791	-136.441	-1.868	-46.836
12830	-1.861	-47.297	-4.805	-136.935	-4.805	-136.935	-1.862	-47.324
12875	-1.855	-47.787	-4.819	-137.431	-4.819	-137.431	-1.856	-47.813
12920	-1.849	-48.279	-4.833	-137.928	-4.833	-137.928	-1.849	-48.303
12965	-1.843	-48.773	-4.847	-138.428	-4.847	-138.428	-1.844	-48.795
13010	-1.838	-49.268	-4.861	-138.928	-4.861	-138.928	-1.838	-49.288
13055	-1.832	-49.766	-4.874	-139.432	-4.874	-139.432	-1.832	-49.784
13100	-1.827	-50.264	-4.887	-139.935	-4.887	-139.935	-1.827	-50.28
13145	-1.822	-50.765	-4.9	-140.444	-4.9	-140.444	-1.822	-50.78
13190	-1.816	-51.267	-4.912	-140.952	-4.912	-140.952	-1.817	-51.28
13235	-1.812	-51.772	-4.924	-141.463	-4.924	-141.463	-1.812	-51.783
13280	-1.807	-52.278	-4.936	-141.976	-4.936	-141.976	-1.807	-52.287
13325	-1.803	-52.787	-4.948	-142.492	-4.948	-142.492	-1.803	-52.793
13370	-1.798	-53.297	-4.96	-143.009	-4.96	-143.009	-1.798	-53.302
13415	-1.794	-53.809	-4.971	-143.529	-4.971	-143.529	-1.794	-53.811
13460	-1.79	-54.324	-4.982	-144.051	-4.982	-144.051	-1.79	-54.324
13505	-1.786	-54.84	-4.993	-144.575	-4.993	-144.575	-1.787	-54.838
13550	-1.783	-55.36	-5.003	-145.103	-5.003	-145.103	-1.783	-55.355
13595	-1.779	-55.879	-5.013	-145.631	-5.013	-145.631	-1.78	-55.873
13640	-1.776	-56.404	-5.022	-146.164	-5.022	-146.164	-1.776	-56.395
13685	-1.773	-56.929	-5.032	-146.698	-5.032	-146.698	-1.773	-56.917
13730	-1.771	-57.458	-5.041	-147.236	-5.041	-147.236	-1.771	-57.444
13775	-1.768	-57.988	-5.05	-147.775	-5.05	-147.775	-1.768	-57.971
13820	-1.766	-58.521	-5.058	-148.318	-5.058	-148.318	-1.766	-58.502
13865	-1.763	-59.057	-5.066	-148.864	-5.066	-148.864	-1.764	-59.035
