!	AVX Thin Film Operation							
!	Date:	Febr.	2009					
!	Description: Accu-L® Series Thin Film SMD RF Inductors							
!	Part Number: L08051R2BGWTR							
!	25MHz-6GHz							
!	Serial	Measurements						
!								
#	mhz	S	db	R	50			
!	S11	S11	S21	S21	S12	S12	S22	S22
!	dB	Phase	dB	Phase	dB	Phase	dB	Phase
25	-56.594	85.672	-0.001	-0.161	-0.001	-0.161	-56.594	85.672
50	-50.79	86.505	-0.001	-0.319	-0.001	-0.319	-50.79	86.505
75	-47.369	86.82	-0.002	-0.476	-0.002	-0.476	-47.369	86.82
100	-44.933	86.96	-0.002	-0.632	-0.002	-0.632	-44.933	86.96
125	-43.038	87.012	-0.003	-0.788	-0.003	-0.788	-43.038	87.012
150	-41.487	87.01	-0.003	-0.944	-0.003	-0.944	-41.487	87.01
175	-40.174	86.979	-0.003	-1.1	-0.003	-1.1	-40.174	86.979
200	-39.036	86.925	-0.004	-1.255	-0.004	-1.255	-39.036	86.925
225	-38.03	86.854	-0.004	-1.411	-0.004	-1.411	-38.03	86.854
250	-37.13	86.772	-0.004	-1.566	-0.004	-1.566	-37.13	86.772
275	-36.316	86.68	-0.005	-1.721	-0.005	-1.721	-36.316	86.68
300	-35.572	86.58	-0.005	-1.877	-0.005	-1.877	-35.572	86.58
325	-34.887	86.475	-0.005	-2.032	-0.005	-2.032	-34.887	86.475
350	-34.253	86.364	-0.006	-2.187	-0.006	-2.187	-34.253	86.364
375	-33.662	86.249	-0.006	-2.342	-0.006	-2.342	-33.662	86.249
400	-33.109	86.13	-0.007	-2.497	-0.007	-2.497	-33.109	86.13
425	-32.59	86.008	-0.007	-2.652	-0.007	-2.652	-32.59	86.008
450	-32.1	85.884	-0.008	-2.807	-0.008	-2.807	-32.1	85.884
475	-31.637	85.757	-0.008	-2.962	-0.008	-2.962	-31.637	85.757
500	-31.197	85.628	-0.008	-3.117	-0.008	-3.117	-31.197	85.628
525	-30.778	85.498	-0.009	-3.272	-0.009	-3.272	-30.778	85.498
550	-30.38	85.366	-0.009	-3.427	-0.009	-3.427	-30.38	85.366
575	-29.998	85.232	-0.01	-3.581	-0.01	-3.581	-29.998	85.232
600	-29.633	85.097	-0.01	-3.736	-0.01	-3.736	-29.633	85.097
625	-29.283	84.961	-0.011	-3.891	-0.011	-3.891	-29.283	84.961
650	-28.947	84.824	-0.012	-4.045	-0.012	-4.045	-28.947	84.824
675	-28.623	84.686	-0.012	-4.2	-0.012	-4.2	-28.623	84.686
700	-28.311	84.547	-0.013	-4.355	-0.013	-4.355	-28.311	84.547
725	-28.01	84.407	-0.013	-4.509	-0.013	-4.509	-28.01	84.407
750	-27.719	84.267	-0.014	-4.664	-0.014	-4.664	-27.719	84.267
775	-27.437	84.126	-0.014	-4.819	-0.014	-4.819	-27.437	84.126
800	-27.165	83.984	-0.015	-4.973	-0.015	-4.973	-27.165	83.984
825	-26.901	83.842	-0.016	-5.128	-0.016	-5.128	-26.901	83.842
850	-26.645	83.699	-0.016	-5.282	-0.016	-5.282	-26.645	83.699
875	-26.396	83.556	-0.017	-5.437	-0.017	-5.437	-26.396	83.556
900	-26.154	83.412	-0.018	-5.591	-0.018	-5.591	-26.154	83.412
925	-25.919	83.268	-0.018	-5.745	-0.018	-5.745	-25.919	83.268
950	-25.69	83.123	-0.019	-5.9	-0.019	-5.9	-25.69	83.123
975	-25.467	82.978	-0.02	-6.054	-0.02	-6.054	-25.467	82.978
1000	-25.25	82.833	-0.021	-6.209	-0.021	-6.209	-25.25	82.833
1025	-25.038	82.687	-0.021	-6.363	-0.021	-6.363	-25.038	82.687
1050	-24.832	82.541	-0.022	-6.517	-0.022	-6.517	-24.832	82.541
1075	-24.63	82.395	-0.023	-6.671	-0.023	-6.671	-24.63	82.395
1100	-24.433	82.249	-0.024	-6.826	-0.024	-6.826	-24.433	82.249
1125	-24.24	82.102	-0.024	-6.98	-0.024	-6.98	-24.24	82.102
1150	-24.051	81.955	-0.025	-7.134	-0.025	-7.134	-24.051	81.955
1175	-23.867	81.808	-0.026	-7.288	-0.026	-7.288	-23.867	81.808
1200	-23.687	81.66	-0.027	-7.443	-0.027	-7.443	-23.687	81.66
1225	-23.51	81.513	-0.028	-7.597	-0.028	-7.597	-23.51	81.513
1250	-23.337	81.365	-0.029	-7.751	-0.029	-7.751	-23.337	81.365
1275	-23.167	81.217	-0.03	-7.905	-0.03	-7.905	-23.167	81.217
1300	-23.001	81.069	-0.031	-8.059	-0.031	-8.059	-23.001	81.069
1325	-22.837	80.92	-0.032	-8.213	-0.032	-8.213	-22.837	80.92
1350	-22.677	80.772	-0.032	-8.367	-0.032	-8.367	-22.677	80.772
1375	-22.52	80.623	-0.033	-8.521	-0.033	-8.521	-22.52	80.623
1400	-22.366	80.475	-0.034	-8.675	-0.034	-8.675	-22.366	80.475
1425	-22.214	80.325	-0.035	-8.829	-0.035	-8.829	-22.214	80.325
1450	-22.066	80.177	-0.036	-8.983	-0.036	-8.983	-22.066	80.177
1475	-21.919	80.027	-0.037	-9.137	-0.037	-9.137	-21.919	80.027
1500	-21.775	79.878	-0.038	-9.291	-0.038	-9.291	-21.775	79.878
1525	-21.634	79.729	-0.04	-9.445	-0.04	-9.445	-21.634	79.729
1550	-21.495	79.579	-0.041	-9.598	-0.041	-9.598	-21.495	79.579
1575	-21.358	79.43	-0.042	-9.752	-0.042	-9.752	-21.358	79.43
1600	-21.223	79.28	-0.043	-9.906	-0.043	-9.906	-21.223	79.28
1625	-21.091	79.13	-0.044	-10.06	-0.044	-10.06	-21.091	79.13
1650	-20.96	78.98	-0.045	-10.214	-0.045	-10.214	-20.96	78.98
1675	-20.832	78.83	-0.046	-10.367	-0.046	-10.367	-20.832	78.83
1700	-20.705	78.68	-0.047	-10.521	-0.047	-10.521	-20.705	78.68
1725	-20.581	78.53	-0.048	-10.675	-0.048	-10.675	-20.581	78.53
1750	-20.458	78.38	-0.05	-10.828	-0.05	-10.828	-20.458	78.38
1775	-20.337	78.23	-0.051	-10.982	-0.051	-10.982	-20.337	78.23
1800	-20.217	78.08	-0.052	-11.135	-0.052	-11.135	-20.217	78.08
1825	-20.1	77.929	-0.053	-11.289	-0.053	-11.289	-20.1	77.929
1850	-19.984	77.779	-0.054	-11.443	-0.054	-11.443	-19.984	77.779
1875	-19.869	77.629	-0.056	-11.596	-0.056	-11.596	-19.869	77.629
1900	-19.756	77.478	-0.057	-11.75	-0.057	-11.75	-19.756	77.478
1925	-19.645	77.328	-0.058	-11.903	-0.058	-11.903	-19.645	77.328
1950	-19.535	77.177	-0.06	-12.056	-0.06	-12.056	-19.535	77.177
1975	-19.426	77.026	-0.061	-12.21	-0.061	-12.21	-19.426	77.026
2000	-19.319	76.876	-0.062	-12.363	-0.062	-12.363	-19.319	76.876
2025	-19.213	76.725	-0.064	-12.516	-0.064	-12.516	-19.213	76.725
2050	-19.109	76.574	-0.065	-12.67	-0.065	-12.67	-19.109	76.574
2075	-19.006	76.424	-0.066	-12.823	-0.066	-12.823	-19.006	76.424
2100	-18.904	76.273	-0.068	-12.976	-0.068	-12.976	-18.904	76.273
2125	-18.803	76.122	-0.069	-13.13	-0.069	-13.13	-18.803	76.122
2150	-18.704	75.971	-0.071	-13.283	-0.071	-13.283	-18.704	75.971
2175	-18.605	75.82	-0.072	-13.436	-0.072	-13.436	-18.605	75.82
2200	-18.508	75.669	-0.073	-13.589	-0.073	-13.589	-18.508	75.669
2225	-18.412	75.519	-0.075	-13.742	-0.075	-13.742	-18.412	75.519
2250	-18.317	75.368	-0.076	-13.895	-0.076	-13.895	-18.317	75.368
2275	-18.224	75.217	-0.078	-14.048	-0.078	-14.048	-18.224	75.217
2300	-18.131	75.066	-0.079	-14.201	-0.079	-14.201	-18.131	75.066
2325	-18.039	74.915	-0.081	-14.354	-0.081	-14.354	-18.039	74.915
2350	-17.949	74.764	-0.082	-14.507	-0.082	-14.507	-17.949	74.764
2375	-17.859	74.613	-0.084	-14.66	-0.084	-14.66	-17.859	74.613
2400	-17.77	74.462	-0.085	-14.813	-0.085	-14.813	-17.77	74.462
2425	-17.682	74.311	-0.087	-14.966	-0.087	-14.966	-17.682	74.311
2450	-17.595	74.16	-0.089	-15.119	-0.089	-15.119	-17.595	74.16
2475	-17.509	74.008	-0.09	-15.271	-0.09	-15.271	-17.509	74.008
2500	-17.424	73.857	-0.092	-15.424	-0.092	-15.424	-17.424	73.857
2525	-17.34	73.706	-0.094	-15.577	-0.094	-15.577	-17.34	73.706
2550	-17.257	73.555	-0.095	-15.73	-0.095	-15.73	-17.257	73.555
2575	-17.174	73.404	-0.097	-15.882	-0.097	-15.882	-17.174	73.404
2600	-17.093	73.253	-0.099	-16.035	-0.099	-16.035	-17.093	73.253
2625	-17.012	73.102	-0.1	-16.188	-0.1	-16.188	-17.012	73.102
2650	-16.932	72.951	-0.102	-16.34	-0.102	-16.34	-16.932	72.951
2675	-16.853	72.8	-0.104	-16.493	-0.104	-16.493	-16.853	72.8
2700	-16.774	72.649	-0.105	-16.645	-0.105	-16.645	-16.774	72.649
2725	-16.697	72.498	-0.107	-16.798	-0.107	-16.798	-16.697	72.498
2750	-16.62	72.347	-0.109	-16.95	-0.109	-16.95	-16.62	72.347
2775	-16.543	72.196	-0.111	-17.102	-0.111	-17.102	-16.543	72.196
2800	-16.468	72.044	-0.112	-17.255	-0.112	-17.255	-16.468	72.044
2825	-16.393	71.893	-0.114	-17.407	-0.114	-17.407	-16.393	71.893
2850	-16.319	71.742	-0.116	-17.559	-0.116	-17.559	-16.319	71.742
2875	-16.245	71.591	-0.118	-17.712	-0.118	-17.712	-16.245	71.591
2900	-16.172	71.44	-0.12	-17.864	-0.12	-17.864	-16.172	71.44
2925	-16.1	71.289	-0.122	-18.016	-0.122	-18.016	-16.1	71.289
2950	-16.029	71.138	-0.124	-18.168	-0.124	-18.168	-16.029	71.138
2975	-15.958	70.987	-0.125	-18.32	-0.125	-18.32	-15.958	70.987
3000	-15.888	70.836	-0.127	-18.472	-0.127	-18.472	-15.888	70.836
3025	-15.818	70.685	-0.129	-18.624	-0.129	-18.624	-15.818	70.685
3050	-15.749	70.534	-0.131	-18.776	-0.131	-18.776	-15.749	70.534
3075	-15.681	70.383	-0.133	-18.928	-0.133	-18.928	-15.681	70.383
3100	-15.613	70.232	-0.135	-19.08	-0.135	-19.08	-15.613	70.232
3125	-15.545	70.081	-0.137	-19.232	-0.137	-19.232	-15.545	70.081
3150	-15.479	69.931	-0.139	-19.384	-0.139	-19.384	-15.479	69.931
3175	-15.413	69.78	-0.141	-19.536	-0.141	-19.536	-15.413	69.78
3200	-15.347	69.629	-0.143	-19.688	-0.143	-19.688	-15.347	69.629
3225	-15.282	69.478	-0.145	-19.839	-0.145	-19.839	-15.282	69.478
3250	-15.217	69.327	-0.147	-19.991	-0.147	-19.991	-15.217	69.327
3275	-15.153	69.176	-0.149	-20.143	-0.149	-20.143	-15.153	69.176
3300	-15.09	69.025	-0.151	-20.294	-0.151	-20.294	-15.09	69.025
3325	-15.027	68.875	-0.153	-20.446	-0.153	-20.446	-15.027	68.875
3350	-14.964	68.724	-0.155	-20.597	-0.155	-20.597	-14.964	68.724
3375	-14.902	68.573	-0.158	-20.749	-0.158	-20.749	-14.902	68.573
3400	-14.841	68.422	-0.16	-20.9	-0.16	-20.9	-14.841	68.422
3425	-14.78	68.272	-0.162	-21.052	-0.162	-21.052	-14.78	68.272
3450	-14.719	68.121	-0.164	-21.203	-0.164	-21.203	-14.719	68.121
3475	-14.659	67.97	-0.166	-21.354	-0.166	-21.354	-14.659	67.97
3500	-14.6	67.82	-0.168	-21.506	-0.168	-21.506	-14.6	67.82
3525	-14.541	67.669	-0.171	-21.657	-0.171	-21.657	-14.541	67.669
3550	-14.482	67.519	-0.173	-21.808	-0.173	-21.808	-14.482	67.519
3575	-14.424	67.368	-0.175	-21.959	-0.175	-21.959	-14.424	67.368
3600	-14.366	67.217	-0.177	-22.11	-0.177	-22.11	-14.366	67.217
3625	-14.308	67.067	-0.179	-22.262	-0.179	-22.262	-14.308	67.067
3650	-14.251	66.917	-0.182	-22.413	-0.182	-22.413	-14.251	66.917
3675	-14.195	66.766	-0.184	-22.564	-0.184	-22.564	-14.195	66.766
3700	-14.139	66.616	-0.186	-22.714	-0.186	-22.714	-14.139	66.616
3725	-14.083	66.465	-0.189	-22.865	-0.189	-22.865	-14.083	66.465
3750	-14.028	66.315	-0.191	-23.016	-0.191	-23.016	-14.028	66.315
3775	-13.973	66.165	-0.193	-23.167	-0.193	-23.167	-13.973	66.165
3800	-13.918	66.014	-0.196	-23.318	-0.196	-23.318	-13.918	66.014
3825	-13.864	65.864	-0.198	-23.469	-0.198	-23.469	-13.864	65.864
3850	-13.81	65.714	-0.2	-23.619	-0.2	-23.619	-13.81	65.714
3875	-13.757	65.564	-0.203	-23.77	-0.203	-23.77	-13.757	65.564
3900	-13.704	65.413	-0.205	-23.921	-0.205	-23.921	-13.704	65.413
3925	-13.651	65.263	-0.208	-24.071	-0.208	-24.071	-13.651	65.263
3950	-13.599	65.113	-0.21	-24.222	-0.21	-24.222	-13.599	65.113
3975	-13.547	64.963	-0.212	-24.372	-0.212	-24.372	-13.547	64.963
4000	-13.496	64.813	-0.215	-24.522	-0.215	-24.522	-13.496	64.813
4025	-13.444	64.663	-0.217	-24.673	-0.217	-24.673	-13.444	64.663
4050	-13.394	64.513	-0.22	-24.823	-0.22	-24.823	-13.394	64.513
4075	-13.343	64.363	-0.222	-24.973	-0.222	-24.973	-13.343	64.363
4100	-13.293	64.213	-0.225	-25.124	-0.225	-25.124	-13.293	64.213
4125	-13.243	64.063	-0.227	-25.274	-0.227	-25.274	-13.243	64.063
4150	-13.194	63.913	-0.23	-25.424	-0.23	-25.424	-13.194	63.913
4175	-13.144	63.764	-0.232	-25.574	-0.232	-25.574	-13.144	63.764
4200	-13.096	63.614	-0.235	-25.724	-0.235	-25.724	-13.096	63.614
4225	-13.047	63.464	-0.238	-25.874	-0.238	-25.874	-13.047	63.464
4250	-12.999	63.314	-0.24	-26.024	-0.24	-26.024	-12.999	63.314
4275	-12.951	63.165	-0.243	-26.174	-0.243	-26.174	-12.951	63.165
4300	-12.903	63.015	-0.245	-26.324	-0.245	-26.324	-12.903	63.015
4325	-12.856	62.866	-0.248	-26.474	-0.248	-26.474	-12.856	62.866
4350	-12.809	62.716	-0.251	-26.624	-0.251	-26.624	-12.809	62.716
4375	-12.762	62.566	-0.253	-26.773	-0.253	-26.773	-12.762	62.566
4400	-12.716	62.417	-0.256	-26.923	-0.256	-26.923	-12.716	62.417
4425	-12.67	62.268	-0.259	-27.073	-0.259	-27.073	-12.67	62.268
4450	-12.624	62.118	-0.261	-27.222	-0.261	-27.222	-12.624	62.118
4475	-12.578	61.969	-0.264	-27.372	-0.264	-27.372	-12.578	61.969
4500	-12.533	61.819	-0.267	-27.521	-0.267	-27.521	-12.533	61.819
4525	-12.488	61.67	-0.269	-27.671	-0.269	-27.671	-12.488	61.67
4550	-12.444	61.521	-0.272	-27.82	-0.272	-27.82	-12.444	61.521
4575	-12.399	61.372	-0.275	-27.969	-0.275	-27.969	-12.399	61.372
4600	-12.355	61.223	-0.278	-28.118	-0.278	-28.118	-12.355	61.223
4625	-12.311	61.074	-0.28	-28.268	-0.28	-28.268	-12.311	61.074
4650	-12.267	60.924	-0.283	-28.417	-0.283	-28.417	-12.267	60.924
4675	-12.224	60.775	-0.286	-28.566	-0.286	-28.566	-12.224	60.775
4700	-12.181	60.626	-0.289	-28.715	-0.289	-28.715	-12.181	60.626
4725	-12.138	60.478	-0.292	-28.864	-0.292	-28.864	-12.138	60.478
4750	-12.096	60.329	-0.294	-29.013	-0.294	-29.013	-12.096	60.329
4775	-12.053	60.18	-0.297	-29.162	-0.297	-29.162	-12.053	60.18
4800	-12.011	60.031	-0.3	-29.311	-0.3	-29.311	-12.011	60.031
4825	-11.969	59.882	-0.303	-29.46	-0.303	-29.46	-11.969	59.882
4850	-11.928	59.734	-0.306	-29.608	-0.306	-29.608	-11.928	59.734
4875	-11.887	59.585	-0.309	-29.757	-0.309	-29.757	-11.887	59.585
4900	-11.845	59.436	-0.312	-29.906	-0.312	-29.906	-11.845	59.436
4925	-11.805	59.288	-0.315	-30.054	-0.315	-30.054	-11.805	59.288
4950	-11.764	59.139	-0.318	-30.203	-0.318	-30.203	-11.764	59.139
4975	-11.724	58.991	-0.321	-30.351	-0.321	-30.351	-11.724	58.991
5000	-11.683	58.842	-0.323	-30.5	-0.323	-30.5	-11.683	58.842
5025	-11.644	58.694	-0.326	-30.648	-0.326	-30.648	-11.644	58.694
5050	-11.604	58.545	-0.329	-30.797	-0.329	-30.797	-11.604	58.545
5075	-11.564	58.397	-0.332	-30.945	-0.332	-30.945	-11.564	58.397
5100	-11.525	58.249	-0.335	-31.093	-0.335	-31.093	-11.525	58.249
5125	-11.486	58.101	-0.338	-31.241	-0.338	-31.241	-11.486	58.101
5150	-11.447	57.952	-0.341	-31.39	-0.341	-31.39	-11.447	57.952
5175	-11.409	57.804	-0.345	-31.538	-0.345	-31.538	-11.409	57.804
5200	-11.37	57.656	-0.348	-31.686	-0.348	-31.686	-11.37	57.656
5225	-11.332	57.508	-0.351	-31.834	-0.351	-31.834	-11.332	57.508
5250	-11.294	57.36	-0.354	-31.982	-0.354	-31.982	-11.294	57.36
5275	-11.256	57.212	-0.357	-32.129	-0.357	-32.129	-11.256	57.212
5300	-11.219	57.064	-0.36	-32.277	-0.36	-32.277	-11.219	57.064
5325	-11.182	56.917	-0.363	-32.425	-0.363	-32.425	-11.182	56.917
5350	-11.144	56.769	-0.366	-32.573	-0.366	-32.573	-11.144	56.769
5375	-11.107	56.621	-0.369	-32.72	-0.369	-32.72	-11.107	56.621
5400	-11.071	56.473	-0.372	-32.868	-0.372	-32.868	-11.071	56.473
5425	-11.034	56.326	-0.376	-33.015	-0.376	-33.015	-11.034	56.326
5450	-10.998	56.178	-0.379	-33.163	-0.379	-33.163	-10.998	56.178
5475	-10.962	56.031	-0.382	-33.31	-0.382	-33.31	-10.962	56.031
5500	-10.926	55.883	-0.385	-33.458	-0.385	-33.458	-10.926	55.883
5525	-10.89	55.736	-0.388	-33.605	-0.388	-33.605	-10.89	55.736
5550	-10.854	55.588	-0.392	-33.752	-0.392	-33.752	-10.854	55.588
5575	-10.819	55.441	-0.395	-33.899	-0.395	-33.899	-10.819	55.441
5600	-10.784	55.294	-0.398	-34.046	-0.398	-34.046	-10.784	55.294
5625	-10.749	55.146	-0.401	-34.194	-0.401	-34.194	-10.749	55.146
5650	-10.714	54.999	-0.404	-34.341	-0.404	-34.341	-10.714	54.999
5675	-10.679	54.852	-0.408	-34.488	-0.408	-34.488	-10.679	54.852
5700	-10.645	54.705	-0.411	-34.634	-0.411	-34.634	-10.645	54.705
5725	-10.611	54.558	-0.414	-34.781	-0.414	-34.781	-10.611	54.558
5750	-10.577	54.411	-0.418	-34.928	-0.418	-34.928	-10.577	54.411
5775	-10.543	54.264	-0.421	-35.075	-0.421	-35.075	-10.543	54.264
5800	-10.509	54.117	-0.424	-35.222	-0.424	-35.222	-10.509	54.117
5825	-10.475	53.97	-0.428	-35.368	-0.428	-35.368	-10.475	53.97
5850	-10.442	53.824	-0.431	-35.515	-0.431	-35.515	-10.442	53.824
5875	-10.409	53.677	-0.434	-35.661	-0.434	-35.661	-10.409	53.677
5900	-10.376	53.53	-0.438	-35.808	-0.438	-35.808	-10.376	53.53
5925	-10.343	53.384	-0.441	-35.954	-0.441	-35.954	-10.343	53.384
5950	-10.31	53.237	-0.444	-36.1	-0.444	-36.1	-10.31	53.237
5975	-10.277	53.091	-0.448	-36.247	-0.448	-36.247	-10.277	53.091
6000	-10.245	52.944	-0.451	-36.393	-0.451	-36.393	-10.245	52.944
