! AVX Thin Film Operation		Date: May 2002 
! Description: Accu-L® Series, Thin Film, SMD, RF Inductors
! Part Number: L0805220GEWTR
! 50 MHz  -  4.05 GHz
! Serial Measurements
!
# mhz S db R 50
!	S11		S21		S12		S22
!	dB	Phase	dB	Phase	dB	Phase	dB	Phase
50	-24.069	82.853	-0.015	-3.822	-0.015	-3.822	-24.069	82.853
60	-22.68	82.209	-0.035	-4.508	-0.035	-4.508	-22.68	82.209
70	-21.483	81.565	-0.054	-5.195	-0.054	-5.195	-21.483	81.565
80	-20.431	80.921	-0.074	-5.881	-0.074	-5.881	-20.431	80.921
90	-19.492	80.277	-0.094	-6.568	-0.094	-6.568	-19.492	80.277
100	-18.646	79.633	-0.113	-7.254	-0.113	-7.254	-18.646	79.633
110	-17.874	78.989	-0.133	-7.941	-0.133	-7.941	-17.874	78.989
120	-17.166	78.345	-0.153	-8.628	-0.153	-8.628	-17.166	78.345
130	-16.511	77.701	-0.173	-9.314	-0.173	-9.314	-16.511	77.701
140	-15.902	77.057	-0.193	-10.001	-0.193	-10.001	-15.902	77.057
150	-15.332	76.413	-0.213	-10.687	-0.213	-10.687	-15.332	76.413
160	-14.798	75.769	-0.233	-11.374	-0.233	-11.374	-14.798	75.769
170	-14.295	75.125	-0.253	-12.06	-0.253	-12.06	-14.295	75.125
180	-13.819	74.481	-0.273	-12.747	-0.273	-12.747	-13.819	74.481
190	-13.368	73.837	-0.294	-13.434	-0.294	-13.434	-13.368	73.837
200	-12.94	73.193	-0.314	-14.12	-0.314	-14.12	-12.94	73.193
210	-12.556	72.546	-0.343	-14.783	-0.343	-14.783	-12.556	72.546
220	-12.188	71.899	-0.372	-15.446	-0.372	-15.446	-12.188	71.899
230	-11.835	71.252	-0.402	-16.109	-0.402	-16.109	-11.835	71.252
240	-11.496	70.606	-0.431	-16.772	-0.431	-16.772	-11.496	70.606
250	-11.17	69.959	-0.46	-17.434	-0.46	-17.434	-11.17	69.959
260	-10.855	69.312	-0.49	-18.097	-0.49	-18.097	-10.855	69.312
270	-10.552	68.665	-0.52	-18.76	-0.52	-18.76	-10.552	68.665
280	-10.259	68.018	-0.55	-19.423	-0.55	-19.423	-10.259	68.018
290	-9.975	67.371	-0.58	-20.086	-0.58	-20.086	-9.975	67.371
300	-9.7	66.724	-0.61	-20.749	-0.61	-20.749	-9.7	66.724
310	-9.454	66.092	-0.647	-21.387	-0.647	-21.387	-9.454	66.092
320	-9.214	65.46	-0.686	-22.024	-0.686	-22.024	-9.214	65.46
330	-8.98	64.828	-0.724	-22.662	-0.724	-22.662	-8.98	64.828
340	-8.753	64.196	-0.762	-23.3	-0.762	-23.3	-8.753	64.196
350	-8.532	63.563	-0.801	-23.938	-0.801	-23.938	-8.532	63.563
360	-8.316	62.931	-0.84	-24.575	-0.84	-24.575	-8.316	62.931
370	-8.105	62.299	-0.879	-25.213	-0.879	-25.213	-8.105	62.299
380	-7.9	61.667	-0.918	-25.851	-0.918	-25.851	-7.9	61.667
390	-7.699	61.035	-0.957	-26.489	-0.957	-26.489	-7.699	61.035
400	-7.502	60.403	-0.997	-27.127	-0.997	-27.127	-7.502	60.403
410	-7.327	59.791	-1.043	-27.737	-1.04	-27.737	-7.327	59.791
420	-7.155	59.18	-1.089	-28.348	-1.09	-28.348	-7.155	59.18
430	-6.987	58.569	-1.136	-28.959	-1.14	-28.959	-6.987	58.569
440	-6.822	57.958	-1.183	-29.57	-1.18	-29.57	-6.822	57.958
450	-6.66	57.347	-1.23	-30.181	-1.23	-30.181	-6.66	57.347
460	-6.501	56.736	-1.278	-30.792	-1.28	-30.792	-6.501	56.736
470	-6.345	56.125	-1.325	-31.403	-1.33	-31.403	-6.345	56.125
480	-6.191	55.514	-1.373	-32.014	-1.37	-32.014	-6.191	55.514
490	-6.04	54.903	-1.422	-32.625	-1.42	-32.625	-6.04	54.903
500	-5.892	54.292	-1.47	-33.236	-1.47	-33.236	-5.892	54.292
510	-5.761	53.705	-1.524	-33.819	-1.52	-33.819	-5.761	53.705
520	-5.632	53.118	-1.579	-34.402	-1.58	-34.402	-5.632	53.118
530	-5.505	52.531	-1.633	-34.984	-1.63	-34.984	-5.505	52.531
540	-5.38	51.944	-1.688	-35.567	-1.69	-35.567	-5.38	51.944
550	-5.256	51.357	-1.744	-36.15	-1.74	-36.15	-5.256	51.357
560	-5.134	50.77	-1.8	-36.733	-1.8	-36.733	-5.134	50.77
570	-5.014	50.182	-1.856	-37.316	-1.86	-37.316	-5.014	50.182
580	-4.895	49.595	-1.912	-37.899	-1.91	-37.899	-4.895	49.595
590	-4.778	49.008	-1.969	-38.482	-1.97	-38.482	-4.778	49.008
600	-4.663	48.421	-2.026	-39.065	-2.03	-39.065	-4.663	48.421
610	-4.562	47.859	-2.088	-39.62	-2.09	-39.62	-4.562	47.859
620	-4.462	47.298	-2.15	-40.175	-2.15	-40.175	-4.462	47.298
630	-4.363	46.736	-2.213	-40.73	-2.21	-40.73	-4.363	46.736
640	-4.265	46.174	-2.275	-41.284	-2.28	-41.284	-4.265	46.174
650	-4.169	45.612	-2.339	-41.839	-2.34	-41.839	-4.169	45.612
660	-4.073	45.05	-2.403	-42.394	-2.4	-42.394	-4.073	45.05
670	-3.979	44.488	-2.467	-42.949	-2.47	-42.949	-3.979	44.488
680	-3.885	43.926	-2.532	-43.504	-2.53	-43.504	-3.885	43.926
690	-3.793	43.364	-2.597	-44.058	-2.6	-44.058	-3.793	43.364
700	-3.701	42.802	-2.663	-44.613	-2.66	-44.613	-3.701	42.802
710	-3.621	42.265	-2.732	-45.14	-2.73	-45.14	-3.621	42.265
720	-3.543	41.728	-2.801	-45.667	-2.8	-45.667	-3.543	41.728
730	-3.464	41.191	-2.871	-46.195	-2.87	-46.195	-3.464	41.191
740	-3.387	40.654	-2.942	-46.722	-2.94	-46.722	-3.387	40.654
750	-3.31	40.117	-3.013	-47.249	-3.01	-47.249	-3.31	40.117
760	-3.234	39.58	-3.085	-47.776	-3.09	-47.776	-3.234	39.58
770	-3.159	39.044	-3.158	-48.303	-3.16	-48.303	-3.159	39.044
780	-3.084	38.507	-3.231	-48.83	-3.23	-48.83	-3.084	38.507
790	-3.01	37.97	-3.304	-49.358	-3.3	-49.358	-3.01	37.97
800	-2.936	37.433	-3.379	-49.885	-3.38	-49.885	-2.936	37.433
810	-2.873	36.92	-3.455	-50.385	-3.46	-50.385	-2.873	36.92
820	-2.809	36.407	-3.532	-50.886	-3.53	-50.886	-2.809	36.407
830	-2.747	35.894	-3.61	-51.386	-3.61	-51.386	-2.747	35.894
840	-2.685	35.381	-3.689	-51.887	-3.69	-51.887	-2.685	35.381
850	-2.623	34.868	-3.768	-52.387	-3.77	-52.387	-2.623	34.868
860	-2.562	34.355	-3.849	-52.888	-3.85	-52.888	-2.562	34.355
870	-2.501	33.843	-3.929	-53.388	-3.93	-53.388	-2.501	33.843
880	-2.441	33.33	-4.011	-53.888	-4.01	-53.888	-2.441	33.33
890	-2.381	32.817	-4.093	-54.389	-4.09	-54.389	-2.381	32.817
900	-2.321	32.304	-4.177	-54.889	-4.18	-54.889	-2.321	32.304
910	-2.27	31.814	-4.261	-55.364	-4.26	-55.364	-2.27	31.814
920	-2.219	31.323	-4.347	-55.839	-4.35	-55.839	-2.219	31.323
930	-2.169	30.833	-4.433	-56.314	-4.43	-56.314	-2.169	30.833
940	-2.119	30.343	-4.52	-56.79	-4.52	-56.79	-2.119	30.343
950	-2.069	29.853	-4.608	-57.265	-4.61	-57.265	-2.069	29.853
960	-2.019	29.362	-4.697	-57.74	-4.7	-57.74	-2.019	29.362
970	-1.97	28.872	-4.787	-58.215	-4.79	-58.215	-1.97	28.872
980	-1.921	28.382	-4.878	-58.69	-4.88	-58.69	-1.921	28.382
990	-1.872	27.892	-4.97	-59.165	-4.97	-59.165	-1.872	27.892
1000	-1.824	27.401	-5.062	-59.64	-5.06	-59.64	-1.824	27.401
1010	-1.783	26.932	-5.156	-60.091	-5.16	-60.091	-1.783	26.932
1020	-1.742	26.463	-5.25	-60.541	-5.25	-60.541	-1.742	26.463
1030	-1.701	25.993	-5.346	-60.992	-5.35	-60.992	-1.701	25.993
1040	-1.66	25.524	-5.443	-61.443	-5.44	-61.443	-1.66	25.524
1050	-1.62	25.055	-5.541	-61.894	-5.54	-61.894	-1.62	25.055
1060	-1.579	24.585	-5.639	-62.345	-5.64	-62.345	-1.579	24.585
1070	-1.539	24.116	-5.739	-62.796	-5.74	-62.796	-1.539	24.116
1080	-1.499	23.647	-5.841	-63.246	-5.84	-63.246	-1.499	23.647
1090	-1.46	23.177	-5.943	-63.697	-5.94	-63.697	-1.46	23.177
1100	-1.42	22.708	-6.047	-64.148	-6.05	-64.148	-1.42	22.708
1110	-1.387	22.258	-6.15	-64.576	-6.15	-64.576	-1.387	22.258
1120	-1.354	21.808	-6.256	-65.003	-6.26	-65.003	-1.354	21.808
1130	-1.321	21.357	-6.362	-65.431	-6.36	-65.431	-1.321	21.357
1140	-1.288	20.907	-6.47	-65.859	-6.47	-65.859	-1.288	20.907
1150	-1.255	20.457	-6.579	-66.286	-6.58	-66.286	-1.255	20.457
1160	-1.222	20.007	-6.689	-66.714	-6.69	-66.714	-1.222	20.007
1170	-1.19	19.556	-6.801	-67.142	-6.8	-67.142	-1.19	19.556
1180	-1.157	19.106	-6.915	-67.569	-6.92	-67.569	-1.157	19.106
1190	-1.125	18.656	-7.029	-67.997	-7.03	-67.997	-1.125	18.656
1200	-1.093	18.206	-7.146	-68.425	-7.15	-68.425	-1.093	18.206
1210	-1.066	17.773	-7.262	-68.83	-7.26	-68.83	-1.066	17.773
1220	-1.039	17.34	-7.38	-69.235	-7.38	-69.235	-1.039	17.34
1230	-1.012	16.907	-7.499	-69.64	-7.5	-69.64	-1.012	16.907
1240	-0.986	16.474	-7.621	-70.044	-7.62	-70.044	-0.986	16.474
1250	-0.959	16.041	-7.743	-70.449	-7.74	-70.449	-0.959	16.041
1260	-0.933	15.608	-7.868	-70.854	-7.87	-70.854	-0.933	15.608
1270	-0.907	15.174	-7.995	-71.259	-8	-71.259	-0.907	15.174
1280	-0.88	14.741	-8.123	-71.664	-8.12	-71.664	-0.88	14.741
1290	-0.854	14.308	-8.253	-72.069	-8.25	-72.069	-0.854	14.308
1300	-0.828	13.875	-8.385	-72.474	-8.39	-72.474	-0.828	13.875
1310	-0.806	13.458	-8.517	-72.856	-8.52	-72.856	-0.806	13.458
1320	-0.785	13.04	-8.651	-73.237	-8.65	-73.237	-0.785	13.04
1330	-0.764	12.622	-8.787	-73.619	-8.79	-73.619	-0.764	12.622
1340	-0.742	12.205	-8.925	-74.001	-8.93	-74.001	-0.742	12.205
1350	-0.721	11.787	-9.066	-74.382	-9.07	-74.382	-0.721	11.787
1360	-0.7	11.37	-9.209	-74.764	-9.21	-74.764	-0.7	11.37
1370	-0.679	10.952	-9.354	-75.145	-9.35	-75.145	-0.679	10.952
1380	-0.658	10.534	-9.501	-75.527	-9.5	-75.527	-0.658	10.534
1390	-0.637	10.117	-9.651	-75.909	-9.65	-75.909	-0.637	10.117
1400	-0.616	9.699	-9.804	-76.29	-9.8	-76.29	-0.616	9.699
1410	-0.599	9.295	-9.957	-76.646	-9.96	-76.646	-0.599	9.295
1420	-0.582	8.891	-10.112	-77.002	-10.1	-77.002	-0.582	8.891
1430	-0.565	8.487	-10.27	-77.357	-10.3	-77.357	-0.565	8.487
1440	-0.548	8.083	-10.431	-77.713	-10.4	-77.713	-0.548	8.083
1450	-0.531	7.679	-10.594	-78.068	-10.6	-78.068	-0.531	7.679
1460	-0.514	7.275	-10.762	-78.424	-10.8	-78.424	-0.514	7.275
1470	-0.498	6.871	-10.932	-78.78	-10.9	-78.78	-0.498	6.871
1480	-0.481	6.467	-11.106	-79.135	-11.1	-79.135	-0.481	6.467
1490	-0.464	6.063	-11.283	-79.491	-11.3	-79.491	-0.464	6.063
1500	-0.448	5.659	-11.464	-79.847	-11.5	-79.847	-0.448	5.659
1510	-0.435	5.268	-11.645	-80.169	-11.6	-80.169	-0.435	5.268
1520	-0.422	4.876	-11.83	-80.492	-11.8	-80.492	-0.422	4.876
1530	-0.409	4.484	-12.018	-80.814	-12	-80.814	-0.409	4.484
1540	-0.396	4.092	-12.211	-81.137	-12.2	-81.137	-0.396	4.092
1550	-0.383	3.7	-12.409	-81.459	-12.4	-81.459	-0.383	3.7
1560	-0.37	3.308	-12.611	-81.782	-12.6	-81.782	-0.37	3.308
1570	-0.357	2.916	-12.817	-82.104	-12.8	-82.104	-0.357	2.916
1580	-0.344	2.524	-13.029	-82.427	-13	-82.427	-0.344	2.524
1590	-0.331	2.132	-13.246	-82.749	-13.2	-82.749	-0.331	2.132
1600	-0.318	1.74	-13.469	-83.072	-13.5	-83.072	-0.318	1.74
1610	-0.308	1.359	-13.692	-83.343	-13.7	-83.343	-0.308	1.359
1620	-0.299	0.978	-13.921	-83.613	-13.9	-83.613	-0.299	0.978
1630	-0.289	0.597	-14.157	-83.884	-14.2	-83.884	-0.289	0.597
1640	-0.279	0.215	-14.399	-84.155	-14.4	-84.155	-0.279	0.215
1650	-0.27	-0.166	-14.648	-84.425	-14.6	-84.425	-0.27	-0.166
1660	-0.26	-0.547	-14.904	-84.696	-14.9	-84.696	-0.26	-0.547
1670	-0.251	-0.929	-15.168	-84.967	-15.2	-84.967	-0.251	-0.929
1680	-0.241	-1.31	-15.44	-85.237	-15.4	-85.237	-0.241	-1.31
1690	-0.231	-1.691	-15.722	-85.508	-15.7	-85.508	-0.231	-1.691
1700	-0.222	-2.073	-16.012	-85.779	-16	-85.779	-0.222	-2.073
1710	-0.215	-2.445	-16.306	-85.94	-16.3	-85.94	-0.215	-2.445
1720	-0.208	-2.817	-16.609	-86.101	-16.6	-86.101	-0.208	-2.817
1730	-0.202	-3.189	-16.924	-86.263	-16.9	-86.263	-0.202	-3.189
1740	-0.195	-3.561	-17.25	-86.424	-17.3	-86.424	-0.195	-3.561
1750	-0.188	-3.933	-17.59	-86.585	-17.6	-86.585	-0.188	-3.933
1760	-0.182	-4.305	-17.943	-86.746	-17.9	-86.746	-0.182	-4.305
1770	-0.175	-4.677	-18.311	-86.907	-18.3	-86.907	-0.175	-4.677
1780	-0.168	-5.049	-18.695	-87.069	-18.7	-87.069	-0.168	-5.049
1790	-0.162	-5.422	-19.097	-87.23	-19.1	-87.23	-0.162	-5.422
1800	-0.155	-5.794	-19.518	-87.391	-19.5	-87.391	-0.155	-5.794
1810	-0.151	-6.158	-19.948	-87.17	-19.9	-87.17	-0.151	-6.158
1820	-0.147	-6.522	-20.401	-86.948	-20.4	-86.948	-0.147	-6.522
1830	-0.143	-6.886	-20.878	-86.727	-20.9	-86.727	-0.143	-6.886
1840	-0.139	-7.25	-21.383	-86.505	-21.4	-86.505	-0.139	-7.25
1850	-0.135	-7.614	-21.919	-86.284	-21.9	-86.284	-0.135	-7.614
1860	-0.131	-7.978	-22.491	-86.062	-22.5	-86.062	-0.131	-7.978
1870	-0.127	-8.342	-23.102	-85.841	-23.1	-85.841	-0.127	-8.342
1880	-0.123	-8.706	-23.76	-85.619	-23.8	-85.619	-0.123	-8.706
1890	-0.119	-9.071	-24.472	-85.398	-24.5	-85.398	-0.119	-9.071
1900	-0.115	-9.435	-25.248	-85.177	-25.2	-85.177	-0.115	-9.435
1910	-0.114	-9.792	-25.96	-79.193	-26	-79.193	-0.114	-9.792
1920	-0.112	-10.149	-26.735	-73.209	-26.7	-73.209	-0.112	-10.149
1930	-0.111	-10.506	-27.586	-67.226	-27.6	-67.226	-0.111	-10.506
1940	-0.109	-10.864	-28.53	-61.242	-28.5	-61.242	-0.109	-10.864
1950	-0.107	-11.221	-29.589	-55.259	-29.6	-55.259	-0.107	-11.221
1960	-0.106	-11.578	-30.795	-49.275	-30.8	-49.275	-0.106	-11.578
1970	-0.104	-11.935	-32.197	-43.292	-32.2	-43.292	-0.104	-11.935
1980	-0.103	-12.293	-33.868	-37.308	-33.9	-37.308	-0.103	-12.293
1990	-0.101	-12.65	-35.94	-31.324	-35.9	-31.324	-0.101	-12.65
2000	-0.1	-13.007	-38.667	-25.341	-38.7	-25.341	-0.1	-13.007
2010	-0.1	-13.358	-36.321	-16.572	-36.3	-16.572	-0.1	-13.358
2020	-0.101	-13.71	-34.476	-7.803	-34.5	-7.803	-0.101	-13.71
2030	-0.102	-14.061	-32.956	0.965	-33	0.965	-0.102	-14.061
2040	-0.103	-14.412	-31.662	9.734	-31.7	9.734	-0.103	-14.412
2050	-0.103	-14.764	-30.536	18.503	-30.5	18.503	-0.103	-14.764
2060	-0.104	-15.115	-29.539	27.272	-29.5	27.272	-0.104	-15.115
2070	-0.105	-15.466	-28.645	36.04	-28.6	36.04	-0.105	-15.466
2080	-0.105	-15.818	-27.835	44.809	-27.8	44.809	-0.105	-15.818
2090	-0.106	-16.169	-27.094	53.578	-27.1	53.578	-0.106	-16.169
2100	-0.107	-16.521	-26.411	62.347	-26.4	62.347	-0.107	-16.521
2110	-0.11	-16.867	-25.585	62.695	-25.6	62.695	-0.11	-16.867
2120	-0.112	-17.213	-24.83	63.042	-24.8	63.042	-0.112	-17.213
2130	-0.115	-17.56	-24.136	63.39	-24.1	63.39	-0.115	-17.56
2140	-0.118	-17.906	-23.494	63.738	-23.5	63.738	-0.118	-17.906
2150	-0.121	-18.253	-22.895	64.086	-22.9	64.086	-0.121	-18.253
2160	-0.124	-18.599	-22.336	64.434	-22.3	64.434	-0.124	-18.599
2170	-0.127	-18.945	-21.81	64.782	-21.8	64.782	-0.127	-18.945
2180	-0.13	-19.292	-21.314	65.13	-21.3	65.13	-0.13	-19.292
2190	-0.132	-19.638	-20.845	65.478	-20.8	65.478	-0.132	-19.638
2200	-0.135	-19.984	-20.4	65.826	-20.4	65.826	-0.135	-19.984
2210	-0.14	-20.327	-19.981	65.717	-20	65.717	-0.14	-20.327
2220	-0.145	-20.669	-19.582	65.607	-19.6	65.607	-0.145	-20.669
2230	-0.15	-21.011	-19.2	65.498	-19.2	65.498	-0.15	-21.011
2240	-0.155	-21.353	-18.835	65.389	-18.8	65.389	-0.155	-21.353
2250	-0.16	-21.696	-18.484	65.28	-18.5	65.28	-0.16	-21.696
2260	-0.165	-22.038	-18.146	65.171	-18.1	65.171	-0.165	-22.038
2270	-0.17	-22.38	-17.822	65.061	-17.8	65.061	-0.17	-22.38
2280	-0.174	-22.722	-17.509	64.952	-17.5	64.952	-0.174	-22.722
2290	-0.179	-23.065	-17.207	64.843	-17.2	64.843	-0.179	-23.065
2300	-0.184	-23.407	-16.915	64.734	-16.9	64.734	-0.184	-23.407
2310	-0.191	-23.746	-16.638	64.515	-16.6	64.515	-0.191	-23.746
2320	-0.198	-24.084	-16.369	64.296	-16.4	64.296	-0.198	-24.084
2330	-0.205	-24.423	-16.108	64.077	-16.1	64.077	-0.205	-24.423
2340	-0.212	-24.762	-15.855	63.858	-15.9	63.858	-0.212	-24.762
2350	-0.219	-25.101	-15.61	63.639	-15.6	63.639	-0.219	-25.101
2360	-0.226	-25.44	-15.371	63.42	-15.4	63.42	-0.226	-25.44
2370	-0.232	-25.779	-15.138	63.201	-15.1	63.201	-0.232	-25.779
2380	-0.239	-26.117	-14.911	62.982	-14.9	62.982	-0.239	-26.117
2390	-0.246	-26.456	-14.69	62.763	-14.7	62.763	-0.246	-26.456
2400	-0.253	-26.795	-14.475	62.544	-14.5	62.544	-0.253	-26.795
2410	-0.262	-27.131	-14.269	62.283	-14.3	62.283	-0.262	-27.131
2420	-0.271	-27.467	-14.068	62.023	-14.1	62.023	-0.271	-27.467
2430	-0.28	-27.803	-13.871	61.762	-13.9	61.762	-0.28	-27.803
2440	-0.288	-28.139	-13.679	61.501	-13.7	61.501	-0.288	-28.139
2450	-0.297	-28.475	-13.491	61.24	-13.5	61.24	-0.297	-28.475
2460	-0.306	-28.811	-13.307	60.98	-13.3	60.98	-0.306	-28.811
2470	-0.315	-29.147	-13.127	60.719	-13.1	60.719	-0.315	-29.147
2480	-0.324	-29.483	-12.95	60.458	-13	60.458	-0.324	-29.483
2490	-0.333	-29.819	-12.777	60.197	-12.8	60.197	-0.333	-29.819
2500	-0.342	-30.155	-12.607	59.936	-12.6	59.936	-0.342	-30.155
2510	-0.352	-30.489	-12.444	59.656	-12.4	59.656	-0.352	-30.489
2520	-0.363	-30.823	-12.284	59.375	-12.3	59.375	-0.363	-30.823
2530	-0.374	-31.157	-12.127	59.095	-12.1	59.095	-0.374	-31.157
2540	-0.385	-31.491	-11.973	58.814	-12	58.814	-0.385	-31.491
2550	-0.395	-31.825	-11.821	58.534	-11.8	58.534	-0.395	-31.825
2560	-0.406	-32.158	-11.672	58.253	-11.7	58.253	-0.406	-32.158
2570	-0.417	-32.492	-11.525	57.973	-11.5	57.973	-0.417	-32.492
2580	-0.428	-32.826	-11.381	57.692	-11.4	57.692	-0.428	-32.826
2590	-0.439	-33.16	-11.24	57.411	-11.2	57.411	-0.439	-33.16
2600	-0.45	-33.494	-11.1	57.131	-11.1	57.131	-0.45	-33.494
2610	-0.462	-33.826	-10.966	56.84	-11	56.84	-0.462	-33.826
2620	-0.475	-34.158	-10.833	56.548	-10.8	56.548	-0.475	-34.158
2630	-0.488	-34.49	-10.703	56.257	-10.7	56.257	-0.488	-34.49
2640	-0.5	-34.822	-10.575	55.966	-10.6	55.966	-0.5	-34.822
2650	-0.513	-35.154	-10.448	55.675	-10.4	55.675	-0.513	-35.154
2660	-0.526	-35.487	-10.324	55.384	-10.3	55.384	-0.526	-35.487
2670	-0.539	-35.819	-10.201	55.092	-10.2	55.092	-0.539	-35.819
2680	-0.552	-36.151	-10.08	54.801	-10.1	54.801	-0.552	-36.151
2690	-0.564	-36.483	-9.96	54.51	-9.96	54.51	-0.564	-36.483
2700	-0.577	-36.815	-9.842	54.219	-9.84	54.219	-0.577	-36.815
2710	-0.592	-37.146	-9.728	53.921	-9.73	53.921	-0.592	-37.146
2720	-0.607	-37.477	-9.616	53.624	-9.62	53.624	-0.607	-37.477
2730	-0.621	-37.808	-9.505	53.326	-9.51	53.326	-0.621	-37.808
2740	-0.636	-38.139	-9.396	53.029	-9.4	53.029	-0.636	-38.139
2750	-0.651	-38.47	-9.288	52.731	-9.29	52.731	-0.651	-38.47
2760	-0.666	-38.801	-9.181	52.434	-9.18	52.434	-0.666	-38.801
2770	-0.68	-39.132	-9.076	52.136	-9.08	52.136	-0.68	-39.132
2780	-0.695	-39.463	-8.971	51.839	-8.97	51.839	-0.695	-39.463
2790	-0.71	-39.794	-8.868	51.541	-8.87	51.541	-0.71	-39.794
2800	-0.725	-40.125	-8.767	51.244	-8.77	51.244	-0.725	-40.125
2810	-0.742	-40.455	-8.669	50.942	-8.67	50.942	-0.742	-40.455
2820	-0.758	-40.785	-8.571	50.64	-8.57	50.64	-0.758	-40.785
2830	-0.775	-41.115	-8.475	50.339	-8.48	50.339	-0.775	-41.115
2840	-0.792	-41.445	-8.38	50.037	-8.38	50.037	-0.792	-41.445
2850	-0.809	-41.775	-8.286	49.736	-8.29	49.736	-0.809	-41.775
2860	-0.826	-42.105	-8.193	49.434	-8.19	49.434	-0.826	-42.105
2870	-0.842	-42.435	-8.101	49.133	-8.1	49.133	-0.842	-42.435
2880	-0.859	-42.765	-8.01	48.831	-8.01	48.831	-0.859	-42.765
2890	-0.876	-43.096	-7.92	48.53	-7.92	48.53	-0.876	-43.096
2900	-0.893	-43.426	-7.831	48.228	-7.83	48.228	-0.893	-43.426
2910	-0.912	-43.755	-7.745	47.924	-7.75	47.924	-0.912	-43.755
2920	-0.931	-44.085	-7.66	47.619	-7.66	47.619	-0.931	-44.085
2930	-0.95	-44.415	-7.576	47.315	-7.58	47.315	-0.95	-44.415
2940	-0.969	-44.744	-7.492	47.011	-7.49	47.011	-0.969	-44.744
2950	-0.987	-45.074	-7.409	46.706	-7.41	46.706	-0.987	-45.074
2960	-1.006	-45.403	-7.327	46.402	-7.33	46.402	-1.006	-45.403
2970	-1.025	-45.733	-7.246	46.098	-7.25	46.098	-1.025	-45.733
2980	-1.045	-46.063	-7.166	45.793	-7.17	45.793	-1.045	-46.063
2990	-1.064	-46.392	-7.086	45.489	-7.09	45.489	-1.064	-46.392
3000	-1.083	-46.722	-7.007	45.185	-7.01	45.185	-1.083	-46.722
3010	-1.104	-47.051	-6.931	44.878	-6.93	44.878	-1.104	-47.051
3020	-1.125	-47.381	-6.855	44.572	-6.86	44.572	-1.125	-47.381
3030	-1.146	-47.71	-6.78	44.266	-6.78	44.266	-1.146	-47.71
3040	-1.167	-48.04	-6.706	43.959	-6.71	43.959	-1.167	-48.04
3050	-1.188	-48.369	-6.632	43.653	-6.63	43.653	-1.188	-48.369
3060	-1.209	-48.699	-6.559	43.347	-6.56	43.347	-1.209	-48.699
3070	-1.231	-49.028	-6.487	43.04	-6.49	43.04	-1.231	-49.028
3080	-1.252	-49.358	-6.415	42.734	-6.42	42.734	-1.252	-49.358
3090	-1.273	-49.687	-6.344	42.428	-6.34	42.428	-1.273	-49.687
3100	-1.295	-50.017	-6.273	42.121	-6.27	42.121	-1.295	-50.017
3110	-1.318	-50.346	-6.205	41.813	-6.21	41.813	-1.318	-50.346
3120	-1.341	-50.676	-6.137	41.506	-6.14	41.506	-1.341	-50.676
3130	-1.364	-51.006	-6.07	41.198	-6.07	41.198	-1.364	-51.006
3140	-1.388	-51.335	-6.004	40.89	-6	40.89	-1.388	-51.335
3150	-1.411	-51.665	-5.937	40.582	-5.94	40.582	-1.411	-51.665
3160	-1.435	-51.994	-5.872	40.274	-5.87	40.274	-1.435	-51.994
3170	-1.459	-52.324	-5.807	39.966	-5.81	39.966	-1.459	-52.324
3180	-1.482	-52.654	-5.742	39.658	-5.74	39.658	-1.482	-52.654
3190	-1.506	-52.983	-5.678	39.35	-5.68	39.35	-1.506	-52.983
3200	-1.53	-53.313	-5.615	39.042	-5.62	39.042	-1.53	-53.313
3210	-1.555	-53.643	-5.553	38.733	-5.55	38.733	-1.555	-53.643
3220	-1.581	-53.973	-5.492	38.424	-5.49	38.424	-1.581	-53.973
3230	-1.607	-54.303	-5.432	38.115	-5.43	38.115	-1.607	-54.303
3240	-1.633	-54.633	-5.372	37.806	-5.37	37.806	-1.633	-54.633
3250	-1.659	-54.963	-5.312	37.496	-5.31	37.496	-1.659	-54.963
3260	-1.685	-55.293	-5.253	37.187	-5.25	37.187	-1.685	-55.293
