! AVX Thin Film Operation		Date: May 2002 
! Description: Accu-L® Series, Thin Film, SMD, RF Inductors
! Part Number: L08053R3CEWTR
! 50 MHz  -  15.05 GHz
! Serial Measurements
!
# mhz S db R 50
!	S11		S21		S12		S22
!	dB	Phase	dB	Phase	dB	Phase	dB	Phase
50	-43.129	84.55	-6.222e-3	-0.682	-6.222e-3	-0.682	-43.129	84.547
87.5	-38.634	84.457	-8.539e-3	-1.166	-8.539e-3	-1.166	-38.634	84.453
125	-35.686	84.364	-0.011	-1.651	-0.011	-1.651	-35.686	84.359
162.5	-33.49	84.271	-0.013	-2.135	-0.013	-2.135	-33.49	84.265
200	-31.738	84.178	-0.015	-2.619	-0.015	-2.619	-31.738	84.171
237.5	-30.296	83.882	-0.018	-3.101	-0.018	-3.101	-30.296	83.873
275	-29.059	83.586	-0.021	-3.582	-0.021	-3.582	-29.059	83.576
312.5	-27.979	83.268	-0.023	-4.063	-0.023	-4.063	-27.979	83.255
350	-27.023	82.903	-0.026	-4.543	-0.026	-4.543	-27.023	82.889
387.5	-26.162	82.538	-0.029	-5.022	-0.029	-5.022	-26.162	82.523
425	-25.382	82.152	-0.032	-5.501	-0.032	-5.501	-25.382	82.135
462.5	-24.667	81.755	-0.035	-5.98	-0.035	-5.98	-24.667	81.736
500	-24.006	81.357	-0.038	-6.458	-0.038	-6.458	-24.006	81.337
537.5	-23.396	80.941	-0.042	-6.935	-0.042	-6.935	-23.395	80.92
575	-22.825	80.525	-0.046	-7.413	-0.046	-7.413	-22.825	80.502
612.5	-22.29	80.105	-0.049	-7.889	-0.049	-7.889	-22.29	80.081
650	-21.789	79.677	-0.053	-8.366	-0.053	-8.366	-21.788	79.651
687.5	-21.314	79.249	-0.057	-8.842	-0.057	-8.842	-21.314	79.222
725	-20.866	78.816	-0.062	-9.318	-0.062	-9.318	-20.866	78.788
762.5	-20.44	78.381	-0.066	-9.793	-0.066	-9.793	-20.44	78.351
800	-20.034	77.946	-0.071	-10.268	-0.071	-10.268	-20.034	77.914
837.5	-19.649	77.505	-0.076	-10.742	-0.076	-10.742	-19.648	77.471
875	-19.279	77.064	-0.08	-11.217	-0.08	-11.217	-19.279	77.029
912.5	-18.926	76.622	-0.086	-11.691	-0.086	-11.691	-18.926	76.586
950	-18.587	76.177	-0.091	-12.164	-0.091	-12.164	-18.587	76.139
987.5	-18.261	75.733	-0.096	-12.637	-0.096	-12.637	-18.261	75.693
1025	-17.948	75.286	-0.102	-13.11	-0.102	-13.11	-17.948	75.246
1062.5	-17.647	74.839	-0.108	-13.582	-0.108	-13.582	-17.647	74.797
1100	-17.356	74.392	-0.113	-14.054	-0.113	-14.054	-17.355	74.348
1137.5	-17.075	73.943	-0.119	-14.526	-0.119	-14.526	-17.075	73.897
1175	-16.804	73.494	-0.126	-14.997	-0.126	-14.997	-16.804	73.447
1212.5	-16.541	73.044	-0.132	-15.468	-0.132	-15.468	-16.541	72.996
1250	-16.287	72.594	-0.139	-15.938	-0.139	-15.938	-16.287	72.544
1287.5	-16.041	72.143	-0.145	-16.408	-0.145	-16.408	-16.041	72.092
1325	-15.802	71.692	-0.152	-16.878	-0.152	-16.878	-15.802	71.64
1362.5	-15.57	71.241	-0.159	-17.347	-0.159	-17.347	-15.57	71.187
1400	-15.344	70.79	-0.166	-17.816	-0.166	-17.816	-15.344	70.734
1437.5	-15.126	70.338	-0.174	-18.284	-0.174	-18.284	-15.126	70.281
1475	-14.912	69.886	-0.181	-18.751	-0.181	-18.751	-14.912	69.828
1512.5	-14.705	69.435	-0.189	-19.219	-0.189	-19.219	-14.705	69.374
1550	-14.503	68.983	-0.197	-19.686	-0.197	-19.686	-14.503	68.921
1587.5	-14.306	68.531	-0.204	-20.152	-0.204	-20.152	-14.306	68.467
1625	-14.114	68.079	-0.213	-20.618	-0.213	-20.618	-14.114	68.014
1662.5	-13.927	67.627	-0.221	-21.084	-0.221	-21.084	-13.927	67.561
1700	-13.743	67.175	-0.229	-21.549	-0.229	-21.549	-13.743	67.107
1737.5	-13.565	66.723	-0.238	-22.014	-0.238	-22.014	-13.565	66.654
1775	-13.391	66.272	-0.247	-22.478	-0.247	-22.478	-13.391	66.201
1812.5	-13.22	65.82	-0.255	-22.942	-0.255	-22.942	-13.22	65.748
1850	-13.054	65.369	-0.264	-23.405	-0.264	-23.405	-13.054	65.295
1887.5	-12.891	64.918	-0.274	-23.868	-0.274	-23.868	-12.891	64.843
1925	-12.732	64.467	-0.283	-24.33	-0.283	-24.33	-12.731	64.39
1962.5	-12.576	64.016	-0.292	-24.791	-0.292	-24.791	-12.575	63.938
2000	-12.422	63.566	-0.302	-25.253	-0.302	-25.253	-12.422	63.486
2037.5	-12.273	63.116	-0.312	-25.713	-0.312	-25.713	-12.273	63.034
2075	-12.127	62.666	-0.322	-26.173	-0.322	-26.173	-12.126	62.583
2112.5	-11.983	62.216	-0.331	-26.633	-0.331	-26.633	-11.983	62.132
2150	-11.842	61.767	-0.342	-27.092	-0.342	-27.092	-11.842	61.681
2187.5	-11.704	61.318	-0.352	-27.551	-0.352	-27.551	-11.704	61.23
2225	-11.569	60.869	-0.362	-28.008	-0.362	-28.008	-11.568	60.78
2262.5	-11.436	60.421	-0.373	-28.466	-0.373	-28.466	-11.436	60.331
2300	-11.305	59.972	-0.384	-28.923	-0.384	-28.923	-11.305	59.881
2337.5	-11.178	59.525	-0.395	-29.379	-0.395	-29.379	-11.177	59.432
2375	-11.052	59.078	-0.406	-29.835	-0.406	-29.835	-11.052	58.983
2412.5	-10.929	58.631	-0.417	-30.29	-0.417	-30.29	-10.928	58.535
2450	-10.808	58.184	-0.428	-30.745	-0.428	-30.745	-10.807	58.087
2487.5	-10.688	57.738	-0.439	-31.199	-0.439	-31.199	-10.688	57.639
2525	-10.572	57.293	-0.451	-31.653	-0.451	-31.653	-10.571	57.192
2562.5	-10.457	56.848	-0.462	-32.105	-0.462	-32.105	-10.457	56.746
2600	-10.344	56.402	-0.474	-32.558	-0.474	-32.558	-10.343	56.299
2637.5	-10.233	55.958	-0.486	-33.01	-0.486	-33.01	-10.233	55.854
2675	-10.124	55.515	-0.498	-33.461	-0.498	-33.461	-10.123	55.409
2712.5	-10.016	55.071	-0.51	-33.912	-0.51	-33.912	-10.016	54.964
2750	-9.911	54.628	-0.523	-34.361	-0.523	-34.361	-9.911	54.519
2787.5	-9.807	54.186	-0.535	-34.811	-0.535	-34.811	-9.807	54.075
2825	-9.705	53.744	-0.547	-35.26	-0.547	-35.26	-9.705	53.632
2862.5	-9.604	53.302	-0.56	-35.708	-0.56	-35.708	-9.604	53.189
2900	-9.505	52.861	-0.573	-36.156	-0.573	-36.156	-9.505	52.746
2937.5	-9.408	52.421	-0.586	-36.602	-0.586	-36.602	-9.408	52.305
2975	-9.312	51.981	-0.599	-37.049	-0.599	-37.049	-9.312	51.863
3012.5	-9.218	51.541	-0.612	-37.495	-0.612	-37.495	-9.217	51.422
3050	-9.125	51.103	-0.625	-37.94	-0.625	-37.94	-9.124	50.982
3087.5	-9.033	50.664	-0.638	-38.385	-0.638	-38.385	-9.033	50.542
3125	-8.943	50.226	-0.652	-38.828	-0.652	-38.828	-8.943	50.103
3162.5	-8.854	49.789	-0.665	-39.271	-0.665	-39.271	-8.854	49.664
3200	-8.766	49.352	-0.679	-39.715	-0.679	-39.715	-8.766	49.226
3237.5	-8.681	48.916	-0.693	-40.156	-0.693	-40.156	-8.68	48.789
3275	-8.596	48.48	-0.706	-40.598	-0.706	-40.598	-8.595	48.351
3312.5	-8.512	48.045	-0.72	-41.039	-0.72	-41.039	-8.511	47.915
3350	-8.429	47.611	-0.734	-41.478	-0.734	-41.478	-8.429	47.479
3387.5	-8.348	47.176	-0.749	-41.918	-0.749	-41.918	-8.348	47.043
3425	-8.268	46.743	-0.763	-42.357	-0.763	-42.357	-8.268	46.609
3462.5	-8.189	46.31	-0.777	-42.795	-0.777	-42.795	-8.189	46.175
3500	-8.111	45.878	-0.792	-43.233	-0.792	-43.233	-8.11	45.74
3537.5	-8.034	45.446	-0.806	-43.67	-0.806	-43.67	-8.034	45.308
3575	-7.958	45.015	-0.821	-44.106	-0.821	-44.106	-7.958	44.875
3612.5	-7.884	44.584	-0.836	-44.542	-0.836	-44.542	-7.883	44.443
3650	-7.81	44.155	-0.851	-44.976	-0.851	-44.976	-7.81	44.012
3687.5	-7.737	43.725	-0.866	-45.411	-0.866	-45.411	-7.737	43.581
3725	-7.666	43.296	-0.881	-45.845	-0.881	-45.845	-7.665	43.151
3762.5	-7.595	42.868	-0.896	-46.278	-0.896	-46.278	-7.595	42.721
3800	-7.525	42.44	-0.911	-46.711	-0.911	-46.711	-7.525	42.292
3837.5	-7.456	42.013	-0.926	-47.142	-0.926	-47.142	-7.456	41.864
3875	-7.388	41.587	-0.942	-47.573	-0.942	-47.573	-7.388	41.436
3912.5	-7.321	41.161	-0.957	-48.004	-0.957	-48.004	-7.321	41.008
3950	-7.255	40.736	-0.973	-48.433	-0.973	-48.433	-7.255	40.582
3987.5	-7.19	40.311	-0.988	-48.863	-0.988	-48.863	-7.189	40.156
4025	-7.125	39.887	-1.004	-49.291	-1.004	-49.291	-7.125	39.731
4062.5	-7.062	39.464	-1.02	-49.719	-1.02	-49.719	-7.061	39.306
4100	-6.999	39.04	-1.036	-50.147	-1.036	-50.147	-6.998	38.881
4137.5	-6.937	38.618	-1.052	-50.573	-1.052	-50.573	-6.937	38.458
4175	-6.876	38.197	-1.068	-50.999	-1.068	-50.999	-6.875	38.035
4212.5	-6.815	37.775	-1.084	-51.424	-1.084	-51.424	-6.815	37.612
4250	-6.756	37.355	-1.1	-51.849	-1.1	-51.849	-6.755	37.191
4287.5	-6.697	36.935	-1.116	-52.273	-1.116	-52.273	-6.696	36.769
4325	-6.639	36.516	-1.133	-52.696	-1.133	-52.696	-6.638	36.349
4362.5	-6.581	36.097	-1.149	-53.119	-1.149	-53.119	-6.581	35.929
4400	-6.524	35.679	-1.165	-53.542	-1.165	-53.542	-6.524	35.509
4437.5	-6.469	35.262	-1.182	-53.963	-1.182	-53.963	-6.468	35.091
4475	-6.413	34.845	-1.199	-54.384	-1.199	-54.384	-6.413	34.672
4512.5	-6.358	34.428	-1.215	-54.804	-1.215	-54.804	-6.358	34.255
4550	-6.305	34.013	-1.232	-55.223	-1.232	-55.223	-6.304	33.838
4587.5	-6.251	33.598	-1.249	-55.643	-1.249	-55.643	-6.251	33.421
4625	-6.198	33.183	-1.266	-56.061	-1.266	-56.061	-6.198	33.006
4662.5	-6.146	32.769	-1.282	-56.478	-1.282	-56.478	-6.146	32.591
4700	-6.095	32.356	-1.299	-56.896	-1.299	-56.896	-6.094	32.176
4737.5	-6.044	31.943	-1.316	-57.312	-1.316	-57.312	-6.044	31.762
4775	-5.994	31.531	-1.334	-57.728	-1.334	-57.728	-5.994	31.349
4812.5	-5.944	31.12	-1.351	-58.143	-1.351	-58.143	-5.944	30.936
4850	-5.895	30.709	-1.368	-58.557	-1.368	-58.557	-5.895	30.524
4887.5	-5.847	30.298	-1.385	-58.971	-1.385	-58.971	-5.846	30.112
4925	-5.799	29.889	-1.402	-59.385	-1.402	-59.385	-5.799	29.701
4962.5	-5.752	29.48	-1.42	-59.797	-1.42	-59.797	-5.751	29.291
5000	-5.705	29.071	-1.437	-60.21	-1.437	-60.21	-5.704	28.88
5037.5	-5.659	28.663	-1.455	-60.621	-1.455	-60.621	-5.658	28.472
5075	-5.613	28.256	-1.472	-61.032	-1.472	-61.032	-5.613	28.063
5112.5	-5.568	27.849	-1.49	-61.442	-1.49	-61.442	-5.568	27.655
5150	-5.524	27.443	-1.507	-61.852	-1.507	-61.852	-5.523	27.247
5187.5	-5.479	27.037	-1.525	-62.261	-1.525	-62.261	-5.479	26.84
5225	-5.436	26.632	-1.543	-62.669	-1.543	-62.669	-5.435	26.434
5262.5	-5.393	26.227	-1.56	-63.077	-1.56	-63.077	-5.392	26.028
5300	-5.35	25.823	-1.578	-63.485	-1.578	-63.485	-5.349	25.623
5337.5	-5.308	25.42	-1.596	-63.891	-1.596	-63.891	-5.308	25.218
5375	-5.266	25.017	-1.614	-64.297	-1.614	-64.297	-5.266	24.814
5412.5	-5.225	24.614	-1.632	-64.703	-1.632	-64.703	-5.225	24.411
5450	-5.185	24.213	-1.65	-65.108	-1.65	-65.108	-5.184	24.008
5487.5	-5.144	23.811	-1.667	-65.512	-1.667	-65.512	-5.144	23.605
5525	-5.104	23.411	-1.685	-65.916	-1.685	-65.916	-5.104	23.204
5562.5	-5.065	23.011	-1.704	-66.319	-1.704	-66.319	-5.065	22.802
5600	-5.026	22.611	-1.722	-66.722	-1.722	-66.722	-5.026	22.401
5637.5	-4.988	22.212	-1.74	-67.124	-1.74	-67.124	-4.987	22.001
5675	-4.95	21.814	-1.758	-67.526	-1.758	-67.526	-4.949	21.602
5712.5	-4.912	21.416	-1.776	-67.927	-1.776	-67.927	-4.912	21.202
5750	-4.875	21.018	-1.794	-68.327	-1.794	-68.327	-4.874	20.804
5787.5	-4.838	20.621	-1.812	-68.727	-1.812	-68.727	-4.838	20.406
5825	-4.802	20.225	-1.83	-69.127	-1.83	-69.127	-4.801	20.008
5862.5	-4.766	19.829	-1.849	-69.525	-1.849	-69.525	-4.765	19.612
5900	-4.73	19.434	-1.867	-69.924	-1.867	-69.924	-4.729	19.215
5937.5	-4.695	19.039	-1.885	-70.321	-1.885	-70.321	-4.694	18.819
5975	-4.66	18.645	-1.904	-70.719	-1.904	-70.719	-4.66	18.424
6012.5	-4.626	18.251	-1.922	-71.116	-1.922	-71.116	-4.625	18.029
6050	-4.592	17.858	-1.94	-71.512	-1.94	-71.512	-4.591	17.634
6087.5	-4.558	17.465	-1.959	-71.908	-1.959	-71.908	-4.557	17.24
6125	-4.525	17.073	-1.977	-72.303	-1.977	-72.303	-4.524	16.847
6162.5	-4.492	16.681	-1.995	-72.697	-1.995	-72.697	-4.491	16.454
6200	-4.459	16.289	-2.014	-73.092	-2.014	-73.092	-4.458	16.061
6237.5	-4.427	15.899	-2.032	-73.485	-2.032	-73.485	-4.426	15.67
6275	-4.395	15.508	-2.051	-73.878	-2.051	-73.878	-4.394	15.278
6312.5	-4.363	15.118	-2.069	-74.271	-2.069	-74.271	-4.363	14.887
6350	-4.332	14.729	-2.088	-74.663	-2.088	-74.663	-4.332	14.497
6387.5	-4.301	14.34	-2.106	-75.055	-2.106	-75.055	-4.301	14.107
6425	-4.271	13.951	-2.125	-75.446	-2.125	-75.446	-4.27	13.717
6462.5	-4.241	13.563	-2.143	-75.837	-2.143	-75.837	-4.24	13.328
6500	-4.21	13.176	-2.162	-76.228	-2.162	-76.228	-4.21	12.939
6537.5	-4.181	12.789	-2.18	-76.617	-2.18	-76.617	-4.181	12.551
6575	-4.152	12.402	-2.199	-77.007	-2.199	-77.007	-4.151	12.164
6612.5	-4.123	12.016	-2.217	-77.396	-2.217	-77.396	-4.122	11.776
6650	-4.094	11.63	-2.236	-77.784	-2.236	-77.784	-4.094	11.39
6687.5	-4.066	11.244	-2.254	-78.172	-2.254	-78.172	-4.065	11.003
6725	-4.038	10.86	-2.273	-78.56	-2.273	-78.56	-4.037	10.617
6762.5	-4.01	10.475	-2.291	-78.947	-2.291	-78.947	-4.01	10.232
6800	-3.982	10.091	-2.31	-79.334	-2.31	-79.334	-3.982	9.846
6837.5	-3.955	9.707	-2.328	-79.72	-2.328	-79.72	-3.955	9.462
6875	-3.928	9.324	-2.347	-80.106	-2.347	-80.106	-3.928	9.077
6912.5	-3.902	8.941	-2.365	-80.492	-2.365	-80.492	-3.901	8.693
6950	-3.876	8.559	-2.384	-80.877	-2.384	-80.877	-3.875	8.31
6987.5	-3.849	8.176	-2.402	-81.262	-2.402	-81.262	-3.849	7.927
7025	-3.824	7.795	-2.421	-81.646	-2.421	-81.646	-3.823	7.544
7062.5	-3.798	7.413	-2.439	-82.03	-2.439	-82.03	-3.798	7.162
7100	-3.773	7.032	-2.458	-82.414	-2.458	-82.414	-3.772	6.78
7137.5	-3.748	6.652	-2.476	-82.796	-2.476	-82.796	-3.748	6.398
7175	-3.723	6.271	-2.495	-83.179	-2.495	-83.179	-3.723	6.017
7212.5	-3.699	5.891	-2.513	-83.562	-2.513	-83.562	-3.698	5.636
7250	-3.675	5.512	-2.532	-83.944	-2.532	-83.944	-3.674	5.256
7287.5	-3.651	5.133	-2.55	-84.326	-2.55	-84.326	-3.65	4.876
7325	-3.627	4.754	-2.568	-84.707	-2.568	-84.707	-3.627	4.496
7362.5	-3.604	4.375	-2.587	-85.088	-2.587	-85.088	-3.603	4.117
7400	-3.58	3.997	-2.605	-85.469	-2.605	-85.469	-3.58	3.737
7437.5	-3.558	3.619	-2.624	-85.849	-2.624	-85.849	-3.557	3.359
7475	-3.535	3.242	-2.642	-86.229	-2.642	-86.229	-3.534	2.98
7512.5	-3.512	2.864	-2.66	-86.609	-2.66	-86.609	-3.512	2.602
7550	-3.49	2.488	-2.678	-86.988	-2.678	-86.988	-3.49	2.225
7587.5	-3.468	2.111	-2.697	-87.367	-2.697	-87.367	-3.468	1.847
7625	-3.446	1.735	-2.715	-87.746	-2.715	-87.746	-3.446	1.47
7662.5	-3.425	1.359	-2.733	-88.125	-2.733	-88.125	-3.424	1.093
7700	-3.403	0.983	-2.751	-88.503	-2.751	-88.503	-3.403	0.716
7737.5	-3.382	0.607	-2.77	-88.881	-2.77	-88.881	-3.382	0.34
7775	-3.361	0.232	-2.788	-89.259	-2.788	-89.259	-3.361	-0.036
7812.5	-3.341	-0.143	-2.806	-89.636	-2.806	-89.636	-3.34	-0.412
7850	-3.32	-0.517	-2.824	-90.013	-2.824	-90.013	-3.32	-0.787
7887.5	-3.3	-0.892	-2.842	-90.39	-2.842	-90.39	-3.3	-1.163
7925	-3.28	-1.266	-2.86	-90.767	-2.86	-90.767	-3.28	-1.538
7962.5	-3.26	-1.64	-2.878	-91.143	-2.878	-91.143	-3.26	-1.912
8000	-3.241	-2.014	-2.896	-91.519	-2.896	-91.519	-3.24	-2.287
8037.5	-3.221	-2.387	-2.914	-91.895	-2.914	-91.895	-3.221	-2.661
8075	-3.202	-2.76	-2.932	-92.271	-2.932	-92.271	-3.202	-3.035
8112.5	-3.183	-3.133	-2.95	-92.646	-2.95	-92.646	-3.183	-3.409
8150	-3.164	-3.506	-2.967	-93.021	-2.967	-93.021	-3.164	-3.782
8187.5	-3.146	-3.879	-2.985	-93.397	-2.985	-93.397	-3.145	-4.156
8225	-3.127	-4.251	-3.003	-93.771	-3.003	-93.771	-3.127	-4.529
8262.5	-3.109	-4.624	-3.021	-94.146	-3.021	-94.146	-3.109	-4.902
8300	-3.091	-4.996	-3.038	-94.521	-3.038	-94.521	-3.091	-5.275
8337.5	-3.073	-5.368	-3.056	-94.895	-3.056	-94.895	-3.073	-5.647
8375	-3.056	-5.739	-3.073	-95.269	-3.073	-95.269	-3.055	-6.02
8412.5	-3.038	-6.111	-3.091	-95.643	-3.091	-95.643	-3.038	-6.392
8450	-3.021	-6.482	-3.108	-96.017	-3.108	-96.017	-3.021	-6.764
8487.5	-3.004	-6.854	-3.126	-96.391	-3.126	-96.391	-3.003	-7.136
8525	-2.987	-7.225	-3.143	-96.764	-3.143	-96.764	-2.987	-7.508
8562.5	-2.97	-7.596	-3.16	-97.138	-3.16	-97.138	-2.97	-7.88
8600	-2.954	-7.967	-3.178	-97.511	-3.178	-97.511	-2.953	-8.251
8637.5	-2.938	-8.337	-3.195	-97.884	-3.195	-97.884	-2.937	-8.623
8675	-2.921	-8.708	-3.212	-98.257	-3.212	-98.257	-2.921	-8.994
8712.5	-2.905	-9.079	-3.229	-98.63	-3.229	-98.63	-2.905	-9.365
8750	-2.89	-9.449	-3.246	-99.003	-3.246	-99.003	-2.889	-9.736
8787.5	-2.874	-9.819	-3.263	-99.376	-3.263	-99.376	-2.873	-10.107
8825	-2.859	-10.19	-3.28	-99.749	-3.28	-99.749	-2.858	-10.478
8862.5	-2.843	-10.56	-3.297	-100.122	-3.297	-100.122	-2.843	-10.849
8900	-2.828	-10.93	-3.314	-100.494	-3.314	-100.494	-2.828	-11.22
8937.5	-2.813	-11.3	-3.331	-100.867	-3.331	-100.867	-2.813	-11.591
8975	-2.798	-11.67	-3.347	-101.24	-3.347	-101.24	-2.798	-11.961
9012.5	-2.784	-12.04	-3.364	-101.612	-3.364	-101.612	-2.783	-12.332
9050	-2.769	-12.411	-3.381	-101.985	-3.381	-101.985	-2.769	-12.703
9087.5	-2.755	-12.781	-3.397	-102.357	-3.397	-102.357	-2.755	-13.073
9125	-2.741	-13.151	-3.413	-102.73	-3.413	-102.73	-2.74	-13.444
9162.5	-2.727	-13.521	-3.43	-103.102	-3.43	-103.102	-2.726	-13.814
9200	-2.713	-13.89	-3.446	-103.475	-3.446	-103.475	-2.713	-14.185
9237.5	-2.699	-14.261	-3.462	-103.847	-3.462	-103.847	-2.699	-14.555
9275	-2.686	-14.631	-3.478	-104.22	-3.478	-104.22	-2.686	-14.926
9312.5	-2.673	-15.001	-3.494	-104.592	-3.494	-104.592	-2.672	-15.297
9350	-2.659	-15.371	-3.51	-104.965	-3.51	-104.965	-2.659	-15.667
9387.5	-2.646	-15.741	-3.526	-105.338	-3.526	-105.338	-2.646	-16.038
9425	-2.634	-16.111	-3.542	-105.711	-3.542	-105.711	-2.633	-16.409
9462.5	-2.621	-16.481	-3.558	-106.084	-3.558	-106.084	-2.62	-16.779
9500	-2.608	-16.852	-3.574	-106.456	-3.574	-106.456	-2.608	-17.15
9537.5	-2.596	-17.222	-3.589	-106.83	-3.589	-106.83	-2.595	-17.521
9575	-2.584	-17.593	-3.605	-107.203	-3.605	-107.203	-2.583	-17.892
9612.5	-2.571	-17.963	-3.62	-107.576	-3.62	-107.576	-2.571	-18.263
9650	-2.56	-18.334	-3.635	-107.95	-3.635	-107.95	-2.559	-18.635
9687.5	-2.548	-18.705	-3.651	-108.323	-3.651	-108.323	-2.547	-19.006
9725	-2.536	-19.076	-3.666	-108.697	-3.666	-108.697	-2.536	-19.377
9762.5	-2.525	-19.448	-3.681	-109.071	-3.681	-109.071	-2.524	-19.749
9800	-2.513	-19.819	-3.696	-109.445	-3.696	-109.445	-2.513	-20.121
9837.5	-2.502	-20.19	-3.71	-109.819	-3.71	-109.819	-2.502	-20.493
9875	-2.491	-20.562	-3.725	-110.194	-3.725	-110.194	-2.491	-20.865
9912.5	-2.48	-20.934	-3.74	-110.568	-3.74	-110.568	-2.48	-21.237
9950	-2.469	-21.306	-3.754	-110.943	-3.754	-110.943	-2.469	-21.61
9987.5	-2.459	-21.678	-3.769	-111.318	-3.769	-111.318	-2.458	-21.982
10025	-2.448	-22.051	-3.783	-111.694	-3.783	-111.694	-2.448	-22.355
10062.5	-2.438	-22.424	-3.797	-112.069	-3.797	-112.069	-2.437	-22.728
10100	-2.427	-22.797	-3.811	-112.445	-3.811	-112.445	-2.427	-23.101
10137.5	-2.417	-23.17	-3.825	-112.822	-3.825	-112.822	-2.417	-23.475
10175	-2.408	-23.544	-3.839	-113.198	-3.839	-113.198	-2.407	-23.849
10212.5	-2.398	-23.918	-3.853	-113.575	-3.853	-113.575	-2.397	-24.223
10250	-2.388	-24.292	-3.866	-113.952	-3.866	-113.952	-2.388	-24.598
10287.5	-2.379	-24.666	-3.88	-114.329	-3.88	-114.329	-2.378	-24.972
10325	-2.369	-25.041	-3.893	-114.707	-3.893	-114.707	-2.369	-25.347
10362.5	-2.36	-25.416	-3.907	-115.085	-3.907	-115.085	-2.36	-25.723
10400	-2.351	-25.791	-3.92	-115.463	-3.92	-115.463	-2.351	-26.098
10437.5	-2.342	-26.167	-3.933	-115.843	-3.933	-115.843	-2.342	-26.475
10475	-2.333	-26.544	-3.946	-116.222	-3.946	-116.222	-2.333	-26.851
10512.5	-2.325	-26.92	-3.958	-116.601	-3.958	-116.601	-2.324	-27.228
10550	-2.316	-27.297	-3.971	-116.982	-3.971	-116.982	-2.316	-27.605
10587.5	-2.308	-27.674	-3.983	-117.362	-3.983	-117.362	-2.307	-27.982
10625	-2.3	-28.052	-3.996	-117.743	-3.996	-117.743	-2.299	-28.361
10662.5	-2.291	-28.431	-4.008	-118.125	-4.008	-118.125	-2.291	-28.739
10700	-2.283	-28.809	-4.02	-118.506	-4.02	-118.506	-2.283	-29.118
10737.5	-2.276	-29.189	-4.032	-118.889	-4.032	-118.889	-2.275	-29.497
10775	-2.268	-29.568	-4.044	-119.272	-4.044	-119.272	-2.268	-29.877
10812.5	-2.26	-29.948	-4.055	-119.656	-4.055	-119.656	-2.26	-30.257
10850	-2.253	-30.329	-4.067	-120.04	-4.067	-120.04	-2.253	-30.638
10887.5	-2.246	-30.71	-4.078	-120.424	-4.078	-120.424	-2.246	-31.019
10925	-2.239	-31.092	-4.089	-120.81	-4.089	-120.81	-2.239	-31.402
10962.5	-2.232	-31.475	-4.1	-121.196	-4.1	-121.196	-2.232	-31.784
11000	-2.225	-31.857	-4.111	-121.582	-4.111	-121.582	-2.225	-32.167
11037.5	-2.218	-32.241	-4.121	-121.97	-4.121	-121.97	-2.218	-32.551
11075	-2.212	-32.625	-4.132	-122.357	-4.132	-122.357	-2.212	-32.935
11112.5	-2.206	-33.01	-4.142	-122.746	-4.142	-122.746	-2.205	-33.32
11150	-2.199	-33.396	-4.152	-123.135	-4.152	-123.135	-2.199	-33.705
11187.5	-2.193	-33.782	-4.162	-123.525	-4.162	-123.525	-2.193	-34.091
11225	-2.187	-34.169	-4.172	-123.916	-4.172	-123.916	-2.187	-34.478
11262.5	-2.182	-34.556	-4.181	-124.307	-4.181	-124.307	-2.181	-34.866
11300	-2.176	-34.944	-4.19	-124.699	-4.19	-124.699	-2.176	-35.253
11337.5	-2.17	-35.334	-4.199	-125.092	-4.199	-125.092	-2.17	-35.643
11375	-2.165	-35.723	-4.208	-125.486	-4.208	-125.486	-2.165	-36.033
11412.5	-2.16	-36.114	-4.217	-125.88	-4.217	-125.88	-2.16	-36.423
11450	-2.155	-36.506	-4.226	-126.276	-4.226	-126.276	-2.155	-36.815
11487.5	-2.15	-36.897	-4.234	-126.672	-4.234	-126.672	-2.15	-37.207
