! AVX Thin Film Operation		Date: May 2002 
! Description: Accu-L® Series, Thin Film, SMD, RF Inductors
! Part Number: L0805150GEWTR
! 50 MHz  -  5.05 GHz
! Serial Measurements
!
# mhz S db R 50
!	S11		S21		S12		S22
!	dB	Phase	dB	Phase	dB	Phase	dB	Phase
50	-27.348	84.094	-0.014	-2.714	-0.014	-2.714	-27.348	84.094
62.5	-25.587	83.527	-0.026	-3.339	-0.026	-3.339	-25.587	83.527
75	-24.123	82.961	-0.039	-3.964	-0.039	-3.964	-24.123	82.961
87.5	-22.87	82.395	-0.052	-4.589	-0.052	-4.589	-22.87	82.395
100	-21.776	81.829	-0.064	-5.214	-0.064	-5.214	-21.776	81.829
112.5	-20.804	81.263	-0.077	-5.838	-0.077	-5.838	-20.804	81.263
125	-19.93	80.696	-0.09	-6.463	-0.09	-6.463	-19.93	80.696
137.5	-19.136	80.13	-0.103	-7.088	-0.103	-7.088	-19.136	80.13
150	-18.409	79.564	-0.116	-7.713	-0.116	-7.713	-18.409	79.564
162.5	-17.738	78.998	-0.128	-8.338	-0.128	-8.338	-17.738	78.998
175	-17.115	78.431	-0.141	-8.963	-0.141	-8.963	-17.115	78.431
187.5	-16.533	77.865	-0.154	-9.588	-0.154	-9.588	-16.533	77.865
200	-15.988	77.299	-0.167	-10.212	-0.167	-10.212	-15.988	77.299
212.5	-15.493	76.71	-0.186	-10.825	-0.186	-10.825	-15.493	76.71
225	-15.025	76.121	-0.204	-11.437	-0.204	-11.437	-15.025	76.121
237.5	-14.58	75.532	-0.223	-12.049	-0.223	-12.049	-14.58	75.532
250	-14.157	74.943	-0.242	-12.661	-0.242	-12.661	-14.157	74.943
262.5	-13.754	74.354	-0.26	-13.273	-0.26	-13.273	-13.754	74.354
275	-13.369	73.765	-0.279	-13.885	-0.279	-13.885	-13.369	73.765
287.5	-13	73.176	-0.298	-14.497	-0.298	-14.497	-13	73.176
300	-12.646	72.587	-0.317	-15.109	-0.317	-15.109	-12.646	72.587
312.5	-12.319	71.998	-0.341	-15.709	-0.341	-15.709	-12.319	71.998
325	-12.005	71.409	-0.365	-16.308	-0.365	-16.308	-12.005	71.409
337.5	-11.701	70.819	-0.39	-16.908	-0.39	-16.908	-11.701	70.819
350	-11.408	70.23	-0.414	-17.507	-0.414	-17.507	-11.408	70.23
362.5	-11.124	69.641	-0.439	-18.106	-0.439	-18.106	-11.124	69.641
375	-10.849	69.051	-0.464	-18.706	-0.464	-18.706	-10.849	69.051
387.5	-10.583	68.462	-0.488	-19.305	-0.488	-19.305	-10.583	68.462
400	-10.324	67.873	-0.513	-19.904	-0.513	-19.904	-10.324	67.873
412.5	-10.085	67.29	-0.543	-20.49	-0.543	-20.49	-10.085	67.29
425	-9.853	66.708	-0.573	-21.076	-0.573	-21.076	-9.853	66.708
437.5	-9.626	66.126	-0.603	-21.661	-0.603	-21.661	-9.626	66.126
450	-9.405	65.543	-0.634	-22.247	-0.634	-22.247	-9.405	65.543
462.5	-9.19	64.961	-0.664	-22.833	-0.664	-22.833	-9.19	64.961
475	-8.98	64.379	-0.694	-23.418	-0.694	-23.418	-8.98	64.379
487.5	-8.775	63.796	-0.725	-24.004	-0.725	-24.004	-8.775	63.796
500	-8.574	63.214	-0.755	-24.589	-0.755	-24.589	-8.574	63.214
512.5	-8.389	62.642	-0.791	-25.16	-0.791	-25.16	-8.389	62.642
525	-8.208	62.07	-0.826	-25.731	-0.826	-25.731	-8.208	62.07
537.5	-8.031	61.498	-0.862	-26.302	-0.862	-26.302	-8.031	61.498
550	-7.857	60.927	-0.897	-26.873	-0.897	-26.873	-7.857	60.927
562.5	-7.686	60.355	-0.933	-27.444	-0.933	-27.444	-7.686	60.355
575	-7.519	59.783	-0.969	-28.015	-0.969	-28.015	-7.519	59.783
587.5	-7.355	59.211	-1.005	-28.585	-1.01	-28.585	-7.355	59.211
600	-7.194	58.639	-1.042	-29.156	-1.04	-29.156	-7.194	58.639
612.5	-7.046	58.08	-1.082	-29.712	-1.08	-29.712	-7.046	58.08
625	-6.9	57.521	-1.123	-30.267	-1.12	-30.267	-6.9	57.521
637.5	-6.757	56.962	-1.164	-30.822	-1.16	-30.822	-6.757	56.962
650	-6.616	56.402	-1.205	-31.377	-1.21	-31.377	-6.616	56.402
662.5	-6.477	55.843	-1.246	-31.933	-1.25	-31.933	-6.477	55.843
675	-6.34	55.284	-1.287	-32.488	-1.29	-32.488	-6.34	55.284
687.5	-6.206	54.725	-1.329	-33.043	-1.33	-33.043	-6.206	54.725
700	-6.074	54.165	-1.371	-33.599	-1.37	-33.599	-6.074	54.165
712.5	-5.952	53.62	-1.416	-34.138	-1.42	-34.138	-5.952	53.62
725	-5.832	53.075	-1.462	-34.677	-1.46	-34.677	-5.832	53.075
737.5	-5.714	52.529	-1.508	-35.216	-1.51	-35.216	-5.714	52.529
750	-5.598	51.984	-1.554	-35.755	-1.55	-35.755	-5.598	51.984
762.5	-5.483	51.439	-1.601	-36.295	-1.6	-36.295	-5.483	51.439
775	-5.369	50.893	-1.647	-36.834	-1.65	-36.834	-5.369	50.893
787.5	-5.257	50.348	-1.694	-37.373	-1.69	-37.373	-5.257	50.348
800	-5.147	49.803	-1.741	-37.912	-1.74	-37.912	-5.147	49.803
812.5	-5.046	49.272	-1.792	-38.435	-1.79	-38.435	-5.046	49.272
825	-4.946	48.741	-1.842	-38.958	-1.84	-38.958	-4.946	48.741
837.5	-4.847	48.21	-1.893	-39.481	-1.89	-39.481	-4.847	48.21
850	-4.749	47.679	-1.945	-40.004	-1.95	-40.004	-4.749	47.679
862.5	-4.653	47.148	-1.996	-40.527	-2	-40.527	-4.653	47.148
875	-4.557	46.617	-2.048	-41.049	-2.05	-41.049	-4.557	46.617
887.5	-4.463	46.086	-2.1	-41.572	-2.1	-41.572	-4.463	46.086
900	-4.369	45.555	-2.153	-42.095	-2.15	-42.095	-4.369	45.555
912.5	-4.284	45.039	-2.208	-42.602	-2.21	-42.602	-4.284	45.039
925	-4.2	44.523	-2.263	-43.108	-2.26	-43.108	-4.2	44.523
937.5	-4.117	44.007	-2.319	-43.615	-2.32	-43.615	-4.117	44.007
950	-4.034	43.491	-2.375	-44.121	-2.38	-44.121	-4.034	43.491
962.5	-3.952	42.974	-2.432	-44.628	-2.43	-44.628	-3.952	42.974
975	-3.871	42.458	-2.489	-45.134	-2.49	-45.134	-3.871	42.458
987.5	-3.791	41.942	-2.546	-45.641	-2.55	-45.641	-3.791	41.942
1000	-3.711	41.426	-2.604	-46.147	-2.6	-46.147	-3.711	41.426
1012.5	-3.639	40.924	-2.664	-46.638	-2.66	-46.638	-3.639	40.924
1025	-3.568	40.423	-2.725	-47.128	-2.73	-47.128	-3.568	40.423
1037.5	-3.497	39.921	-2.785	-47.619	-2.79	-47.619	-3.497	39.921
1050	-3.426	39.419	-2.847	-48.109	-2.85	-48.109	-3.426	39.419
1062.5	-3.356	38.918	-2.908	-48.6	-2.91	-48.6	-3.356	38.918
1075	-3.287	38.416	-2.971	-49.09	-2.97	-49.09	-3.287	38.416
1087.5	-3.218	37.914	-3.033	-49.581	-3.03	-49.581	-3.218	37.914
1100	-3.15	37.413	-3.096	-50.071	-3.1	-50.071	-3.15	37.413
1112.5	-3.088	36.925	-3.161	-50.546	-3.16	-50.546	-3.088	36.925
1125	-3.027	36.438	-3.226	-51.021	-3.23	-51.021	-3.027	36.438
1137.5	-2.967	35.95	-3.292	-51.496	-3.29	-51.496	-2.967	35.95
1150	-2.906	35.463	-3.359	-51.971	-3.36	-51.971	-2.906	35.463
1162.5	-2.846	34.975	-3.426	-52.445	-3.43	-52.445	-2.846	34.975
1175	-2.787	34.488	-3.493	-52.92	-3.49	-52.92	-2.787	34.488
1187.5	-2.728	34	-3.561	-53.395	-3.56	-53.395	-2.728	34
1200	-2.669	33.513	-3.63	-53.87	-3.63	-53.87	-2.669	33.513
1212.5	-2.616	33.039	-3.7	-54.33	-3.7	-54.33	-2.616	33.039
1225	-2.564	32.565	-3.77	-54.789	-3.77	-54.789	-2.564	32.565
1237.5	-2.511	32.092	-3.841	-55.249	-3.84	-55.249	-2.511	32.092
1250	-2.459	31.618	-3.913	-55.709	-3.91	-55.709	-2.459	31.618
1262.5	-2.408	31.144	-3.986	-56.168	-3.99	-56.168	-2.408	31.144
1275	-2.356	30.67	-4.059	-56.628	-4.06	-56.628	-2.356	30.67
1287.5	-2.305	30.196	-4.132	-57.088	-4.13	-57.088	-2.305	30.196
1300	-2.255	29.722	-4.206	-57.547	-4.21	-57.547	-2.255	29.722
1312.5	-2.209	29.261	-4.282	-57.992	-4.28	-57.992	-2.209	29.261
1325	-2.164	28.801	-4.358	-58.437	-4.36	-58.437	-2.164	28.801
1337.5	-2.119	28.34	-4.435	-58.883	-4.44	-58.883	-2.119	28.34
1350	-2.074	27.879	-4.512	-59.328	-4.51	-59.328	-2.074	27.879
1362.5	-2.03	27.418	-4.591	-59.773	-4.59	-59.773	-2.03	27.418
1375	-1.985	26.957	-4.669	-60.218	-4.67	-60.218	-1.985	26.957
1387.5	-1.941	26.496	-4.749	-60.663	-4.75	-60.663	-1.941	26.496
1400	-1.897	26.035	-4.829	-61.108	-4.83	-61.108	-1.897	26.035
1412.5	-1.858	25.586	-4.911	-61.539	-4.91	-61.539	-1.858	25.586
1425	-1.819	25.138	-4.993	-61.97	-4.99	-61.97	-1.819	25.138
1437.5	-1.78	24.689	-5.076	-62.402	-5.08	-62.402	-1.78	24.689
1450	-1.741	24.24	-5.16	-62.833	-5.16	-62.833	-1.741	24.24
1462.5	-1.703	23.791	-5.244	-63.264	-5.24	-63.264	-1.703	23.791
1475	-1.665	23.343	-5.33	-63.695	-5.33	-63.695	-1.665	23.343
1487.5	-1.626	22.894	-5.416	-64.126	-5.42	-64.126	-1.626	22.894
1500	-1.588	22.445	-5.503	-64.557	-5.5	-64.557	-1.588	22.445
1512.5	-1.554	22.008	-5.591	-64.975	-5.59	-64.975	-1.554	22.008
1525	-1.521	21.57	-5.68	-65.393	-5.68	-65.393	-1.521	21.57
1537.5	-1.487	21.133	-5.769	-65.811	-5.77	-65.811	-1.487	21.133
1550	-1.454	20.695	-5.86	-66.228	-5.86	-66.228	-1.454	20.695
1562.5	-1.42	20.258	-5.952	-66.646	-5.95	-66.646	-1.42	20.258
1575	-1.387	19.82	-6.044	-67.064	-6.04	-67.064	-1.387	19.82
1587.5	-1.354	19.383	-6.138	-67.481	-6.14	-67.481	-1.354	19.383
1600	-1.321	18.945	-6.233	-67.899	-6.23	-67.899	-1.321	18.945
1612.5	-1.292	18.518	-6.328	-68.304	-6.33	-68.304	-1.292	18.518
1625	-1.263	18.091	-6.425	-68.709	-6.43	-68.709	-1.263	18.091
1637.5	-1.234	17.664	-6.522	-69.114	-6.52	-69.114	-1.234	17.664
1650	-1.205	17.237	-6.621	-69.518	-6.62	-69.518	-1.205	17.237
1662.5	-1.176	16.81	-6.72	-69.923	-6.72	-69.923	-1.176	16.81
1675	-1.148	16.383	-6.821	-70.328	-6.82	-70.328	-1.148	16.383
1687.5	-1.119	15.956	-6.923	-70.733	-6.92	-70.733	-1.119	15.956
1700	-1.09	15.529	-7.027	-71.137	-7.03	-71.137	-1.09	15.529
1712.5	-1.065	15.112	-7.131	-71.529	-7.13	-71.529	-1.065	15.112
1725	-1.04	14.694	-7.236	-71.922	-7.24	-71.922	-1.04	14.694
1737.5	-1.015	14.277	-7.342	-72.314	-7.34	-72.314	-1.015	14.277
1750	-0.99	13.859	-7.45	-72.706	-7.45	-72.706	-0.99	13.859
1762.5	-0.966	13.442	-7.559	-73.098	-7.56	-73.098	-0.966	13.442
1775	-0.941	13.024	-7.67	-73.49	-7.67	-73.49	-0.941	13.024
1787.5	-0.916	12.607	-7.782	-73.882	-7.78	-73.882	-0.916	12.607
1800	-0.892	12.189	-7.896	-74.274	-7.9	-74.274	-0.892	12.189
1812.5	-0.87	11.781	-8.01	-74.653	-8.01	-74.653	-0.87	11.781
1825	-0.849	11.372	-8.125	-75.033	-8.13	-75.033	-0.849	11.372
1837.5	-0.827	10.963	-8.243	-75.412	-8.24	-75.412	-0.827	10.963
1850	-0.806	10.554	-8.361	-75.792	-8.36	-75.792	-0.806	10.554
1862.5	-0.784	10.145	-8.482	-76.171	-8.48	-76.171	-0.784	10.145
1875	-0.763	9.737	-8.604	-76.55	-8.6	-76.55	-0.763	9.737
1887.5	-0.742	9.328	-8.728	-76.93	-8.73	-76.93	-0.742	9.328
1900	-0.721	8.919	-8.854	-77.309	-8.85	-77.309	-0.721	8.919
1912.5	-0.703	8.518	-8.98	-77.675	-8.98	-77.675	-0.703	8.518
1925	-0.684	8.117	-9.109	-78.042	-9.11	-78.042	-0.684	8.117
1937.5	-0.666	7.716	-9.239	-78.408	-9.24	-78.408	-0.666	7.716
1950	-0.648	7.315	-9.371	-78.774	-9.37	-78.774	-0.648	7.315
1962.5	-0.63	6.914	-9.506	-79.14	-9.51	-79.14	-0.63	6.914
1975	-0.611	6.513	-9.642	-79.506	-9.64	-79.506	-0.611	6.513
1987.5	-0.593	6.112	-9.781	-79.873	-9.78	-79.873	-0.593	6.112
2000	-0.575	5.711	-9.922	-80.239	-9.92	-80.239	-0.575	5.711
2012.5	-0.56	5.317	-10.063	-80.59	-10.1	-80.59	-0.56	5.317
2025	-0.544	4.923	-10.208	-80.942	-10.2	-80.942	-0.544	4.923
2037.5	-0.529	4.53	-10.354	-81.294	-10.4	-81.294	-0.529	4.53
2050	-0.514	4.136	-10.504	-81.645	-10.5	-81.645	-0.514	4.136
2062.5	-0.498	3.742	-10.655	-81.997	-10.7	-81.997	-0.498	3.742
2075	-0.483	3.348	-10.81	-82.349	-10.8	-82.349	-0.483	3.348
2087.5	-0.468	2.954	-10.967	-82.7	-11	-82.7	-0.468	2.954
2100	-0.452	2.56	-11.127	-83.052	-11.1	-83.052	-0.452	2.56
2112.5	-0.439	2.172	-11.289	-83.387	-11.3	-83.387	-0.439	2.172
2125	-0.427	1.784	-11.454	-83.721	-11.5	-83.721	-0.427	1.784
2137.5	-0.414	1.397	-11.622	-84.055	-11.6	-84.055	-0.414	1.397
2150	-0.401	1.009	-11.793	-84.39	-11.8	-84.39	-0.401	1.009
2162.5	-0.388	0.621	-11.967	-84.724	-12	-84.724	-0.388	0.621
2175	-0.375	0.233	-12.146	-85.059	-12.1	-85.059	-0.375	0.233
2187.5	-0.362	-0.154	-12.328	-85.393	-12.3	-85.393	-0.362	-0.154
2200	-0.35	-0.542	-12.513	-85.727	-12.5	-85.727	-0.35	-0.542
2212.5	-0.339	-0.924	-12.701	-86.039	-12.7	-86.039	-0.339	-0.924
2225	-0.329	-1.307	-12.894	-86.35	-12.9	-86.35	-0.329	-1.307
2237.5	-0.318	-1.689	-13.09	-86.662	-13.1	-86.662	-0.318	-1.689
2250	-0.308	-2.071	-13.291	-86.973	-13.3	-86.973	-0.308	-2.071
2262.5	-0.297	-2.453	-13.497	-87.285	-13.5	-87.285	-0.297	-2.453
2275	-0.287	-2.836	-13.708	-87.596	-13.7	-87.596	-0.287	-2.836
2287.5	-0.276	-3.218	-13.924	-87.908	-13.9	-87.908	-0.276	-3.218
2300	-0.266	-3.6	-14.146	-88.219	-14.1	-88.219	-0.266	-3.6
2312.5	-0.258	-3.978	-14.371	-88.496	-14.4	-88.496	-0.258	-3.978
2325	-0.249	-4.355	-14.602	-88.772	-14.6	-88.772	-0.249	-4.355
2337.5	-0.241	-4.733	-14.839	-89.048	-14.8	-89.048	-0.241	-4.733
2350	-0.233	-5.11	-15.083	-89.325	-15.1	-89.325	-0.233	-5.11
2362.5	-0.224	-5.488	-15.334	-89.601	-15.3	-89.601	-0.224	-5.488
2375	-0.216	-5.865	-15.593	-89.878	-15.6	-89.878	-0.216	-5.865
2387.5	-0.208	-6.243	-15.859	-90.154	-15.9	-90.154	-0.208	-6.243
2400	-0.199	-6.62	-16.134	-90.43	-16.1	-90.43	-0.199	-6.62
2412.5	-0.193	-6.994	-16.415	-90.642	-16.4	-90.642	-0.193	-6.994
2425	-0.187	-7.367	-16.705	-90.854	-16.7	-90.854	-0.187	-7.367
2437.5	-0.18	-7.741	-17.006	-91.066	-17	-91.066	-0.18	-7.741
2450	-0.174	-8.114	-17.317	-91.278	-17.3	-91.278	-0.174	-8.114
2462.5	-0.168	-8.488	-17.639	-91.49	-17.6	-91.49	-0.168	-8.488
2475	-0.161	-8.861	-17.974	-91.702	-18	-91.702	-0.161	-8.861
2487.5	-0.155	-9.235	-18.323	-91.914	-18.3	-91.914	-0.155	-9.235
2500	-0.149	-9.608	-18.686	-92.126	-18.7	-92.126	-0.149	-9.608
2512.5	-0.144	-9.978	-19.06	-92.184	-19.1	-92.184	-0.144	-9.978
2525	-0.14	-10.348	-19.451	-92.242	-19.5	-92.242	-0.14	-10.348
2537.5	-0.136	-10.718	-19.861	-92.3	-19.9	-92.3	-0.136	-10.718
2550	-0.131	-11.088	-20.291	-92.358	-20.3	-92.358	-0.131	-11.088
2562.5	-0.127	-11.458	-20.743	-92.416	-20.7	-92.416	-0.127	-11.458
2575	-0.122	-11.829	-21.22	-92.474	-21.2	-92.474	-0.122	-11.829
2587.5	-0.118	-12.199	-21.725	-92.532	-21.7	-92.532	-0.118	-12.199
2600	-0.114	-12.569	-22.261	-92.59	-22.3	-92.59	-0.114	-12.569
2612.5	-0.111	-12.936	-22.82	-92.048	-22.8	-92.048	-0.111	-12.936
2625	-0.108	-13.303	-23.418	-91.506	-23.4	-91.506	-0.108	-13.303
2637.5	-0.106	-13.67	-24.061	-90.965	-24.1	-90.965	-0.106	-13.67
2650	-0.103	-14.038	-24.755	-90.423	-24.8	-90.423	-0.103	-14.038
2662.5	-0.1	-14.405	-25.509	-89.881	-25.5	-89.881	-0.1	-14.405
2675	-0.098	-14.772	-26.335	-89.339	-26.3	-89.339	-0.098	-14.772
2687.5	-0.095	-15.14	-27.247	-88.797	-27.2	-88.797	-0.095	-15.14
2700	-0.093	-15.507	-28.267	-88.256	-28.3	-88.256	-0.093	-15.507
2712.5	-0.092	-15.872	-29.124	-78.16	-29.1	-78.16	-0.092	-15.872
2725	-0.091	-16.237	-30.075	-68.064	-30.1	-68.064	-0.091	-16.237
2737.5	-0.09	-16.602	-31.143	-57.968	-31.1	-57.968	-0.09	-16.602
2750	-0.089	-16.967	-32.361	-47.872	-32.4	-47.872	-0.089	-16.967
2762.5	-0.088	-17.332	-33.778	-37.776	-33.8	-37.776	-0.088	-17.332
2775	-0.087	-17.697	-35.471	-27.681	-35.5	-27.681	-0.087	-17.697
2787.5	-0.086	-18.062	-37.578	-17.585	-37.6	-17.585	-0.086	-18.062
2800	-0.085	-18.427	-40.364	-7.489	-40.4	-7.489	-0.085	-18.427
2812.5	-0.086	-18.791	-37.399	0.751	-37.4	0.751	-0.086	-18.791
2825	-0.087	-19.154	-35.193	8.991	-35.2	8.991	-0.087	-19.154
2837.5	-0.088	-19.517	-33.435	17.231	-33.4	17.231	-0.088	-19.517
2850	-0.089	-19.881	-31.974	25.471	-32	25.471	-0.089	-19.881
2862.5	-0.089	-20.244	-30.723	33.711	-30.7	33.711	-0.089	-20.244
2875	-0.09	-20.607	-29.63	41.951	-29.6	41.951	-0.09	-20.607
2887.5	-0.091	-20.971	-28.659	50.191	-28.7	50.191	-0.091	-20.971
2900	-0.092	-21.334	-27.787	58.431	-27.8	58.431	-0.092	-21.334
2912.5	-0.094	-21.696	-26.842	58.895	-26.8	58.895	-0.094	-21.696
2925	-0.097	-22.058	-25.99	59.36	-26	59.36	-0.097	-22.058
2937.5	-0.099	-22.421	-25.215	59.825	-25.2	59.825	-0.099	-22.421
2950	-0.101	-22.783	-24.503	60.289	-24.5	60.289	-0.101	-22.783
2962.5	-0.104	-23.145	-23.845	60.754	-23.8	60.754	-0.104	-23.145
2975	-0.106	-23.507	-23.233	61.218	-23.2	61.218	-0.106	-23.507
2987.5	-0.109	-23.869	-22.662	61.683	-22.7	61.683	-0.109	-23.869
3000	-0.111	-24.232	-22.126	62.148	-22.1	62.148	-0.111	-24.232
3012.5	-0.115	-24.593	-21.621	62.085	-21.6	62.085	-0.115	-24.593
3025	-0.119	-24.955	-21.143	62.022	-21.1	62.022	-0.119	-24.955
3037.5	-0.123	-25.316	-20.691	61.959	-20.7	61.959	-0.123	-25.316
3050	-0.127	-25.678	-20.261	61.896	-20.3	61.896	-0.127	-25.678
3062.5	-0.131	-26.039	-19.851	61.833	-19.9	61.833	-0.131	-26.039
3075	-0.135	-26.401	-19.459	61.77	-19.5	61.77	-0.135	-26.401
3087.5	-0.14	-26.762	-19.085	61.707	-19.1	61.707	-0.14	-26.762
3100	-0.144	-27.124	-18.726	61.644	-18.7	61.644	-0.144	-27.124
3112.5	-0.149	-27.485	-18.383	61.443	-18.4	61.443	-0.149	-27.485
3125	-0.155	-27.846	-18.054	61.241	-18.1	61.241	-0.155	-27.846
3137.5	-0.161	-28.207	-17.737	61.04	-17.7	61.04	-0.161	-28.207
3150	-0.166	-28.569	-17.43	60.838	-17.4	60.838	-0.166	-28.569
3162.5	-0.172	-28.93	-17.134	60.636	-17.1	60.636	-0.172	-28.93
3175	-0.177	-29.291	-16.848	60.435	-16.8	60.435	-0.177	-29.291
3187.5	-0.183	-29.653	-16.571	60.233	-16.6	60.233	-0.183	-29.653
3200	-0.189	-30.014	-16.303	60.032	-16.3	60.032	-0.189	-30.014
3212.5	-0.196	-30.375	-16.045	59.774	-16	59.774	-0.196	-30.375
3225	-0.203	-30.737	-15.794	59.516	-15.8	59.516	-0.203	-30.737
3237.5	-0.211	-31.098	-15.55	59.259	-15.6	59.259	-0.211	-31.098
3250	-0.218	-31.46	-15.313	59.001	-15.3	59.001	-0.218	-31.46
3262.5	-0.225	-31.821	-15.082	58.743	-15.1	58.743	-0.225	-31.821
3275	-0.232	-32.182	-14.857	58.485	-14.9	58.485	-0.232	-32.182
3287.5	-0.24	-32.544	-14.638	58.228	-14.6	58.228	-0.24	-32.544
3300	-0.247	-32.905	-14.424	57.97	-14.4	57.97	-0.247	-32.905
3312.5	-0.256	-33.267	-14.218	57.684	-14.2	57.684	-0.256	-33.267
3325	-0.265	-33.629	-14.016	57.397	-14	57.397	-0.265	-33.629
3337.5	-0.274	-33.991	-13.818	57.111	-13.8	57.111	-0.274	-33.991
3350	-0.283	-34.353	-13.625	56.825	-13.6	56.825	-0.283	-34.353
3362.5	-0.292	-34.715	-13.436	56.539	-13.4	56.539	-0.292	-34.715
3375	-0.3	-35.077	-13.252	56.253	-13.3	56.253	-0.3	-35.077
3387.5	-0.309	-35.439	-13.071	55.967	-13.1	55.967	-0.309	-35.439
3400	-0.318	-35.801	-12.893	55.681	-12.9	55.681	-0.318	-35.801
3412.5	-0.329	-36.164	-12.721	55.378	-12.7	55.378	-0.329	-36.164
3425	-0.339	-36.527	-12.553	55.075	-12.6	55.075	-0.339	-36.527
3437.5	-0.35	-36.89	-12.387	54.772	-12.4	54.772	-0.35	-36.89
3450	-0.361	-37.253	-12.225	54.47	-12.2	54.47	-0.361	-37.253
3462.5	-0.371	-37.616	-12.065	54.167	-12.1	54.167	-0.371	-37.616
3475	-0.382	-37.979	-11.909	53.864	-11.9	53.864	-0.382	-37.979
3487.5	-0.392	-38.342	-11.755	53.562	-11.8	53.562	-0.392	-38.342
3500	-0.403	-38.705	-11.604	53.259	-11.6	53.259	-0.403	-38.705
3512.5	-0.415	-39.069	-11.457	52.946	-11.5	52.946	-0.415	-39.069
3525	-0.427	-39.433	-11.313	52.633	-11.3	52.633	-0.427	-39.433
3537.5	-0.44	-39.797	-11.17	52.319	-11.2	52.319	-0.44	-39.797
3550	-0.452	-40.161	-11.031	52.006	-11	52.006	-0.452	-40.161
3562.5	-0.464	-40.525	-10.893	51.693	-10.9	51.693	-0.464	-40.525
3575	-0.477	-40.89	-10.757	51.379	-10.8	51.379	-0.477	-40.89
3587.5	-0.489	-41.254	-10.624	51.066	-10.6	51.066	-0.489	-41.254
3600	-0.501	-41.618	-10.493	50.753	-10.5	50.753	-0.501	-41.618
3612.5	-0.515	-41.984	-10.365	50.432	-10.4	50.432	-0.515	-41.984
3625	-0.529	-42.35	-10.239	50.111	-10.2	50.111	-0.529	-42.35
3637.5	-0.543	-42.715	-10.114	49.791	-10.1	49.791	-0.543	-42.715
3650	-0.557	-43.081	-9.992	49.47	-9.99	49.47	-0.557	-43.081
3662.5	-0.571	-43.447	-9.871	49.149	-9.87	49.149	-0.571	-43.447
3675	-0.585	-43.813	-9.752	48.829	-9.75	48.829	-0.585	-43.813
3687.5	-0.6	-44.178	-9.634	48.508	-9.63	48.508	-0.6	-44.178
3700	-0.614	-44.544	-9.518	48.187	-9.52	48.187	-0.614	-44.544
3712.5	-0.629	-44.912	-9.405	47.861	-9.41	47.861	-0.629	-44.912
3725	-0.645	-45.279	-9.293	47.535	-9.29	47.535	-0.645	-45.279
3737.5	-0.661	-45.647	-9.183	47.208	-9.18	47.208	-0.661	-45.647
3750	-0.677	-46.015	-9.074	46.882	-9.07	46.882	-0.677	-46.015
3762.5	-0.693	-46.382	-8.967	46.556	-8.97	46.556	-0.693	-46.382
3775	-0.709	-46.75	-8.861	46.229	-8.86	46.229	-0.709	-46.75
3787.5	-0.725	-47.117	-8.756	45.903	-8.76	45.903	-0.725	-47.117
3800	-0.741	-47.485	-8.652	45.577	-8.65	45.577	-0.741	-47.485
3812.5	-0.758	-47.855	-8.551	45.246	-8.55	45.246	-0.758	-47.855
3825	-0.776	-48.224	-8.451	44.916	-8.45	44.916	-0.776	-48.224
3837.5	-0.794	-48.594	-8.352	44.585	-8.35	44.585	-0.794	-48.594
3850	-0.811	-48.964	-8.255	44.254	-8.26	44.254	-0.811	-48.964
3862.5	-0.829	-49.334	-8.158	43.924	-8.16	43.924	-0.829	-49.334
3875	-0.847	-49.703	-8.063	43.593	-8.06	43.593	-0.847	-49.703
3887.5	-0.865	-50.073	-7.968	43.262	-7.97	43.262	-0.865	-50.073
3900	-0.883	-50.443	-7.875	42.932	-7.88	42.932	-0.883	-50.443
3912.5	-0.902	-50.815	-7.784	42.597	-7.78	42.597	-0.902	-50.815
3925	-0.922	-51.187	-7.694	42.263	-7.69	42.263	-0.922	-51.187
3937.5	-0.942	-51.559	-7.604	41.929	-7.6	41.929	-0.942	-51.559
3950	-0.961	-51.931	-7.516	41.594	-7.52	41.594	-0.961	-51.931
3962.5	-0.981	-52.304	-7.429	41.26	-7.43	41.26	-0.981	-52.304
3975	-1.001	-52.676	-7.342	40.926	-7.34	40.926	-1.001	-52.676
