! AVX Thin Film Operation		Date: May 2002 
! Description: Accu-L® Series, Thin Film, SMD, RF Inductors
! Part Number: L0805120GEWTR
! 50 MHz  -  6.05 GHz
! Serial Measurements
!
# mhz S db R 50
!	S11		S21		S12		S22
!	dB	Phase	dB	Phase	dB	Phase	dB	Phase
50	-29.557	84.45	-0.014	-2.172	-0.014	-2.172	-29.557	84.45
65	-27.461	83.926	-0.024	-2.778	-0.024	-2.778	-27.461	83.926
80	-25.774	83.402	-0.034	-3.383	-0.034	-3.383	-25.774	83.402
95	-24.362	82.878	-0.043	-3.988	-0.043	-3.988	-24.362	82.878
110	-23.147	82.353	-0.053	-4.594	-0.053	-4.594	-23.147	82.353
125	-22.082	81.829	-0.063	-5.199	-0.063	-5.199	-22.082	81.829
140	-21.133	81.305	-0.073	-5.804	-0.073	-5.804	-21.133	81.305
155	-20.278	80.781	-0.083	-6.41	-0.083	-6.41	-20.278	80.781
170	-19.5	80.256	-0.093	-7.015	-0.093	-7.015	-19.5	80.256
185	-18.785	79.732	-0.103	-7.62	-0.103	-7.62	-18.785	79.732
200	-18.125	79.208	-0.112	-8.226	-0.112	-8.226	-18.125	79.208
215	-17.525	78.643	-0.126	-8.823	-0.126	-8.823	-17.525	78.643
230	-16.963	78.078	-0.141	-9.421	-0.141	-9.421	-16.963	78.078
245	-16.436	77.513	-0.155	-10.018	-0.155	-10.018	-16.436	77.513
260	-15.939	76.948	-0.169	-10.616	-0.169	-10.616	-15.939	76.948
275	-15.469	76.384	-0.183	-11.213	-0.183	-11.213	-15.469	76.384
290	-15.023	75.819	-0.197	-11.811	-0.197	-11.811	-15.023	75.819
305	-14.602	75.25	-0.213	-12.406	-0.213	-12.406	-14.602	75.25
320	-14.207	74.674	-0.231	-12.997	-0.231	-12.997	-14.207	74.674
335	-13.829	74.098	-0.25	-13.588	-0.25	-13.588	-13.829	74.098
350	-13.466	73.523	-0.268	-14.178	-0.268	-14.178	-13.466	73.523
365	-13.119	72.947	-0.287	-14.769	-0.287	-14.769	-13.119	72.947
380	-12.784	72.371	-0.305	-15.36	-0.305	-15.36	-12.784	72.371
395	-12.462	71.795	-0.324	-15.951	-0.324	-15.951	-12.462	71.795
410	-12.158	71.217	-0.345	-16.538	-0.345	-16.538	-12.158	71.217
425	-11.866	70.639	-0.368	-17.122	-0.368	-17.122	-11.866	70.639
440	-11.583	70.061	-0.391	-17.706	-0.391	-17.706	-11.583	70.061
455	-11.31	69.482	-0.414	-18.291	-0.414	-18.291	-11.31	69.482
470	-11.045	68.904	-0.437	-18.875	-0.437	-18.875	-11.045	68.904
485	-10.787	68.326	-0.46	-19.459	-0.46	-19.459	-10.787	68.326
500	-10.538	67.747	-0.483	-20.043	-0.483	-20.043	-10.538	67.747
515	-10.302	67.17	-0.51	-20.621	-0.51	-20.621	-10.302	67.17
530	-10.073	66.593	-0.538	-21.198	-0.538	-21.198	-10.073	66.593
545	-9.85	66.016	-0.565	-21.776	-0.565	-21.776	-9.85	66.016
560	-9.632	65.439	-0.592	-22.353	-0.592	-22.353	-9.632	65.439
575	-9.42	64.862	-0.62	-22.931	-0.62	-22.931	-9.42	64.862
590	-9.212	64.285	-0.648	-23.508	-0.648	-23.508	-9.212	64.285
605	-9.012	63.709	-0.677	-24.083	-0.677	-24.083	-9.012	63.709
620	-8.821	63.136	-0.708	-24.654	-0.708	-24.654	-8.821	63.136
635	-8.634	62.562	-0.74	-25.224	-0.74	-25.224	-8.634	62.562
650	-8.451	61.988	-0.772	-25.794	-0.772	-25.794	-8.451	61.988
665	-8.272	61.415	-0.804	-26.364	-0.804	-26.364	-8.272	61.415
680	-8.097	60.841	-0.836	-26.935	-0.836	-26.935	-8.097	60.841
695	-7.925	60.268	-0.868	-27.505	-0.868	-27.505	-7.925	60.268
710	-7.76	59.697	-0.902	-28.07	-0.902	-28.07	-7.76	59.697
725	-7.601	59.129	-0.938	-28.633	-0.938	-28.633	-7.601	59.129
740	-7.445	58.56	-0.975	-29.196	-0.975	-29.196	-7.445	58.56
755	-7.292	57.991	-1.011	-29.759	-1.01	-29.759	-7.292	57.991
770	-7.141	57.422	-1.047	-30.322	-1.05	-30.322	-7.141	57.422
785	-6.993	56.853	-1.084	-30.884	-1.08	-30.884	-6.993	56.853
800	-6.847	56.285	-1.121	-31.447	-1.12	-31.447	-6.847	56.285
815	-6.71	55.722	-1.161	-32.002	-1.16	-32.002	-6.71	55.722
830	-6.575	55.158	-1.202	-32.557	-1.2	-32.557	-6.575	55.158
845	-6.442	54.595	-1.243	-33.112	-1.24	-33.112	-6.442	54.595
860	-6.311	54.032	-1.283	-33.667	-1.28	-33.667	-6.311	54.032
875	-6.182	53.469	-1.325	-34.222	-1.33	-34.222	-6.182	53.469
890	-6.055	52.906	-1.366	-34.777	-1.37	-34.777	-6.055	52.906
905	-5.932	52.345	-1.408	-35.33	-1.41	-35.33	-5.932	52.345
920	-5.814	51.788	-1.453	-35.877	-1.45	-35.877	-5.814	51.788
935	-5.698	51.231	-1.498	-36.424	-1.5	-36.424	-5.698	51.231
950	-5.583	50.674	-1.544	-36.971	-1.54	-36.971	-5.583	50.674
965	-5.47	50.117	-1.589	-37.518	-1.59	-37.518	-5.47	50.117
980	-5.359	49.56	-1.635	-38.065	-1.64	-38.065	-5.359	49.56
995	-5.249	49.003	-1.681	-38.612	-1.68	-38.612	-5.249	49.003
1010	-5.144	48.451	-1.73	-39.153	-1.73	-39.153	-5.144	48.451
1025	-5.042	47.901	-1.779	-39.692	-1.78	-39.692	-5.042	47.901
1040	-4.941	47.35	-1.829	-40.231	-1.83	-40.231	-4.941	47.35
1055	-4.841	46.8	-1.879	-40.77	-1.88	-40.77	-4.841	46.8
1070	-4.743	46.25	-1.929	-41.309	-1.93	-41.309	-4.743	46.25
1085	-4.645	45.699	-1.98	-41.848	-1.98	-41.848	-4.645	45.699
1100	-4.549	45.149	-2.031	-42.386	-2.03	-42.386	-4.549	45.149
1115	-4.459	44.606	-2.085	-42.917	-2.09	-42.917	-4.459	44.606
1130	-4.37	44.062	-2.14	-43.448	-2.14	-43.448	-4.37	44.062
1145	-4.281	43.519	-2.194	-43.978	-2.19	-43.978	-4.281	43.519
1160	-4.194	42.975	-2.249	-44.509	-2.25	-44.509	-4.194	42.975
1175	-4.108	42.432	-2.305	-45.04	-2.31	-45.04	-4.108	42.432
1190	-4.022	41.888	-2.361	-45.57	-2.36	-45.57	-4.022	41.888
1205	-3.939	41.347	-2.418	-46.098	-2.42	-46.098	-3.939	41.347
1220	-3.86	40.81	-2.477	-46.621	-2.48	-46.621	-3.86	40.81
1235	-3.782	40.274	-2.536	-47.143	-2.54	-47.143	-3.782	40.274
1250	-3.704	39.737	-2.596	-47.665	-2.6	-47.665	-3.704	39.737
1265	-3.627	39.201	-2.656	-48.188	-2.66	-48.188	-3.627	39.201
1280	-3.551	38.664	-2.717	-48.71	-2.72	-48.71	-3.551	38.664
1295	-3.475	38.127	-2.778	-49.233	-2.78	-49.233	-3.475	38.127
1310	-3.404	37.595	-2.841	-49.75	-2.84	-49.75	-3.404	37.595
1325	-3.334	37.066	-2.906	-50.264	-2.91	-50.264	-3.334	37.066
1340	-3.265	36.536	-2.97	-50.778	-2.97	-50.778	-3.265	36.536
1355	-3.196	36.006	-3.036	-51.292	-3.04	-51.292	-3.196	36.006
1370	-3.128	35.477	-3.101	-51.806	-3.1	-51.806	-3.128	35.477
1385	-3.061	34.947	-3.168	-52.321	-3.17	-52.321	-3.061	34.947
1400	-2.994	34.417	-3.235	-52.835	-3.24	-52.835	-2.994	34.417
1415	-2.932	33.894	-3.304	-53.341	-3.3	-53.341	-2.932	33.894
1430	-2.87	33.371	-3.374	-53.847	-3.37	-53.847	-2.87	33.371
1445	-2.809	32.849	-3.445	-54.353	-3.45	-54.353	-2.809	32.849
1460	-2.748	32.326	-3.516	-54.859	-3.52	-54.859	-2.748	32.326
1475	-2.688	31.803	-3.587	-55.365	-3.59	-55.365	-2.688	31.803
1490	-2.628	31.28	-3.66	-55.871	-3.66	-55.871	-2.628	31.28
1505	-2.57	30.759	-3.733	-56.374	-3.73	-56.374	-2.57	30.759
1520	-2.515	30.243	-3.809	-56.872	-3.81	-56.872	-2.515	30.243
1535	-2.46	29.726	-3.885	-57.37	-3.89	-57.37	-2.46	29.726
1550	-2.406	29.21	-3.962	-57.868	-3.96	-57.868	-2.406	29.21
1565	-2.352	28.694	-4.039	-58.366	-4.04	-58.366	-2.352	28.694
1580	-2.299	28.177	-4.118	-58.864	-4.12	-58.864	-2.299	28.177
1595	-2.245	27.661	-4.196	-59.362	-4.2	-59.362	-2.245	27.661
1610	-2.195	27.149	-4.277	-59.855	-4.28	-59.855	-2.195	27.149
1625	-2.146	26.639	-4.359	-60.345	-4.36	-60.345	-2.146	26.639
1640	-2.098	26.129	-4.442	-60.835	-4.44	-60.835	-2.098	26.129
1655	-2.05	25.619	-4.526	-61.325	-4.53	-61.325	-2.05	25.619
1670	-2.002	25.109	-4.611	-61.815	-4.61	-61.815	-2.002	25.109
1685	-1.954	24.599	-4.696	-62.305	-4.7	-62.305	-1.954	24.599
1700	-1.907	24.089	-4.782	-62.795	-4.78	-62.795	-1.907	24.089
1715	-1.864	23.585	-4.871	-63.278	-4.87	-63.278	-1.864	23.585
1730	-1.82	23.081	-4.96	-63.76	-4.96	-63.76	-1.82	23.081
1745	-1.778	22.577	-5.051	-64.242	-5.05	-64.242	-1.778	22.577
1760	-1.735	22.073	-5.142	-64.724	-5.14	-64.724	-1.735	22.073
1775	-1.692	21.569	-5.235	-65.206	-5.24	-65.206	-1.692	21.569
1790	-1.65	21.065	-5.328	-65.688	-5.33	-65.688	-1.65	21.065
1805	-1.609	20.563	-5.423	-66.168	-5.42	-66.168	-1.609	20.563
1820	-1.571	20.065	-5.52	-66.642	-5.52	-66.642	-1.571	20.065
1835	-1.532	19.567	-5.618	-67.117	-5.62	-67.117	-1.532	19.567
1850	-1.494	19.069	-5.717	-67.591	-5.72	-67.591	-1.494	19.069
1865	-1.456	18.57	-5.817	-68.065	-5.82	-68.065	-1.456	18.57
1880	-1.419	18.072	-5.918	-68.539	-5.92	-68.539	-1.419	18.072
1895	-1.381	17.574	-6.021	-69.014	-6.02	-69.014	-1.381	17.574
1910	-1.346	17.079	-6.126	-69.483	-6.13	-69.483	-1.346	17.079
1925	-1.312	16.587	-6.232	-69.949	-6.23	-69.949	-1.312	16.587
1940	-1.278	16.094	-6.34	-70.415	-6.34	-70.415	-1.278	16.094
1955	-1.245	15.601	-6.449	-70.882	-6.45	-70.882	-1.245	15.601
1970	-1.211	15.108	-6.559	-71.348	-6.56	-71.348	-1.211	15.108
1985	-1.178	14.615	-6.671	-71.814	-6.67	-71.814	-1.178	14.615
2000	-1.145	14.123	-6.784	-72.281	-6.78	-72.281	-1.145	14.123
2015	-1.115	13.635	-6.9	-72.739	-6.9	-72.739	-1.115	13.635
2030	-1.085	13.147	-7.017	-73.197	-7.02	-73.197	-1.085	13.147
2045	-1.055	12.659	-7.136	-73.655	-7.14	-73.655	-1.055	12.659
2060	-1.026	12.171	-7.257	-74.113	-7.26	-74.113	-1.026	12.171
2075	-0.996	11.684	-7.379	-74.571	-7.38	-74.571	-0.996	11.684
2090	-0.967	11.196	-7.504	-75.029	-7.5	-75.029	-0.967	11.196
2105	-0.938	10.709	-7.63	-75.485	-7.63	-75.485	-0.938	10.709
2120	-0.912	10.226	-7.759	-75.934	-7.76	-75.934	-0.912	10.226
2135	-0.886	9.743	-7.889	-76.383	-7.89	-76.383	-0.886	9.743
2150	-0.86	9.26	-8.022	-76.833	-8.02	-76.833	-0.86	9.26
2165	-0.834	8.777	-8.157	-77.282	-8.16	-77.282	-0.834	8.777
2180	-0.808	8.294	-8.293	-77.732	-8.29	-77.732	-0.808	8.294
2195	-0.782	7.81	-8.432	-78.181	-8.43	-78.181	-0.782	7.81
2210	-0.759	7.33	-8.574	-78.624	-8.57	-78.624	-0.759	7.33
2225	-0.736	6.851	-8.719	-79.064	-8.72	-79.064	-0.736	6.851
2240	-0.713	6.372	-8.866	-79.503	-8.87	-79.503	-0.713	6.372
2255	-0.69	5.893	-9.015	-79.943	-9.02	-79.943	-0.69	5.893
2270	-0.668	5.414	-9.167	-80.383	-9.17	-80.383	-0.668	5.414
2285	-0.645	4.935	-9.322	-80.823	-9.32	-80.823	-0.645	4.935
2300	-0.623	4.457	-9.479	-81.262	-9.48	-81.262	-0.623	4.457
2315	-0.603	3.981	-9.64	-81.691	-9.64	-81.691	-0.603	3.981
2330	-0.584	3.506	-9.804	-82.119	-9.8	-82.119	-0.584	3.506
2345	-0.564	3.031	-9.972	-82.547	-9.97	-82.547	-0.564	3.031
2360	-0.545	2.556	-10.142	-82.975	-10.1	-82.975	-0.545	2.556
2375	-0.525	2.081	-10.316	-83.404	-10.3	-83.404	-0.525	2.081
2390	-0.506	1.606	-10.493	-83.832	-10.5	-83.832	-0.506	1.606
2405	-0.488	1.132	-10.675	-84.256	-10.7	-84.256	-0.488	1.132
2420	-0.471	0.661	-10.86	-84.669	-10.9	-84.669	-0.471	0.661
2435	-0.454	0.189	-11.05	-85.083	-11.1	-85.083	-0.454	0.189
2450	-0.438	-0.283	-11.244	-85.497	-11.2	-85.497	-0.438	-0.283
2465	-0.421	-0.754	-11.442	-85.911	-11.4	-85.911	-0.421	-0.754
2480	-0.405	-1.226	-11.645	-86.325	-11.6	-86.325	-0.405	-1.226
2495	-0.388	-1.698	-11.852	-86.739	-11.9	-86.739	-0.388	-1.698
2510	-0.374	-2.167	-12.065	-87.139	-12.1	-87.139	-0.374	-2.167
2525	-0.36	-2.636	-12.284	-87.532	-12.3	-87.532	-0.36	-2.636
2540	-0.346	-3.104	-12.508	-87.926	-12.5	-87.926	-0.346	-3.104
2555	-0.332	-3.573	-12.737	-88.32	-12.7	-88.32	-0.332	-3.573
2570	-0.318	-4.041	-12.974	-88.713	-13	-88.713	-0.318	-4.041
2585	-0.305	-4.51	-13.216	-89.107	-13.2	-89.107	-0.305	-4.51
2600	-0.291	-4.978	-13.466	-89.5	-13.5	-89.5	-0.291	-4.978
2615	-0.28	-5.444	-13.723	-89.862	-13.7	-89.862	-0.28	-5.444
2630	-0.269	-5.91	-13.988	-90.224	-14	-90.224	-0.269	-5.91
2645	-0.258	-6.376	-14.261	-90.585	-14.3	-90.585	-0.258	-6.376
2660	-0.246	-6.841	-14.543	-90.947	-14.5	-90.947	-0.246	-6.841
2675	-0.235	-7.307	-14.834	-91.309	-14.8	-91.309	-0.235	-7.307
2690	-0.224	-7.773	-15.136	-91.67	-15.1	-91.67	-0.224	-7.773
2705	-0.214	-8.238	-15.448	-92.012	-15.4	-92.012	-0.214	-8.238
2720	-0.205	-8.701	-15.772	-92.315	-15.8	-92.315	-0.205	-8.701
2735	-0.197	-9.165	-16.108	-92.618	-16.1	-92.618	-0.197	-9.165
2750	-0.188	-9.628	-16.457	-92.921	-16.5	-92.921	-0.188	-9.628
2765	-0.179	-10.091	-16.821	-93.224	-16.8	-93.224	-0.179	-10.091
2780	-0.171	-10.555	-17.202	-93.527	-17.2	-93.527	-0.171	-10.555
2795	-0.162	-11.018	-17.599	-93.83	-17.6	-93.83	-0.162	-11.018
2810	-0.155	-11.48	-18.015	-94.043	-18	-94.043	-0.155	-11.48
2825	-0.149	-11.942	-18.45	-94.21	-18.5	-94.21	-0.149	-11.942
2840	-0.143	-12.403	-18.909	-94.378	-18.9	-94.378	-0.143	-12.403
2855	-0.136	-12.864	-19.393	-94.546	-19.4	-94.546	-0.136	-12.864
2870	-0.13	-13.326	-19.906	-94.713	-19.9	-94.713	-0.13	-13.326
2885	-0.124	-13.787	-20.451	-94.881	-20.5	-94.881	-0.124	-13.787
2900	-0.118	-14.249	-21.033	-95.049	-21	-95.049	-0.118	-14.249
2915	-0.114	-14.708	-21.65	-94.747	-21.7	-94.747	-0.114	-14.708
2930	-0.11	-15.168	-22.315	-94.445	-22.3	-94.445	-0.11	-15.168
2945	-0.106	-15.627	-23.035	-94.144	-23	-94.144	-0.106	-15.627
2960	-0.102	-16.087	-23.819	-93.842	-23.8	-93.842	-0.102	-16.087
2975	-0.098	-16.547	-24.682	-93.54	-24.7	-93.54	-0.098	-16.547
2990	-0.095	-17.006	-25.64	-93.239	-25.6	-93.239	-0.095	-17.006
3005	-0.091	-17.465	-26.684	-91.014	-26.7	-91.014	-0.091	-17.465
3020	-0.09	-17.924	-27.794	-84.944	-27.8	-84.944	-0.09	-17.924
3035	-0.088	-18.382	-29.067	-78.873	-29.1	-78.873	-0.088	-18.382
3050	-0.087	-18.84	-30.56	-72.803	-30.6	-72.803	-0.087	-18.84
3065	-0.085	-19.298	-32.363	-66.732	-32.4	-66.732	-0.085	-19.298
3080	-0.083	-19.756	-34.642	-60.662	-34.6	-60.662	-0.083	-19.756
3095	-0.082	-20.215	-37.639	-54.592	-37.6	-54.592	-0.082	-20.215
3110	-0.082	-20.672	-37.371	-41.762	-37.4	-41.762	-0.082	-20.672
3125	-0.082	-21.129	-35.312	-25.552	-35.3	-25.552	-0.082	-21.129
3140	-0.083	-21.586	-33.649	-9.342	-33.6	-9.342	-0.083	-21.586
3155	-0.084	-22.043	-32.253	6.868	-32.3	6.868	-0.084	-22.043
3170	-0.084	-22.5	-31.051	23.078	-31.1	23.078	-0.084	-22.5
3185	-0.085	-22.957	-29.995	39.288	-30	39.288	-0.085	-22.957
3200	-0.086	-23.414	-29.054	55.499	-29.1	55.499	-0.086	-23.414
3215	-0.088	-23.87	-27.699	56.248	-27.7	56.248	-0.088	-23.87
3230	-0.091	-24.326	-26.527	56.997	-26.5	56.997	-0.091	-24.326
3245	-0.094	-24.782	-25.494	57.747	-25.5	57.747	-0.094	-24.782
3260	-0.097	-25.239	-24.572	58.496	-24.6	58.496	-0.097	-25.239
3275	-0.1	-25.695	-23.738	59.246	-23.7	59.246	-0.1	-25.695
3290	-0.103	-26.151	-22.977	59.995	-23	59.995	-0.103	-26.151
3305	-0.106	-26.607	-22.276	60.47	-22.3	60.47	-0.106	-26.607
3320	-0.111	-27.062	-21.627	60.395	-21.6	60.395	-0.111	-27.062
3335	-0.116	-27.517	-21.023	60.32	-21	60.32	-0.116	-27.517
3350	-0.121	-27.973	-20.458	60.246	-20.5	60.246	-0.121	-27.973
3365	-0.126	-28.428	-19.928	60.171	-19.9	60.171	-0.126	-28.428
3380	-0.131	-28.884	-19.428	60.096	-19.4	60.096	-0.131	-28.884
3395	-0.136	-29.339	-18.955	60.021	-19	60.021	-0.136	-29.339
3410	-0.143	-29.794	-18.509	59.822	-18.5	59.822	-0.143	-29.794
3425	-0.15	-30.249	-18.086	59.562	-18.1	59.562	-0.15	-30.249
3440	-0.157	-30.704	-17.682	59.301	-17.7	59.301	-0.157	-30.704
3455	-0.164	-31.159	-17.296	59.041	-17.3	59.041	-0.164	-31.159
3470	-0.171	-31.614	-16.927	58.78	-16.9	58.78	-0.171	-31.614
3485	-0.178	-32.069	-16.572	58.519	-16.6	58.519	-0.178	-32.069
3500	-0.186	-32.524	-16.232	58.259	-16.2	58.259	-0.186	-32.524
3515	-0.195	-32.978	-15.907	57.928	-15.9	57.928	-0.195	-32.978
3530	-0.204	-33.433	-15.594	57.596	-15.6	57.596	-0.204	-33.433
3545	-0.214	-33.887	-15.292	57.265	-15.3	57.265	-0.214	-33.887
3560	-0.223	-34.342	-15	56.934	-15	56.934	-0.223	-34.342
3575	-0.232	-34.796	-14.718	56.603	-14.7	56.603	-0.232	-34.796
3590	-0.242	-35.251	-14.445	56.272	-14.4	56.272	-0.242	-35.251
3605	-0.252	-35.706	-14.18	55.929	-14.2	55.929	-0.252	-35.706
3620	-0.263	-36.16	-13.926	55.564	-13.9	55.564	-0.263	-36.16
3635	-0.275	-36.614	-13.679	55.199	-13.7	55.199	-0.275	-36.614
3650	-0.286	-37.069	-13.439	54.834	-13.4	54.834	-0.286	-37.069
3665	-0.298	-37.523	-13.205	54.469	-13.2	54.469	-0.298	-37.523
3680	-0.309	-37.978	-12.977	54.104	-13	54.104	-0.309	-37.978
3695	-0.321	-38.432	-12.755	53.739	-12.8	53.739	-0.321	-38.432
3710	-0.334	-38.886	-12.541	53.361	-12.5	53.361	-0.334	-38.886
3725	-0.347	-39.341	-12.332	52.978	-12.3	52.978	-0.347	-39.341
3740	-0.361	-39.795	-12.129	52.594	-12.1	52.594	-0.361	-39.795
3755	-0.375	-40.25	-11.93	52.21	-11.9	52.21	-0.375	-40.25
3770	-0.388	-40.704	-11.735	51.826	-11.7	51.826	-0.388	-40.704
3785	-0.402	-41.158	-11.545	51.443	-11.5	51.443	-0.402	-41.158
3800	-0.416	-41.613	-11.359	51.059	-11.4	51.059	-0.416	-41.613
3815	-0.432	-42.067	-11.18	50.664	-11.2	50.664	-0.432	-42.067
3830	-0.447	-42.521	-11.004	50.269	-11	50.269	-0.447	-42.521
3845	-0.463	-42.976	-10.831	49.874	-10.8	49.874	-0.463	-42.976
3860	-0.479	-43.43	-10.662	49.479	-10.7	49.479	-0.479	-43.43
3875	-0.495	-43.885	-10.497	49.084	-10.5	49.084	-0.495	-43.885
3890	-0.511	-44.339	-10.334	48.689	-10.3	48.689	-0.511	-44.339
3905	-0.528	-44.794	-10.175	48.292	-10.2	48.292	-0.528	-44.794
3920	-0.546	-45.248	-10.021	47.89	-10	47.89	-0.546	-45.248
3935	-0.564	-45.703	-9.869	47.488	-9.87	47.488	-0.564	-45.703
3950	-0.582	-46.157	-9.72	47.086	-9.72	47.086	-0.582	-46.157
3965	-0.6	-46.612	-9.574	46.684	-9.57	46.684	-0.6	-46.612
3980	-0.618	-47.066	-9.43	46.282	-9.43	46.282	-0.618	-47.066
3995	-0.637	-47.521	-9.288	45.88	-9.29	45.88	-0.637	-47.521
4010	-0.656	-47.976	-9.151	45.475	-9.15	45.475	-0.656	-47.976
4025	-0.677	-48.43	-9.016	45.068	-9.02	45.068	-0.677	-48.43
4040	-0.697	-48.885	-8.883	44.662	-8.88	44.662	-0.697	-48.885
4055	-0.717	-49.34	-8.753	44.255	-8.75	44.255	-0.717	-49.34
4070	-0.738	-49.795	-8.624	43.849	-8.62	43.849	-0.738	-49.795
4085	-0.758	-50.25	-8.497	43.442	-8.5	43.442	-0.758	-50.25
4100	-0.779	-50.704	-8.372	43.035	-8.37	43.035	-0.779	-50.704
4115	-0.801	-51.159	-8.251	42.626	-8.25	42.626	-0.801	-51.159
4130	-0.824	-51.614	-8.132	42.216	-8.13	42.216	-0.824	-51.614
4145	-0.847	-52.069	-8.015	41.806	-8.02	41.806	-0.847	-52.069
4160	-0.87	-52.524	-7.899	41.397	-7.9	41.397	-0.87	-52.524
4175	-0.892	-52.979	-7.785	40.987	-7.79	40.987	-0.892	-52.979
4190	-0.915	-53.434	-7.672	40.578	-7.67	40.578	-0.915	-53.434
4205	-0.939	-53.89	-7.561	40.167	-7.56	40.167	-0.939	-53.89
4220	-0.964	-54.345	-7.454	39.756	-7.45	39.756	-0.964	-54.345
4235	-0.989	-54.8	-7.348	39.344	-7.35	39.344	-0.989	-54.8
4250	-1.014	-55.255	-7.243	38.933	-7.24	38.933	-1.014	-55.255
4265	-1.039	-55.711	-7.139	38.522	-7.14	38.522	-1.039	-55.711
4280	-1.064	-56.166	-7.036	38.11	-7.04	38.11	-1.064	-56.166
4295	-1.089	-56.621	-6.935	37.699	-6.94	37.699	-1.089	-56.621
4310	-1.116	-57.077	-6.837	37.286	-6.84	37.286	-1.116	-57.077
4325	-1.143	-57.532	-6.74	36.874	-6.74	36.874	-1.143	-57.532
4340	-1.171	-57.988	-6.645	36.461	-6.65	36.461	-1.171	-57.988
4355	-1.198	-58.444	-6.55	36.049	-6.55	36.049	-1.198	-58.444
4370	-1.226	-58.899	-6.457	35.636	-6.46	35.636	-1.226	-58.899
4385	-1.254	-59.355	-6.364	35.224	-6.36	35.224	-1.254	-59.355
4400	-1.281	-59.811	-6.273	34.811	-6.27	34.811	-1.281	-59.811
4415	-1.311	-60.267	-6.185	34.398	-6.19	34.398	-1.311	-60.267
4430	-1.341	-60.722	-6.098	33.985	-6.1	33.985	-1.341	-60.722
4445	-1.371	-61.178	-6.011	33.572	-6.01	33.572	-1.371	-61.178
4460	-1.401	-61.634	-5.926	33.159	-5.93	33.159	-1.401	-61.634
4475	-1.431	-62.09	-5.841	32.746	-5.84	32.746	-1.431	-62.09
4490	-1.461	-62.546	-5.757	32.333	-5.76	32.333	-1.461	-62.546
4505	-1.492	-63.002	-5.675	31.92	-5.68	31.92	-1.492	-63.002
4520	-1.524	-63.459	-5.595	31.507	-5.6	31.507	-1.524	-63.459
4535	-1.557	-63.915	-5.516	31.094	-5.52	31.094	-1.557	-63.915
4550	-1.589	-64.371	-5.438	30.681	-5.44	30.681	-1.589	-64.371
4565	-1.622	-64.827	-5.36	30.269	-5.36	30.269	-1.622	-64.827
4580	-1.655	-65.284	-5.283	29.856	-5.28	29.856	-1.655	-65.284
4595	-1.687	-65.74	-5.207	29.443	-5.21	29.443	-1.687	-65.74
4610	-1.722	-66.197	-5.133	29.03	-5.13	29.03	-1.722	-66.197
4625	-1.756	-66.653	-5.06	28.618	-5.06	28.618	-1.756	-66.653
4640	-1.791	-67.11	-4.988	28.205	-4.99	28.205	-1.791	-67.11
4655	-1.827	-67.567	-4.917	27.793	-4.92	27.793	-1.827	-67.567
4670	-1.862	-68.023	-4.846	27.381	-4.85	27.381	-1.862	-68.023
4685	-1.897	-68.48	-4.775	26.968	-4.78	26.968	-1.897	-68.48
4700	-1.933	-68.937	-4.706	26.556	-4.71	26.556	-1.933	-68.937
4715	-1.97	-69.394	-4.639	26.144	-4.64	26.144	-1.97	-69.394
4730	-2.008	-69.851	-4.573	25.733	-4.57	25.733	-2.008	-69.851
4745	-2.045	-70.308	-4.507	25.322	-4.51	25.322	-2.045	-70.308
4760	-2.083	-70.765	-4.442	24.91	-4.44	24.91	-2.083	-70.765
4775	-2.121	-71.222	-4.377	24.499	-4.38	24.499	-2.121	-71.222
4790	-2.16	-71.679	-4.313	24.087	-4.31	24.087	-2.16	-71.679
4805	-2.198	-72.136	-4.25	23.676	-4.25	23.676	-2.198	-72.136
4820	-2.239	-72.594	-4.188	23.266	-4.19	23.266	-2.239	-72.594
4835	-2.279	-73.052	-4.128	22.856	-4.13	22.856	-2.279	-73.052
