! AVX Thin Film Operation		Date: May 2002 
! Description: Accu-L® Series, Thin Film, SMD, RF Inductors
! Part Number: L08051R8CEWTR
! 50 MHz  -  20.05 GHz
! Serial Measurements
!
# mhz S db R 50
!	S11		S21		S12		S22
!	dB	Phase	dB	Phase	dB	Phase	dB	Phase
50	-47.391	87.188	-1.892e-3	-0.43	-1.892e-3	-0.43	-47.391	87.188
100	-41.582	87.033	-2.978e-3	-0.849	-2.978e-3	-0.849	-41.582	87.032
150	-38.132	86.878	-4.064e-3	-1.268	-4.064e-3	-1.268	-38.132	86.876
200	-35.669	86.722	-5.151e-3	-1.687	-5.151e-3	-1.687	-35.669	86.72
250	-33.762	86.427	-6.393e-3	-2.105	-6.393e-3	-2.105	-33.762	86.424
300	-32.2	86.132	-7.635e-3	-2.522	-7.635e-3	-2.522	-32.2	86.128
350	-30.88	85.79	-9.089e-3	-2.939	-9.089e-3	-2.939	-30.88	85.785
400	-29.735	85.449	-0.011	-3.356	-0.011	-3.356	-29.735	85.443
450	-28.726	85.085	-0.012	-3.772	-0.012	-3.772	-28.726	85.079
500	-27.822	84.721	-0.014	-4.189	-0.014	-4.189	-27.822	84.714
550	-27.005	84.345	-0.016	-4.604	-0.016	-4.604	-27.005	84.337
600	-26.259	83.969	-0.018	-5.02	-0.018	-5.02	-26.259	83.96
650	-25.574	83.585	-0.02	-5.435	-0.02	-5.435	-25.574	83.576
700	-24.938	83.201	-0.022	-5.851	-0.022	-5.851	-24.938	83.191
750	-24.348	82.812	-0.025	-6.265	-0.025	-6.265	-24.348	82.801
800	-23.795	82.423	-0.027	-6.68	-0.027	-6.68	-23.795	82.411
850	-23.277	82.03	-0.03	-7.094	-0.03	-7.094	-23.277	82.018
900	-22.788	81.637	-0.032	-7.509	-0.032	-7.509	-22.788	81.624
950	-22.326	81.242	-0.035	-7.922	-0.035	-7.922	-22.326	81.228
1000	-21.888	80.847	-0.038	-8.336	-0.038	-8.336	-21.888	80.832
1050	-21.472	80.45	-0.042	-8.749	-0.042	-8.749	-21.472	80.434
1100	-21.075	80.053	-0.045	-9.162	-0.045	-9.162	-21.075	80.036
1150	-20.697	79.654	-0.048	-9.575	-0.048	-9.575	-20.697	79.637
1200	-20.334	79.256	-0.052	-9.988	-0.052	-9.988	-20.334	79.238
1250	-19.987	78.856	-0.055	-10.4	-0.055	-10.4	-19.987	78.838
1300	-19.654	78.457	-0.059	-10.812	-0.059	-10.812	-19.654	78.438
1350	-19.334	78.057	-0.063	-11.223	-0.063	-11.223	-19.334	78.037
1400	-19.025	77.657	-0.067	-11.634	-0.067	-11.634	-19.025	77.637
1450	-18.728	77.257	-0.071	-12.045	-0.071	-12.045	-18.728	77.235
1500	-18.441	76.857	-0.075	-12.456	-0.075	-12.456	-18.441	76.834
1550	-18.165	76.456	-0.08	-12.866	-0.08	-12.866	-18.165	76.433
1600	-17.896	76.055	-0.084	-13.276	-0.084	-13.276	-17.896	76.032
1650	-17.637	75.655	-0.089	-13.685	-0.089	-13.685	-17.637	75.63
1700	-17.386	75.254	-0.094	-14.095	-0.094	-14.095	-17.386	75.229
1750	-17.143	74.854	-0.099	-14.503	-0.099	-14.503	-17.143	74.828
1800	-16.906	74.453	-0.104	-14.912	-0.104	-14.912	-16.906	74.427
1850	-16.677	74.053	-0.109	-15.32	-0.109	-15.32	-16.677	74.025
1900	-16.453	73.653	-0.114	-15.727	-0.114	-15.727	-16.453	73.624
1950	-16.237	73.253	-0.119	-16.135	-0.119	-16.135	-16.237	73.224
2000	-16.025	72.853	-0.125	-16.542	-0.125	-16.542	-16.025	72.823
2050	-15.82	72.453	-0.131	-16.948	-0.131	-16.948	-15.82	72.423
2100	-15.619	72.053	-0.136	-17.354	-0.136	-17.354	-15.619	72.022
2150	-15.425	71.654	-0.142	-17.759	-0.142	-17.759	-15.424	71.622
2200	-15.234	71.255	-0.148	-18.165	-0.148	-18.165	-15.234	71.222
2250	-15.048	70.856	-0.154	-18.569	-0.154	-18.569	-15.048	70.823
2300	-14.867	70.458	-0.16	-18.973	-0.16	-18.973	-14.867	70.424
2350	-14.69	70.06	-0.167	-19.377	-0.167	-19.377	-14.69	70.025
2400	-14.517	69.662	-0.173	-19.781	-0.173	-19.781	-14.516	69.626
2450	-14.348	69.264	-0.18	-20.183	-0.18	-20.183	-14.348	69.228
2500	-14.182	68.867	-0.186	-20.586	-0.186	-20.586	-14.182	68.83
2550	-14.02	68.47	-0.193	-20.987	-0.193	-20.987	-14.02	68.433
2600	-13.862	68.074	-0.2	-21.389	-0.2	-21.389	-13.862	68.035
2650	-13.707	67.678	-0.207	-21.79	-0.207	-21.79	-13.707	67.639
2700	-13.555	67.282	-0.214	-22.19	-0.214	-22.19	-13.555	67.242
2750	-13.407	66.887	-0.221	-22.59	-0.221	-22.59	-13.407	66.846
2800	-13.261	66.492	-0.228	-22.989	-0.228	-22.989	-13.261	66.45
2850	-13.118	66.098	-0.236	-23.388	-0.236	-23.388	-13.118	66.055
2900	-12.978	65.703	-0.243	-23.786	-0.243	-23.786	-12.978	65.66
2950	-12.841	65.31	-0.251	-24.184	-0.251	-24.184	-12.841	65.266
3000	-12.706	64.917	-0.258	-24.581	-0.258	-24.581	-12.706	64.872
3050	-12.575	64.524	-0.266	-24.978	-0.266	-24.978	-12.574	64.479
3100	-12.445	64.132	-0.274	-25.374	-0.274	-25.374	-12.445	64.086
3150	-12.318	63.741	-0.282	-25.769	-0.282	-25.769	-12.318	63.694
3200	-12.193	63.349	-0.29	-26.165	-0.29	-26.165	-12.193	63.302
3250	-12.07	62.959	-0.298	-26.559	-0.298	-26.559	-12.07	62.911
3300	-11.95	62.568	-0.306	-26.953	-0.306	-26.953	-11.95	62.519
3350	-11.832	62.179	-0.315	-27.346	-0.315	-27.346	-11.831	62.129
3400	-11.715	61.79	-0.323	-27.739	-0.323	-27.739	-11.715	61.739
3450	-11.601	61.401	-0.332	-28.131	-0.332	-28.131	-11.601	61.35
3500	-11.489	61.013	-0.34	-28.522	-0.34	-28.522	-11.489	60.961
3550	-11.378	60.626	-0.349	-28.913	-0.349	-28.913	-11.378	60.573
3600	-11.27	60.238	-0.358	-29.303	-0.358	-29.303	-11.27	60.185
3650	-11.163	59.852	-0.367	-29.693	-0.367	-29.693	-11.163	59.798
3700	-11.058	59.466	-0.376	-30.082	-0.376	-30.082	-11.058	59.411
3750	-10.955	59.081	-0.385	-30.47	-0.385	-30.47	-10.955	59.026
3800	-10.853	58.696	-0.394	-30.858	-0.394	-30.858	-10.853	58.64
3850	-10.753	58.312	-0.403	-31.245	-0.403	-31.245	-10.753	58.255
3900	-10.655	57.928	-0.412	-31.632	-0.412	-31.632	-10.655	57.871
3950	-10.558	57.546	-0.422	-32.018	-0.422	-32.018	-10.558	57.487
4000	-10.463	57.163	-0.431	-32.403	-0.431	-32.403	-10.463	57.104
4050	-10.369	56.782	-0.441	-32.788	-0.441	-32.788	-10.369	56.722
4100	-10.276	56.4	-0.45	-33.172	-0.45	-33.172	-10.276	56.34
4150	-10.186	56.02	-0.46	-33.555	-0.46	-33.555	-10.185	55.959
4200	-10.096	55.64	-0.47	-33.938	-0.47	-33.938	-10.096	55.578
4250	-10.008	55.261	-0.48	-34.32	-0.48	-34.32	-10.008	55.198
4300	-9.92	54.882	-0.49	-34.702	-0.49	-34.702	-9.92	54.818
4350	-9.835	54.504	-0.5	-35.082	-0.5	-35.082	-9.835	54.44
4400	-9.75	54.126	-0.51	-35.462	-0.51	-35.462	-9.75	54.061
4450	-9.667	53.75	-0.52	-35.841	-0.52	-35.841	-9.667	53.684
4500	-9.585	53.373	-0.53	-36.221	-0.53	-36.221	-9.585	53.307
4550	-9.505	52.998	-0.54	-36.598	-0.54	-36.598	-9.505	52.931
4600	-9.425	52.623	-0.55	-36.976	-0.55	-36.976	-9.425	52.555
4650	-9.346	52.249	-0.561	-37.352	-0.561	-37.352	-9.346	52.18
4700	-9.269	51.875	-0.571	-37.729	-0.571	-37.729	-9.269	51.806
4750	-9.193	51.502	-0.582	-38.104	-0.582	-38.104	-9.193	51.432
4800	-9.117	51.13	-0.592	-38.479	-0.592	-38.479	-9.117	51.059
4850	-9.043	50.758	-0.603	-38.852	-0.603	-38.852	-9.043	50.687
4900	-8.97	50.387	-0.613	-39.226	-0.613	-39.226	-8.97	50.315
4950	-8.898	50.017	-0.624	-39.598	-0.624	-39.598	-8.898	49.944
5000	-8.827	49.647	-0.635	-39.971	-0.635	-39.971	-8.827	49.574
5050	-8.757	49.279	-0.646	-40.342	-0.646	-40.342	-8.757	49.204
5100	-8.687	48.91	-0.656	-40.712	-0.656	-40.712	-8.687	48.835
5150	-8.619	48.543	-0.667	-41.082	-0.667	-41.082	-8.619	48.467
5200	-8.551	48.175	-0.678	-41.452	-0.678	-41.452	-8.551	48.099
5250	-8.485	47.809	-0.689	-41.82	-0.689	-41.82	-8.485	47.732
5300	-8.419	47.443	-0.7	-42.188	-0.7	-42.188	-8.419	47.366
5350	-8.355	47.079	-0.712	-42.554	-0.712	-42.554	-8.355	47
5400	-8.291	46.714	-0.723	-42.921	-0.723	-42.921	-8.291	46.635
5450	-8.228	46.351	-0.734	-43.287	-0.734	-43.287	-8.228	46.271
5500	-8.165	45.988	-0.745	-43.652	-0.745	-43.652	-8.165	45.907
5550	-8.104	45.626	-0.756	-44.016	-0.756	-44.016	-8.104	45.544
5600	-8.043	45.264	-0.768	-44.38	-0.768	-44.38	-8.043	45.182
5650	-7.983	44.903	-0.779	-44.742	-0.779	-44.742	-7.983	44.821
5700	-7.924	44.543	-0.79	-45.105	-0.79	-45.105	-7.924	44.459
5750	-7.866	44.184	-0.802	-45.466	-0.802	-45.466	-7.866	44.1
5800	-7.808	43.825	-0.813	-45.827	-0.813	-45.827	-7.808	43.74
5850	-7.751	43.467	-0.825	-46.187	-0.825	-46.187	-7.751	43.381
5900	-7.695	43.109	-0.836	-46.546	-0.836	-46.546	-7.695	43.023
5950	-7.64	42.753	-0.848	-46.905	-0.848	-46.905	-7.64	42.666
6000	-7.585	42.396	-0.859	-47.263	-0.859	-47.263	-7.585	42.309
6050	-7.531	42.041	-0.871	-47.62	-0.871	-47.62	-7.531	41.953
6100	-7.477	41.686	-0.883	-47.977	-0.883	-47.977	-7.477	41.597
6150	-7.425	41.333	-0.894	-48.332	-0.894	-48.332	-7.425	41.243
6200	-7.372	40.979	-0.906	-48.688	-0.906	-48.688	-7.372	40.888
6250	-7.321	40.627	-0.918	-49.042	-0.918	-49.042	-7.321	40.535
6300	-7.27	40.274	-0.93	-49.396	-0.93	-49.396	-7.27	40.182
6350	-7.22	39.923	-0.941	-49.749	-0.941	-49.749	-7.22	39.831
6400	-7.17	39.572	-0.953	-50.102	-0.953	-50.102	-7.17	39.479
6450	-7.121	39.223	-0.965	-50.453	-0.965	-50.453	-7.121	39.129
6500	-7.073	38.873	-0.977	-50.804	-0.977	-50.804	-7.073	38.779
6550	-7.025	38.525	-0.989	-51.154	-0.989	-51.154	-7.025	38.43
6600	-6.978	38.177	-1.001	-51.504	-1.001	-51.504	-6.978	38.081
6650	-6.931	37.83	-1.012	-51.853	-1.012	-51.853	-6.931	37.734
6700	-6.885	37.483	-1.024	-52.201	-1.024	-52.201	-6.885	37.386
6750	-6.839	37.138	-1.036	-52.548	-1.036	-52.548	-6.839	37.04
6800	-6.794	36.792	-1.048	-52.895	-1.048	-52.895	-6.794	36.694
6850	-6.75	36.448	-1.06	-53.241	-1.06	-53.241	-6.75	36.349
6900	-6.706	36.104	-1.072	-53.587	-1.072	-53.587	-6.706	36.004
6950	-6.662	35.761	-1.084	-53.931	-1.084	-53.931	-6.662	35.661
7000	-6.619	35.419	-1.096	-54.276	-1.096	-54.276	-6.619	35.317
7050	-6.577	35.077	-1.108	-54.619	-1.108	-54.619	-6.577	34.975
7100	-6.535	34.736	-1.12	-54.962	-1.12	-54.962	-6.535	34.633
7150	-6.493	34.396	-1.132	-55.304	-1.132	-55.304	-6.493	34.292
7200	-6.452	34.056	-1.144	-55.645	-1.144	-55.645	-6.452	33.951
7250	-6.412	33.717	-1.156	-55.986	-1.156	-55.986	-6.412	33.612
7300	-6.372	33.378	-1.168	-56.326	-1.168	-56.326	-6.372	33.273
7350	-6.332	33.041	-1.18	-56.665	-1.18	-56.665	-6.332	32.934
7400	-6.293	32.703	-1.192	-57.004	-1.192	-57.004	-6.293	32.596
7450	-6.254	32.367	-1.204	-57.342	-1.204	-57.342	-6.254	32.26
7500	-6.216	32.031	-1.216	-57.68	-1.216	-57.68	-6.216	31.923
7550	-6.178	31.696	-1.228	-58.016	-1.228	-58.016	-6.178	31.587
7600	-6.141	31.361	-1.24	-58.352	-1.24	-58.352	-6.141	31.252
7650	-6.104	31.028	-1.252	-58.687	-1.252	-58.687	-6.104	30.918
7700	-6.067	30.694	-1.264	-59.022	-1.264	-59.022	-6.067	30.583
7750	-6.031	30.362	-1.276	-59.356	-1.276	-59.356	-6.031	30.251
7800	-5.995	30.03	-1.288	-59.69	-1.288	-59.69	-5.995	29.918
7850	-5.96	29.699	-1.3	-60.022	-1.3	-60.022	-5.96	29.586
7900	-5.925	29.368	-1.312	-60.355	-1.312	-60.355	-5.925	29.254
7950	-5.891	29.038	-1.324	-60.686	-1.324	-60.686	-5.891	28.924
8000	-5.857	28.709	-1.336	-61.017	-1.336	-61.017	-5.857	28.594
8050	-5.823	28.38	-1.348	-61.347	-1.348	-61.347	-5.823	28.265
8100	-5.789	28.052	-1.36	-61.677	-1.36	-61.677	-5.789	27.936
8150	-5.757	27.725	-1.372	-62.005	-1.372	-62.005	-5.757	27.608
8200	-5.724	27.397	-1.384	-62.334	-1.384	-62.334	-5.724	27.28
8250	-5.692	27.071	-1.396	-62.661	-1.396	-62.661	-5.692	26.953
8300	-5.66	26.746	-1.408	-62.989	-1.408	-62.989	-5.66	26.627
8350	-5.628	26.421	-1.42	-63.315	-1.42	-63.315	-5.628	26.302
8400	-5.597	26.096	-1.432	-63.641	-1.432	-63.641	-5.597	25.976
8450	-5.566	25.773	-1.444	-63.966	-1.444	-63.966	-5.566	25.652
8500	-5.535	25.449	-1.455	-64.291	-1.455	-64.291	-5.535	25.328
8550	-5.505	25.127	-1.467	-64.614	-1.467	-64.614	-5.505	25.005
8600	-5.475	24.805	-1.479	-64.938	-1.479	-64.938	-5.475	24.682
8650	-5.446	24.484	-1.491	-65.26	-1.491	-65.26	-5.446	24.36
8700	-5.417	24.163	-1.503	-65.583	-1.503	-65.583	-5.417	24.039
8750	-5.388	23.843	-1.514	-65.904	-1.514	-65.904	-5.388	23.718
8800	-5.359	23.523	-1.526	-66.225	-1.526	-66.225	-5.359	23.398
8850	-5.331	23.204	-1.538	-66.545	-1.538	-66.545	-5.331	23.078
8900	-5.303	22.885	-1.55	-66.865	-1.55	-66.865	-5.303	22.759
8950	-5.275	22.568	-1.561	-67.184	-1.561	-67.184	-5.275	22.441
9000	-5.248	22.25	-1.573	-67.503	-1.573	-67.503	-5.248	22.123
9050	-5.221	21.934	-1.585	-67.821	-1.585	-67.821	-5.221	21.806
9100	-5.194	21.618	-1.596	-68.139	-1.596	-68.139	-5.194	21.489
9150	-5.168	21.302	-1.608	-68.455	-1.608	-68.455	-5.168	21.173
9200	-5.142	20.987	-1.619	-68.772	-1.619	-68.772	-5.142	20.857
9250	-5.116	20.673	-1.631	-69.087	-1.631	-69.087	-5.116	20.542
9300	-5.09	20.359	-1.642	-69.403	-1.642	-69.403	-5.09	20.228
9350	-5.065	20.046	-1.654	-69.717	-1.654	-69.717	-5.065	19.914
9400	-5.04	19.733	-1.665	-70.031	-1.665	-70.031	-5.04	19.6
9450	-5.015	19.421	-1.677	-70.345	-1.677	-70.345	-5.015	19.288
9500	-4.99	19.109	-1.688	-70.658	-1.688	-70.658	-4.99	18.975
9550	-4.966	18.798	-1.699	-70.97	-1.699	-70.97	-4.966	18.664
9600	-4.942	18.487	-1.711	-71.282	-1.711	-71.282	-4.942	18.352
9650	-4.919	18.178	-1.722	-71.593	-1.722	-71.593	-4.919	18.042
9700	-4.895	17.868	-1.733	-71.904	-1.733	-71.904	-4.895	17.732
9750	-4.872	17.559	-1.744	-72.214	-1.744	-72.214	-4.872	17.422
9800	-4.849	17.25	-1.756	-72.524	-1.756	-72.524	-4.849	17.113
9850	-4.826	16.943	-1.767	-72.833	-1.767	-72.833	-4.826	16.805
9900	-4.804	16.635	-1.778	-73.142	-1.778	-73.142	-4.804	16.497
9950	-4.782	16.329	-1.789	-73.45	-1.789	-73.45	-4.782	16.189
10000	-4.759	16.022	-1.8	-73.757	-1.8	-73.757	-4.759	15.882
10050	-4.738	15.716	-1.811	-74.064	-1.811	-74.064	-4.738	15.576
10100	-4.716	15.411	-1.822	-74.371	-1.822	-74.371	-4.716	15.27
10150	-4.695	15.106	-1.833	-74.677	-1.833	-74.677	-4.695	14.965
10200	-4.674	14.802	-1.844	-74.983	-1.844	-74.983	-4.674	14.659
10250	-4.653	14.498	-1.855	-75.287	-1.855	-75.287	-4.653	14.355
10300	-4.632	14.194	-1.866	-75.592	-1.866	-75.592	-4.632	14.051
10350	-4.612	13.892	-1.876	-75.896	-1.876	-75.896	-4.612	13.748
10400	-4.592	13.589	-1.887	-76.2	-1.887	-76.2	-4.592	13.445
10450	-4.572	13.288	-1.898	-76.503	-1.898	-76.503	-4.572	13.142
10500	-4.552	12.986	-1.909	-76.806	-1.909	-76.806	-4.552	12.84
10550	-4.533	12.685	-1.919	-77.107	-1.919	-77.107	-4.533	12.539
10600	-4.513	12.385	-1.93	-77.409	-1.93	-77.409	-4.513	12.238
10650	-4.494	12.085	-1.94	-77.71	-1.94	-77.71	-4.494	11.937
10700	-4.475	11.785	-1.951	-78.011	-1.951	-78.011	-4.475	11.637
10750	-4.457	11.486	-1.961	-78.311	-1.961	-78.311	-4.457	11.338
10800	-4.438	11.187	-1.972	-78.611	-1.972	-78.611	-4.438	11.038
10850	-4.42	10.889	-1.982	-78.91	-1.982	-78.91	-4.42	10.74
10900	-4.402	10.592	-1.992	-79.209	-1.992	-79.209	-4.402	10.441
10950	-4.384	10.295	-2.003	-79.508	-2.003	-79.508	-4.384	10.144
11000	-4.366	9.997	-2.013	-79.806	-2.013	-79.806	-4.366	9.846
11050	-4.349	9.701	-2.023	-80.103	-2.023	-80.103	-4.349	9.549
11100	-4.331	9.405	-2.033	-80.4	-2.033	-80.4	-4.331	9.253
11150	-4.314	9.11	-2.043	-80.697	-2.043	-80.697	-4.314	8.957
11200	-4.297	8.815	-2.053	-80.993	-2.053	-80.993	-4.297	8.661
11250	-4.28	8.52	-2.063	-81.289	-2.063	-81.289	-4.28	8.366
11300	-4.264	8.226	-2.073	-81.584	-2.073	-81.584	-4.264	8.071
11350	-4.247	7.932	-2.083	-81.879	-2.083	-81.879	-4.247	7.777
11400	-4.231	7.639	-2.093	-82.174	-2.093	-82.174	-4.231	7.483
11450	-4.215	7.346	-2.103	-82.468	-2.103	-82.468	-4.215	7.19
11500	-4.199	7.053	-2.113	-82.762	-2.113	-82.762	-4.199	6.896
11550	-4.184	6.761	-2.122	-83.055	-2.122	-83.055	-4.184	6.604
11600	-4.168	6.469	-2.132	-83.348	-2.132	-83.348	-4.168	6.311
11650	-4.153	6.178	-2.141	-83.64	-2.141	-83.64	-4.153	6.02
11700	-4.137	5.887	-2.151	-83.932	-2.151	-83.932	-4.137	5.728
11750	-4.122	5.597	-2.161	-84.224	-2.161	-84.224	-4.122	5.437
11800	-4.107	5.306	-2.17	-84.515	-2.17	-84.515	-4.108	5.146
11850	-4.093	5.017	-2.179	-84.806	-2.179	-84.806	-4.093	4.856
11900	-4.078	4.727	-2.189	-85.097	-2.189	-85.097	-4.078	4.566
11950	-4.064	4.438	-2.198	-85.387	-2.198	-85.387	-4.064	4.277
12000	-4.05	4.149	-2.207	-85.677	-2.207	-85.677	-4.05	3.987
12050	-4.036	3.861	-2.216	-85.966	-2.216	-85.966	-4.036	3.699
12100	-4.022	3.573	-2.226	-86.255	-2.226	-86.255	-4.022	3.41
12150	-4.008	3.286	-2.235	-86.544	-2.235	-86.544	-4.008	3.122
12200	-3.994	2.998	-2.244	-86.832	-2.244	-86.832	-3.994	2.834
12250	-3.981	2.712	-2.253	-87.12	-2.253	-87.12	-3.981	2.547
12300	-3.967	2.425	-2.262	-87.407	-2.262	-87.407	-3.968	2.26
12350	-3.954	2.139	-2.27	-87.695	-2.27	-87.695	-3.954	1.973
12400	-3.941	1.853	-2.279	-87.982	-2.279	-87.982	-3.941	1.687
12450	-3.929	1.568	-2.288	-88.268	-2.288	-88.268	-3.929	1.401
12500	-3.916	1.283	-2.297	-88.554	-2.297	-88.554	-3.916	1.115
12550	-3.903	0.998	-2.305	-88.84	-2.305	-88.84	-3.903	0.83
12600	-3.891	0.713	-2.314	-89.126	-2.314	-89.126	-3.891	0.545
12650	-3.879	0.429	-2.322	-89.411	-2.322	-89.411	-3.879	0.261
12700	-3.866	0.145	-2.331	-89.696	-2.331	-89.696	-3.866	-0.024
12750	-3.854	-0.138	-2.339	-89.98	-2.339	-89.98	-3.854	-0.308
12800	-3.842	-0.421	-2.348	-90.265	-2.348	-90.265	-3.843	-0.591
12850	-3.831	-0.704	-2.356	-90.548	-2.356	-90.548	-3.831	-0.875
12900	-3.819	-0.987	-2.364	-90.832	-2.364	-90.832	-3.819	-1.158
12950	-3.808	-1.269	-2.372	-91.115	-2.372	-91.115	-3.808	-1.44
13000	-3.796	-1.551	-2.381	-91.398	-2.381	-91.398	-3.796	-1.723
13050	-3.785	-1.832	-2.389	-91.681	-2.389	-91.681	-3.785	-2.005
13100	-3.774	-2.114	-2.397	-91.963	-2.397	-91.963	-3.774	-2.287
13150	-3.763	-2.395	-2.405	-92.245	-2.405	-92.245	-3.763	-2.568
13200	-3.752	-2.675	-2.412	-92.527	-2.412	-92.527	-3.752	-2.849
13250	-3.742	-2.956	-2.42	-92.809	-2.42	-92.809	-3.742	-3.13
13300	-3.731	-3.236	-2.428	-93.09	-2.428	-93.09	-3.731	-3.411
13350	-3.721	-3.516	-2.436	-93.371	-2.436	-93.371	-3.721	-3.691
13400	-3.71	-3.796	-2.443	-93.651	-2.443	-93.651	-3.71	-3.971
13450	-3.7	-4.075	-2.451	-93.932	-2.451	-93.932	-3.7	-4.251
13500	-3.69	-4.354	-2.459	-94.212	-2.459	-94.212	-3.69	-4.531
13550	-3.68	-4.633	-2.466	-94.492	-2.466	-94.492	-3.68	-4.81
13600	-3.67	-4.911	-2.473	-94.771	-2.473	-94.771	-3.67	-5.089
13650	-3.661	-5.189	-2.481	-95.051	-2.481	-95.051	-3.661	-5.367
13700	-3.651	-5.468	-2.488	-95.33	-2.488	-95.33	-3.651	-5.646
13750	-3.642	-5.745	-2.495	-95.608	-2.495	-95.608	-3.642	-5.924
13800	-3.632	-6.023	-2.502	-95.887	-2.502	-95.887	-3.632	-6.202
13850	-3.623	-6.3	-2.51	-96.165	-2.51	-96.165	-3.623	-6.48
13900	-3.614	-6.577	-2.517	-96.443	-2.517	-96.443	-3.614	-6.757
13950	-3.605	-6.854	-2.524	-96.721	-2.524	-96.721	-3.605	-7.035
14000	-3.596	-7.131	-2.53	-96.999	-2.53	-96.999	-3.596	-7.312
14050	-3.587	-7.407	-2.537	-97.276	-2.537	-97.276	-3.587	-7.588
14100	-3.579	-7.683	-2.544	-97.553	-2.544	-97.553	-3.579	-7.865
14150	-3.57	-7.959	-2.551	-97.83	-2.551	-97.83	-3.57	-8.141
14200	-3.562	-8.235	-2.557	-98.107	-2.557	-98.107	-3.562	-8.417
14250	-3.553	-8.51	-2.564	-98.383	-2.564	-98.383	-3.553	-8.693
14300	-3.545	-8.785	-2.571	-98.66	-2.571	-98.66	-3.545	-8.969
14350	-3.537	-9.06	-2.577	-98.936	-2.577	-98.936	-3.537	-9.244
14400	-3.529	-9.335	-2.583	-99.211	-2.583	-99.211	-3.529	-9.519
14450	-3.521	-9.61	-2.59	-99.487	-2.59	-99.487	-3.521	-9.794
14500	-3.513	-9.884	-2.596	-99.762	-2.596	-99.762	-3.513	-10.069
14550	-3.505	-10.158	-2.602	-100.038	-2.602	-100.038	-3.506	-10.344
14600	-3.498	-10.432	-2.608	-100.313	-2.608	-100.313	-3.498	-10.618
14650	-3.49	-10.706	-2.614	-100.587	-2.614	-100.587	-3.491	-10.892
14700	-3.483	-10.98	-2.621	-100.862	-2.621	-100.862	-3.483	-11.166
14750	-3.476	-11.253	-2.626	-101.136	-2.626	-101.136	-3.476	-11.44
14800	-3.469	-11.527	-2.632	-101.411	-2.632	-101.411	-3.469	-11.714
14850	-3.462	-11.8	-2.638	-101.685	-2.638	-101.685	-3.462	-11.987
14900	-3.454	-12.073	-2.644	-101.959	-2.644	-101.959	-3.455	-12.261
14950	-3.448	-12.345	-2.65	-102.232	-2.65	-102.232	-3.448	-12.534
15000	-3.441	-12.618	-2.655	-102.506	-2.655	-102.506	-3.441	-12.807
15050	-3.434	-12.89	-2.661	-102.779	-2.661	-102.779	-3.434	-13.079
15100	-3.428	-13.162	-2.666	-103.053	-2.666	-103.053	-3.428	-13.352
15150	-3.421	-13.434	-2.672	-103.326	-2.672	-103.326	-3.421	-13.624
15200	-3.415	-13.706	-2.677	-103.599	-2.677	-103.599	-3.415	-13.897
15250	-3.408	-13.978	-2.682	-103.871	-2.682	-103.871	-3.409	-14.169
15300	-3.402	-14.25	-2.688	-104.144	-2.688	-104.144	-3.402	-14.441
15350	-3.396	-14.521	-2.693	-104.416	-2.693	-104.416	-3.396	-14.712
15400	-3.39	-14.793	-2.698	-104.689	-2.698	-104.689	-3.39	-14.984
15450	-3.384	-15.064	-2.703	-104.961	-2.703	-104.961	-3.384	-15.256
15500	-3.378	-15.335	-2.708	-105.233	-2.708	-105.233	-3.379	-15.527
15550	-3.373	-15.606	-2.713	-105.505	-2.713	-105.505	-3.373	-15.798
15600	-3.367	-15.877	-2.718	-105.777	-2.718	-105.777	-3.367	-16.069
15650	-3.362	-16.147	-2.722	-106.048	-2.722	-106.048	-3.362	-16.34
