! AVX Thin Film Operation		Date: May 2002 
! Description: Accu-L® Series, Thin Film, SMD, RF Inductors
! Part Number: L08056R8CEWTR
! 50 MHz  -  10.05 GHz
! Serial Measurements
!
# mhz S db R 50
!	S11		S21		S12		S22
!	dB	Phase	dB	Phase	dB	Phase	dB	Phase
50	-34.908	85.548	-8.77e-3	-1.306	-8.77e-3	-1.306	-34.908	85.548
75	-31.592	85.083	-0.014	-1.925	-0.014	-1.925	-31.592	85.083
100	-29.199	84.617	-0.02	-2.544	-0.02	-2.544	-29.199	84.617
125	-27.324	84.151	-0.025	-3.162	-0.025	-3.162	-27.324	84.151
150	-25.783	83.685	-0.031	-3.781	-0.031	-3.781	-25.783	83.685
175	-24.475	83.219	-0.037	-4.4	-0.037	-4.4	-24.475	83.219
200	-23.338	82.754	-0.042	-5.019	-0.042	-5.019	-23.338	82.754
225	-22.344	82.206	-0.05	-5.633	-0.05	-5.633	-22.344	82.206
250	-21.452	81.658	-0.057	-6.248	-0.057	-6.248	-21.452	81.658
275	-20.643	81.11	-0.065	-6.862	-0.065	-6.862	-20.643	81.11
300	-19.903	80.562	-0.073	-7.477	-0.073	-7.477	-19.903	80.562
325	-19.228	79.988	-0.082	-8.088	-0.082	-8.088	-19.228	79.988
350	-18.602	79.413	-0.092	-8.699	-0.092	-8.699	-18.602	79.413
375	-18.017	78.839	-0.102	-9.31	-0.102	-9.31	-18.017	78.839
400	-17.47	78.264	-0.112	-9.922	-0.112	-9.922	-17.47	78.264
425	-16.96	77.678	-0.124	-10.53	-0.124	-10.53	-16.96	77.678
450	-16.478	77.091	-0.135	-11.139	-0.135	-11.139	-16.478	77.091
475	-16.022	76.505	-0.147	-11.747	-0.147	-11.747	-16.022	76.505
500	-15.589	75.919	-0.159	-12.356	-0.159	-12.356	-15.589	75.919
525	-15.181	75.326	-0.174	-12.961	-0.174	-12.961	-15.181	75.326
550	-14.791	74.734	-0.188	-13.567	-0.188	-13.567	-14.791	74.734
575	-14.417	74.142	-0.202	-14.173	-0.202	-14.173	-14.417	74.142
600	-14.06	73.55	-0.216	-14.779	-0.216	-14.779	-14.06	73.55
625	-13.72	72.955	-0.233	-15.382	-0.233	-15.382	-13.72	72.955
650	-13.394	72.36	-0.249	-15.985	-0.249	-15.985	-13.394	72.36
675	-13.079	71.765	-0.265	-16.588	-0.265	-16.588	-13.079	71.765
700	-12.775	71.17	-0.282	-17.191	-0.282	-17.191	-12.775	71.17
725	-12.485	70.574	-0.301	-17.791	-0.301	-17.791	-12.485	70.574
750	-12.205	69.978	-0.319	-18.391	-0.319	-18.391	-12.205	69.978
775	-11.934	69.382	-0.338	-18.991	-0.338	-18.991	-11.934	69.382
800	-11.671	68.786	-0.357	-19.591	-0.357	-19.591	-11.671	68.786
825	-11.419	68.19	-0.377	-20.188	-0.377	-20.188	-11.419	68.19
850	-11.174	67.595	-0.398	-20.786	-0.398	-20.786	-11.174	67.595
875	-10.937	66.999	-0.419	-21.383	-0.419	-21.383	-10.937	66.999
900	-10.705	66.403	-0.44	-21.98	-0.44	-21.98	-10.705	66.403
925	-10.483	65.808	-0.463	-22.574	-0.463	-22.574	-10.483	65.808
950	-10.267	65.213	-0.486	-23.168	-0.486	-23.168	-10.267	65.213
975	-10.056	64.619	-0.51	-23.762	-0.51	-23.762	-10.056	64.619
1000	-9.85	64.024	-0.533	-24.356	-0.533	-24.356	-9.85	64.024
1025	-9.652	63.43	-0.558	-24.947	-0.558	-24.947	-9.652	63.43
1050	-9.459	62.837	-0.583	-25.538	-0.583	-25.538	-9.459	62.837
1075	-9.27	62.244	-0.609	-26.128	-0.609	-26.128	-9.27	62.244
1100	-9.085	61.651	-0.634	-26.719	-0.634	-26.719	-9.085	61.651
1125	-8.907	61.059	-0.662	-27.307	-0.662	-27.307	-8.907	61.059
1150	-8.733	60.468	-0.689	-27.894	-0.689	-27.894	-8.733	60.468
1175	-8.562	59.877	-0.717	-28.482	-0.717	-28.482	-8.562	59.877
1200	-8.395	59.285	-0.745	-29.069	-0.745	-29.069	-8.395	59.285
1225	-8.234	58.696	-0.774	-29.653	-0.774	-29.653	-8.234	58.696
1250	-8.076	58.107	-0.804	-30.237	-0.804	-30.237	-8.076	58.107
1275	-7.921	57.518	-0.834	-30.821	-0.834	-30.821	-7.921	57.518
1300	-7.768	56.929	-0.864	-31.405	-0.864	-31.405	-7.768	56.929
1325	-7.622	56.343	-0.896	-31.985	-0.896	-31.985	-7.622	56.343
1350	-7.478	55.757	-0.928	-32.566	-0.928	-32.566	-7.478	55.757
1375	-7.336	55.17	-0.96	-33.146	-0.96	-33.146	-7.336	55.17
1400	-7.196	54.584	-0.993	-33.727	-0.993	-33.727	-7.196	54.584
1425	-7.062	54	-1.027	-34.304	-1.027	-34.304	-7.062	54
1450	-6.93	53.416	-1.061	-34.881	-1.061	-34.881	-6.93	53.416
1475	-6.8	52.833	-1.095	-35.457	-1.095	-35.457	-6.8	52.833
1500	-6.672	52.249	-1.13	-36.034	-1.13	-36.034	-6.672	52.249
1525	-6.548	51.668	-1.166	-36.607	-1.166	-36.607	-6.548	51.668
1550	-6.427	51.088	-1.203	-37.181	-1.203	-37.181	-6.427	51.088
1575	-6.307	50.507	-1.24	-37.754	-1.24	-37.754	-6.307	50.507
1600	-6.189	49.926	-1.276	-38.327	-1.276	-38.327	-6.189	49.926
1625	-6.075	49.348	-1.315	-38.897	-1.315	-38.897	-6.075	49.348
1650	-5.963	48.771	-1.354	-39.466	-1.354	-39.466	-5.963	48.771
1675	-5.852	48.193	-1.393	-40.036	-1.393	-40.036	-5.852	48.193
1700	-5.742	47.615	-1.432	-40.605	-1.432	-40.605	-5.742	47.615
1725	-5.637	47.041	-1.473	-41.171	-1.473	-41.171	-5.637	47.041
1750	-5.533	46.466	-1.514	-41.737	-1.514	-41.737	-5.533	46.466
1775	-5.431	45.892	-1.555	-42.302	-1.555	-42.302	-5.431	45.892
1800	-5.329	45.317	-1.597	-42.868	-1.597	-42.868	-5.329	45.317
1825	-5.231	44.746	-1.64	-43.43	-1.64	-43.43	-5.231	44.746
1850	-5.135	44.174	-1.684	-43.992	-1.684	-43.992	-5.135	44.174
1875	-5.04	43.603	-1.727	-44.555	-1.727	-44.555	-5.04	43.603
1900	-4.945	43.031	-1.771	-45.117	-1.771	-45.117	-4.945	43.031
1925	-4.855	42.463	-1.817	-45.675	-1.817	-45.675	-4.855	42.463
1950	-4.765	41.895	-1.862	-46.233	-1.862	-46.233	-4.765	41.895
1975	-4.676	41.326	-1.908	-46.792	-1.908	-46.792	-4.676	41.326
2000	-4.588	40.758	-1.955	-47.35	-1.955	-47.35	-4.588	40.758
2025	-4.504	40.193	-2.003	-47.905	-2.003	-47.905	-4.504	40.193
2050	-4.42	39.628	-2.051	-48.46	-2.051	-48.46	-4.42	39.628
2075	-4.337	39.063	-2.099	-49.014	-2.099	-49.014	-4.337	39.063
2100	-4.255	38.498	-2.148	-49.569	-2.148	-49.569	-4.255	38.498
2125	-4.176	37.936	-2.199	-50.12	-2.199	-50.12	-4.176	37.936
2150	-4.098	37.374	-2.249	-50.671	-2.249	-50.671	-4.098	37.374
2175	-4.021	36.812	-2.3	-51.222	-2.3	-51.222	-4.021	36.812
2200	-3.944	36.25	-2.352	-51.773	-2.352	-51.773	-3.944	36.25
2225	-3.871	35.691	-2.405	-52.321	-2.405	-52.321	-3.871	35.691
2250	-3.798	35.133	-2.458	-52.868	-2.458	-52.868	-3.798	35.133
2275	-3.725	34.574	-2.511	-53.416	-2.511	-53.416	-3.725	34.574
2300	-3.654	34.015	-2.565	-53.963	-2.565	-53.963	-3.654	34.015
2325	-3.585	33.459	-2.621	-54.507	-2.621	-54.507	-3.585	33.459
2350	-3.517	32.903	-2.677	-55.051	-2.677	-55.051	-3.517	32.903
2375	-3.449	32.348	-2.733	-55.595	-2.733	-55.595	-3.449	32.348
2400	-3.382	31.792	-2.789	-56.139	-2.789	-56.139	-3.382	31.792
2425	-3.317	31.239	-2.847	-56.68	-2.847	-56.68	-3.317	31.239
2450	-3.253	30.686	-2.906	-57.221	-2.906	-57.221	-3.253	30.686
2475	-3.19	30.133	-2.965	-57.761	-2.965	-57.761	-3.19	30.133
2500	-3.127	29.58	-3.024	-58.302	-3.024	-58.302	-3.127	29.58
2525	-3.067	29.03	-3.085	-58.839	-3.085	-58.839	-3.067	29.03
2550	-3.007	28.48	-3.147	-59.376	-3.147	-59.376	-3.007	28.48
2575	-2.947	27.93	-3.208	-59.914	-3.208	-59.914	-2.947	27.93
2600	-2.888	27.38	-3.271	-60.451	-3.271	-60.451	-2.888	27.38
2625	-2.831	26.833	-3.335	-60.985	-3.335	-60.985	-2.831	26.833
2650	-2.775	26.286	-3.399	-61.519	-3.399	-61.519	-2.775	26.286
2675	-2.719	25.739	-3.464	-62.053	-3.464	-62.053	-2.719	25.739
2700	-2.664	25.191	-3.529	-62.587	-3.529	-62.587	-2.664	25.191
2725	-2.611	24.647	-3.596	-63.118	-3.596	-63.118	-2.611	24.647
2750	-2.558	24.102	-3.663	-63.649	-3.663	-63.649	-2.558	24.102
2775	-2.506	23.558	-3.731	-64.18	-3.731	-64.18	-2.506	23.558
2800	-2.453	23.013	-3.8	-64.711	-3.8	-64.711	-2.453	23.013
2825	-2.404	22.471	-3.87	-65.239	-3.87	-65.239	-2.404	22.471
2850	-2.354	21.929	-3.94	-65.767	-3.94	-65.767	-2.354	21.929
2875	-2.305	21.386	-4.012	-66.295	-4.012	-66.295	-2.305	21.386
2900	-2.256	20.844	-4.083	-66.823	-4.083	-66.823	-2.256	20.844
2925	-2.209	20.304	-4.157	-67.348	-4.157	-67.348	-2.209	20.304
2950	-2.163	19.765	-4.231	-67.873	-4.231	-67.873	-2.163	19.765
2975	-2.116	19.225	-4.306	-68.398	-4.306	-68.398	-2.116	19.225
3000	-2.07	18.685	-4.381	-68.924	-4.381	-68.924	-2.07	18.685
3025	-2.026	18.147	-4.458	-69.446	-4.458	-69.446	-2.026	18.147
3050	-1.983	17.61	-4.536	-69.968	-4.536	-69.968	-1.983	17.61
3075	-1.939	17.072	-4.614	-70.491	-4.614	-70.491	-1.939	17.072
3100	-1.896	16.534	-4.693	-71.013	-4.693	-71.013	-1.896	16.534
3125	-1.855	15.999	-4.774	-71.533	-4.774	-71.533	-1.855	15.999
3150	-1.814	15.463	-4.856	-72.052	-4.856	-72.052	-1.814	15.463
3175	-1.773	14.927	-4.938	-72.572	-4.938	-72.572	-1.773	14.927
3200	-1.732	14.392	-5.022	-73.092	-5.022	-73.092	-1.732	14.392
3225	-1.694	13.858	-5.107	-73.609	-5.107	-73.609	-1.694	13.858
3250	-1.655	13.324	-5.192	-74.126	-5.192	-74.126	-1.655	13.324
3275	-1.617	12.79	-5.279	-74.643	-5.279	-74.643	-1.617	12.79
3300	-1.579	12.257	-5.367	-75.16	-5.367	-75.16	-1.579	12.257
3325	-1.542	11.724	-5.456	-75.675	-5.456	-75.675	-1.542	11.724
3350	-1.506	11.192	-5.547	-76.19	-5.547	-76.19	-1.506	11.192
3375	-1.47	10.66	-5.638	-76.705	-5.638	-76.705	-1.47	10.66
3400	-1.435	10.128	-5.73	-77.219	-5.73	-77.219	-1.435	10.128
3425	-1.401	9.597	-5.824	-77.732	-5.824	-77.732	-1.401	9.597
3450	-1.367	9.067	-5.92	-78.244	-5.92	-78.244	-1.367	9.067
3475	-1.333	8.536	-6.016	-78.757	-6.016	-78.757	-1.333	8.536
3500	-1.299	8.006	-6.114	-79.269	-6.114	-79.269	-1.299	8.006
3525	-1.268	7.476	-6.213	-79.779	-6.213	-79.779	-1.268	7.476
3550	-1.236	6.947	-6.314	-80.29	-6.314	-80.29	-1.236	6.947
3575	-1.204	6.418	-6.416	-80.8	-6.416	-80.8	-1.204	6.418
3600	-1.173	5.888	-6.519	-81.31	-6.519	-81.31	-1.173	5.888
3625	-1.143	5.36	-6.624	-81.818	-6.624	-81.818	-1.143	5.36
3650	-1.114	4.832	-6.73	-82.326	-6.73	-82.326	-1.114	4.832
3675	-1.084	4.304	-6.838	-82.834	-6.838	-82.834	-1.084	4.304
3700	-1.055	3.775	-6.948	-83.342	-6.948	-83.342	-1.055	3.775
3725	-1.027	3.248	-7.059	-83.848	-7.059	-83.848	-1.027	3.248
3750	-0.999	2.721	-7.172	-84.354	-7.172	-84.354	-0.999	2.721
3775	-0.971	2.194	-7.287	-84.86	-7.287	-84.86	-0.971	2.194
3800	-0.944	1.666	-7.403	-85.366	-7.403	-85.366	-0.944	1.666
3825	-0.918	1.14	-7.522	-85.869	-7.522	-85.869	-0.918	1.14
3850	-0.892	0.613	-7.642	-86.373	-7.642	-86.373	-0.892	0.613
3875	-0.867	0.087	-7.764	-86.877	-7.764	-86.877	-0.867	0.087
3900	-0.841	-0.44	-7.887	-87.381	-7.887	-87.381	-0.841	-0.44
3925	-0.817	-0.966	-8.014	-87.882	-8.014	-87.882	-0.817	-0.966
3950	-0.793	-1.492	-8.142	-88.384	-8.142	-88.384	-0.793	-1.492
3975	-0.769	-2.018	-8.273	-88.885	-8.273	-88.885	-0.769	-2.018
4000	-0.745	-2.544	-8.405	-89.387	-8.405	-89.387	-0.745	-2.544
4025	-0.723	-3.069	-8.54	-89.886	-8.54	-89.886	-0.723	-3.069
4050	-0.7	-3.595	-8.678	-90.386	-8.678	-90.386	-0.7	-3.595
4075	-0.678	-4.121	-8.818	-90.885	-8.818	-90.885	-0.678	-4.121
4100	-0.656	-4.646	-8.96	-91.384	-8.96	-91.384	-0.656	-4.646
4125	-0.635	-5.172	-9.105	-91.881	-9.105	-91.881	-0.635	-5.172
4150	-0.615	-5.697	-9.253	-92.378	-9.253	-92.378	-0.615	-5.697
4175	-0.594	-6.223	-9.403	-92.875	-9.403	-92.875	-0.594	-6.223
4200	-0.574	-6.748	-9.557	-93.372	-9.557	-93.372	-0.574	-6.748
4225	-0.555	-7.273	-9.714	-93.866	-9.714	-93.866	-0.555	-7.273
4250	-0.536	-7.799	-9.873	-94.36	-9.873	-94.36	-0.536	-7.799
4275	-0.517	-8.324	-10.036	-94.854	-10.036	-94.854	-0.517	-8.324
4300	-0.498	-8.85	-10.202	-95.347	-10.202	-95.347	-0.498	-8.85
4325	-0.481	-9.375	-10.373	-95.838	-10.373	-95.838	-0.481	-9.375
4350	-0.464	-9.901	-10.547	-96.329	-10.547	-96.329	-0.464	-9.901
4375	-0.446	-10.427	-10.724	-96.82	-10.724	-96.82	-0.446	-10.427
4400	-0.429	-10.952	-10.905	-97.31	-10.905	-97.31	-0.429	-10.952
4425	-0.413	-11.478	-11.091	-97.797	-11.091	-97.797	-0.413	-11.478
4450	-0.397	-12.004	-11.281	-98.283	-11.281	-98.283	-0.397	-12.004
4475	-0.382	-12.53	-11.476	-98.77	-11.476	-98.77	-0.382	-12.53
4500	-0.366	-13.057	-11.674	-99.256	-11.674	-99.256	-0.366	-13.057
4525	-0.351	-13.583	-11.879	-99.738	-11.879	-99.738	-0.351	-13.583
4550	-0.337	-14.11	-12.089	-100.219	-12.089	-100.219	-0.337	-14.11
4575	-0.323	-14.636	-12.304	-100.7	-12.304	-100.7	-0.323	-14.636
4600	-0.309	-15.163	-12.524	-101.182	-12.524	-101.182	-0.309	-15.163
4625	-0.296	-15.69	-12.752	-101.656	-12.752	-101.656	-0.296	-15.69
4650	-0.283	-16.217	-12.985	-102.13	-12.985	-102.13	-0.283	-16.217
4675	-0.27	-16.745	-13.225	-102.604	-13.225	-102.604	-0.27	-16.745
4700	-0.258	-17.272	-13.472	-103.078	-13.472	-103.078	-0.258	-17.272
4725	-0.246	-17.8	-13.728	-103.543	-13.728	-103.543	-0.246	-17.8
4750	-0.235	-18.328	-13.991	-104.007	-13.991	-104.007	-0.235	-18.328
4775	-0.224	-18.857	-14.262	-104.471	-14.262	-104.471	-0.224	-18.857
4800	-0.212	-19.385	-14.543	-104.935	-14.543	-104.935	-0.212	-19.385
4825	-0.203	-19.914	-14.834	-105.385	-14.834	-105.385	-0.203	-19.914
4850	-0.193	-20.443	-15.135	-105.834	-15.135	-105.834	-0.193	-20.443
4875	-0.183	-20.973	-15.447	-106.284	-15.447	-106.284	-0.183	-20.973
4900	-0.173	-21.502	-15.771	-106.733	-15.771	-106.733	-0.173	-21.502
4925	-0.165	-22.032	-16.109	-107.159	-16.109	-107.159	-0.165	-22.032
4950	-0.156	-22.563	-16.46	-107.585	-16.46	-107.585	-0.156	-22.563
4975	-0.148	-23.093	-16.826	-108.012	-16.826	-108.012	-0.148	-23.093
5000	-0.139	-23.624	-17.209	-108.438	-17.209	-108.438	-0.139	-23.624
5025	-0.132	-24.155	-17.611	-108.825	-17.611	-108.825	-0.132	-24.155
5050	-0.125	-24.687	-18.032	-109.212	-18.032	-109.212	-0.125	-24.687
5075	-0.118	-25.219	-18.475	-109.599	-18.475	-109.599	-0.118	-25.219
5100	-0.111	-25.751	-18.942	-109.986	-18.942	-109.986	-0.111	-25.751
5125	-0.106	-26.284	-19.437	-110.299	-19.437	-110.299	-0.106	-26.284
5150	-0.1	-26.817	-19.962	-110.612	-19.962	-110.612	-0.1	-26.817
5175	-0.095	-27.351	-20.521	-110.926	-20.521	-110.926	-0.095	-27.351
5200	-0.089	-27.884	-21.118	-111.239	-21.118	-111.239	-0.089	-27.884
5225	-0.085	-28.419	-21.761	-111.388	-21.761	-111.388	-0.085	-28.419
5250	-0.081	-28.954	-22.456	-111.537	-22.456	-111.537	-0.081	-28.954
5275	-0.077	-29.489	-23.211	-111.687	-23.211	-111.687	-0.077	-29.489
5300	-0.072	-30.023	-24.038	-111.836	-24.038	-111.836	-0.072	-30.023
5325	-0.07	-30.56	-24.951	-111.49	-24.951	-111.49	-0.07	-30.56
5350	-0.067	-31.097	-25.972	-111.144	-25.972	-111.144	-0.067	-31.097
5375	-0.064	-31.633	-27.129	-110.798	-27.129	-110.798	-0.064	-31.633
5400	-0.062	-32.17	-28.465	-110.452	-28.465	-110.452	-0.062	-32.17
5425	-0.06	-32.708	-30.003	-106.791	-30.003	-106.791	-0.06	-32.708
5450	-0.059	-33.247	-31.872	-103.131	-31.872	-103.131	-0.059	-33.247
5475	-0.058	-33.785	-34.258	-99.471	-34.258	-99.471	-0.058	-33.785
5500	-0.056	-34.324	-37.558	-95.81	-37.558	-95.81	-0.056	-34.324
5525	-0.056	-34.864	-37.341	-63.412	-37.341	-63.412	-0.056	-34.864
5550	-0.057	-35.405	-37.129	-31.013	-37.129	-31.013	-0.057	-35.405
5575	-0.057	-35.945	-36.922	1.385	-36.922	1.385	-0.057	-35.945
5600	-0.057	-36.485	-36.721	33.784	-36.721	33.784	-0.057	-36.485
5625	-0.058	-37.028	-33.653	36.909	-33.653	36.909	-0.058	-37.028
5650	-0.06	-37.57	-31.39	40.034	-31.39	40.034	-0.06	-37.57
5675	-0.062	-38.113	-29.597	43.16	-29.597	43.16	-0.062	-38.113
5700	-0.063	-38.655	-28.112	46.285	-28.112	46.285	-0.063	-38.655
5725	-0.066	-39.2	-26.814	46.574	-26.814	46.574	-0.066	-39.2
5750	-0.069	-39.744	-25.685	46.863	-25.685	46.863	-0.069	-39.744
5775	-0.072	-40.289	-24.687	47.151	-24.687	47.151	-0.072	-40.289
5800	-0.075	-40.833	-23.791	47.44	-23.791	47.44	-0.075	-40.833
5825	-0.08	-41.38	-22.976	47.267	-22.976	47.267	-0.08	-41.38
5850	-0.084	-41.927	-22.231	47.093	-22.231	47.093	-0.084	-41.927
5875	-0.089	-42.473	-21.544	46.92	-21.544	46.92	-0.089	-42.473
5900	-0.093	-43.02	-20.908	46.746	-20.908	46.746	-0.093	-43.02
5925	-0.099	-43.569	-20.315	46.414	-20.315	46.414	-0.099	-43.569
5950	-0.105	-44.118	-19.759	46.082	-19.759	46.082	-0.105	-44.118
5975	-0.111	-44.667	-19.237	45.749	-19.237	45.749	-0.111	-44.667
6000	-0.117	-45.215	-18.745	45.417	-18.745	45.417	-0.117	-45.215
6025	-0.125	-45.767	-18.279	45.011	-18.279	45.011	-0.125	-45.767
6050	-0.132	-46.318	-17.837	44.604	-17.837	44.604	-0.132	-46.318
6075	-0.14	-46.869	-17.416	44.198	-17.416	44.198	-0.14	-46.869
6100	-0.147	-47.42	-17.014	43.791	-17.014	43.791	-0.147	-47.42
6125	-0.156	-47.973	-16.631	43.344	-16.631	43.344	-0.156	-47.973
6150	-0.165	-48.527	-16.264	42.897	-16.264	42.897	-0.165	-48.527
6175	-0.175	-49.08	-15.912	42.449	-15.912	42.449	-0.175	-49.08
6200	-0.184	-49.633	-15.574	42.002	-15.574	42.002	-0.184	-49.633
6225	-0.194	-50.189	-15.249	41.529	-15.249	41.529	-0.194	-50.189
6250	-0.205	-50.744	-14.935	41.057	-14.935	41.057	-0.205	-50.744
6275	-0.215	-51.3	-14.633	40.584	-14.633	40.584	-0.215	-51.3
6300	-0.226	-51.855	-14.34	40.111	-14.34	40.111	-0.226	-51.855
6325	-0.238	-52.413	-14.059	39.621	-14.059	39.621	-0.238	-52.413
6350	-0.25	-52.971	-13.786	39.132	-13.786	39.132	-0.25	-52.971
6375	-0.262	-53.529	-13.521	38.642	-13.521	38.642	-0.262	-53.529
6400	-0.275	-54.087	-13.264	38.152	-13.264	38.152	-0.275	-54.087
6425	-0.288	-54.647	-13.015	37.65	-13.015	37.65	-0.288	-54.647
6450	-0.302	-55.207	-12.774	37.148	-12.774	37.148	-0.302	-55.207
6475	-0.316	-55.767	-12.539	36.646	-12.539	36.646	-0.316	-55.767
6500	-0.33	-56.327	-12.31	36.144	-12.31	36.144	-0.33	-56.327
6525	-0.345	-56.889	-12.088	35.633	-12.088	35.633	-0.345	-56.889
6550	-0.361	-57.451	-11.872	35.121	-11.872	35.121	-0.361	-57.451
6575	-0.376	-58.013	-11.661	34.61	-11.661	34.61	-0.376	-58.013
6600	-0.391	-58.575	-11.454	34.099	-11.454	34.099	-0.391	-58.575
6625	-0.408	-59.14	-11.254	33.58	-11.254	33.58	-0.408	-59.14
6650	-0.425	-59.704	-11.059	33.062	-11.059	33.062	-0.425	-59.704
6675	-0.443	-60.268	-10.868	32.544	-10.868	32.544	-0.443	-60.268
6700	-0.46	-60.832	-10.68	32.025	-10.68	32.025	-0.46	-60.832
6725	-0.478	-61.399	-10.499	31.501	-10.499	31.501	-0.478	-61.399
6750	-0.497	-61.965	-10.32	30.977	-10.32	30.977	-0.497	-61.965
6775	-0.516	-62.531	-10.146	30.453	-10.146	30.453	-0.516	-62.531
6800	-0.535	-63.097	-9.975	29.929	-9.975	29.929	-0.535	-63.097
6825	-0.555	-63.666	-9.808	29.4	-9.808	29.4	-0.555	-63.666
6850	-0.575	-64.234	-9.645	28.871	-9.645	28.871	-0.575	-64.234
6875	-0.596	-64.802	-9.485	28.342	-9.485	28.342	-0.596	-64.802
6900	-0.616	-65.37	-9.327	27.813	-9.327	27.813	-0.616	-65.37
6925	-0.638	-65.94	-9.174	27.28	-9.174	27.28	-0.638	-65.94
6950	-0.661	-66.51	-9.024	26.747	-9.024	26.747	-0.661	-66.51
6975	-0.683	-67.08	-8.876	26.215	-8.876	26.215	-0.683	-67.08
7000	-0.705	-67.65	-8.731	25.682	-8.731	25.682	-0.705	-67.65
7025	-0.729	-68.222	-8.589	25.146	-8.589	25.146	-0.729	-68.222
7050	-0.753	-68.794	-8.45	24.61	-8.45	24.61	-0.753	-68.794
7075	-0.777	-69.365	-8.313	24.074	-8.313	24.074	-0.777	-69.365
7100	-0.801	-69.937	-8.178	23.538	-8.178	23.538	-0.801	-69.937
7125	-0.826	-70.51	-8.047	22.999	-8.047	22.999	-0.826	-70.51
7150	-0.852	-71.083	-7.918	22.46	-7.918	22.46	-0.852	-71.083
7175	-0.878	-71.657	-7.791	21.921	-7.791	21.921	-0.878	-71.657
7200	-0.903	-72.23	-7.665	21.383	-7.665	21.383	-0.903	-72.23
7225	-0.931	-72.805	-7.543	20.842	-7.543	20.842	-0.931	-72.805
7250	-0.958	-73.379	-7.423	20.301	-7.423	20.301	-0.958	-73.379
7275	-0.986	-73.954	-7.304	19.759	-7.304	19.759	-0.986	-73.954
7300	-1.013	-74.529	-7.187	19.218	-7.187	19.218	-1.013	-74.529
7325	-1.042	-75.105	-7.073	18.676	-7.073	18.676	-1.042	-75.105
7350	-1.072	-75.681	-6.961	18.133	-6.961	18.133	-1.072	-75.681
7375	-1.101	-76.257	-6.85	17.59	-6.85	17.59	-1.101	-76.257
7400	-1.13	-76.833	-6.741	17.047	-6.741	17.047	-1.13	-76.833
7425	-1.161	-77.41	-6.634	16.503	-6.634	16.503	-1.161	-77.41
7450	-1.192	-77.987	-6.529	15.958	-6.529	15.958	-1.192	-77.987
7475	-1.224	-78.564	-6.426	15.414	-6.426	15.414	-1.224	-78.564
7500	-1.255	-79.141	-6.323	14.87	-6.323	14.87	-1.255	-79.141
7525	-1.288	-79.719	-6.224	14.324	-6.224	14.324	-1.288	-79.719
7550	-1.32	-80.297	-6.125	13.779	-6.125	13.779	-1.32	-80.297
7575	-1.353	-80.875	-6.028	13.233	-6.028	13.233	-1.353	-80.875
7600	-1.387	-81.453	-5.932	12.688	-5.932	12.688	-1.387	-81.453
7625	-1.421	-82.032	-5.838	12.141	-5.838	12.141	-1.421	-82.032
7650	-1.456	-82.611	-5.746	11.595	-5.746	11.595	-1.456	-82.611
7675	-1.491	-83.19	-5.655	11.049	-5.655	11.049	-1.491	-83.19
7700	-1.526	-83.768	-5.565	10.502	-5.565	10.502	-1.526	-83.768
7725	-1.562	-84.348	-5.477	9.956	-5.477	9.956	-1.562	-84.348
7750	-1.599	-84.927	-5.39	9.409	-5.39	9.409	-1.599	-84.927
7775	-1.636	-85.507	-5.305	8.862	-5.305	8.862	-1.636	-85.507
7800	-1.672	-86.086	-5.22	8.315	-5.22	8.315	-1.672	-86.086
7825	-1.711	-86.666	-5.137	7.768	-5.137	7.768	-1.711	-86.666
