!	AVX THIN FILM OPERATION
!	
!	0402 SIZE LOW PASS FILTER P/N LP0402N3500ANTR
!
!	Created August 2007
!						
!	Network Analyzer HP8720E S.07.64: Feb23, 2000 Serial No.US39172382		
!	
#	mhz	S	db	R	50			
!	S11	S11	S21	S21	S12	S12	S22	S22
!	dB	Phase	dB	Phase	dB	Phase	dB	Phase
50	-50.017	-54.102	-0.023	-0.533	-0.023	-0.533	-50.017	-54.102
117.25	-45.622	-63.526	-0.015	-1.805	-0.015	-1.805	-45.622	-63.526
184.5	-41.329	-75.3	-0.003	-3.034	-0.003	-3.034	-41.329	-75.3
251.75	-38.625	-81.358	-0.037	-3.859	-0.037	-3.859	-38.625	-81.358
319	-36.49	-88.955	-0.045	-4.922	-0.045	-4.922	-36.49	-88.955
386.25	-34.682	-94.555	-0.04	-5.727	-0.04	-5.727	-34.682	-94.555
453.5	-33.259	-99.89	-0.038	-6.835	-0.038	-6.835	-33.259	-99.89
520.75	-32.008	-105.51	-0.038	-7.967	-0.038	-7.967	-32.008	-105.51
588	-30.968	-109.62	-0.026	-8.946	-0.026	-8.946	-30.968	-109.62
655.25	-30.095	-114.16	-0.048	-9.866	-0.048	-9.866	-30.095	-114.16
722.5	-29.296	-118.31	-0.043	-11.111	-0.043	-11.111	-29.296	-118.31
789.75	-28.553	-122.58	-0.045	-12.026	-0.045	-12.026	-28.553	-122.58
857	-27.932	-126.59	-0.059	-13.074	-0.059	-13.074	-27.932	-126.59
924.25	-27.319	-130.62	-0.059	-14.311	-0.059	-14.311	-27.319	-130.62
991.5	-26.806	-134.94	-0.052	-15.171	-0.052	-15.171	-26.806	-134.94
1058.75	-26.333	-138.97	-0.062	-16.331	-0.062	-16.331	-26.333	-138.97
1126	-25.936	-143.09	-0.063	-17.283	-0.063	-17.283	-25.936	-143.09
1193.25	-25.562	-147.27	-0.067	-18.463	-0.067	-18.463	-25.562	-147.27
1260.5	-25.267	-151.14	-0.057	-19.35	-0.057	-19.35	-25.267	-151.14
1327.75	-25.012	-155.26	-0.076	-20.499	-0.076	-20.499	-25.012	-155.26
1395	-24.761	-159.38	-0.069	-21.525	-0.069	-21.525	-24.761	-159.38
1462.25	-24.578	-163.57	-0.08	-22.692	-0.08	-22.692	-24.578	-163.57
1529.5	-24.431	-167.84	-0.09	-23.719	-0.09	-23.719	-24.431	-167.84
1596.75	-24.335	-172.29	-0.097	-24.765	-0.097	-24.765	-24.335	-172.29
1664	-24.299	-176.66	-0.092	-25.811	-0.092	-25.811	-24.299	-176.66
1731.25	-24.288	178.87	-0.102	-26.991	-0.102	-26.991	-24.288	178.87
1798.5	-24.353	174.29	-0.107	-28.18	-0.107	-28.18	-24.353	174.29
1865.75	-24.457	169.54	-0.106	-29.391	-0.106	-29.391	-24.457	169.54
1933	-24.624	164.55	-0.099	-30.454	-0.099	-30.454	-24.624	164.55
2000.25	-24.818	159.55	-0.094	-31.649	-0.094	-31.649	-24.818	159.55
2067.5	-25.103	154.11	-0.12	-32.823	-0.12	-32.823	-25.103	154.11
2134.75	-25.451	147.79	-0.096	-34.154	-0.096	-34.154	-25.451	147.79
2202	-25.896	141.44	-0.103	-35.147	-0.103	-35.147	-25.896	141.44
2269.25	-26.429	134.05	-0.088	-36.586	-0.088	-36.586	-26.429	134.05
2336.5	-26.997	126.2	-0.102	-37.55	-0.102	-37.55	-26.997	126.2
2403.75	-27.673	116.54	-0.134	-39.115	-0.134	-39.115	-27.673	116.54
2471	-28.339	105.15	-0.134	-40.255	-0.134	-40.255	-28.339	105.15
2538.25	-28.958	91.53	-0.142	-41.857	-0.142	-41.857	-28.958	91.53
2605.5	-29.234	75.045	-0.146	-43.19	-0.146	-43.19	-29.234	75.045
2672.75	-29.207	57.527	-0.161	-44.574	-0.161	-44.574	-29.207	57.527
2740	-28.64	39.445	-0.155	-45.994	-0.155	-45.994	-28.64	39.445
2807.25	-27.665	22.772	-0.162	-47.343	-0.162	-47.343	-27.665	22.772
2874.5	-26.316	8.337	-0.176	-48.914	-0.176	-48.914	-26.316	8.337
2941.75	-24.91	-3.858	-0.191	-50.192	-0.191	-50.192	-24.91	-3.858
3009	-23.468	-14.113	-0.185	-51.839	-0.185	-51.839	-23.468	-14.113
3076.25	-22.124	-23.048	-0.203	-53.124	-0.203	-53.124	-22.124	-23.048
3143.5	-20.81	-30.829	-0.245	-54.959	-0.245	-54.959	-20.81	-30.829
3210.75	-19.605	-37.79	-0.273	-56.352	-0.273	-56.352	-19.605	-37.79
3278	-18.446	-43.882	-0.315	-58.232	-0.315	-58.232	-18.446	-43.882
3345.25	-17.373	-50.076	-0.32	-59.793	-0.32	-59.793	-17.373	-50.076
3412.5	-16.343	-55.594	-0.365	-61.664	-0.365	-61.664	-16.343	-55.594
3479.75	-15.415	-60.915	-0.398	-63.581	-0.398	-63.581	-15.415	-60.915
3547	-14.486	-65.97	-0.462	-65.138	-0.462	-65.138	-14.486	-65.97
3614.25	-13.614	-71.065	-0.483	-67.294	-0.483	-67.294	-13.614	-71.065
3681.5	-12.814	-75.814	-0.55	-69.031	-0.55	-69.031	-12.814	-75.814
3748.75	-12.083	-80.614	-0.596	-71.033	-0.596	-71.033	-12.083	-80.614
3816	-11.284	-85.077	-0.678	-72.923	-0.678	-72.923	-11.284	-85.077
3883.25	-10.6	-89.703	-0.739	-75.094	-0.739	-75.094	-10.6	-89.703
3950.5	-9.909	-94.303	-0.874	-77.11	-0.874	-77.11	-9.909	-94.303
4017.75	-9.334	-98.884	-0.883	-78.72	-0.883	-78.72	-9.334	-98.884
4085	-8.672	-103.1	-1.078	-81.245	-1.078	-81.245	-8.672	-103.1
4152.25	-8.103	-107.64	-1.16	-83.154	-1.16	-83.154	-8.103	-107.64
4219.5	-7.551	-112.19	-1.266	-85.505	-1.266	-85.505	-7.551	-112.19
4286.75	-7.02	-116.37	-1.478	-87.491	-1.478	-87.491	-7.02	-116.37
4354	-6.515	-120.88	-1.498	-89.348	-1.498	-89.348	-6.515	-120.88
4421.25	-5.987	-125.07	-1.694	-92.504	-1.694	-92.504	-5.987	-125.07
4488.5	-5.559	-129.79	-1.861	-93.355	-1.861	-93.355	-5.559	-129.79
4555.75	-5.101	-133.99	-2.01	-96.306	-2.01	-96.306	-5.101	-133.99
4623	-4.699	-138.52	-2.184	-98.446	-2.184	-98.446	-4.699	-138.52
4690.25	-4.271	-142.74	-2.431	-100.88	-2.431	-100.88	-4.271	-142.74
4757.5	-3.853	-147.36	-2.443	-103.4	-2.443	-103.4	-3.853	-147.36
4824.75	-3.532	-151.42	-2.874	-105.24	-2.874	-105.24	-3.532	-151.42
4892	-3.17	-156.06	-2.787	-108.01	-2.787	-108.01	-3.17	-156.06
4959.25	-2.842	-160.23	-3.232	-110.61	-3.232	-110.61	-2.842	-160.23
5026.5	-2.519	-164.94	-3.353	-112.93	-3.353	-112.93	-2.519	-164.94
5093.75	-2.257	-168.84	-3.645	-115.05	-3.645	-115.05	-2.257	-168.84
5161	-1.927	-173.9	-3.793	-119.18	-3.793	-119.18	-1.927	-173.9
5228.25	-1.705	-177.74	-4.197	-120.83	-4.197	-120.83	-1.705	-177.74
5295.5	-1.449	177.37	-4.369	-124.85	-4.369	-124.85	-1.449	177.37
5362.75	-1.244	173.51	-4.871	-126.89	-4.871	-126.89	-1.244	173.51
5430	-0.988	168.47	-4.96	-130.55	-4.96	-130.55	-0.988	168.47
5497.25	-0.917	164.62	-5.669	-133.75	-5.669	-133.75	-0.917	164.62
5564.5	-0.644	159.65	-5.932	-137.3	-5.932	-137.3	-0.644	159.65
5631.75	-0.608	156.03	-6.546	-140.48	-6.546	-140.48	-0.608	156.03
5699	-0.372	151	-6.884	-144.09	-6.884	-144.09	-0.372	151
5766.25	-0.351	147.28	-7.684	-146.51	-7.684	-146.51	-0.351	147.28
5833.5	-0.18	142.5	-8.114	-150.46	-8.114	-150.46	-0.18	142.5
5900.75	-0.189	138.88	-9.079	-153.57	-9.079	-153.57	-0.189	138.88
5968	-0.024	134.2	-9.66	-156.38	-9.66	-156.38	-0.024	134.2
6035.25	-0.065	130.66	-10.552	-159.05	-10.552	-159.05	-0.065	130.66
6102.5	0.044	126.16	-11.273	-162.39	-11.273	-162.39	0.044	126.16
6169.75	-0.051	122.52	-12.398	-163.98	-12.398	-163.98	-0.051	122.52
6237	0.078	118.19	-13.217	-166.03	-13.217	-166.03	0.078	118.19
6304.25	-0.031	115.03	-14.337	-167.31	-14.337	-167.31	-0.031	115.03
6371.5	0.07	110.65	-15.284	-171.19	-15.284	-171.19	0.07	110.65
6438.75	-0.08	107.64	-17.007	-170.75	-17.007	-170.75	-0.08	107.64
6506	0.147	103.6	-17.981	-170.96	-17.981	-170.96	0.147	103.6
6573.25	-0.003	99.926	-19.555	-172.79	-19.555	-172.79	-0.003	99.926
6640.5	0.114	96.402	-21.111	-173.9	-21.111	-173.9	0.114	96.402
6707.75	-0.02	93.09	-23.14	-171.52	-23.14	-171.52	-0.02	93.09
6775	0.106	89.414	-25.284	-169.46	-25.284	-169.46	0.106	89.414
6842.25	-0.039	86.458	-27.591	-163.21	-27.591	-163.21	-0.039	86.458
6909.5	0.018	83.173	-30.618	-153.62	-30.618	-153.62	0.018	83.173
6976.75	-0.118	80.114	-33.659	-130.07	-33.659	-130.07	-0.118	80.114
7044	-0.015	77.083	-34.055	-95.441	-34.055	-95.441	-0.015	77.083
7111.25	-0.212	73.891	-32.172	-71.123	-32.172	-71.123	-0.212	73.891
7178.5	-0.125	71.158	-29.756	-58.055	-29.756	-58.055	-0.125	71.158
7245.75	-0.264	68.018	-27.894	-51.763	-27.894	-51.763	-0.264	68.018
7313	-0.2	65.418	-26.382	-47.935	-26.382	-47.935	-0.2	65.418
7380.25	-0.362	62.538	-24.908	-45.574	-24.908	-45.574	-0.362	62.538
7447.5	-0.286	60.146	-23.947	-45.876	-23.947	-45.876	-0.286	60.146
7514.75	-0.416	57.086	-23.176	-44.893	-23.176	-44.893	-0.416	57.086
7582	-0.389	54.746	-22.47	-45.012	-22.47	-45.012	-0.389	54.746
7649.25	-0.522	52.133	-21.939	-45.764	-21.939	-45.764	-0.522	52.133
7716.5	-0.46	49.764	-21.498	-45.319	-21.498	-45.319	-0.46	49.764
7783.75	-0.587	46.873	-20.944	-46.82	-20.944	-46.82	-0.587	46.873
7851	-0.548	44.86	-20.846	-46.152	-20.846	-46.152	-0.548	44.86
7918.25	-0.617	42.074	-20.418	-46.296	-20.418	-46.296	-0.617	42.074
7985.5	-0.618	40.213	-20.291	-46.633	-20.291	-46.633	-0.618	40.213
8052.75	-0.714	37.319	-19.89	-46.678	-19.89	-46.678	-0.714	37.319
8120	-0.706	35.402	-19.765	-47.098	-19.765	-47.098	-0.706	35.402
8187.25	-0.751	32.857	-19.528	-47.639	-19.528	-47.639	-0.751	32.857
8254.5	-0.783	30.917	-19.536	-46.163	-19.536	-46.163	-0.783	30.917
8321.75	-0.802	28.177	-19.064	-47.068	-19.064	-47.068	-0.802	28.177
8389	-0.804	26.351	-19.214	-46.914	-19.214	-46.914	-0.804	26.351
8456.25	-0.851	23.68	-18.887	-47.541	-18.887	-47.541	-0.851	23.68
8523.5	-0.899	22.052	-18.866	-46.365	-18.866	-46.365	-0.899	22.052
8590.75	-0.896	19.637	-18.537	-47.852	-18.537	-47.852	-0.896	19.637
8658	-0.864	17.597	-18.453	-46.368	-18.453	-46.368	-0.864	17.597
8725.25	-0.9	15.366	-18.314	-49.009	-18.314	-49.009	-0.9	15.366
8792.5	-0.981	13.545	-18.294	-45.503	-18.294	-45.503	-0.981	13.545
8859.75	-0.938	10.97	-18.016	-48.757	-18.016	-48.757	-0.938	10.97
8927	-0.943	9.326	-17.814	-49.106	-17.814	-49.106	-0.943	9.326
8994.25	-0.952	6.971	-17.889	-49.749	-17.889	-49.749	-0.952	6.971
9061.5	-0.983	5.228	-17.521	-48.668	-17.521	-48.668	-0.983	5.228
9128.75	-0.957	2.512	-17.567	-50.426	-17.567	-50.426	-0.957	2.512
9196	-0.971	1.089	-17.428	-51.553	-17.428	-51.553	-0.971	1.089
9263.25	-0.947	-1.299	-17.419	-52.343	-17.419	-52.343	-0.947	-1.299
9330.5	-1.017	-3.002	-17.461	-52.571	-17.461	-52.571	-1.017	-3.002
9397.75	-0.983	-5.25	-17.185	-54.293	-17.185	-54.293	-0.983	-5.25
9465	-0.998	-6.959	-17.311	-55.909	-17.311	-55.909	-0.998	-6.959
9532.25	-0.99	-9.474	-17.221	-55.997	-17.221	-55.997	-0.99	-9.474
9599.5	-1.007	-11.28	-17.433	-55.714	-17.433	-55.714	-1.007	-11.28
9666.75	-1.003	-13.602	-17.305	-58.483	-17.305	-58.483	-1.003	-13.602
9734	-1.014	-15.268	-17.541	-58.355	-17.541	-58.355	-1.014	-15.268
9801.25	-0.99	-17.467	-17.47	-60.654	-17.47	-60.654	-0.99	-17.467
9868.5	-0.977	-19.303	-17.478	-60.152	-17.478	-60.152	-0.977	-19.303
9935.75	-0.976	-21.651	-17.524	-61.068	-17.524	-61.068	-0.976	-21.651
10003	-0.981	-23.368	-17.76	-60.244	-17.76	-60.244	-0.981	-23.368
10070.25	-0.97	-25.55	-17.931	-61.898	-17.931	-61.898	-0.97	-25.55
10137.5	-0.925	-27.408	-18.021	-61.784	-18.021	-61.784	-0.925	-27.408
10204.75	-0.941	-29.527	-18.257	-62.72	-18.257	-62.72	-0.941	-29.527
10272	-0.926	-31.544	-18.387	-62.556	-18.387	-62.556	-0.926	-31.544
10339.25	-0.9	-33.606	-18.292	-62.814	-18.292	-62.814	-0.9	-33.606
10406.5	-0.894	-35.583	-18.431	-63.055	-18.431	-63.055	-0.894	-35.583
10473.75	-0.876	-37.867	-18.707	-63.174	-18.707	-63.174	-0.876	-37.867
10541	-0.888	-39.728	-18.778	-61.75	-18.778	-61.75	-0.888	-39.728
10608.25	-0.883	-41.861	-18.768	-63.284	-18.768	-63.284	-0.883	-41.861
10675.5	-0.865	-44.026	-18.796	-61.913	-18.796	-61.913	-0.865	-44.026
10742.75	-0.847	-46.103	-18.968	-63.171	-18.968	-63.171	-0.847	-46.103
10810	-0.861	-48.296	-18.871	-61.328	-18.871	-61.328	-0.861	-48.296
10877.25	-0.823	-50.238	-19.076	-61.366	-19.076	-61.366	-0.823	-50.238
10944.5	-0.786	-52.773	-18.78	-62.589	-18.78	-62.589	-0.786	-52.773
11011.75	-0.774	-54.731	-19.321	-62.286	-19.321	-62.286	-0.774	-54.731
11079	-0.781	-56.905	-18.877	-61.863	-18.877	-61.863	-0.781	-56.905
11146.25	-0.77	-59.089	-19.075	-61.865	-19.075	-61.865	-0.77	-59.089
11213.5	-0.789	-61.349	-19.001	-63.232	-19.001	-63.232	-0.789	-61.349
11280.75	-0.725	-63.64	-19.038	-62.012	-19.038	-62.012	-0.725	-63.64
11348	-0.777	-65.906	-19.176	-64.021	-19.176	-64.021	-0.777	-65.906
11415.25	-0.744	-68.158	-19.074	-62.406	-19.074	-62.406	-0.744	-68.158
11482.5	-0.78	-70.501	-19.093	-65.02	-19.093	-65.02	-0.78	-70.501
11549.75	-0.744	-72.734	-19.18	-64.601	-19.18	-64.601	-0.744	-72.734
11617	-0.773	-75.074	-19.226	-65.244	-19.226	-65.244	-0.773	-75.074
11684.25	-0.74	-77.334	-19.093	-65.869	-19.093	-65.869	-0.74	-77.334
11751.5	-0.778	-79.774	-19.404	-66.874	-19.404	-66.874	-0.778	-79.774
11818.75	-0.756	-82.021	-19.34	-66.956	-19.34	-66.956	-0.756	-82.021
11886	-0.782	-84.37	-19.447	-68.996	-19.447	-68.996	-0.782	-84.37
11953.25	-0.788	-86.747	-19.501	-68.184	-19.501	-68.184	-0.788	-86.747
12020.5	-0.815	-89.212	-19.527	-70.547	-19.527	-70.547	-0.815	-89.212
12087.75	-0.835	-91.544	-19.748	-71.072	-19.748	-71.072	-0.835	-91.544
12155	-0.854	-93.897	-19.832	-71.713	-19.832	-71.713	-0.854	-93.897
12222.25	-0.878	-96.332	-19.93	-72.569	-19.93	-72.569	-0.878	-96.332
12289.5	-0.921	-98.796	-20.232	-73.972	-20.232	-73.972	-0.921	-98.796
12356.75	-0.929	-101.15	-20.216	-74.572	-20.216	-74.572	-0.929	-101.15
12424	-0.968	-103.47	-20.462	-75.802	-20.462	-75.802	-0.968	-103.47
12491.25	-0.983	-105.8	-20.698	-76.954	-20.698	-76.954	-0.983	-105.8
12558.5	-1.017	-108.12	-20.875	-77.124	-20.875	-77.124	-1.017	-108.12
12625.75	-1.077	-110.41	-20.944	-78.665	-20.944	-78.665	-1.077	-110.41
12693	-1.115	-112.89	-21.316	-79.551	-21.316	-79.551	-1.115	-112.89
12760.25	-1.153	-115.11	-21.653	-80.675	-21.653	-80.675	-1.153	-115.11
12827.5	-1.179	-117.52	-21.785	-81.024	-21.785	-81.024	-1.179	-117.52
12894.75	-1.242	-119.73	-22.037	-81.593	-22.037	-81.593	-1.242	-119.73
12962	-1.232	-122.06	-22.253	-83.308	-22.253	-83.308	-1.232	-122.06
13029.25	-1.298	-124.37	-22.837	-84.335	-22.837	-84.335	-1.298	-124.37
13096.5	-1.324	-126.57	-23.055	-83.687	-23.055	-83.687	-1.324	-126.57
13163.75	-1.359	-128.87	-23.21	-84.543	-23.21	-84.543	-1.359	-128.87
13231	-1.4	-131.05	-23.604	-87.064	-23.604	-87.064	-1.4	-131.05
13298.25	-1.428	-133.21	-24.133	-85.275	-24.133	-85.275	-1.428	-133.21
13365.5	-1.456	-135.26	-24.419	-87.019	-24.419	-87.019	-1.456	-135.26
13432.75	-1.487	-137.59	-24.73	-86.424	-24.73	-86.424	-1.487	-137.59
13500	-1.499	-139.79	-25.224	-88.491	-25.224	-88.491	-1.499	-139.79
