!	AVX	Thin	Film	Operation	Date:	2004		
!	Description:	"Series,"	Thin	"Film,"	"LGA,"	RF	Filters	
!	Part	Number:						
!	50	MHz	-	13.5	GHz			
!	Serial	Measurements						
!								
#	mhz	S	db	R	50			
!	S11	S11	S21	S21	S12	S12	S22	S22
!	dB	Phase	dB	Phase	dB	Phase	dB	Phase
50	-41.202	-29.533	-0.005	-1.1261	-0.004	-1.1261	-41.202	-29.533
117.25	-39.495	-68.029	-0.025	-2.6106	-0.025	-2.6106	-39.495	-68.029
184.5	-35.705	-79.27	-0.022	-3.5101	-0.022	-3.5101	-35.705	-79.27
251.75	-33.129	-85.482	-0.0174	-5.3119	-0.0174	-5.3119	-33.129	-85.482
319	-30.94	-89.239	-0.0733	-6.416	-0.0733	-6.416	-30.94	-89.239
386.25	-29.248	-93.374	-0.0377	-7.8923	-0.0377	-7.8923	-29.248	-93.374
453.5	-27.836	-97.167	-0.0584	-9.3068	-0.0584	-9.3068	-27.836	-97.167
520.75	-26.632	-100.99	-0.0182	-10.914	-0.0182	-10.914	-26.632	-100.99
588	-25.583	-104.36	-0.0326	-12.445	-0.0326	-12.445	-25.583	-104.36
655.25	-24.708	-108.17	-0.0422	-13.873	-0.0422	-13.873	-24.708	-108.17
722.5	-23.922	-110.64	-0.0446	-15.422	-0.0446	-15.422	-23.922	-110.64
789.75	-23.201	-113.43	-0.0747	-16.657	-0.0747	-16.657	-23.201	-113.43
857	-22.637	-116.21	-0.07	-18.09	-0.07	-18.09	-22.637	-116.21
924.25	-22.008	-119.43	-0.0671	-19.766	-0.0671	-19.766	-22.008	-119.43
991.5	-21.484	-122.19	-0.0961	-20.756	-0.0961	-20.756	-21.484	-122.19
1058.75	-20.973	-125.51	-0.0829	-22.637	-0.0829	-22.637	-20.973	-125.51
1126	-20.581	-128.4	-0.0728	-24.21	-0.0728	-24.21	-20.581	-128.4
1193.25	-20.208	-130.85	-0.0612	-25.679	-0.0612	-25.679	-20.208	-130.85
1260.5	-19.896	-133.58	-0.0902	-27.135	-0.0902	-27.135	-19.896	-133.58
1327.75	-19.675	-136.49	-0.0891	-28.604	-0.0891	-28.604	-19.675	-136.49
1395	-19.398	-139.3	-0.0917	-30.196	-0.0917	-30.196	-19.398	-139.3
1462.25	-19.222	-141.99	-0.1121	-31.675	-0.1121	-31.675	-19.222	-141.99
1529.5	-19.099	-144.71	-0.1251	-33.312	-0.1251	-33.312	-19.099	-144.71
1596.75	-18.976	-147.51	-0.1	-35.1	-0.1	-35.1	-18.976	-147.51
1664	-18.926	-149.79	-0.1235	-36.768	-0.1235	-36.768	-18.926	-149.79
1731.25	-18.946	-152.1	-0.1082	-38.526	-0.1082	-38.526	-18.946	-152.1
1798.5	-19.055	-154.13	-0.0898	-40.34	-0.0898	-40.34	-19.055	-154.13
1865.75	-19.163	-156.04	-0.1068	-42.047	-0.1068	-42.047	-19.163	-156.04
1933	-19.439	-156.51	-0.1215	-43.676	-0.1215	-43.676	-19.439	-156.51
2000.25	-19.769	-158	-0.0841	-45.706	-0.0841	-45.706	-19.769	-158
2067.5	-20.123	-158.47	-0.0661	-47.572	-0.0661	-47.572	-20.123	-158.47
2134.75	-20.619	-158.82	-0.0973	-49.327	-0.0973	-49.327	-20.619	-158.82
2202	-21.235	-158.4	-0.1168	-50.874	-0.1168	-50.874	-21.235	-158.4
2269.25	-21.914	-157.75	-0.126	-53.001	-0.126	-53.001	-21.914	-157.75
2336.5	-22.677	-154.3	-0.1608	-55.021	-0.1608	-55.021	-22.677	-154.3
2403.75	-23.472	-148.16	-0.1893	-57.376	-0.1893	-57.376	-23.472	-148.16
2471	-24.13	-139.95	-0.2387	-59.605	-0.2387	-59.605	-24.13	-139.95
2538.25	-24.293	-127.88	-0.2221	-62.196	-0.2221	-62.196	-24.293	-127.88
2605.5	-24.108	-114.28	-0.2572	-64.357	-0.2572	-64.357	-24.108	-114.28
2672.75	-22.877	-102.75	-0.2656	-67.212	-0.2656	-67.212	-22.877	-102.75
2740	-21.253	-94.271	-0.3072	-69.494	-0.3072	-69.494	-21.253	-94.271
2807.25	-19.454	-90.356	-0.3361	-72.378	-0.3361	-72.378	-19.454	-90.356
2874.5	-17.664	-87.575	-0.3968	-75.171	-0.3968	-75.171	-17.664	-87.575
2941.75	-15.914	-87.363	-0.4641	-77.981	-0.4641	-77.981	-15.914	-87.363
3009	-14.39	-88.281	-0.5728	-81.134	-0.5728	-81.134	-14.39	-88.281
3076.25	-12.977	-89.949	-0.6749	-84.22	-0.6749	-84.22	-12.977	-89.949
3143.5	-11.61	-92.436	-0.8342	-87.723	-0.8342	-87.723	-11.61	-92.436
3210.75	-10.38	-95.558	-0.9309	-91.134	-0.9309	-91.134	-10.38	-95.558
3278	-9.243	-99.304	-1.1714	-95.065	-1.1714	-95.065	-9.243	-99.304
3345.25	-8.2098	-103.31	-1.3493	-98.514	-1.3493	-98.514	-8.2098	-103.31
3412.5	-7.2283	-107.47	-1.6166	-102.15	-1.6166	-102.15	-7.2283	-107.47
3479.75	-6.2631	-112.14	-1.8246	-106.41	-1.8246	-106.41	-6.2631	-112.14
3547	-5.5229	-117.1	-2.173	-109.47	-2.173	-109.47	-5.5229	-117.1
3614.25	-4.7629	-121.81	-2.5229	-113.72	-2.5229	-113.72	-4.7629	-121.81
3681.5	-4.1232	-127.08	-3.0022	-117.13	-3.0022	-117.13	-4.1232	-127.08
3748.75	-3.496	-131.94	-3.4465	-120.6	-3.4465	-120.6	-3.496	-131.94
3816	-2.9517	-137.52	-3.8618	-124.39	-3.8618	-124.39	-2.9517	-137.52
3883.25	-2.4493	-142.39	-4.5058	-128.11	-4.5058	-128.11	-2.4493	-142.39
3950.5	-2.0729	-148.26	-4.9634	-131.73	-4.9634	-131.73	-2.0729	-148.26
4017.75	-1.6726	-152.66	-5.6115	-135.13	-5.6115	-135.13	-1.6726	-152.66
4085	-1.3311	-158.43	-6.1615	-137.56	-6.1615	-137.56	-1.3311	-158.43
4152.25	-1.0114	-162.98	-6.9277	-141.04	-6.9277	-141.04	-1.0114	-162.98
4219.5	-0.7613	-168.53	-7.4781	-144.26	-7.4781	-144.26	-0.7613	-168.53
4286.75	-0.6156	-172.99	-8.4052	-146.24	-8.4052	-146.24	-0.6156	-172.99
4354	-0.4724	-177.55	-9.0268	-149.29	-9.0268	-149.29	-0.4724	-177.55
4421.25	-0.2592	177.82	-10.01	-152.26	-10.01	-152.26	-0.2592	177.82
4488.5	-0.2975	172.96	-10.609	-154.27	-10.609	-154.27	-0.2975	172.96
4555.75	-0.1935	169.73	-11.676	-155.97	-11.676	-155.97	-0.1935	169.73
4623	-0.1235	165.02	-12.55	-158.74	-12.55	-158.74	-0.1235	165.02
4690.25	-0.0888	161.22	-13.517	-160.41	-13.517	-160.41	-0.0888	161.22
4757.5	-0.0914	156.92	-14.528	-163.04	-14.528	-163.04	-0.0914	156.92
4824.75	-0.1618	153.59	-15.796	-164.16	-15.796	-164.16	-0.1618	153.59
4892	-0.0888	149.98	-16.762	-166.11	-16.762	-166.11	-0.0888	149.98
4959.25	-0.0931	145.83	-18.244	-167.37	-18.244	-167.37	-0.0931	145.83
5026.5	-0.1418	142.23	-19.688	-167.99	-19.688	-167.99	-0.1418	142.23
5093.75	-0.1976	139.29	-21.517	-168.81	-21.517	-168.81	-0.1976	139.29
5161	-0.1698	135.26	-23.465	-168.2	-23.465	-168.2	-0.1698	135.26
5228.25	-0.2558	131.94	-25.887	-165.28	-25.887	-165.28	-0.2558	131.94
5295.5	-0.2562	128.76	-28.758	-159.89	-28.758	-159.89	-0.2562	128.76
5362.75	-0.3153	125.32	-32.218	-145.15	-32.218	-145.15	-0.3153	125.32
5430	-0.3166	122.08	-34.769	-116.03	-34.769	-116.03	-0.3166	122.08
5497.25	-0.4274	118.6	-34.392	-79.733	-34.392	-79.733	-0.4274	118.6
5564.5	-0.3672	115.62	-31.542	-58.569	-31.542	-58.569	-0.3672	115.62
5631.75	-0.3535	111.92	-29.105	-50.372	-29.105	-50.372	-0.3535	111.92
5699	-0.333	108.68	-27.354	-45.216	-27.354	-45.216	-0.333	108.68
5766.25	-0.4057	105.97	-25.912	-42.676	-25.912	-42.676	-0.4057	105.97
5833.5	-0.2194	103.19	-24.658	-42.253	-24.658	-42.253	-0.2194	103.19
5900.75	-0.2617	99.404	-23.814	-40.974	-23.814	-40.974	-0.2617	99.404
5968	-0.284	96.957	-23.118	-41.309	-23.118	-41.309	-0.284	96.957
6035.25	-0.3058	94.305	-22.534	-40.839	-22.534	-40.839	-0.3058	94.305
6102.5	-0.1353	91.64	-21.995	-42.65	-21.995	-42.65	-0.1353	91.64
6169.75	-0.1678	87.917	-21.418	-43.594	-21.418	-43.594	-0.1678	87.917
6237	-0.2534	85.483	-21.272	-43.407	-21.272	-43.407	-0.2534	85.483
6304.25	-0.2696	83.362	-20.892	-43.809	-20.892	-43.809	-0.2696	83.362
6371.5	-0.0579	80.335	-20.573	-44.665	-20.573	-44.665	-0.0579	80.335
6438.75	-0.2017	76.668	-20.346	-44.78	-20.346	-44.78	-0.2017	76.668
6506	-0.286	74.921	-20.236	-45.126	-20.236	-45.126	-0.286	74.921
6573.25	-0.2551	72.393	-19.944	-45.176	-19.944	-45.176	-0.2551	72.393
6640.5	-0.1191	69.649	-19.765	-46.063	-19.765	-46.063	-0.1191	69.649
6707.75	-0.1629	66.318	-19.591	-46.737	-19.591	-46.737	-0.1629	66.318
6775	-0.3	64.248	-19.672	-47.391	-19.672	-47.391	-0.3	64.248
6842.25	-0.2531	62.047	-19.375	-47.619	-19.375	-47.619	-0.2531	62.047
6909.5	-0.0631	58.77	-19.394	-49.165	-19.394	-49.165	-0.0631	58.77
6976.75	-0.2246	55.72	-19.335	-49.644	-19.335	-49.644	-0.2246	55.72
7044	-0.318	54.333	-19.479	-49.636	-19.479	-49.636	-0.318	54.333
7111.25	-0.1904	51.773	-19.264	-50.289	-19.264	-50.289	-0.1904	51.773
7178.5	-0.196	49.32	-19.376	-50.674	-19.376	-50.674	-0.196	49.32
7245.75	-0.1892	46.401	-19.281	-51.681	-19.281	-51.681	-0.1892	46.401
7313	-0.3306	44.11	-19.453	-51.747	-19.453	-51.747	-0.3306	44.11
7380.25	-0.3172	42.874	-19.386	-51.967	-19.386	-51.967	-0.3172	42.874
7447.5	-0.1281	40.21	-19.471	-52.685	-19.471	-52.685	-0.1281	40.21
7514.75	-0.212	36.755	-19.425	-53.619	-19.425	-53.619	-0.212	36.755
7582	-0.3028	34.728	-19.578	-53.643	-19.578	-53.643	-0.3028	34.728
7649.25	-0.2455	32.573	-19.618	-54.097	-19.618	-54.097	-0.2455	32.573
7716.5	-0.4675	30.449	-19.827	-54.01	-19.827	-54.01	-0.4675	30.449
7783.75	-0.2979	28.424	-19.677	-54.061	-19.677	-54.061	-0.2979	28.424
7851	-0.4123	25.1	-19.989	-53.992	-19.989	-53.992	-0.4123	25.1
7918.25	-0.4588	23.498	-20.004	-54.152	-20.004	-54.152	-0.4588	23.498
7985.5	-0.518	20.948	-20.165	-53.749	-20.165	-53.749	-0.518	20.948
8052.75	-0.4748	18.888	-20.175	-53.741	-20.175	-53.741	-0.4748	18.888
8120	-0.5738	16.5	-20.322	-53.253	-20.322	-53.253	-0.5738	16.5
8187.25	-0.3803	13.899	-20.283	-53.904	-20.283	-53.904	-0.3803	13.899
8254.5	-0.6197	10.908	-20.454	-52.721	-20.454	-52.721	-0.6197	10.908
8321.75	-0.4826	9.9385	-20.437	-52.438	-20.437	-52.438	-0.4826	9.9385
8389	-0.5449	6.8143	-20.615	-52.173	-20.615	-52.173	-0.5449	6.8143
8456.25	-0.5384	4.7159	-20.604	-52.445	-20.604	-52.445	-0.5384	4.7159
8523.5	-0.6139	1.9556	-20.641	-51.478	-20.641	-51.478	-0.6139	1.9556
8590.75	-0.5475	0.276	-20.763	-51.895	-20.763	-51.895	-0.5475	0.276
8658	-0.5907	-1.9501	-20.633	-51.34	-20.633	-51.34	-0.5907	-1.9501
8725.25	-0.4665	-4.3767	-20.717	-51.762	-20.717	-51.762	-0.4665	-4.3767
8792.5	-0.7514	-6.7827	-20.758	-50.978	-20.758	-50.978	-0.7514	-6.7827
8859.75	-0.5067	-7.5352	-20.723	-51.706	-20.723	-51.706	-0.5067	-7.5352
8927	-0.5666	-10.769	-20.661	-52.303	-20.661	-52.303	-0.5666	-10.769
8994.25	-0.5667	-12.675	-20.781	-52.663	-20.781	-52.663	-0.5667	-12.675
9061.5	-0.7652	-14.884	-20.688	-52.142	-20.688	-52.142	-0.7652	-14.884
9128.75	-0.6117	-16.052	-20.755	-52.537	-20.755	-52.537	-0.6117	-16.052
9196	-0.5326	-18.678	-20.655	-53.933	-20.655	-53.933	-0.5326	-18.678
9263.25	-0.5998	-21.302	-20.845	-54.452	-20.845	-54.452	-0.5998	-21.302
9330.5	-0.8338	-22.931	-20.982	-55.627	-20.982	-55.627	-0.8338	-22.931
9397.75	-0.4998	-24.145	-20.837	-56.54	-20.837	-56.54	-0.4998	-24.145
9465	-0.6581	-27.441	-20.894	-57.228	-20.894	-57.228	-0.6581	-27.441
9532.25	-0.6954	-28.683	-21.142	-57.614	-21.142	-57.614	-0.6954	-28.683
9599.5	-0.721	-31.079	-21.293	-58.259	-21.293	-58.259	-0.721	-31.079
9666.75	-0.6614	-32.271	-21.309	-59.369	-21.309	-59.369	-0.6614	-32.271
9734	-0.6064	-34.957	-21.591	-59.746	-21.591	-59.746	-0.6064	-34.957
9801.25	-0.6719	-36.715	-21.768	-62.025	-21.768	-62.025	-0.6719	-36.715
9868.5	-0.718	-37.823	-21.641	-62.721	-21.641	-62.721	-0.718	-37.823
9935.75	-0.4321	-40.28	-21.841	-62.978	-21.841	-62.978	-0.4321	-40.28
10003	-0.6508	-42.803	-22.063	-63.123	-22.063	-63.123	-0.6508	-42.803
10070.25	-0.5632	-43.235	-22.439	-64.66	-22.439	-64.66	-0.5632	-43.235
10137.5	-0.4563	-46.053	-22.224	-64.004	-22.224	-64.004	-0.4563	-46.053
10204.75	-0.5562	-47.792	-22.825	-64.488	-22.825	-64.488	-0.5562	-47.792
10272	-0.5902	-49.327	-23.024	-65.439	-23.024	-65.439	-0.5902	-49.327
10339.25	-0.6015	-50.93	-23.19	-65.249	-23.19	-65.249	-0.6015	-50.93
10406.5	-0.4199	-52.177	-23.357	-65.956	-23.357	-65.956	-0.4199	-52.177
10473.75	-0.4594	-55.447	-23.869	-66.235	-23.869	-66.235	-0.4594	-55.447
10541	-0.6207	-57.101	-24.015	-66.555	-24.015	-66.555	-0.6207	-57.101
10608.25	-0.5771	-56.964	-24.168	-66.633	-24.168	-66.633	-0.5771	-56.964
10675.5	-0.305	-59.98	-24.281	-66.079	-24.281	-66.079	-0.305	-59.98
10742.75	-0.4986	-62.823	-24.626	-67.115	-24.626	-67.115	-0.4986	-62.823
10810	-0.5443	-64.365	-24.913	-66.484	-24.913	-66.484	-0.5443	-64.365
10877.25	-0.5721	-65.237	-25.257	-65.561	-25.257	-65.561	-0.5721	-65.237
10944.5	-0.3136	-67.157	-25.151	-66.135	-25.151	-66.135	-0.3136	-67.157
11011.75	-0.4096	-70.122	-25.908	-66.644	-25.908	-66.644	-0.4096	-70.122
11079	-0.4843	-71.888	-25.708	-65.848	-25.708	-65.848	-0.4843	-71.888
11146.25	-0.56	-72.787	-26.267	-65.458	-26.267	-65.458	-0.56	-72.787
11213.5	-0.2943	-74.548	-26.246	-65.908	-26.246	-65.908	-0.2943	-74.548
11280.75	-0.4168	-77.098	-26.63	-64.497	-26.63	-64.497	-0.4168	-77.098
11348	-0.4315	-78.404	-26.838	-66.454	-26.838	-66.454	-0.4315	-78.404
11415.25	-0.4513	-79.544	-27.097	-63.666	-27.097	-63.666	-0.4513	-79.544
11482.5	-0.2776	-81.495	-27.24	-65.775	-27.24	-65.775	-0.2776	-81.495
11549.75	-0.4129	-83.341	-27.561	-64.698	-27.561	-64.698	-0.4129	-83.341
11617	-0.3563	-84.688	-27.89	-65.266	-27.89	-65.266	-0.3563	-84.688
11684.25	-0.4075	-85.817	-27.827	-63.833	-27.827	-63.833	-0.4075	-85.817
11751.5	-0.2333	-88.006	-28.484	-65.739	-28.484	-65.739	-0.2333	-88.006
11818.75	-0.3882	-89.657	-28.485	-64.192	-28.485	-64.192	-0.3882	-89.657
11886	-0.402	-90.806	-28.976	-65.308	-28.976	-65.308	-0.402	-90.806
11953.25	-0.446	-91.71	-29.318	-64.374	-29.318	-64.374	-0.446	-91.71
12020.5	-0.2553	-94.131	-29.472	-65.146	-29.472	-65.146	-0.2553	-94.131
12087.75	-0.3983	-95.485	-29.922	-65.099	-29.922	-65.099	-0.3983	-95.485
12155	-0.3631	-97.41	-30.413	-64.118	-30.413	-64.118	-0.3631	-97.41
12222.25	-0.4405	-98.428	-30.597	-64.438	-30.597	-64.438	-0.4405	-98.428
12289.5	-0.321	-100.19	-31.239	-64.417	-31.239	-64.417	-0.321	-100.19
12356.75	-0.3474	-101.84	-31.448	-63.986	-31.448	-63.986	-0.3474	-101.84
12424	-0.3546	-104.29	-31.992	-63.714	-31.992	-63.714	-0.3546	-104.29
12491.25	-0.4402	-105.37	-32.566	-64.138	-32.566	-64.138	-0.4402	-105.37
12558.5	-0.4221	-106.9	-32.965	-61.941	-32.965	-61.941	-0.4221	-106.9
12625.75	-0.3091	-108.01	-33.48	-62.291	-33.48	-62.291	-0.3091	-108.01
12693	-0.2945	-111.43	-34.176	-61.72	-34.176	-61.72	-0.2945	-111.43
12760.25	-0.427	-112.16	-34.579	-60.307	-34.579	-60.307	-0.427	-112.16
12827.5	-0.3871	-112.73	-35.175	-58.288	-35.175	-58.288	-0.3871	-112.73
12894.75	-0.3071	-114.67	-35.718	-56.485	-35.718	-56.485	-0.3071	-114.67
12962	-0.2759	-117.14	-35.996	-54.641	-35.996	-54.641	-0.2759	-117.14
13029.25	-0.4408	-118.68	-36.46	-53.521	-36.46	-53.521	-0.4408	-118.68
13096.5	-0.5067	-118.81	-36.664	-52.035	-36.664	-52.035	-0.5067	-118.81
13163.75	-0.2114	-119.65	-36.569	-51.505	-36.569	-51.505	-0.2114	-119.65
13231	-0.4487	-123.72	-36.861	-56.044	-36.861	-56.044	-0.4487	-123.72
13298.25	-0.6197	-123.57	-36.688	-58.535	-36.688	-58.535	-0.6197	-123.57
13365.5	-0.5784	-124.75	-36.09	-67.794	-36.09	-67.794	-0.5784	-124.75
13432.75	-0.5458	-126.55	-35.023	-79.025	-35.023	-79.025	-0.5458	-126.55
13500	-0.6998	-129.11	-33.657	-99.051	-33.657	-99.051	-0.6998	-129.11
								
								
								
