!	AVX THIN FILM OPERATION
!	
!	0402 SIZE LOW PASS FILTER P/N LP0402N5500ANTR
!
!	Created August 2007
!						
!	Network Analyzer HP8720E S.07.64: Feb23, 2000 Serial No.US39172382		
!						
#	mhz	S	db	R	50										
!	S11	S11	S21	S21	S12	S12	S22	S22							
!	dB	Phase	dB	Phase	dB	Phase	dB	Phase							
50	-47.529	-23.842	-0.068	-0.416	-0.068	-0.416	-47.529	-23.842							
149.75	-45.541	-59.278	-0.020	-1.273	-0.020	-1.273	-45.541	-59.278							
249.5	-42.192	-74.810	-0.015	-2.309	-0.015	-2.309	-42.192	-74.810							
349.25	-39.284	-86.236	-0.030	-2.999	-0.030	-2.999	-39.284	-86.236							
449	-37.226	-96.246	-0.039	-3.907	-0.039	-3.907	-37.226	-96.246							
548.75	-35.493	-104.800	-0.055	-4.870	-0.055	-4.870	-35.493	-104.800							
648.5	-33.996	-112.260	-0.057	-5.611	-0.057	-5.611	-33.996	-112.260							
748.25	-32.710	-119.320	-0.047	-6.500	-0.047	-6.500	-32.710	-119.320							
848	-31.586	-126.110	-0.057	-7.368	-0.057	-7.368	-31.586	-126.110							
947.75	-30.585	-132.560	-0.057	-8.292	-0.057	-8.292	-30.585	-132.560							
1047.5	-29.664	-138.910	-0.068	-9.285	-0.068	-9.285	-29.664	-138.910							
1147.25	-28.876	-145.110	-0.065	-9.956	-0.065	-9.956	-28.876	-145.110							
1247	-28.141	-151.100	-0.046	-11.026	-0.046	-11.026	-28.141	-151.100							
1346.75	-27.453	-157.080	-0.083	-11.857	-0.083	-11.857	-27.453	-157.080							
1446.5	-26.869	-163.050	-0.065	-12.692	-0.065	-12.692	-26.869	-163.050							
1546.25	-26.299	-168.800	-0.071	-13.442	-0.071	-13.442	-26.299	-168.800							
1646	-25.792	-174.610	-0.077	-14.415	-0.077	-14.415	-25.792	-174.610							
1745.75	-25.337	179.840	-0.083	-15.223	-0.083	-15.223	-25.337	179.840							
1845.5	-24.916	174.080	-0.080	-16.305	-0.080	-16.305	-24.916	174.080							
1945.25	-24.549	168.360	-0.076	-17.159	-0.076	-17.159	-24.549	168.360							
2045	-24.240	162.740	-0.072	-17.928	-0.072	-17.928	-24.240	162.740							
2144.75	-23.974	156.930	-0.090	-18.967	-0.090	-18.967	-23.974	156.930							
2244.5	-23.733	151.410	-0.074	-19.677	-0.074	-19.677	-23.733	151.410							
2344.25	-23.542	145.960	-0.064	-20.739	-0.064	-20.739	-23.542	145.960							
2444	-23.374	139.930	-0.074	-21.624	-0.074	-21.624	-23.374	139.930							
2543.75	-23.304	133.920	-0.107	-22.911	-0.107	-22.911	-23.304	133.920							
2643.5	-23.156	127.720	-0.060	-23.703	-0.060	-23.703	-23.156	127.720							
2743.25	-23.221	121.350	-0.048	-24.708	-0.048	-24.708	-23.221	121.350							
2843	-23.216	115.680	-0.046	-25.621	-0.046	-25.621	-23.216	115.680							
2942.75	-23.351	109.110	-0.087	-26.584	-0.087	-26.584	-23.351	109.110							
3042.5	-23.520	102.380	-0.072	-27.659	-0.072	-27.659	-23.520	102.380							
3142.25	-23.732	95.239	-0.107	-28.558	-0.107	-28.558	-23.732	95.239							
3242	-24.011	87.572	-0.106	-29.805	-0.106	-29.805	-24.011	87.572							
3341.75	-24.404	79.805	-0.126	-30.725	-0.126	-30.725	-24.404	79.805							
3441.5	-24.765	71.353	-0.118	-31.774	-0.118	-31.774	-24.765	71.353							
3541.25	-25.233	61.536	-0.125	-32.842	-0.125	-32.842	-25.233	61.536							
3641	-25.754	51.119	-0.122	-34.167	-0.122	-34.167	-25.754	51.119							
3740.75	-26.246	39.337	-0.150	-34.993	-0.150	-34.993	-26.246	39.337							
3840.5	-26.684	25.946	-0.145	-36.141	-0.145	-36.141	-26.684	25.946							
3940.25	-26.841	11.232	-0.172	-36.922	-0.172	-36.922	-26.841	11.232							
4040	-26.824	-4.623	-0.187	-38.257	-0.187	-38.257	-26.824	-4.623							
4139.75	-26.575	-20.080	-0.218	-39.109	-0.218	-39.109	-26.575	-20.080							
4239.5	-25.783	-36.289	-0.230	-40.209	-0.230	-40.209	-25.783	-36.289							
4339.25	-24.798	-50.477	-0.207	-41.160	-0.207	-41.160	-24.798	-50.477							
4439	-23.800	-64.311	-0.259	-42.635	-0.259	-42.635	-23.800	-64.311							
4538.75	-22.584	-75.363	-0.229	-43.499	-0.229	-43.499	-22.584	-75.363							
4638.5	-21.518	-84.906	-0.246	-44.536	-0.246	-44.536	-21.518	-84.906							
4738.25	-20.311	-93.463	-0.238	-45.519	-0.238	-45.519	-20.311	-93.463							
4838	-19.197	-102.230	-0.269	-46.549	-0.269	-46.549	-19.197	-102.230							
4937.75	-18.283	-109.150	-0.207	-47.830	-0.207	-47.830	-18.283	-109.150							
5037.5	-17.271	-115.730	-0.211	-49.007	-0.211	-49.007	-17.271	-115.730							
5137.25	-16.342	-122.300	-0.182	-50.434	-0.182	-50.434	-16.342	-122.300							
5237	-15.508	-128.520	-0.179	-51.435	-0.179	-51.435	-15.508	-128.520							
5336.75	-14.704	-134.130	-0.132	-52.795	-0.132	-52.795	-14.704	-134.130							
5436.5	-13.975	-139.550	-0.049	-53.980	-0.049	-53.980	-13.975	-139.550							
5536.25	-13.233	-144.900	-0.098	-55.775	-0.098	-55.775	-13.233	-144.900							
5636	-12.602	-150.350	-0.080	-57.393	-0.080	-57.393	-12.602	-150.350							
5735.75	-11.940	-155.280	-0.053	-58.822	-0.053	-58.822	-11.940	-155.280							
5835.5	-11.348	-160.070	0.082	-60.620	0.082	-60.620	-11.348	-160.070							
5935.25	-10.765	-165.420	-0.023	-62.516	-0.023	-62.516	-10.765	-165.420							
6035	-10.165	-169.840	-0.019	-63.927	-0.019	-63.927	-10.165	-169.840							
6134.75	-9.765	-174.590	-0.013	-66.274	-0.013	-66.274	-9.765	-174.590							
6234.5	-9.246	-178.570	0.020	-68.328	0.020	-68.328	-9.246	-178.570							
6334.25	-8.849	176.080	-0.064	-69.947	-0.064	-69.947	-8.849	176.080							
6434	-8.913	170.980	-0.550	-72.009	-0.550	-72.009	-8.913	170.980							
6533.75	-7.857	167.980	-0.175	-74.456	-0.175	-74.456	-7.857	167.980							
6633.5	-7.532	164.210	-0.002	-76.425	-0.002	-76.425	-7.532	164.210							
6733.25	-7.154	160.100	-0.211	-78.813	-0.211	-78.813	-7.154	160.100							
6833	-6.754	156.420	-0.398	-80.761	-0.398	-80.761	-6.754	156.420							
6932.75	-6.447	152.460	-0.332	-83.459	-0.332	-83.459	-6.447	152.460							
7032.5	-5.966	148.640	-0.351	-85.759	-0.351	-85.759	-5.966	148.640							
7132.25	-5.702	144.690	-0.424	-87.852	-0.424	-87.852	-5.702	144.690							
7232	-5.351	141.030	-0.595	-90.044	-0.595	-90.044	-5.351	141.030							
7331.75	-5.043	137.740	-0.733	-92.679	-0.733	-92.679	-5.043	137.740							
7431.5	-4.634	134.080	-0.591	-94.779	-0.591	-94.779	-4.634	134.080							
7531.25	-4.253	130.400	-0.778	-98.064	-0.778	-98.064	-4.253	130.400							
7631	-4.003	126.850	-1.015	-100.750	-1.015	-100.750	-4.003	126.850							
7730.75	-3.641	123.640	-1.172	-103.450	-1.172	-103.450	-3.641	123.640							
7830.5	-3.249	120.020	-1.074	-107.320	-1.074	-107.320	-3.249	120.020							
7930.25	-2.934	115.440	-1.365	-110.350	-1.365	-110.350	-2.934	115.440							
8030	-2.668	112.050	-1.771	-113.880	-1.771	-113.880	-2.668	112.050							
8129.75	-2.359	108.650	-1.919	-117.230	-1.919	-117.230	-2.359	108.650							
8229.5	-1.922	104.360	-2.135	-122.040	-2.135	-122.040	-1.922	104.360							
8329.25	-1.794	99.385	-2.427	-124.200	-2.427	-124.200	-1.794	99.385							
8429	-1.640	95.828	-3.205	-128.590	-3.205	-128.590	-1.640	95.828							
8528.75	-1.370	91.887	-3.736	-131.620	-3.736	-131.620	-1.370	91.887							
8628.5	-1.074	87.870	-3.949	-135.100	-3.949	-135.100	-1.074	87.870							
8728.25	-0.978	83.241	-4.447	-138.550	-4.447	-138.550	-0.978	83.241							
8828	-0.886	79.492	-5.475	-137.790	-5.475	-137.790	-0.886	79.492							
8927.75	-0.606	74.675	-5.818	-142.510	-5.818	-142.510	-0.606	74.675							
9027.5	-0.396	69.914	-6.509	-145.330	-6.509	-145.330	-0.396	69.914							
9127.25	-0.323	65.076	-6.885	-146.430	-6.885	-146.430	-0.323	65.076							
9227	-0.372	60.775	-7.476	-149.290	-7.476	-149.290	-0.372	60.775							
9326.75	-0.322	56.441	-8.420	-151.400	-8.420	-151.400	-0.322	56.441							
9426.5	-0.115	52.136	-8.459	-153.080	-8.459	-153.080	-0.115	52.136							
9526.25	-0.151	47.488	-9.246	-156.250	-9.246	-156.250	-0.151	47.488							
9626	-0.257	44.062	-10.332	-157.950	-10.332	-157.950	-0.257	44.062							
9725.75	-0.238	40.570	-11.038	-162.370	-11.038	-162.370	-0.238	40.570							
9825.5	-0.105	35.913	-11.829	-165.830	-11.829	-165.830	-0.105	35.913							
9925.25	-0.157	31.620	-12.602	-168.350	-12.602	-168.350	-0.157	31.620							
10025	-0.244	28.173	-13.850	-170.460	-13.850	-170.460	-0.244	28.173							
10124.75	-0.264	24.988	-15.288	-173.330	-15.288	-173.330	-0.264	24.988							
10224.5	-0.219	21.337	-16.551	-176.000	-16.551	-176.000	-0.219	21.337							
10324.25	-0.206	16.994	-18.238	-175.030	-18.238	-175.030	-0.206	16.994							
10424	-0.331	13.336	-19.848	-176.440	-19.848	-176.440	-0.331	13.336							
10523.75	-0.335	10.357	-22.126	-175.110	-22.126	-175.110	-0.335	10.357							
10623.5	-0.281	6.744	-24.123	-172.570	-24.123	-172.570	-0.281	6.744							
10723.25	-0.340	2.839	-26.619	-168.920	-26.619	-168.920	-0.340	2.839							
10823	-0.457	-0.728	-29.930	-157.930	-29.930	-157.930	-0.457	-0.728							
10922.75	-0.443	-3.660	-33.230	-136.860	-33.230	-136.860	-0.443	-3.660							
11022.5	-0.350	-7.491	-35.501	-101.900	-35.501	-101.900	-0.350	-7.491							
11122.25	-0.438	-11.559	-33.582	-66.769	-33.582	-66.769	-0.438	-11.559							
11222	-0.495	-15.204	-30.497	-47.905	-30.497	-47.905	-0.495	-15.204							
11321.75	-0.492	-17.696	-27.786	-39.058	-27.786	-39.058	-0.492	-17.696							
11421.5	-0.477	-21.176	-26.026	-32.287	-26.026	-32.287	-0.477	-21.176							
11521.25	-0.486	-25.708	-24.206	-33.051	-24.206	-33.051	-0.486	-25.708							
11621	-0.572	-29.343	-23.032	-31.586	-23.032	-31.586	-0.572	-29.343							
11720.75	-0.554	-32.824	-21.790	-31.619	-21.790	-31.619	-0.554	-32.824							
11820.5	-0.508	-36.488	-20.779	-30.829	-20.779	-30.829	-0.508	-36.488							
11920.25	-0.591	-41.705	-20.200	-33.414	-20.200	-33.414	-0.591	-41.705							
12020	-0.690	-44.692	-19.170	-33.631	-19.170	-33.631	-0.690	-44.692							
12119.75	-0.646	-48.340	-18.703	-33.874	-18.703	-33.874	-0.646	-48.340							
12219.5	-0.717	-52.725	-18.149	-35.592	-18.149	-35.592	-0.717	-52.725							
12319.25	-0.786	-57.178	-17.652	-37.731	-17.652	-37.731	-0.786	-57.178							
12419	-0.891	-61.400	-17.153	-39.920	-17.153	-39.920	-0.891	-61.400							
12518.75	-0.916	-65.264	-16.965	-41.184	-16.965	-41.184	-0.916	-65.264							
12618.5	-1.012	-69.348	-16.604	-42.450	-16.604	-42.450	-1.012	-69.348							
12718.25	-1.104	-73.876	-16.290	-46.704	-16.290	-46.704	-1.104	-73.876							
12818	-1.305	-77.989	-16.399	-47.652	-16.399	-47.652	-1.305	-77.989							
12917.75	-1.371	-81.969	-16.104	-47.913	-16.104	-47.913	-1.371	-81.969							
13017.5	-1.504	-86.642	-16.198	-53.078	-16.198	-53.078	-1.504	-86.642							
13117.25	-1.721	-91.387	-16.528	-53.086	-16.528	-53.086	-1.721	-91.387							
13217	-1.905	-95.690	-16.059	-55.896	-16.059	-55.896	-1.905	-95.690							
13316.75	-2.029	-99.382	-16.573	-56.564	-16.573	-56.564	-2.029	-99.382							
13416.5	-2.203	-103.360	-16.787	-57.093	-16.787	-57.093	-2.203	-103.360							
13516.25	-2.379	-107.730	-16.682	-61.008	-16.682	-61.008	-2.379	-107.730							
13616	-2.552	-112.190	-17.469	-62.953	-17.469	-62.953	-2.552	-112.190							
13715.75	-2.666	-115.920	-17.080	-62.030	-17.080	-62.030	-2.666	-115.920							
13815.5	-2.926	-119.920	-17.936	-63.866	-17.936	-63.866	-2.926	-119.920							
13915.25	-3.112	-123.770	-17.984	-62.601	-17.984	-62.601	-3.112	-123.770							
14015	-3.346	-127.630	-18.237	-63.384	-18.237	-63.384	-3.346	-127.630							
14114.75	-3.485	-131.110	-18.607	-63.538	-18.607	-63.538	-3.485	-131.110							
14214.5	-3.673	-134.780	-18.708	-61.298	-18.708	-61.298	-3.673	-134.780							
14314.25	-3.807	-138.500	-19.125	-63.803	-19.125	-63.803	-3.807	-138.500							
14414	-3.967	-142.500	-19.485	-61.983	-19.485	-61.983	-3.967	-142.500							
14513.75	-4.143	-145.920	-19.714	-61.210	-19.714	-61.210	-4.143	-145.920							
14613.5	-4.083	-149.540	-20.075	-60.572	-20.075	-60.572	-4.083	-149.540							
14713.25	-4.143	-153.540	-20.464	-57.699	-20.464	-57.699	-4.143	-153.540							
14813	-4.236	-156.810	-20.803	-57.368	-20.803	-57.368	-4.236	-156.810							
14912.75	-4.259	-160.370	-21.025	-52.335	-21.025	-52.335	-4.259	-160.370							
15012.5	-4.357	-164.100	-21.372	-51.188	-21.372	-51.188	-4.357	-164.100							
15112.25	-4.359	-167.380	-21.517	-48.821	-21.517	-48.821	-4.359	-167.380							
15212	-4.427	-170.850	-21.291	-45.606	-21.291	-45.606	-4.427	-170.850							
15311.75	-4.386	-174.710	-21.134	-45.626	-21.134	-45.626	-4.386	-174.710							
15411.5	-4.379	-177.920	-21.299	-41.068	-21.299	-41.068	-4.379	-177.920							
15511.25	-4.381	178.760	-21.092	-38.905	-21.092	-38.905	-4.381	178.760							
15611	-4.404	175.500	-21.120	-35.891	-21.120	-35.891	-4.404	175.500							
15710.75	-4.415	172.190	-20.302	-32.966	-20.302	-32.966	-4.415	172.190							
15810.5	-4.380	169.400	-19.748	-35.829	-19.748	-35.829	-4.380	169.400							
15910.25	-4.284	165.770	-19.667	-38.499	-19.667	-38.499	-4.284	165.770							
16010	-4.129	163.160	-19.688	-39.234	-19.688	-39.234	-4.129	163.160							
16109.75	-3.946	159.440	-19.927	-41.152	-19.927	-41.152	-3.946	159.440							
16209.5	-3.803	155.940	-19.925	-40.123	-19.925	-40.123	-3.803	155.940							
16309.25	-3.692	152.170	-19.998	-42.193	-19.998	-42.193	-3.692	152.170							
16409	-3.603	148.240	-20.211	-40.546	-20.211	-40.546	-3.603	148.240							
16508.75	-3.386	144.070	-20.185	-40.758	-20.185	-40.758	-3.386	144.070							
16608.5	-3.302	139.800	-19.991	-39.628	-19.991	-39.628	-3.302	139.800							
16708.25	-3.170	135.790	-20.214	-39.037	-20.214	-39.037	-3.170	135.790							
16808	-3.146	132.010	-19.810	-39.192	-19.810	-39.192	-3.146	132.010							
16907.75	-2.984	127.840	-19.779	-39.243	-19.779	-39.243	-2.984	127.840							
17007.5	-2.896	123.340	-19.324	-41.337	-19.324	-41.337	-2.896	123.340							
17107.25	-2.864	118.660	-19.428	-39.120	-19.428	-39.120	-2.864	118.660							
17207	-2.890	114.120	-19.259	-43.245	-19.259	-43.245	-2.890	114.120							
17306.75	-2.758	109.930	-19.070	-44.153	-19.070	-44.153	-2.758	109.930							
17406.5	-2.821	105.650	-19.158	-46.339	-19.158	-46.339	-2.821	105.650							
17506.25	-2.840	101.020	-19.131	-45.934	-19.131	-45.934	-2.840	101.020							
17606	-2.814	96.391	-19.748	-48.016	-19.748	-48.016	-2.814	96.391							
17705.75	-2.917	91.707	-19.500	-49.548	-19.500	-49.548	-2.917	91.707							
17805.5	-2.976	87.627	-19.822	-50.116	-19.822	-50.116	-2.976	87.627							
17905.25	-3.089	83.393	-19.619	-47.826	-19.619	-47.826	-3.089	83.393							
18005	-3.303	78.986	-20.044	-47.513	-20.044	-47.513	-3.303	78.986							
18104.75	-3.460	75.020	-19.802	-49.070	-19.802	-49.070	-3.460	75.020							
18204.5	-3.557	71.190	-20.087	-48.270	-20.087	-48.270	-3.557	71.190							
18304.25	-3.706	67.718	-19.589	-51.629	-19.589	-51.629	-3.706	67.718							
18404	-4.043	64.637	-20.129	-48.649	-20.129	-48.649	-4.043	64.637							
18503.75	-4.087	60.588	-19.736	-51.754	-19.736	-51.754	-4.087	60.588							
18603.5	-4.305	57.854	-19.701	-50.418	-19.701	-50.418	-4.305	57.854							
18703.25	-4.490	53.524	-19.922	-53.098	-19.922	-53.098	-4.490	53.524							
18803	-4.659	50.857	-19.622	-51.868	-19.622	-51.868	-4.659	50.857							
18902.75	-4.877	47.623	-19.609	-55.581	-19.609	-55.581	-4.877	47.623							
19002.5	-5.105	45.597	-18.920	-53.940	-18.920	-53.940	-5.105	45.597							
19102.25	-5.244	42.145	-18.801	-57.248	-18.801	-57.248	-5.244	42.145							
19202	-5.357	39.545	-18.174	-57.879	-18.174	-57.879	-5.357	39.545							
19301.75	-5.477	36.435	-17.800	-60.220	-17.800	-60.220	-5.477	36.435							
19401.5	-5.773	34.360	-17.163	-64.339	-17.163	-64.339	-5.773	34.360							
19501.25	-5.889	30.895	-16.551	-66.864	-16.551	-66.864	-5.889	30.895							
19601	-6.121	27.272	-15.765	-73.696	-15.765	-73.696	-6.121	27.272							
19700.75	-6.504	24.554	-15.007	-78.365	-15.007	-78.365	-6.504	24.554							
19800.5	-6.809	21.790	-13.837	-85.658	-13.837	-85.658	-6.809	21.790							
19900.25	-7.397	19.160	-12.849	-95.620	-12.849	-95.620	-7.397	19.160							
20000	-7.955	18.695	-11.859	-108.150	-11.859	-108.150	-7.955	18.695							
															
															
															
															
															
															
															
															
															
															
															
															
															
															




















































































































































