!	AVX THIN FILM OPERATION
!	
!	0402 SIZE LOW PASS FILTER P/N LP0402N5200ANTR
!
!	Created August 2007
!						
!	Network Analyzer HP8720E S.07.64: Feb23, 2000 Serial No.US39172382		
!	
#	mhz	S	db	R	50			
!	S11	S11	S21	S21	S12	S12	S22	S22
!	dB	Phase	dB	Phase	dB	Phase	dB	Phase
50	-49.041	-27.032	-0.0367	-0.6152	-0.0367	-0.6152	-49.041	-27.032
149.75	-45.156	-58.972	-0.0506	-1.2524	-0.0506	-1.2524	-45.156	-58.972
249.5	-41.69	-76.685	-0.033	-2.3634	-0.033	-2.3634	-41.69	-76.685
349.25	-38.727	-87.343	-0.0259	-3.186	-0.0259	-3.186	-38.727	-87.343
449	-36.566	-97.539	-0.0241	-4.2599	-0.0241	-4.2599	-36.566	-97.539
548.75	-34.798	-105.72	-0.0417	-5.1814	-0.0417	-5.1814	-34.798	-105.72
648.5	-33.384	-113.43	-0.0436	-6.0878	-0.0436	-6.0878	-33.384	-113.43
748.25	-32.16	-119.89	-0.0361	-7.207	-0.0361	-7.207	-32.16	-119.89
848	-31.032	-126.12	-0.0239	-8.1244	-0.0239	-8.1244	-31.032	-126.12
947.75	-29.979	-132.56	-0.0478	-8.8509	-0.0478	-8.8509	-29.979	-132.56
1047.5	-29.063	-139.07	-0.0506	-10.015	-0.0506	-10.015	-29.063	-139.07
1147.25	-28.339	-145.45	-0.0422	-10.775	-0.0422	-10.775	-28.339	-145.45
1247	-27.661	-151.58	-0.0269	-11.854	-0.0269	-11.854	-27.661	-151.58
1346.75	-27.038	-157.27	-0.0469	-12.883	-0.0469	-12.883	-27.038	-157.27
1446.5	-26.445	-163.09	-0.0541	-13.855	-0.0541	-13.855	-26.445	-163.09
1546.25	-25.868	-169.03	-0.0567	-14.783	-0.0567	-14.783	-25.868	-169.03
1646	-25.387	-174.93	-0.0606	-15.702	-0.0606	-15.702	-25.387	-174.93
1745.75	-24.988	179.11	-0.0498	-16.672	-0.0498	-16.672	-24.988	179.11
1845.5	-24.651	173.52	-0.0519	-17.693	-0.0519	-17.693	-24.651	173.52
1945.25	-24.343	167.73	-0.0593	-18.758	-0.0593	-18.758	-24.343	167.73
2045	-24.047	162.03	-0.0501	-19.513	-0.0501	-19.513	-24.047	162.03
2144.75	-23.802	155.92	-0.055	-20.614	-0.055	-20.614	-23.802	155.92
2244.5	-23.638	149.83	-0.0544	-21.521	-0.0544	-21.521	-23.638	149.83
2344.25	-23.52	143.85	-0.0372	-22.706	-0.0372	-22.706	-23.52	143.85
2444	-23.423	137.71	-0.0364	-23.729	-0.0364	-23.729	-23.423	137.71
2543.75	-23.42	131.22	-0.0818	-24.977	-0.0818	-24.977	-23.42	131.22
2643.5	-23.342	124.4	-0.0344	-25.965	-0.0344	-25.965	-23.342	124.4
2743.25	-23.46	117.19	-0.0285	-27.176	-0.0285	-27.176	-23.46	117.19
2843	-23.555	110.63	-0.0151	-28.238	-0.0151	-28.238	-23.555	110.63
2942.75	-23.784	102.95	-0.0495	-29.251	-0.0495	-29.251	-23.784	102.95
3042.5	-24.053	95.35	-0.042	-30.466	-0.042	-30.466	-24.053	95.35
3142.25	-24.307	86.784	-0.0691	-31.455	-0.0691	-31.455	-24.307	86.784
3242	-24.637	77.451	-0.0755	-32.738	-0.0755	-32.738	-24.637	77.451
3341.75	-25.052	67.273	-0.0982	-33.88	-0.0982	-33.88	-25.052	67.273
3441.5	-25.431	56.212	-0.0962	-35.115	-0.0962	-35.115	-25.431	56.212
3541.25	-25.795	43.408	-0.1056	-36.469	-0.1056	-36.469	-25.795	43.408
3641	-26.052	29.91	-0.1088	-37.728	-0.1088	-37.728	-26.052	29.91
3740.75	-26.054	15.498	-0.1083	-38.654	-0.1083	-38.654	-26.054	15.498
3840.5	-25.86	-0.3048	-0.1486	-40.038	-0.1486	-40.038	-25.86	-0.3048
3940.25	-25.264	-15.36	-0.1469	-41.026	-0.1469	-41.026	-25.264	-15.36
4040	-24.485	-30.401	-0.1819	-42.468	-0.1819	-42.468	-24.485	-30.401
4139.75	-23.582	-43.076	-0.1977	-43.469	-0.1977	-43.469	-23.582	-43.076
4239.5	-22.485	-55.587	-0.2473	-44.872	-0.2473	-44.872	-22.485	-55.587
4339.25	-21.334	-66.009	-0.2103	-45.791	-0.2103	-45.791	-21.334	-66.009
4439	-20.208	-76.079	-0.2481	-47.413	-0.2481	-47.413	-20.208	-76.079
4538.75	-19.145	-84.895	-0.2439	-48.576	-0.2439	-48.576	-19.145	-84.895
4638.5	-18.156	-92.602	-0.2448	-49.721	-0.2448	-49.721	-18.156	-92.602
4738.25	-17.105	-99.693	-0.2716	-50.979	-0.2716	-50.979	-17.105	-99.693
4838	-16.116	-107.07	-0.2983	-52.048	-0.2983	-52.048	-16.116	-107.07
4937.75	-15.332	-113.28	-0.2346	-53.59	-0.2346	-53.59	-15.332	-113.28
5037.5	-14.449	-119.31	-0.2641	-54.837	-0.2641	-54.837	-14.449	-119.31
5137.25	-13.628	-125.43	-0.2214	-56.661	-0.2214	-56.661	-13.628	-125.43
5237	-12.84	-131.16	-0.2187	-57.866	-0.2187	-57.866	-12.84	-131.16
5336.75	-12.131	-136.47	-0.1954	-59.586	-0.1954	-59.586	-12.131	-136.47
5436.5	-11.474	-141.69	-0.0952	-60.975	-0.0952	-60.975	-11.474	-141.69
5536.25	-10.773	-147.02	-0.185	-62.879	-0.185	-62.879	-10.773	-147.02
5636	-10.213	-152.29	-0.1744	-65.003	-0.1744	-65.003	-10.213	-152.29
5735.75	-9.5428	-157.2	-0.1439	-66.787	-0.1439	-66.787	-9.5428	-157.2
5835.5	-8.9924	-161.74	0.0132	-68.651	0.0132	-68.651	-8.9924	-161.74
5935.25	-8.4615	-167.04	-0.136	-71.245	-0.136	-71.245	-8.4615	-167.04
6035	-7.9119	-171.61	-0.1638	-73.107	-0.1638	-73.107	-7.9119	-171.61
6134.75	-7.4955	-176.23	-0.1327	-75.715	-0.1327	-75.715	-7.4955	-176.23
6234.5	-6.9418	179.56	-0.1265	-78.15	-0.1265	-78.15	-6.9418	179.56
6334.25	-6.5951	174.51	-0.2831	-80.52	-0.2831	-80.52	-6.5951	174.51
6434	-6.203	170.35	-0.5379	-82.549	-0.5379	-82.549	-6.203	170.35
6533.75	-5.6555	166.24	-0.5062	-85.465	-0.5062	-85.465	-5.6555	166.24
6633.5	-5.2308	161.9	-0.28	-88.216	-0.28	-88.216	-5.2308	161.9
6733.25	-4.8357	157.52	-0.5861	-91.013	-0.5861	-91.013	-4.8357	157.52
6833	-4.4556	153.56	-0.8773	-93.119	-0.8773	-93.119	-4.4556	153.56
6932.75	-4.1087	149.41	-0.808	-96.736	-0.808	-96.736	-4.1087	149.41
7032.5	-3.5923	144.91	-0.9172	-99.282	-0.9172	-99.282	-3.5923	144.91
7132.25	-3.3602	140.63	-1.0263	-102.03	-1.0263	-102.03	-3.3602	140.63
7232	-3.0633	136.21	-1.309	-104.88	-1.309	-104.88	-3.0633	136.21
7331.75	-2.7485	132.34	-1.539	-108.22	-1.539	-108.22	-2.7485	132.34
7431.5	-2.3665	127.97	-1.3977	-110.9	-1.3977	-110.9	-2.3665	127.97
7531.25	-2.0138	123.16	-1.7177	-115.15	-1.7177	-115.15	-2.0138	123.16
7631	-1.8599	119.23	-2.1211	-118.29	-2.1211	-118.29	-1.8599	119.23
7730.75	-1.5617	115.06	-2.4641	-121.8	-2.4641	-121.8	-1.5617	115.06
7830.5	-1.2238	110.64	-2.4687	-126.73	-2.4687	-126.73	-1.2238	110.64
7930.25	-1.0658	104.88	-3.0132	-130.34	-3.0132	-130.34	-1.0658	104.88
8030	-0.9079	100.75	-3.6766	-134.02	-3.6766	-134.02	-0.9079	100.75
8129.75	-0.6114	96.577	-4.0598	-137.88	-4.0598	-137.88	-0.6114	96.577
8229.5	-0.2219	91.306	-4.5382	-143.16	-4.5382	-143.16	-0.2219	91.306
8329.25	-0.2534	85.825	-5.0477	-144.94	-5.0477	-144.94	-0.2534	85.825
8429	-0.2359	81.939	-6.1991	-148.74	-6.1991	-148.74	-0.2359	81.939
8528.75	-0.0924	77.557	-7.0205	-150.98	-7.0205	-150.98	-0.0924	77.557
8628.5	0.1468	73.069	-7.4878	-154.23	-7.4878	-154.23	0.1468	73.069
8728.25	0.0742	68.343	-8.0779	-157.18	-8.0779	-157.18	0.0742	68.343
8828	0.0573	64.786	-9.2353	-154.62	-9.2353	-154.62	0.0573	64.786
8927.75	0.1341	59.914	-9.919	-159.47	-9.919	-159.47	0.1341	59.914
9027.5	0.3063	55.039	-10.848	-161.46	-10.848	-161.46	0.3063	55.039
9127.25	0.2272	50.247	-11.348	-162.31	-11.348	-162.31	0.2272	50.247
9227	0.0875	46.496	-12.237	-165.08	-12.237	-165.08	0.0875	46.496
9326.75	0.0527	42.616	-13.495	-166.58	-13.495	-166.58	0.0527	42.616
9426.5	0.1944	38.651	-13.803	-168.56	-13.803	-168.56	0.1944	38.651
9526.25	0.1028	34.453	-15.079	-170.97	-15.079	-170.97	0.1028	34.453
9626	-0.066	31.014	-16.5	-171.69	-16.5	-171.69	-0.066	31.014
9725.75	-0.0489	27.938	-17.823	-175.14	-17.823	-175.14	-0.0489	27.938
9825.5	0.0466	24.016	-19.374	-176.49	-19.374	-176.49	0.0466	24.016
9925.25	-0.0602	19.803	-20.958	-177.75	-20.958	-177.75	-0.0602	19.803
10025	-0.1533	16.902	-23.002	-177.6	-23.002	-177.6	-0.1533	16.902
10124.75	-0.1522	13.458	-25.895	-176.38	-25.895	-176.38	-0.1522	13.458
10224.5	-0.1203	10.312	-28.548	-172.89	-28.548	-172.89	-0.1203	10.312
10324.25	-0.1657	6.2636	-32.447	-153.31	-32.447	-153.31	-0.1657	6.2636
10424	-0.2654	2.8276	-35.584	-121.09	-35.584	-121.09	-0.2654	2.8276
10523.75	-0.2474	-0.0054	-35.134	-80.119	-35.134	-80.119	-0.2474	-0.0054
10623.5	-0.2016	-3.322	-31.875	-58.557	-31.875	-58.557	-0.2016	-3.322
10723.25	-0.243	-6.8939	-29.202	-48.869	-29.202	-48.869	-0.243	-6.8939
10823	-0.3643	-10.355	-27.393	-42.718	-27.393	-42.718	-0.3643	-10.355
10922.75	-0.3437	-13.104	-25.699	-37.726	-25.699	-37.726	-0.3437	-13.104
11022.5	-0.2345	-16.778	-24.754	-37.318	-24.754	-37.318	-0.2345	-16.778
11122.25	-0.3286	-20.734	-23.538	-36.444	-23.538	-36.444	-0.3286	-20.734
11222	-0.4179	-24.031	-22.409	-35.758	-22.409	-35.758	-0.4179	-24.031
11321.75	-0.3512	-26.789	-21.543	-35.322	-21.543	-35.322	-0.3512	-26.789
11421.5	-0.3453	-29.934	-20.921	-32.739	-20.921	-32.739	-0.3453	-29.934
11521.25	-0.3106	-34.291	-20.126	-35.854	-20.126	-35.854	-0.3106	-34.291
11621	-0.4187	-38.077	-19.688	-36.093	-19.688	-36.093	-0.4187	-38.077
11720.75	-0.3233	-41.189	-19.024	-36.575	-19.024	-36.575	-0.3233	-41.189
11820.5	-0.4086	-44.809	-18.567	-37.032	-18.567	-37.032	-0.4086	-44.809
11920.25	-0.3899	-49.949	-18.338	-39.977	-18.338	-39.977	-0.3899	-49.949
12020	-0.5043	-52.638	-17.668	-40.402	-17.668	-40.402	-0.5043	-52.638
12119.75	-0.46	-56.324	-17.492	-40.638	-17.492	-40.638	-0.46	-56.324
12219.5	-0.5272	-60.498	-17.218	-42.528	-17.218	-42.528	-0.5272	-60.498
12319.25	-0.5634	-64.921	-16.982	-44.852	-16.982	-44.852	-0.5634	-64.921
12419	-0.7124	-68.681	-16.708	-46.994	-16.708	-46.994	-0.7124	-68.681
12518.75	-0.7067	-72.519	-16.722	-48.156	-16.722	-48.156	-0.7067	-72.519
12618.5	-0.8066	-76.555	-16.51	-49.583	-16.51	-49.583	-0.8066	-76.555
12718.25	-0.8618	-80.549	-16.353	-53.402	-16.353	-53.402	-0.8618	-80.549
12818	-0.9991	-84.716	-16.598	-54.238	-16.598	-54.238	-0.9991	-84.716
12917.75	-1.118	-88.602	-16.414	-54.669	-16.414	-54.669	-1.118	-88.602
13017.5	-1.2349	-92.903	-16.717	-59.55	-16.717	-59.55	-1.2349	-92.903
13117.25	-1.3972	-97.285	-17.121	-58.97	-17.121	-58.97	-1.3972	-97.285
13217	-1.5136	-101.56	-16.749	-61.923	-16.749	-61.923	-1.5136	-101.56
13316.75	-1.6462	-105.07	-17.346	-62.062	-17.346	-62.062	-1.6462	-105.07
13416.5	-1.797	-108.8	-17.622	-62.592	-17.622	-62.592	-1.797	-108.8
13516.25	-1.9366	-113.15	-17.65	-66.256	-17.65	-66.256	-1.9366	-113.15
13616	-2.0622	-117.15	-18.505	-67.858	-18.505	-67.858	-2.0622	-117.15
13715.75	-2.193	-121.1	-18.205	-67.073	-18.205	-67.073	-2.193	-121.1
13815.5	-2.3769	-124.63	-19.127	-68.41	-19.127	-68.41	-2.3769	-124.63
13915.25	-2.5521	-128.21	-19.286	-66.463	-19.286	-66.463	-2.5521	-128.21
14015	-2.7383	-132	-19.49	-67.257	-19.49	-67.257	-2.7383	-132
14114.75	-2.8278	-135.64	-19.99	-66.741	-19.99	-66.741	-2.8278	-135.64
14214.5	-2.9876	-138.83	-20.037	-64.705	-20.037	-64.705	-2.9876	-138.83
14314.25	-3.0687	-142.6	-20.559	-66.742	-20.559	-66.742	-3.0687	-142.6
14414	-3.0807	-146.32	-20.893	-64.796	-20.893	-64.796	-3.0807	-146.32
14513.75	-3.1713	-149.57	-21.153	-63.927	-21.153	-63.927	-3.1713	-149.57
14613.5	-3.2048	-153.34	-21.528	-63.357	-21.528	-63.357	-3.2048	-153.34
14713.25	-3.2316	-156.89	-21.995	-59.554	-21.995	-59.554	-3.2316	-156.89
14813	-3.2771	-159.93	-22.274	-59.455	-22.274	-59.455	-3.2771	-159.93
14912.75	-3.3348	-163.45	-22.648	-53.457	-22.648	-53.457	-3.3348	-163.45
15012.5	-3.3485	-167.26	-23.012	-51.695	-23.012	-51.695	-3.3485	-167.26
15112.25	-3.3861	-170.43	-23.067	-49.109	-23.067	-49.109	-3.3861	-170.43
15212	-3.3884	-173.89	-22.863	-45.926	-22.863	-45.926	-3.3884	-173.89
15311.75	-3.3182	-177.44	-22.673	-45.365	-22.673	-45.365	-3.3182	-177.44
15411.5	-3.355	179.41	-22.766	-40.914	-22.766	-40.914	-3.355	179.41
15511.25	-3.3625	176.06	-22.564	-38.429	-22.564	-38.429	-3.3625	176.06
15611	-3.3257	172.99	-22.514	-35.307	-22.514	-35.307	-3.3257	172.99
15710.75	-3.3126	169.61	-21.63	-32.716	-21.63	-32.716	-3.3126	169.61
15810.5	-3.2768	166.87	-21.011	-36.707	-21.011	-36.707	-3.2768	166.87
15910.25	-3.125	163.49	-21.033	-39.665	-21.033	-39.665	-3.125	163.49
16010	-3.0431	160.65	-21.017	-40.505	-21.017	-40.505	-3.0431	160.65
16109.75	-2.8663	156.81	-21.372	-43.076	-21.372	-43.076	-2.8663	156.81
16209.5	-2.6858	153.44	-21.329	-42.303	-21.329	-42.303	-2.6858	153.44
16309.25	-2.5483	149.52	-21.509	-44.317	-21.509	-44.317	-2.5483	149.52
16409	-2.4769	145.49	-21.722	-42.966	-21.722	-42.966	-2.4769	145.49
16508.75	-2.2865	141.65	-21.809	-42.845	-21.809	-42.845	-2.2865	141.65
16608.5	-2.1982	137.52	-21.578	-41.774	-21.578	-41.774	-2.1982	137.52
16708.25	-2.052	133.28	-21.85	-41.177	-21.85	-41.177	-2.052	133.28
16808	-2.0301	129.38	-21.343	-41.495	-21.343	-41.495	-2.0301	129.38
16907.75	-1.8644	125.23	-21.349	-41.318	-21.349	-41.318	-1.8644	125.23
17007.5	-1.7944	120.88	-20.813	-43.691	-20.813	-43.691	-1.7944	120.88
17107.25	-1.7894	116.4	-20.912	-41.66	-20.912	-41.66	-1.7894	116.4
17207	-1.7165	111.99	-20.586	-46.035	-20.586	-46.035	-1.7165	111.99
17306.75	-1.6695	107.36	-20.498	-47.619	-20.498	-47.619	-1.6695	107.36
17406.5	-1.7437	102.66	-20.45	-50.01	-20.45	-50.01	-1.7437	102.66
17506.25	-1.7898	98.197	-20.404	-50.173	-20.404	-50.173	-1.7898	98.197
17606	-1.7951	93.561	-20.963	-52.333	-20.963	-52.333	-1.7951	93.561
17705.75	-1.8974	88.93	-20.546	-54.576	-20.546	-54.576	-1.8974	88.93
17805.5	-1.9581	84.827	-20.733	-56.1	-20.733	-56.1	-1.9581	84.827
17905.25	-2.1105	80.531	-20.362	-54.882	-20.362	-54.882	-2.1105	80.531
18005	-2.257	75.947	-20.469	-55.304	-20.469	-55.304	-2.257	75.947
18104.75	-2.5038	71.702	-19.939	-58.894	-19.939	-58.894	-2.5038	71.702
18204.5	-2.713	67.663	-19.901	-59.811	-19.901	-59.811	-2.713	67.663
18304.25	-2.8367	63.883	-19.109	-66.205	-19.109	-66.205	-2.8367	63.883
18404	-3.3099	60.314	-19.036	-66.577	-19.036	-66.577	-3.3099	60.314
18503.75	-3.3747	55.947	-18.131	-74.78	-18.131	-74.78	-3.3747	55.947
18603.5	-3.7656	52.782	-17.302	-79.167	-17.302	-79.167	-3.7656	52.782
18703.25	-4.1322	48.159	-16.66	-90.209	-16.66	-90.209	-4.1322	48.159
18803	-4.7462	45.632	-15.474	-100.37	-15.474	-100.37	-4.7462	45.632
18902.75	-5.635	43.62	-14.676	-119.65	-14.676	-119.65	-5.635	43.62
19002.5	-6.283	46.886	-13.923	-138.09	-13.923	-138.09	-6.283	46.886
19102.25	-6.2188	50.181	-14.383	-163.92	-14.383	-163.92	-6.2188	50.181
19202	-5.6342	51.106	-15.591	176.21	-15.591	176.21	-5.6342	51.106
19301.75	-5.1403	48.895	-17.459	158.58	-17.459	158.58	-5.1403	48.895
19401.5	-4.939	46.615	-18.845	145.09	-18.845	145.09	-4.939	46.615
19501.25	-4.8252	42.49	-20.435	135.97	-20.435	135.97	-4.8252	42.49
19601	-4.8218	38.861	-21.377	125.61	-21.377	125.61	-4.8218	38.861
19700.75	-4.8725	35.972	-22.399	118.78	-22.399	118.78	-4.8725	35.972
19800.5	-4.8715	33.545	-22.894	112.65	-22.894	112.65	-4.8715	33.545
19900.25	-4.9766	30.907	-23.451	106.99	-23.451	106.99	-4.9766	30.907
20000	-4.9349	28.922	-24.086	103.48	-24.086	103.48	-4.9349	28.922
