!	AVX THIN FILM OPERATION
!
!	LP0603 LOW PASS FILTERS
!	P/N LP0603A0967ALTR
!
!	Network	Analyzer	HP8720ES.07.64:	Feb	"23,"	2000	Serial	No.	US39172382
!	Hewlett-Packard								
!	2	Feb	2004	02:33:11					
!	Frequency	S11	S21	S12	S22
!
!				
#	HZ	S	DB	R	50				
50000000	-42.562	-87.856	0	-3.4923	0	-3.2437	-42.562	-18.659	
117250000	-35.546	-94.988	-0.0164	-6.2251	-0.0164	-6.3789	-35.546	-98.871	
184500000	-31.94	-101.27	-0.038	-9.554	-0.038	-9.2052	-31.94	-103.69	
251750000	-29.467	-106.75	-0.0436	-12.681	-0.0436	-12.575	-29.467	-107.02	
319000000	-27.583	-112.44	-0.057	-15.698	-0.057	-15.808	-27.583	-114.1	
386250000	-26.502	-117.47	-0.0721	-18.818	-0.0721	-19.016	-26.502	-119.5	
453500000	-25.86	-122.8	-0.0999	-22.317	-0.0999	-22.15	-25.86	-126.27	
520750000	-25.421	-128.07	-0.1142	-25.391	-0.1142	-25.458	-25.421	-130.19	
588000000	-25.608	-133.41	-0.1111	-28.691	-0.1111	-28.762	-25.608	-133.54	
655250000	-26.342	-139.01	-0.1305	-32.136	-0.1305	-32.574	-26.342	-138.7	
722500000	-27.311	-144.71	-0.1705	-35.62	-0.1705	-35.865	-27.311	-143.38	
789750000	-28.594	-150.53	-0.1885	-39.268	-0.1885	-39.195	-28.594	-148.73
857000000	-27.424	-156.91	-0.2223	-43.077	-0.2223	-43.278	-27.424	-153.98
924250000	-23.8	-163.46	-0.2711	-47.177	-0.2711	-47.455	-23.8	-160.56
991500000	-19.865	-170.75	-0.3654	-51.497	-0.3654	-51.443	-19.865	-169.04
1058750000	-16.287	-179.09	-0.4474	-56.004	-0.4474	-56.128	-16.287	-178.92
1126000000	-13.217	170.74	-0.6592	-60.984	-0.6592	-61.004	-13.217	167.92
1193250000	-10.522	156.55	-0.8777	-66.395	-0.8777	-66.075	-10.522	145.9
1260500000	-8.186	127.71	-1.3422	-72.315	-1.3422	-72.175	-8.186	103.3
1327750000	-6.214	51.785	-1.8943	-78.9	-1.8943	-78.952	-6.214	42.001
1395000000	-4.59	1.869	-2.7461	-86.208	-2.7461	-86.2	-4.59	6.3611
1462250000	-3.2979	-20.22	-3.8913	-94.355	-3.8913	-94.716	-3.2979	-13.995
1529500000	-2.3072	-36.08	-5.3559	-103.4	-5.3559	-103.07	-2.3072	-31.63
1596750000	-1.591	-50.558	-7.1868	-113.07	-7.1868	-112.89	-1.591	-48.112
1664000000	-1.135	-65.141	-9.5005	-123.49	-9.5005	-124.17	-1.135	-63.758
1731250000	-0.798	-79.178	-12.108	-134.13	-12.108	-133.15	-0.798	-78.08
1798500000	-0.6128	-92.593	-15.4981	-144.22	-15.4981	-144.65	-0.6128	-92.019
1865750000	-0.4823	-105.28	-19.5542	-154.35	-19.5542	-154.92	-0.4823	-105.31
1933000000	-0.4244	-116.66	-25.6801	-163.15	-25.6801	-163.15	-0.4244	-116.84
2000250000	-0.3583	-126.53	-32.6023	-171.2	-32.6023	-173.29	-0.3583	-126.83
2067500000	-0.3812	-135.66	-27.6331	-178.62	-27.6331	179.24	-0.3812	-135.8
2134750000	-0.3751	-143.57	-23.2682	175.28	-23.2682	174.68	-0.3751	-143.76
2202000000	-0.388	-150.48	-20.73	170.39	-20.73	170.97	-0.388	-150.71
2269250000	-0.4065	-156.95	-19.0129	165.58	-19.0129	162.34	-0.4065	-157.21
2336500000	-0.4235	-162.63	-17.9101	162.55	-17.9101	160.43	-0.4235	-162.74
2403750000	-0.4397	-168.09	-17.1069	161.29	-17.1069	163.27	-0.4397	-168.75
2471000000	-0.4547	-172.86	-16.4096	163.62	-16.4096	162.87	-0.4547	-173.14
2538250000	-0.4571	-177.33	-15.9272	-169.4	-15.9272	-171.29	-0.4571	-177.62
2605500000	-0.4931	177.95	-15.5272	-74.855	-15.5272	-76.286	-0.4931	178.49
2672750000	-0.5038	174.15	-15.2939	-57.666	-15.2939	-58.184	-0.5038	174.93
2740000000	-0.5	170.17	-14.895	-53.746	-14.895	-53.403	-0.5	170.95
2807250000	-0.5062	166.4	-14.8689	-53.767	-14.8689	-57.627	-0.5062	167.9
2874500000	-0.5038	163.17	-14.5613	-55.673	-14.5613	-58.597	-0.5038	164.8
2941750000	-0.5633	159.48	-14.655	-57.393	-14.655	-62.163	-0.5633	161.46
3009000000	-0.4884	156.38	-14.2073	-58.254	-14.2073	-60.947	-0.4884	158.09
3076250000	-0.5729	153.3	-14.4994	-59.491	-14.4994	-54.351	-0.5729	154.66
3143500000	-0.5136	150.07	-14.1561	-61.276	-14.1561	-60.676	-0.5136	151.2
3210750000	-0.6047	147.31	-14.4303	-63.189	-14.4303	-68.104	-0.6047	147.84
3278000000	-0.5118	144.36	-14.0459	-63.609	-14.0459	-69.917	-0.5118	144.64
3345250000	-0.6119	141.48	-14.3273	-66.302	-14.3273	-65.871	-0.6119	142.12
3412500000	-0.5165	138.81	-14.124	-66.676	-14.124	-62.063	-0.5165	138.62
3479750000	-0.6062	136.01	-14.4584	-66.059	-14.4584	-67.977	-0.6062	135.58
3547000000	-0.5002	133.46	-14.1478	-65.752	-14.1478	-70.571	-0.5002	132.92
3614250000	-0.6527	130.96	-14.4832	-37.119	-14.4832	-19.994	-0.6527	130.22
3681500000	-0.501	128.34	-14.3179	93.281	-14.3179	90.699	-0.501	127.73
3748750000	-0.6555	125.94	-14.6536	96.239	-14.6536	100.34	-0.6555	125.12
3816000000	-0.5042	123.5	-14.4283	96.958	-14.4283	98.313	-0.5042	122.6
3883250000	-0.6747	121.1	-14.8152	95.64	-14.8152	90.599	-0.6747	120.7
3950500000	-0.483	118.7	-14.603	95.008	-14.603	89.474	-0.483	118.49
4017750000	-0.6527	116.4	-14.8947	93.845	-14.8947	90.461	-0.6527	116.25
4085000000	-0.5074	114.19	-14.8775	92.379	-14.8775	95.129	-0.5074	113.79
4152250000	-0.6542	111.95	-15.1039	92.248	-15.1039	91.776	-0.6542	111.45
4219500000	-0.5118	109.68	-15.0096	89.606	-15.0096	84.364	-0.5118	109.37
4286750000	-0.6441	107.54	-15.2749	88.338	-15.2749	82.809	-0.6441	106.87
4354000000	-0.5089	105.31	-15.3109	88.216	-15.3109	81.878	-0.5089	104.45
4421250000	-0.659	103.09	-15.4633	85.827	-15.4633	85.431	-0.659	102.37
4488500000	-0.5052	101.08	-15.4121	84.626	-15.4121	83.621	-0.5052	99.838
4555750000	-0.6425	98.952	-15.7005	83.437	-15.7005	78.493	-0.6425	98.027
