!	AVX	Thin	Film	Operation	Date:	2007		
!	Description:	"Series,"	Thin	"Film,"	"LGA,"	RF	Filters	
!	Part	Number:	LP0603N5200AN					
!	50	MHz	-	20	GHz			
!	Serial	Measurements				Agilent  8720ES		
!								
#	mhz	S	db	R	50			
!	S11	S11	S21	S21	S12	S12	S22	S22
!	dB	Phase	dB	Phase	dB	Phase	dB	Phase
50	-49.975	-33.49	-0.0397	-0.6962	-0.0397	-0.6962	-49.975	-33.49
149.75	-42.67	-66.058	-0.0266	-1.7798	-0.0266	-1.7798	-42.67	-66.058
249.5	-38.635	-80.482	-0.0413	-2.851	-0.0413	-2.851	-38.635	-80.482
349.25	-35.697	-88.275	-0.0463	-3.7779	-0.0463	-3.7779	-35.697	-88.275
449	-33.627	-94.985	-0.0352	-4.9425	-0.0352	-4.9425	-33.627	-94.985
548.75	-31.817	-100.26	-0.0329	-5.9862	-0.0329	-5.9862	-31.817	-100.26
648.5	-30.334	-106.34	-0.0401	-7.1988	-0.0401	-7.1988	-30.334	-106.34
748.25	-29.071	-110.87	-0.0284	-8.2988	-0.0284	-8.2988	-29.071	-110.87
848	-28.028	-116.12	-0.0405	-9.3068	-0.0405	-9.3068	-28.028	-116.12
947.75	-27.148	-120.56	-0.0517	-10.404	-0.0517	-10.404	-27.148	-120.56
1047.5	-26.324	-125.02	-0.0493	-11.396	-0.0493	-11.396	-26.324	-125.02
1147.25	-25.572	-129.26	-0.0845	-12.649	-0.0845	-12.649	-25.572	-129.26
1247	-24.846	-133.87	-0.0689	-13.817	-0.0689	-13.817	-24.846	-133.87
1346.75	-24.306	-138.41	-0.0805	-14.623	-0.0805	-14.623	-24.306	-138.41
1446.5	-23.789	-142.84	-0.089	-15.893	-0.089	-15.893	-23.789	-142.84
1546.25	-23.366	-147.02	-0.0997	-16.856	-0.0997	-16.856	-23.366	-147.02
1646	-22.937	-151.34	-0.1007	-18.073	-0.1007	-18.073	-22.937	-151.34
1745.75	-22.585	-155.63	-0.0868	-19.046	-0.0868	-19.046	-22.585	-155.63
1845.5	-22.241	-160.05	-0.1104	-20.208	-0.1104	-20.208	-22.241	-160.05
1945.25	-21.987	-164.31	-0.1056	-21.27	-0.1056	-21.27	-21.987	-164.31
2045	-21.815	-168.03	-0.1298	-22.376	-0.1298	-22.376	-21.815	-168.03
2144.75	-21.63	-172.12	-0.0828	-23.625	-0.0828	-23.625	-21.63	-172.12
2244.5	-21.439	-176.46	-0.0677	-24.748	-0.0677	-24.748	-21.439	-176.46
2344.25	-21.316	179.37	-0.0874	-25.966	-0.0874	-25.966	-21.316	179.37
2444	-21.297	174.84	-0.0907	-27.003	-0.0907	-27.003	-21.297	174.84
2543.75	-21.32	171.25	-0.0903	-28.152	-0.0903	-28.152	-21.32	171.25
2643.5	-21.334	166.87	-0.1075	-29.696	-0.1075	-29.696	-21.334	166.87
2743.25	-21.422	162.61	-0.0972	-30.655	-0.0972	-30.655	-21.422	162.61
2843	-21.548	159.36	-0.0624	-32.017	-0.0624	-32.017	-21.548	159.36
2942.75	-21.728	155.52	-0.0999	-33.135	-0.0999	-33.135	-21.728	155.52
3042.5	-22.093	151.97	-0.0892	-34.349	-0.0892	-34.349	-22.093	151.97
3142.25	-22.343	148.64	-0.118	-35.564	-0.118	-35.564	-22.343	148.64
3242	-22.791	145.06	-0.144	-36.818	-0.144	-36.818	-22.791	145.06
3341.75	-23.255	142.27	-0.1446	-38.156	-0.1446	-38.156	-23.255	142.27
3441.5	-23.847	139.44	-0.109	-39.629	-0.109	-39.629	-23.847	139.44
3541.25	-24.525	137.64	-0.113	-40.669	-0.113	-40.669	-24.525	137.64
3641	-25.286	136.74	-0.1158	-42.19	-0.1158	-42.19	-25.286	136.74
3740.75	-26.134	136.41	-0.1377	-43.263	-0.1377	-43.263	-26.134	136.41
3840.5	-27.325	137.49	-0.1282	-45.054	-0.1282	-45.054	-27.325	137.49
3940.25	-28.408	140.78	-0.1224	-45.968	-0.1224	-45.968	-28.408	140.78
4040	-29.419	146.9	-0.1529	-47.637	-0.1529	-47.637	-29.419	146.9
4139.75	-30.362	156.7	-0.1192	-48.91	-0.1192	-48.91	-30.362	156.7
4239.5	-30.555	171.54	-0.1282	-50.629	-0.1282	-50.629	-30.555	171.54
4339.25	-30.214	-175.79	-0.1316	-52.071	-0.1316	-52.071	-30.214	-175.79
4439	-28.907	-163.92	-0.1381	-53.37	-0.1381	-53.37	-28.907	-163.92
4538.75	-27.265	-157.18	-0.1197	-55.145	-0.1197	-55.145	-27.265	-157.18
4638.5	-25.734	-152.99	-0.1221	-56.613	-0.1221	-56.613	-25.734	-152.99
4738.25	-24.144	-150.74	-0.0982	-58.325	-0.0982	-58.325	-24.144	-150.74
4838	-22.845	-149.88	-0.1209	-59.951	-0.1209	-59.951	-22.845	-149.88
4937.75	-21.578	-150.49	-0.1009	-61.911	-0.1009	-61.911	-21.578	-150.49
5037.5	-20.32	-151.83	-0.1061	-63.585	-0.1061	-63.585	-20.32	-151.83
5137.25	-19.182	-153.22	-0.0807	-65.457	-0.0807	-65.457	-19.182	-153.22
5237	-18.191	-155.12	-0.0857	-67.459	-0.0857	-67.459	-18.191	-155.12
5336.75	-17.215	-157.62	-0.084	-69.263	-0.084	-69.263	-17.215	-157.62
5436.5	-16.314	-159.95	-0.0266	-71.581	-0.0266	-71.581	-16.314	-159.95
5536.25	-15.402	-162.99	-0.057	-73.976	-0.057	-73.976	-15.402	-162.99
5636	-14.579	-165.95	-0.0581	-76.208	-0.0581	-76.208	-14.579	-165.95
5735.75	-13.719	-168.57	-0.0639	-78.584	-0.0639	-78.584	-13.719	-168.57
5835.5	-12.85	-171.49	0.0063	-81.061	0.0063	-81.061	-12.85	-171.49
5935.25	-12.14	-174.4	-0.1279	-84.052	-0.1279	-84.052	-12.14	-174.4
6035	-11.349	-177.71	-0.1657	-86.723	-0.1657	-86.723	-11.349	-177.71
6134.75	-10.617	178.83	-0.178	-89.923	-0.178	-89.923	-10.617	178.83
6234.5	-9.7704	175.61	-0.2212	-92.976	-0.2212	-92.976	-9.7704	175.61
6334.25	-8.9707	172.27	-0.452	-95.963	-0.452	-95.963	-8.9707	172.27
6434	-8.0426	167.76	-0.813	-99.772	-0.813	-99.772	-8.0426	167.76
6533.75	-7.505	164.55	-0.6983	-102.3	-0.6983	-102.3	-7.505	164.55
6633.5	-6.7539	159.67	-0.5811	-105.97	-0.5811	-105.97	-6.7539	159.67
6733.25	-6.0504	154.93	-0.8412	-109.85	-0.8412	-109.85	-6.0504	154.93
6833	-5.4306	150	-1.2492	-112.97	-1.2492	-112.97	-5.4306	150
6932.75	-4.6768	145.06	-1.2231	-117.42	-1.2231	-117.42	-4.6768	145.06
7032.5	-3.9821	138.94	-1.4885	-121.15	-1.4885	-121.15	-3.9821	138.94
7132.25	-3.4797	132.98	-1.7535	-125.61	-1.7535	-125.61	-3.4797	132.98
7232	-3.0178	127.64	-2.2213	-129.82	-2.2213	-129.82	-3.0178	127.64
7331.75	-2.5122	121.61	-2.6739	-134.74	-2.6739	-134.74	-2.5122	121.61
7431.5	-2.0265	115.2	-2.7592	-138.93	-2.7592	-138.93	-2.0265	115.2
7531.25	-1.6704	108.28	-3.4694	-144.23	-3.4694	-144.23	-1.6704	108.28
7631	-1.4048	102.48	-4.2079	-148.26	-4.2079	-148.26	-1.4048	102.48
7730.75	-1.1934	96.928	-5.0391	-151.57	-5.0391	-151.57	-1.1934	96.928
7830.5	-0.8079	90.408	-5.4646	-157.74	-5.4646	-157.74	-0.8079	90.408
7930.25	-0.7466	83.554	-6.3454	-160.53	-6.3454	-160.53	-0.7466	83.554
8030	-0.7664	78.085	-7.4441	-163.16	-7.4441	-163.16	-0.7664	78.085
8129.75	-0.523	72.874	-8.207	-166.34	-8.207	-166.34	-0.523	72.874
8229.5	-0.3209	66.723	-9.1729	-170.23	-9.1729	-170.23	-0.3209	66.723
8329.25	-0.4385	60.724	-9.8606	-170.44	-9.8606	-170.44	-0.4385	60.724
8429	-0.51	56.461	-11.244	-171.97	-11.244	-171.97	-0.51	56.461
8528.75	-0.4826	51.707	-12.368	-172.64	-12.368	-172.64	-0.4826	51.707
8628.5	-0.3469	46.684	-13.088	-175.18	-13.088	-175.18	-0.3469	46.684
8728.25	-0.4137	42.002	-13.83	-176.52	-13.83	-176.52	-0.4137	42.002
8828	-0.4743	38.282	-14.835	-171.96	-14.835	-171.96	-0.4743	38.282
8927.75	-0.4583	33.333	-15.862	-175.23	-15.862	-175.23	-0.4583	33.333
9027.5	-0.3866	28.582	-17.095	-175.72	-17.095	-175.72	-0.3866	28.582
9127.25	-0.4729	23.946	-17.629	-176.31	-17.629	-176.31	-0.4729	23.946
9227	-0.6367	20.349	-18.687	-176.91	-18.687	-176.91	-0.6367	20.349
9326.75	-0.6254	16.778	-19.994	-175.89	-19.994	-175.89	-0.6254	16.778
9426.5	-0.578	12.704	-20.7	-178.18	-20.7	-178.18	-0.578	12.704
9526.25	-0.5862	8.4032	-22.172	-178.41	-22.172	-178.41	-0.5862	8.4032
9626	-0.6607	5.0551	-23.658	-177.39	-23.658	-177.39	-0.6607	5.0551
9725.75	-0.6956	1.8883	-25.292	-179.05	-25.292	-179.05	-0.6956	1.8883
9825.5	-0.6012	-2.2893	-27.466	-177.47	-27.466	-177.47	-0.6012	-2.2893
9925.25	-0.6529	-6.3377	-29.895	-176.68	-29.895	-176.68	-0.6529	-6.3377
10025	-0.6968	-9.3727	-32.762	-173.06	-32.762	-173.06	-0.6968	-9.3727
10124.75	-0.628	-12.57	-37.839	-157.4	-37.839	-157.4	-0.628	-12.57
10224.5	-0.5639	-16.431	-41.422	-124.88	-41.422	-124.88	-0.5639	-16.431
10324.25	-0.6361	-20.143	-38.239	-73.942	-38.239	-73.942	-0.6361	-20.143
10424	-0.6637	-23.523	-34.835	-55.574	-34.835	-55.574	-0.6637	-23.523
10523.75	-0.6041	-26.878	-32.368	-47.579	-32.368	-47.579	-0.6041	-26.878
10623.5	-0.5323	-30.406	-30.258	-44.466	-30.258	-44.466	-0.5323	-30.406
10723.25	-0.5792	-34.034	-28.655	-42.855	-28.655	-42.855	-0.5792	-34.034
10823	-0.5857	-37.569	-27.567	-39.603	-27.567	-39.603	-0.5857	-37.569
10922.75	-0.5453	-41.011	-26.352	-38.403	-26.352	-38.403	-0.5453	-41.011
11022.5	-0.543	-44.599	-25.984	-39.691	-25.984	-39.691	-0.543	-44.599
11122.25	-0.5441	-48.468	-24.995	-39.35	-24.995	-39.35	-0.5441	-48.468
11222	-0.5654	-52.147	-24.071	-40.294	-24.071	-40.294	-0.5654	-52.147
11321.75	-0.5646	-55.385	-23.514	-40.152	-23.514	-40.152	-0.5646	-55.385
11421.5	-0.5848	-58.817	-23.05	-38.995	-23.05	-38.995	-0.5848	-58.817
11521.25	-0.5216	-62.835	-22.578	-42.557	-22.578	-42.557	-0.5216	-62.835
11621	-0.555	-66.519	-22.156	-43.149	-22.156	-43.149	-0.555	-66.519
11720.75	-0.6217	-69.965	-21.652	-44.929	-21.652	-44.929	-0.6217	-69.965
11820.5	-0.5895	-73.753	-21.435	-45.607	-21.435	-45.607	-0.5895	-73.753
11920.25	-0.6426	-77.93	-21.373	-48.406	-21.373	-48.406	-0.6426	-77.93
12020	-0.6777	-81.109	-20.744	-50.201	-20.744	-50.201	-0.6777	-81.109
12119.75	-0.7092	-84.687	-20.651	-51.25	-20.651	-51.25	-0.7092	-84.687
12219.5	-0.7615	-88.456	-20.58	-52.973	-20.58	-52.973	-0.7615	-88.456
12319.25	-0.8738	-92.155	-20.597	-55.567	-20.597	-55.567	-0.8738	-92.155
12419	-0.9024	-95.941	-20.387	-58.7	-20.387	-58.7	-0.9024	-95.941
12518.75	-0.9734	-99.259	-20.621	-59.822	-20.621	-59.822	-0.9734	-99.259
12618.5	-1.0532	-102.65	-20.453	-61.572	-20.453	-61.572	-1.0532	-102.65
12718.25	-1.1319	-106.44	-20.729	-65.731	-20.729	-65.731	-1.1319	-106.44
12818	-1.222	-109.77	-20.998	-66.412	-20.998	-66.412	-1.222	-109.77
12917.75	-1.302	-113.15	-20.914	-68.003	-20.914	-68.003	-1.302	-113.15
13017.5	-1.4049	-116.67	-21.629	-72.423	-21.629	-72.423	-1.4049	-116.67
13117.25	-1.5242	-119.83	-22.101	-70.788	-22.101	-70.788	-1.5242	-119.83
13217	-1.5244	-123.31	-22.131	-75.089	-22.131	-75.089	-1.5244	-123.31
13316.75	-1.6286	-126.36	-22.937	-74.158	-22.937	-74.158	-1.6286	-126.36
13416.5	-1.6766	-129.62	-23.449	-74.104	-23.449	-74.104	-1.6766	-129.62
13516.25	-1.75	-132.72	-24.124	-77.471	-24.124	-77.471	-1.75	-132.72
13616	-1.8335	-135.82	-25.306	-74.476	-25.306	-74.476	-1.8335	-135.82
13715.75	-1.8998	-138.9	-25.548	-72.381	-25.548	-72.381	-1.8998	-138.9
13815.5	-1.9961	-142.03	-26.81	-67.126	-26.81	-67.126	-1.9961	-142.03
13915.25	-2.0465	-145.13	-26.757	-60.142	-26.757	-60.142	-2.0465	-145.13
14015	-2.1082	-147.93	-26.566	-55.131	-26.566	-55.131	-2.1082	-147.93
14114.75	-2.1638	-150.77	-26.392	-49.897	-26.392	-49.897	-2.1638	-150.77
14214.5	-2.2456	-153.41	-25.399	-47.319	-25.399	-47.319	-2.2456	-153.41
14314.25	-2.2796	-155.98	-25.333	-49.557	-25.333	-49.557	-2.2796	-155.98
14414	-2.2546	-158.85	-25.008	-48.926	-25.008	-48.926	-2.2546	-158.85
14513.75	-2.1857	-161.97	-25.036	-51.298	-25.036	-51.298	-2.1857	-161.97
14613.5	-2.2267	-164.85	-25.088	-52.353	-25.088	-52.353	-2.2267	-164.85
14713.25	-2.1906	-167.62	-25.319	-49.536	-25.319	-49.536	-2.1906	-167.62
14813	-2.1582	-170.54	-25.476	-50.933	-25.476	-50.933	-2.1582	-170.54
14912.75	-2.1145	-173.37	-25.339	-46.733	-25.339	-46.733	-2.1145	-173.37
15012.5	-2.0882	-176.52	-25.834	-47.563	-25.834	-47.563	-2.0882	-176.52
15112.25	-2.0364	-179.12	-25.95	-47.903	-25.95	-47.903	-2.0364	-179.12
15212	-1.964	177.87	-25.884	-47.357	-25.884	-47.357	-1.964	177.87
15311.75	-1.8849	174.2	-25.94	-47.539	-25.94	-47.539	-1.8849	174.2
15411.5	-1.877	170.93	-25.98	-43.69	-25.98	-43.69	-1.877	170.93
15511.25	-1.8535	167.73	-25.62	-41.99	-25.62	-41.99	-1.8535	167.73
15611	-1.7769	164.71	-25.206	-42.676	-25.206	-42.676	-1.7769	164.71
15710.75	-1.6457	161.77	-24.621	-46.182	-24.621	-46.182	-1.6457	161.77
15810.5	-1.4979	158.19	-24.6	-53.543	-24.6	-53.543	-1.4979	158.19
15910.25	-1.3888	155.12	-25.148	-57.033	-25.148	-57.033	-1.3888	155.12
16010	-1.2375	151.42	-25.496	-59.168	-25.496	-59.168	-1.2375	151.42
16109.75	-1.0143	147.36	-26.17	-62.224	-26.17	-62.224	-1.0143	147.36
16209.5	-0.8791	142.68	-26.609	-63.149	-26.609	-63.149	-0.8791	142.68
16309.25	-0.7331	138.22	-27.45	-66.971	-27.45	-66.971	-0.7331	138.22
16409	-0.6368	133.64	-28.201	-65.522	-28.201	-65.522	-0.6368	133.64
16508.75	-0.4449	128.71	-28.921	-65.521	-28.921	-65.521	-0.4449	128.71
16608.5	-0.4489	124.05	-29.403	-65.371	-29.403	-65.371	-0.4489	124.05
16708.25	-0.359	118.62	-30.369	-60.29	-30.369	-60.29	-0.359	118.62
16808	-0.3321	114.08	-30.79	-59.553	-30.79	-59.553	-0.3321	114.08
16907.75	-0.2662	108.45	-30.893	-55.868	-30.893	-55.868	-0.2662	108.45
17007.5	-0.3177	102.31	-31.34	-57.618	-31.34	-57.618	-0.3177	102.31
17107.25	-0.3679	97.151	-31.18	-51.339	-31.18	-51.339	-0.3679	97.151
17207	-0.5988	91.143	-32.088	-58.024	-32.088	-58.024	-0.5988	91.143
17306.75	-0.7285	85.1	-31.952	-57.502	-31.952	-57.502	-0.7285	85.1
17406.5	-0.9327	79.814	-33.3	-58.946	-33.3	-58.946	-0.9327	79.814
17506.25	-1.2514	74.726	-33.259	-56.548	-33.259	-56.548	-1.2514	74.726
17606	-1.4724	69.637	-34.551	-53.745	-34.551	-53.745	-1.4724	69.637
17705.75	-1.7542	64.613	-33.819	-55.631	-33.819	-55.631	-1.7542	64.613
17805.5	-2.0518	59.256	-34.084	-58.911	-34.084	-58.911	-2.0518	59.256
17905.25	-2.4258	54.45	-33.067	-61.65	-33.067	-61.65	-2.4258	54.45
18005	-2.8083	49.905	-32.523	-67.541	-32.523	-67.541	-2.8083	49.905
18104.75	-3.1325	44.944	-30.841	-80.092	-30.841	-80.092	-3.1325	44.944
18204.5	-3.5764	41.166	-29.407	-94.116	-29.407	-94.116	-3.5764	41.166
18304.25	-4.0235	37.079	-26.559	-111.78	-26.559	-111.78	-4.0235	37.079
18404	-4.5223	32.953	-24.536	-130.38	-24.536	-130.38	-4.5223	32.953
18503.75	-4.9816	30.177	-21.161	-155.06	-21.161	-155.06	-4.9816	30.177
18603.5	-5.7767	30.472	-19.347	177.92	-19.347	177.92	-5.7767	30.472
18703.25	-5.746	28.301	-18.388	148.1	-18.388	148.1	-5.746	28.301
18803	-5.6424	26.143	-19.077	125.7	-19.077	125.7	-5.6424	26.143
18902.75	-5.7157	22.784	-19.391	107.91	-19.391	107.91	-5.7157	22.784
19002.5	-5.7305	19.289	-20.449	100.28	-20.449	100.28	-5.7305	19.289
19102.25	-5.8707	16	-20.686	91.601	-20.686	91.601	-5.8707	16
19202	-6.0383	12.803	-21.505	88.841	-21.505	88.841	-6.0383	12.803
19301.75	-6.1735	9.4881	-21.634	84.971	-21.634	84.971	-6.1735	9.4881
19401.5	-6.337	6.1221	-22.105	82.488	-22.105	82.488	-6.337	6.1221
19501.25	-6.4789	3.2877	-22.044	81.841	-22.044	81.841	-6.4789	3.2877
19601	-6.6659	0.4751	-22.11	81.292	-22.11	81.292	-6.6659	0.4751
19700.75	-6.648	-2.4046	-22.006	82.577	-22.006	82.577	-6.648	-2.4046
19800.5	-6.5562	-4.3684	-21.911	81.653	-21.911	81.653	-6.5562	-4.3684
19900.25	-6.2428	-6.6124	-21.592	81.238	-21.592	81.238	-6.2428	-6.6124
20000	-6.0253	-14.815	-22.037	78.832	-22.037	78.832	-6.0253	-14.815
