!	AVX THIN FILM OPERATION
!
!	LP0603 LOW PASS FILTERS
!	P/N LP0603A0947ALTR
!
!	Network	Analyzer	HP8720ES.07.64:	Feb	"23,"	2000	Serial	No.	US39172382
!	Hewlett-Packard								
!	2	Feb	2004	02:33:11					
!	Frequency	S11	S21	S12	S22
!
!					
#	HZ	S	DB	R	50				
50000000	-39.497	-87.534	0	-3.6324	0	-3.653	-39.497	-47.234	
117250000	-32.722	-96.183	-0.0094	-6.7319	-0.0094	-6.7854	-32.722	-96.755	
184500000	-28.963	-102.76	-0.0443	-10.183	-0.0443	-10.044	-28.963	-106.04	
251750000	-26.395	-108.29	-0.0426	-13.649	-0.0426	-13.385	-26.395	-108.89	
319000000	-24.6	-113.9	-0.079	-16.904	-0.079	-16.96	-24.6	-114.48	
386250000	-23.455	-119.07	-0.0739	-20.116	-0.0739	-20.227	-23.455	-120.9	
453500000	-22.735	-124.58	-0.1189	-23.851	-0.1189	-23.63	-22.735	-127.41	
520750000	-22.227	-129.93	-0.1385	-27.098	-0.1385	-27.102	-22.227	-130.72	
588000000	-22.268	-135.45	-0.1521	-30.594	-0.1521	-30.777	-22.268	-135.15	
655250000	-22.825	-141.18	-0.1642	-34.227	-0.1642	-34.736	-22.825	-140.1	
722500000	-23.792	-146.9	-0.2252	-38.077	-0.2252	-38.322	-23.792	-145.12	
789750000	-25.475	-152.89	-0.24	-41.968	-0.24	-41.74	-25.475	-150.49
857000000	-26.376	-159.24	-0.2791	-45.981	-0.2791	-46.112	-26.376	-156.11
924250000	-23.66	-165.97	-0.3324	-50.198	-0.3324	-50.694	-23.66	-162.74
991500000	-19.336	-173.42	-0.4682	-55.077	-0.4682	-55.143	-19.336	-171.28
1058750000	-15.297	178.32	-0.5961	-60.02	-0.5961	-60.252	-15.297	179.76
1126000000	-11.941	168.24	-0.8849	-65.623	-0.8849	-65.549	-11.941	167.36
1193250000	-9.076	154.09	-1.2595	-71.8	-1.2595	-71.286	-9.076	146.85
1260500000	-6.7013	123.71	-1.9305	-78.5	-1.9305	-78.295	-6.7013	102.15
1327750000	-4.8039	29.89	-2.8248	-86.173	-2.8248	-86.136	-4.8039	25.469
1395000000	-3.3603	-15.013	-4.1448	-94.79	-4.1448	-94.85	-3.3603	-10.447
1462250000	-2.2873	-35.545	-5.81	-104.51	-5.81	-105.01	-2.2873	-30.693
1529500000	-1.5482	-51.891	-7.9205	-115.16	-7.9205	-114.47	-1.5482	-48.389
1596750000	-1.0556	-67.684	-10.5574	-126.54	-10.5574	-126.13	-1.0556	-65.724
1664000000	-0.7754	-83.051	-13.7819	-138.17	-13.7819	-138.79	-0.7754	-81.786
1731250000	-0.5866	-97.509	-17.705	-149.65	-17.705	-148.11	-0.5866	-96.147
1798500000	-0.4987	-110.48	-23.2231	-159.9	-23.2231	-160.7	-0.4987	-109.83
1865750000	-0.4206	-122.28	-30.2892	-169.5	-30.2892	-169.98	-0.4206	-121.68
1933000000	-0.4145	-132.48	-27.9771	-177.7	-27.9771	-177.8	-0.4145	-131.71
2000250000	-0.3989	-141.05	-23.2863	175.41	-23.2863	172.99	-0.3989	-140.68
2067500000	-0.4054	-149.1	-20.7181	168.83	-20.7181	166.96	-0.4054	-148.22
2134750000	-0.4066	-155.94	-18.9432	164.23	-18.9432	163.47	-0.4066	-155.52
2202000000	-0.4179	-161.96	-17.775	160.42	-17.775	160.91	-0.4179	-161.58
2269250000	-0.4496	-167.74	-16.9009	157.47	-16.9009	153.66	-0.4496	-167.13
2336500000	-0.4541	-172.74	-16.2971	157.18	-16.2971	155.92	-0.4541	-172.25
2403750000	-0.4643	-177.56	-15.9179	165.7	-15.9179	168.07	-0.4643	-177.51
2471000000	-0.4723	178.09	-15.4706	-117.79	-15.4706	-116.95	-0.4723	178.51
2538250000	-0.4919	174.03	-15.2432	-62.509	-15.2432	-66.485	-0.4919	174.53
2605500000	-0.4498	169.81	-14.9632	-57.748	-14.9632	-62.041	-0.4498	171.08
2672750000	-0.5306	166.21	-14.9069	-57.042	-14.9069	-58.898	-0.5306	167.54
2740000000	-0.4936	162.56	-14.591	-56.998	-14.591	-57.228	-0.4936	164.34
2807250000	-0.5148	158.98	-14.7059	-58.833	-14.7059	-62.301	-0.5148	161.35
2874500000	-0.5087	156.04	-14.4673	-60.598	-14.4673	-63.744	-0.5087	158.65
2941750000	-0.5888	152.67	-14.656	-62.305	-14.656	-66.377	-0.5888	155.44
3009000000	-0.5064	149.62	-14.2643	-62.597	-14.2643	-64.73	-0.5064	152.2
3076250000	-0.5681	146.73	-14.6204	-64.152	-14.6204	-58.277	-0.5681	149.07
3143500000	-0.5089	143.64	-14.3061	-65.429	-14.3061	-64.714	-0.5089	145.75
3210750000	-0.5916	141.05	-14.6373	-65.801	-14.6373	-71.52	-0.5916	142.75
3278000000	-0.5266	138.2	-14.2989	-62.596	-14.2989	-68.305	-0.5266	139.89
3345250000	-0.6247	135.48	-14.6283	-54.856	-14.6283	-52.718	-0.6247	137.31
3412500000	-0.5053	132.93	-14.462	78.279	-14.462	83.184	-0.5053	134.12
3479750000	-0.6254	130.27	-14.8334	94.559	-14.8334	91.626	-0.6254	130.98
3547000000	-0.4761	127.81	-14.5448	96.722	-14.5448	91.206	-0.4761	128.39
3614250000	-0.6323	125.37	-14.9022	96.687	-14.9022	92.185	-0.6323	126.14
3681500000	-0.485	122.88	-14.7709	94.982	-14.7709	92.786	-0.485	123.73
3748750000	-0.6239	120.49	-15.1236	93.904	-15.1236	98.709	-0.6239	121.26
3816000000	-0.4878	118.19	-14.9333	94.033	-14.9333	93.682	-0.4878	118.45
3883250000	-0.6638	115.9	-15.3422	91.702	-15.3422	85.92	-0.6638	116.54
3950500000	-0.4965	113.53	-15.166	90.695	-15.166	85.487	-0.4965	114.73
4017750000	-0.646	111.29	-15.4687	89.26	-15.4687	86.276	-0.646	112.44
4085000000	-0.4771	109.16	-15.4665	87.992	-15.4665	90.678	-0.4771	110.17
4152250000	-0.6546	106.98	-15.7059	87.593	-15.7059	87.028	-0.6546	107.7
4219500000	-0.4856	104.79	-15.6326	85.255	-15.6326	79.615	-0.4856	105.71
4286750000	-0.6148	102.58	-15.9099	83.842	-15.9099	78.191	-0.6148	103.24
4354000000	-0.502	100.46	-15.9679	83.887	-15.9679	77.82	-0.502	100.88
4421250000	-0.65	98.383	-16.1323	81.495	-16.1323	81.23	-0.65	98.896
4488500000	-0.4944	96.254	-16.1081	80.568	-16.1081	79.155	-0.4944	96.493
4555750000	-0.6269	94.206	-16.4165	79.391	-16.4165	74.393	-0.6269	94.682
