!	AVX THIN FILM OPERATION
!
!	LP0603 LOW PASS FILTERS
!	P/N LP0603A2442ALTR
!
!	Network	Analyzer	HP8720ES.07.64:	Feb	"23,"	2000	Serial	No.	US39172382
!	Hewlett-Packard								
!	2	Feb	2004	02:33:11					
!	Frequency	S11	S21	S12	S22
!
!				
#	HZ	S	DB	R	50				
50000000	-44.336	-73.783	0	-1.7812	0	-1.5353	-44.336	-2.3016	
117250000	-37.044	-84.437	0.0124	-2.9759	0.0124	-2.9842	-37.044	-93.831	
184500000	-33.353	-92.889	-0.0019	-4.455	-0.0019	-4.2833	-33.353	-104.63	
251750000	-30.655	-99.09	0.0086	-5.9793	0.0086	-5.8942	-30.655	-106.54	
319000000	-28.406	-104.12	-0.0052	-7.3073	-0.0052	-7.2867	-28.406	-106.28	
386250000	-26.808	-108.12	-0.0064	-8.5638	-0.0064	-8.5899	-26.808	-112.59	
453500000	-25.492	-112.91	-0.0276	-10.308	-0.0276	-10.044	-25.492	-127.45	
520750000	-24.17	-117.52	-0.044	-11.545	-0.044	-11.602	-24.17	-123.95	
588000000	-23.161	-121.7	-0.0287	-12.998	-0.0287	-12.952	-23.161	-123.47	
655250000	-22.368	-126.27	-0.0444	-14.395	-0.0444	-14.623	-22.368	-125.58	
722500000	-21.488	-130.19	-0.0637	-15.944	-0.0637	-15.995	-21.488	-129.92	
789750000	-20.826	-133.92	-0.0583	-17.361	-0.0583	-17.338	-20.826	-132.25
857000000	-20.292	-137.83	-0.088	-18.763	-0.088	-18.77	-20.292	-134.4
924250000	-19.731	-141.74	-0.0841	-20.284	-0.0841	-20.343	-19.731	-136.29
991500000	-19.266	-145.78	-0.1049	-21.874	-0.1049	-21.783	-19.266	-141.63
1058750000	-18.978	-149.7	-0.1092	-23.394	-0.1092	-23.362	-18.978	-148.61
1126000000	-18.649	-153.47	-0.1199	-24.94	-0.1199	-24.844	-18.649	-153.04
1193250000	-18.388	-157.06	-0.1244	-26.565	-0.1244	-26.098	-18.388	-158.71
1260500000	-18.263	-160.61	-0.154	-27.979	-0.154	-27.621	-18.263	-164.73
1327750000	-18.113	-164.54	-0.1453	-29.568	-0.1453	-29.467	-18.113	-168.83
1395000000	-18.05	-168.18	-0.1514	-31.105	-0.1514	-31.006	-18.05	-172.72
1462250000	-18.103	-171.47	-0.1768	-32.672	-0.1768	-32.125	-18.103	-177.83
1529500000	-18.183	-175.55	-0.1869	-34.272	-0.1869	-33.854	-18.183	177.59
1596750000	-18.283	-179.53	-0.2051	-35.854	-0.2051	-36.06	-18.283	175.13
1664000000	-18.584	176.84	-0.1965	-37.63	-0.1965	-37.369	-18.584	173.51
1731250000	-18.915	172.94	-0.2305	-39.256	-0.2305	-39.165	-18.915	168.86
1798500000	-19.321	169.08	-0.2172	-40.971	-0.2172	-41.141	-19.321	165.92
1865750000	-19.904	165.28	-0.248	-42.869	-0.248	-42.665	-19.904	163.77
1933000000	-20.572	161.28	-0.2353	-44.578	-0.2353	-44.53	-20.572	162.61
2000250000	-21.296	157.24	-0.2431	-46.405	-0.2431	-46.648	-21.296	158.51
2067500000	-22.15	153.41	-0.2695	-48.262	-0.2695	-48.338	-22.15	153.13
2134750000	-22.653	149.56	-0.2502	-50.011	-0.2502	-49.988	-22.653	149.85
2202000000	-22.761	145.12	-0.2792	-51.998	-0.2792	-51.909	-22.761	147.03
2269250000	-22.228	140.45	-0.2791	-53.952	-0.2791	-54.608	-22.228	142.52
2336500000	-20.82	136.4	-0.3059	-55.922	-0.3059	-56.148	-20.82	137.12
2403750000	-19.098	131.88	-0.3482	-58.042	-0.3482	-57.593	-19.098	131.72
2471000000	-17.332	126.64	-0.4066	-60.05	-0.4066	-60.417	-17.332	128.32
2538250000	-15.537	121.54	-0.456	-62.049	-0.456	-63.002	-15.537	126.17
2605500000	-13.866	116.2	-0.564	-64.422	-0.564	-65.224	-13.866	120.54
2672750000	-12.269	110.75	-0.6354	-66.802	-0.6354	-66.941	-12.269	110.93
2740000000	-10.894	104.83	-0.9	-68.935	-0.9	-68.891	-10.894	102.88
2807250000	-9.5366	97.636	-0.9427	-71.441	-0.9427	-71.956	-9.5366	94.287
2874500000	-8.4033	90.358	-1.307	-73.851	-1.307	-74.257	-8.4033	81.365
2941750000	-7.2591	81.896	-1.5156	-76.404	-1.5156	-76.944	-7.2591	63.133
3009000000	-6.3809	72.868	-1.9842	-79.022	-1.9842	-79.283	-6.3809	52.388
3076250000	-5.4248	62.466	-2.2229	-81.782	-2.2229	-81.359	-5.4248	42.742
3143500000	-4.7306	49.455	-2.8111	-84.576	-2.8111	-84.773	-4.7306	31.432
3210750000	-4.0045	34.949	-3.2113	-87.543	-3.2113	-87.874	-4.0045	19.495
3278000000	-3.4546	19.438	-3.8806	-90.412	-3.8806	-90.707	-3.4546	8.5899
3345250000	-2.9049	3.1242	-4.4009	-93.522	-4.4009	-93.551	-2.9049	-4.937
3412500000	-2.53	-13.45	-5.1332	-96.827	-5.1332	-96.857	-2.53	-21.246
3479750000	-2.1294	-28.324	-5.9301	-99.971	-5.9301	-99.886	-2.1294	-34.698
3547000000	-1.8853	-41.957	-6.5917	-103.3	-6.5917	-103.25	-1.8853	-45.989
3614250000	-1.5807	-54.375	-7.553	-107.02	-7.553	-106.9	-1.5807	-59.815
3681500000	-1.3864	-65.231	-8.3444	-110.3	-8.3444	-111.22	-1.3864	-72.596
3748750000	-1.213	-76.045	-9.4221	-114.24	-9.4221	-115.56	-1.213	-82.268
3816000000	-1.0495	-85.599	-10.2523	-118.55	-10.2523	-117.26	-1.0495	-90.805
3883250000	-0.985	-93.705	-11.5512	-122.2	-11.5512	-120.64	-0.985	-98.767
3950500000	-0.8223	-102.66	-12.448	-126.74	-12.448	-126.43	-0.8223	-107.45
4017750000	-0.8047	-111.34	-13.8037	-130.85	-13.8037	-132.78	-0.8047	-115.33
4085000000	-0.7003	-119.89	-14.9745	-135.93	-14.9745	-137.89	-0.7003	-122.63
4152250000	-0.7213	-127.78	-16.4949	-141.24	-16.4949	-138.25	-0.7213	-129.13
4219500000	-0.6149	-135.18	-17.7376	-145.7	-17.7376	-143.33	-0.6149	-136.19
4286750000	-0.6618	-143.07	-19.5719	-151.73	-19.5719	-151.2	-0.6618	-143.66
4354000000	-0.5528	-151.23	-21.2309	-157.12	-21.2309	-159.24	-0.5528	-151.14
4421250000	-0.6595	-158.58	-23.5343	-162.9	-23.5343	-165.55	-0.6595	-158.18
4488500000	-0.5023	-165.49	-25.6421	-169.05	-25.6421	-167.3	-0.5023	-165.2
4555750000	-0.5958	-172.74	-28.7865	-174.88	-28.7865	-176.28	-0.5958	-172.18
4623000000	-0.5118	-178.97	-32.3601	179.18	-32.3601	176.68	-0.5118	-178.97
4690250000	-0.6418	174.47	-36.5079	174.12	-36.5079	172.66	-0.6418	175.13
4757500000	-0.5029	168.52	-36.5222	167.88	-36.5222	163.53	-0.5029	169.1
4824750000	-0.6377	163.19	-33.3873	163.1	-33.3873	162.42	-0.6377	163.94
4892000000	-0.4946	157.37	-30.4851	158.22	-30.4851	159.3	-0.4946	158.79
4959250000	-0.6526	152.68	-28.5463	153.84	-28.5463	152.39	-0.6526	153.43
5026500000	-0.5265	147.71	-26.7168	149.29	-26.7168	148.7	-0.5265	148.44
5093750000	-0.6561	142.82	-25.5862	145.04	-25.5862	145.51	-0.6561	143.75
5161000000	-0.5521	138.83	-24.4167	141.47	-24.4167	140.85	-0.5521	138.9
5228250000	-0.6515	134.1	-23.684	137.73	-23.684	132.55	-0.6515	134.68
5295500000	-0.5452	130.2	-22.8091	133.94	-22.8091	134.88	-0.5452	130.03
5362750000	-0.6631	126.3	-22.2591	131.68	-22.2591	136.11	-0.6631	125.66
5430000000	-0.5449	122.2	-21.6395	127.81	-21.6395	122.23	-0.5449	121.61
5497250000	-0.6642	118.96	-21.1891	126.11	-21.1891	118.9	-0.6642	117.98
5564500000	-0.5441	115.15	-20.753	122.79	-20.753	120.55	-0.5441	113.71
5631750000	-0.695	111.58	-20.4658	120.24	-20.4658	117.44	-0.695	109.42
5699000000	-0.5876	108.42	-20.093	118.13	-20.093	119.92	-0.5876	106.11
5766250000	-0.6873	104.96	-19.8236	116.34	-19.8236	119.84	-0.6873	102.74
5833500000	-0.5837	101.96	-19.5714	115.32	-19.5714	113.49	-0.5837	99.948
5900750000	-0.7044	98.759	-19.3006	112.98	-19.3006	106.53	-0.7044	96.541
5968000000	-0.6117	95.615	-19.0903	110.11	-19.0903	112.94	-0.6117	93.384
6035250000	-0.6855	92.826	-18.8938	110.76	-18.8938	119.07	-0.6855	90.817
6102500000	-0.592	89.778	-18.7279	109.31	-18.7279	109.59	-0.592	88.392
6169750000	-0.7157	87.039	-18.5601	108.64	-18.5601	105.85	-0.7157	85.667
6237000000	-0.6138	84.183	-18.3587	108.33	-18.3587	105.79	-0.6138	82.793
6304250000	-0.6848	81.337	-18.2596	108.83	-18.2596	105.47	-0.6848	80.211
6371500000	-0.6704	78.659	-18.3403	110.23	-18.3403	113.02	-0.6704	77.639
6438750000	-0.6977	76.014	-18.2247	114.22	-18.2247	117.42	-0.6977	74.686
6506000000	-0.5995	73.404	-18.1444	129.01	-18.1444	125.45	-0.5995	71.877
6573250000	-0.6897	70.827	-18.1723	-160.31	-18.1723	-161.81	-0.6897	69.305
6640500000	-0.6735	68.107	-18.2388	-106.91	-18.2388	-107.41	-0.6735	66.782
6707750000	-0.7067	65.63	-18.2805	-99.123	-18.2805	-95.446	-0.7067	64.013
6775000000	-0.6844	63.244	-18.1271	-90.548	-18.1271	-94.947	-0.6844	61.264
6842250000	-0.6918	60.834	-18.3119	-90.122	-18.3119	-93.095	-0.6918	58.862
6909500000	-0.6787	58.247	-18.4527	-85.527	-18.4527	-95.095	-0.6787	56.413
6976750000	-0.673	55.988	-18.4138	-85.031	-18.4138	-92.818	-0.673	54.145
7044000000	-0.6834	53.502	-18.5427	-86.111	-18.5427	-89.541	-0.6834	51.523
7111250000	-0.6782	51.129	-18.7799	-82.576	-18.7799	-82.557	-0.6782	49.209
7178500000	-0.6634	48.741	-18.8028	-77.893	-18.8028	-80.408	-0.6634	47.223
7245750000	-0.6407	46.303	-19.0968	-56.633	-19.0968	-67.374	-0.6407	45.102
7313000000	-0.6787	44.12	-19.0581	32.448	-19.0581	11.245	-0.6787	42.847
7380250000	-0.6828	41.858	-19.2537	53.407	-19.2537	50.319	-0.6828	40.662
7447500000	-0.6575	39.493	-19.5251	64.869	-19.5251	57.892	-0.6575	38.826
7514750000	-0.6486	37.198	-19.5495	69.376	-19.5495	64.164	-0.6486	36.639
7582000000	-0.6552	34.927	-19.6014	70.163	-19.6014	69.613	-0.6552	34.464
7649250000	-0.6333	32.701	-19.8034	69.646	-19.8034	66.178	-0.6333	32.009
7716500000	-0.5982	30.641	-19.7423	69.668	-19.7423	66.3	-0.5982	29.901
7783750000	-0.5996	28.231	-19.838	69.774	-19.838	66.537	-0.5996	27.29
7851000000	-0.6159	26.145	-20.033	71.2	-20.033	65.395	-0.6159	24.725
7918250000	-0.5982	24.082	-19.9169	69.559	-19.9169	67.547	-0.5982	22.411
7985500000	-0.5821	21.778	-19.8496	68.538	-19.8496	66.048	-0.5821	20.77
8052750000	-0.5814	19.785	-20.0171	67.791	-20.0171	63.487	-0.5814	18.945
8120000000	-0.6038	17.438	-19.8266	67.942	-19.8266	61.378	-0.6038	16.111
8187250000	-0.6074	15.444	-20.0451	66.732	-20.0451	62.1	-0.6074	13.884
8254500000	-0.5719	13.494	-19.746	66.595	-19.746	64.812	-0.5719	12.632
8321750000	-0.498	11.074	-19.8356	66.043	-19.8356	64.969	-0.498	11.301
8389000000	-0.5829	9.2079	-19.731	64.204	-19.731	62.18	-0.5829	8.8028
8456250000	-0.5694	7.0697	-19.9469	62.558	-19.9469	60.667	-0.5694	6.2457
8523500000	-0.5332	4.8944	-19.541	62.383	-19.541	59.267	-0.5332	4.6211
8590750000	-0.5448	3.6736	-19.9132	61.837	-19.9132	60.862	-0.5448	2.9993
8658000000	-0.5563	1.2044	-19.6922	61.72	-19.6922	61.602	-0.5563	1.3458
8725250000	-0.5973	-1.1453	-20.1029	59.509	-20.1029	57.916	-0.5973	-1.718
8792500000	-0.525	-2.8839	-19.5318	58.701	-19.5318	55.725	-0.525	-3.8521
8859750000	-0.4711	-5.3435	-20.1018	57.413	-20.1018	54.539	-0.4711	-4.6925
8927000000	-0.5309	-7.1095	-19.9689	56.898	-19.9689	54.518	-0.5309	-6.9035
8994250000	-0.5501	-9.1461	-20.4321	56.047	-20.4321	54.787	-0.5501	-9.3974
9061500000	-0.4414	-11.153	-20.0275	55.079	-20.0275	54.478	-0.4414	-11.611
9128750000	-0.4896	-12.791	-20.5945	54.628	-20.5945	53.464	-0.4896	-12.43
9196000000	-0.51	-15.204	-20.6227	53.959	-20.6227	51.014	-0.51	-13.646
9263250000	-0.5583	-16.797	-21.1388	52.331	-21.1388	49.474	-0.5583	-16.517
9330500000	-0.4754	-18.84	-20.7774	51.144	-20.7774	49.933	-0.4754	-18.877
9397750000	-0.4827	-20.97	-21.4807	50.405	-21.4807	49.867	-0.4827	-19.867
9465000000	-0.4789	-22.46	-21.4259	49.889	-21.4259	47.954	-0.4789	-20.807
9532250000	-0.5397	-24.813	-21.9464	48.631	-21.9464	46.667	-0.5397	-22.931
9599500000	-0.4413	-26.511	-21.8115	47.561	-21.8115	45.788	-0.4413	-26.312
9666750000	-0.4654	-28.283	-22.1904	47.137	-22.1904	45.18	-0.4654	-27.916
9734000000	-0.4474	-30.538	-22.2417	45.971	-22.2417	44.545	-0.4474	-28.666
9801250000	-0.5048	-32.178	-22.523	44.944	-22.523	44.431	-0.5048	-30.844
9868500000	-0.4672	-34.034	-22.3829	45.24	-22.3829	43.721	-0.4672	-34.835
9935750000	-0.526	-35.994	-22.7974	43.676	-22.7974	40.725	-0.526	-36.501
10003000000	-0.4202	-37.693	-22.563	42.567	-22.563	39.103	-0.4202	-36.898
