!	AVX THIN FILM OPERATION
!
!	LP0603 LOW PASS FILTERS
!	P/N LP0603A1950ALTR
!
!	Network	Analyzer	HP8720ES.07.64:	Feb	"23,"	2000	Serial	No.	US39172382
!	Hewlett-Packard								
!	2	Feb	2004	02:33:11					
!	Frequency	S11	S21	S12	S22
!
!				
#	HZ	S	DB	R	50				
50000000	-42.403	-81.646	0	-1.9295	0	-1.8951	-42.403	-6.9942	
117250000	-34.509	-92.591	-0.0005	-3.6131	-0.0005	-3.7038	-34.509	-92.45	
184500000	-30.824	-97.912	-0.0183	-5.6209	-0.0183	-5.349	-30.824	-105.58	
251750000	-28.157	-101.33	-0.0223	-7.3444	-0.0223	-7.3512	-28.157	-102.86	
319000000	-25.973	-105.71	-0.0331	-9.1571	-0.0331	-9.2711	-25.973	-108.5	
386250000	-24.394	-109.43	-0.0252	-10.681	-0.0252	-10.938	-24.394	-113.8	
453500000	-23.128	-113.55	-0.0593	-12.865	-0.0593	-12.766	-23.128	-119.64	
520750000	-21.889	-117.29	-0.0727	-14.561	-0.0727	-14.635	-21.889	-121.59	
588000000	-20.923	-121.01	-0.059	-16.33	-0.059	-16.364	-20.923	-123.1	
655250000	-20.164	-125.06	-0.071	-18.169	-0.071	-18.476	-20.164	-125.67	
722500000	-19.411	-128.63	-0.109	-20.027	-0.109	-20.183	-19.411	-129.49	
789750000	-18.789	-132.38	-0.1072	-21.971	-0.1072	-21.804	-18.789	-131.77
857000000	-18.339	-136.17	-0.1218	-23.692	-0.1218	-23.669	-18.339	-135.32
924250000	-17.905	-139.9	-0.1376	-25.491	-0.1376	-25.679	-17.905	-138.75
991500000	-17.561	-143.7	-0.1584	-27.458	-0.1584	-27.484	-17.561	-142.67
1058750000	-17.338	-147.4	-0.1533	-29.486	-0.1533	-29.52	-17.338	-147.27
1126000000	-17.173	-151.13	-0.1753	-31.4	-0.1753	-31.393	-17.173	-151.82
1193250000	-17.09	-154.8	-0.1815	-33.344	-0.1815	-32.82	-17.09	-156.4
1260500000	-17.115	-158.41	-0.1857	-35.155	-0.1857	-34.747	-17.115	-161.41
1327750000	-17.213	-162.38	-0.2067	-37.212	-0.2067	-37.326	-17.213	-165.95
1395000000	-17.428	-166	-0.1955	-39.297	-0.1955	-39.238	-17.428	-170.32
1462250000	-17.816	-169.49	-0.2264	-41.317	-0.2264	-40.232	-17.816	-174.88
1529500000	-18.284	-173.91	-0.2253	-43.437	-0.2253	-42.713	-18.284	-179.23
1596750000	-18.943	-177.91	-0.2379	-45.497	-0.2379	-45.898	-18.943	177.49
1664000000	-19.925	178.45	-0.2439	-47.756	-0.2439	-47.432	-19.925	174.23
1731250000	-21.093	174.12	-0.2578	-49.993	-0.2578	-49.844	-21.093	169.66
1798500000	-22.603	170.19	-0.2626	-52.354	-0.2626	-52.677	-22.603	166.21
1865750000	-24.432	166.18	-0.2736	-54.579	-0.2736	-54.503	-24.432	163.42
1933000000	-25.405	161.83	-0.2786	-56.894	-0.2786	-57.207	-25.405	160.31
2000250000	-24.241	157.53	-0.3106	-59.509	-0.3106	-60.116	-24.241	156.31
2067500000	-21.422	153.27	-0.3493	-61.981	-0.3493	-62.438	-21.422	151.46
2134750000	-18.456	148.89	-0.3693	-64.381	-0.3693	-64.495	-18.456	147.12
2202000000	-15.882	143.76	-0.4772	-67.305	-0.4772	-67.437	-15.882	143.08
2269250000	-13.577	138.9	-0.5643	-70.06	-0.5643	-71.294	-13.577	138.24
2336500000	-11.629	134.17	-0.754	-72.826	-0.754	-73.04	-11.629	132.62
2403750000	-9.9029	128.22	-0.9171	-75.899	-0.9171	-75.674	-9.9029	126.12
2471000000	-8.427	122.12	-1.3107	-79.016	-1.3107	-80.126	-8.427	120.88
2538250000	-7.0801	115.78	-1.5323	-82.22	-1.5323	-83.603	-7.0801	116.37
2605500000	-5.8955	108.73	-2.1081	-85.596	-2.1081	-86.887	-5.8955	108.9
2672750000	-4.8241	100.39	-2.5147	-89.366	-2.5147	-89.474	-4.8241	97.56
2740000000	-4.0789	89.775	-3.3421	-92.944	-3.3421	-93.161	-4.0789	83.757
2807250000	-3.2695	75.869	-3.8269	-97.009	-3.8269	-97.645	-3.2695	64.122
2874500000	-2.755	56.245	-4.8335	-101.1	-4.8335	-101.62	-2.755	30.903
2941750000	-2.2157	25.065	-5.6614	-105.52	-5.6614	-106.02	-2.2157	-7.3004
3009000000	-1.8685	-13.775	-6.6414	-110.41	-6.6414	-110.55	-1.8685	-31.134
3076250000	-1.5102	-45.753	-7.6501	-115.32	-7.6501	-115.6	-1.5102	-50.398
3143500000	-1.3236	-67.007	-8.7895	-120.8	-8.7895	-120.14	-1.3236	-66.728
3210750000	-1.088	-82.421	-9.9663	-126.39	-9.9663	-125.64	-1.088	-80.6
3278000000	-0.9562	-95.887	-11.1089	-132.28	-11.1089	-132.94	-0.9562	-94.301
3345250000	-0.8257	-108.12	-12.5273	-138.17	-12.5273	-141.23	-0.8257	-106.95
3412500000	-0.7344	-119.36	-13.835	-145.64	-13.835	-145.86	-0.7344	-118.84
3479750000	-0.6724	-129.42	-15.5324	-151.73	-15.5324	-149.67	-0.6724	-129.03
3547000000	-0.5861	-139.44	-16.8158	-158.72	-16.8158	-159.95	-0.5861	-139.84
3614250000	-0.6094	-149.35	-18.9082	-166.24	-18.9082	-168.9	-0.6094	-149.83
3681500000	-0.5279	-158.79	-20.6779	-173.07	-20.6779	-178.78	-0.5279	-159.28
3748750000	-0.5731	-166.89	-23.2376	179.12	-23.2376	178.31	-0.5731	-167.33
3816000000	-0.4581	-174.88	-25.6683	172.98	-25.6683	176.96	-0.4581	-175.03
3883250000	-0.5753	177.75	-29.4862	166.53	-29.4862	165.08	-0.5753	177.42
3950500000	-0.4278	170.96	-33.707	160.05	-33.707	155.51	-0.4278	170.82
4017750000	-0.5642	164.35	-38.3217	154.32	-38.3217	148.73	-0.5642	164.67
4085000000	-0.4504	158.98	-36.0445	148.14	-36.0445	148.85	-0.4504	159.06
4152250000	-0.5598	153.35	-32.2689	144.13	-32.2689	147.31	-0.5598	153.9
4219500000	-0.4563	148.25	-29.2406	139.13	-29.2406	136.54	-0.4563	148.51
4286750000	-0.5413	143.75	-27.4099	134.34	-27.4099	129.91	-0.5413	143.46
4354000000	-0.4514	138.9	-25.8289	130.98	-25.8289	124.64	-0.4514	138.65
4421250000	-0.6043	134.88	-24.8263	126.26	-24.8263	124.65	-0.6043	134.58
4488500000	-0.4652	130.82	-23.6391	123.1	-23.6391	123.3	-0.4652	130.02
4555750000	-0.5922	126.82	-23.0575	119.53	-23.0575	115.19	-0.5922	126.03
4623000000	-0.4888	123.41	-22.2941	115.99	-22.2941	114.47	-0.4888	122.09
4690250000	-0.6342	119.65	-21.9169	114.34	-21.9169	111.87	-0.6342	118.81
4757500000	-0.4903	116.36	-21.3442	111.34	-21.3442	108.64	-0.4903	115.27
4824750000	-0.5975	113.08	-20.9923	109.22	-20.9923	112.25	-0.5975	112.18
4892000000	-0.4919	109.65	-20.6871	107.07	-20.6871	108.77	-0.4919	108.88
4959250000	-0.6642	106.78	-20.5353	106.14	-20.5353	104.91	-0.6642	105.44
5026500000	-0.5263	103.81	-20.1568	104.64	-20.1568	105.09	-0.5263	102.46
5093750000	-0.6556	100.71	-20.0732	104.35	-20.0732	105.68	-0.6556	99.224
5161000000	-0.5449	97.984	-19.8377	106.03	-19.8377	105.76	-0.5449	96.051
5228250000	-0.6484	95.169	-19.772	122.59	-19.772	136.7	-0.6484	93.249
5295500000	-0.5412	92.435	-19.5431	-94.488	-19.5431	-95.841	-0.5412	89.831
5362750000	-0.6566	89.804	-19.5001	-92.325	-19.5001	-89.077	-0.6566	87.137
5430000000	-0.5527	87.045	-19.4255	-89.099	-19.4255	-98.199	-0.5527	84.571
5497250000	-0.6503	84.523	-19.3121	-88.966	-19.3121	-94.709	-0.6503	81.767
5564500000	-0.5478	82.018	-19.281	-88.988	-19.281	-91.107	-0.5478	78.665
5631750000	-0.659	79.444	-19.2428	-88.325	-19.2428	-90.309	-0.659	75.898
5699000000	-0.5735	76.974	-19.184	-89.419	-19.184	-86.597	-0.5735	73.464
5766250000	-0.6535	74.555	-19.1556	-88.941	-19.1556	-86.784	-0.6535	71.11
5833500000	-0.5691	72.12	-19.1714	-86.531	-19.1714	-91.6	-0.5691	68.681
5900750000	-0.6654	69.773	-19.0926	-83.981	-19.0926	-89.403	-0.6654	65.965
5968000000	-0.5856	67.376	-19.0893	-82.168	-19.0893	-75.313	-0.5856	63.57
6035250000	-0.6419	64.929	-19.0878	-69.7	-19.0878	-65.084	-0.6419	61.885
6102500000	-0.5775	62.775	-19.1649	-52.557	-19.1649	-59.089	-0.5775	59.999
6169750000	-0.6443	60.425	-19.1171	-17.165	-19.1171	-20.661	-0.6443	57.498
6237000000	-0.5717	58.055	-19.0837	16.588	-19.0837	12.02	-0.5717	55.265
6304250000	-0.6411	55.923	-19.1886	35.755	-19.1886	34.034	-0.6411	52.984
6371500000	-0.5976	53.421	-19.4113	47.499	-19.4113	49.297	-0.5976	51.027
6438750000	-0.6201	51.415	-19.4537	52.173	-19.4537	51.64	-0.6201	48.304
6506000000	-0.6184	49.257	-19.4824	56.12	-19.4824	49.892	-0.6184	45.829
6573250000	-0.6003	46.921	-19.6463	57.697	-19.6463	50.709	-0.6003	43.804
6640500000	-0.6369	44.915	-19.8478	57.835	-19.8478	56.125	-0.6369	41.479
6707750000	-0.6098	42.613	-20.0045	58.988	-20.0045	61.272	-0.6098	38.979
6775000000	-0.6063	40.574	-19.9571	59.231	-19.9571	56.243	-0.6063	36.615
6842250000	-0.6007	38.573	-20.3079	59.73	-20.3079	54.877	-0.6007	34.954
6909500000	-0.619	36.156	-20.5827	60.275	-20.5827	53.998	-0.619	32.855
6976750000	-0.5957	34.316	-20.6188	59.058	-20.6188	53.052	-0.5957	30.861
7044000000	-0.6184	32.018	-20.8747	59.691	-20.8747	56.702	-0.6184	28.718
7111250000	-0.5887	29.979	-21.2229	59.991	-21.2229	55.481	-0.5887	27.065
7178500000	-0.5898	28.041	-21.3508	59.057	-21.3508	52.611	-0.5898	25.613
7245750000	-0.568	25.74	-21.7588	59.447	-21.7588	53.674	-0.568	23.573
7313000000	-0.5744	23.791	-21.7581	59.071	-21.7581	53.845	-0.5744	21.495
7380250000	-0.585	21.804	-22.0857	58.517	-22.0857	55.727	-0.585	20.028
7447500000	-0.5879	19.579	-22.4841	57.972	-22.4841	54.318	-0.5879	18.563
7514750000	-0.5486	17.654	-22.5785	57.045	-22.5785	54.27	-0.5486	16.626
7582000000	-0.574	15.569	-22.7004	56.581	-22.7004	55.903	-0.574	14.194
7649250000	-0.5425	13.472	-23.0094	55.872	-23.0094	52.704	-0.5425	12.107
7716500000	-0.5707	11.635	-23.0653	55.161	-23.0653	52.169	-0.5707	10.462
7783750000	-0.5218	9.3974	-23.261	54.425	-23.261	51.807	-0.5218	8.0379
7851000000	-0.5124	7.5998	-23.465	53.797	-23.465	50.528	-0.5124	5.224
7918250000	-0.5228	5.6442	-23.4699	52.771	-23.4699	52.136	-0.5228	3.3
7985500000	-0.5231	3.495	-23.4706	52.086	-23.4706	50.412	-0.5231	1.9775
8052750000	-0.5014	1.7537	-23.7631	51.551	-23.7631	47.608	-0.5014	0.3433
8120000000	-0.5224	-0.4847	-23.6566	50.574	-23.6566	46.592	-0.5224	-2.7493
8187250000	-0.5285	-2.2426	-23.9341	49.769	-23.9341	47.633	-0.5285	-4.9644
8254500000	-0.5004	-4.0622	-23.739	48.86	-23.739	49.671	-0.5004	-5.9766
8321750000	-0.4195	-6.3748	-24.0026	47.951	-24.0026	48.201	-0.4195	-6.7744
8389000000	-0.4983	-8.1079	-23.877	46.942	-23.877	45.157	-0.4983	-9.3906
8456250000	-0.5	-10.002	-24.2239	46.012	-24.2239	44.205	-0.5	-12.159
8523500000	-0.4629	-12.058	-23.902	45.023	-23.902	43.735	-0.4629	-13.129
8590750000	-0.4617	-13.428	-24.3332	43.796	-24.3332	44.927	-0.4617	-14.417
8658000000	-0.4569	-15.19	-24.1252	44.095	-24.1252	44.786	-0.4569	-16.701
8725250000	-0.5379	-17.728	-24.6139	42.8	-24.6139	41.067	-0.5379	-18.321
8792500000	-0.463	-19.337	-24.1138	41.797	-24.1138	39.441	-0.463	-21.184
8859750000	-0.3987	-21.75	-24.6388	40.364	-24.6388	39.262	-0.3987	-21.682
8927000000	-0.4499	-23.283	-24.5419	39.654	-24.5419	39.602	-0.4499	-23.606
8994250000	-0.506	-25.237	-24.9791	38.866	-24.9791	39.488	-0.506	-26.267
9061500000	-0.4237	-27.21	-24.4795	38.175	-24.4795	38.386	-0.4237	-28.536
9128750000	-0.4215	-28.732	-24.9215	37.945	-24.9215	37.704	-0.4215	-29.115
9196000000	-0.4787	-31.078	-24.7867	36.799	-24.7867	35.837	-0.4787	-30.053
9263250000	-0.5171	-32.522	-24.9728	35.587	-24.9728	35.365	-0.5171	-32.775
9330500000	-0.4802	-34.448	-24.4314	34.816	-24.4314	35.607	-0.4802	-35.051
9397750000	-0.4914	-36.513	-24.7187	34.214	-24.7187	34.446	-0.4914	-36.017
9465000000	-0.5014	-37.906	-24.0939	33.916	-24.0939	33.067	-0.5014	-36.998
9532250000	-0.5911	-40.181	-23.9274	32.701	-23.9274	32.336	-0.5911	-39.036
9599500000	-0.5644	-41.69	-23.0035	32.062	-23.0035	31.431	-0.5644	-42.428
9666750000	-0.6772	-43.45	-22.3384	31.823	-22.3384	30.852	-0.6772	-43.797
9734000000	-0.7802	-45.618	-21.0347	30.601	-21.0347	30.35	-0.7802	-44.599
9801250000	-1.0184	-47.197	-19.65	29.96	-19.65	29.969	-1.0184	-46.961
9868500000	-1.4406	-49.047	-17.6089	30.184	-17.6089	28.522	-1.4406	-50.852
9935750000	-2.3932	-50.907	-15.7824	28.527	-15.7824	26.723	-2.3932	-52.28
10003000000	-3.612	-52.461	-14.04	27.885	-14.04	26.043	-3.612	-52.512
