!	AVX THIN FILM OPERATION
!
!	LP0603 LOW PASS FILTERS
!	P/N LP0603A0902ALTR
!
!	Network	Analyzer	HP8720ES.07.64:	Feb	"23,"	2000	Serial	No.	US39172382
!	Hewlett-Packard								
!	2	Feb	2004	02:33:11					
!	Frequency	S11	S21	S12	S22
!
!				
#	HZ	S	DB	R	50				
50000000	-40.663	-86.413	0	-3.6337	0	-3.4579	-40.663	-32.726	
117250000	-33.682	-96.998	-0.0274	-6.8239	-0.0274	-6.9777	-33.682	-105.72	
184500000	-30.045	-102.83	-0.0233	-10.272	-0.0233	-9.9042	-30.045	-104.17	
251750000	-27.586	-108.63	-0.0443	-13.708	-0.0443	-13.534	-27.586	-109.13	
319000000	-25.867	-114.26	-0.0408	-17.011	-0.0408	-17.266	-25.867	-113.81	
386250000	-24.856	-119.51	-0.0972	-20.3	-0.0972	-20.433	-24.856	-120.51	
453500000	-24.274	-125.04	-0.0938	-23.997	-0.0938	-23.906	-24.274	-126.76	
520750000	-24.106	-130.49	-0.1274	-27.35	-0.1274	-27.4	-24.106	-130.21	
588000000	-24.618	-136.15	-0.1382	-30.847	-0.1382	-30.938	-24.618	-134.86	
655250000	-26.081	-142.15	-0.1821	-34.611	-0.1821	-35.188	-26.081	-140	
722500000	-28.861	-147.74	-0.1925	-38.546	-0.1925	-38.702	-28.861	-144.62	
789750000	-34.857	-153.95	-0.2261	-42.459	-0.2261	-42.244	-34.857	-150.07
857000000	-30.241	-160.57	-0.2714	-46.545	-0.2714	-46.739	-30.241	-156.03
924250000	-22.693	-167.5	-0.3644	-50.875	-0.3644	-51.298	-22.693	-162.67
991500000	-17.569	-175.21	-0.4746	-55.769	-0.4746	-55.9	-17.569	-171.18
1058750000	-13.617	176.01	-0.7071	-60.934	-0.7071	-61.043	-13.617	179.98
1126000000	-10.426	165.11	-1.0588	-66.633	-1.0588	-66.499	-10.426	166.79
1193250000	-7.7303	149.17	-1.5543	-72.797	-1.5543	-72.401	-7.7303	144.37
1260500000	-5.5812	110.13	-2.4644	-79.803	-2.4644	-79.592	-5.5812	88.136
1327750000	-3.9049	18.592	-3.6249	-87.716	-3.6249	-87.606	-3.9049	13.079
1395000000	-2.6776	-18.129	-5.3194	-96.603	-5.3194	-96.621	-2.6776	-16.203
1462250000	-1.804	-38.146	-7.4114	-106.56	-7.4114	-107.08	-1.804	-34.724
1529500000	-1.2687	-54.599	-10.137	-117.42	-10.137	-116.63	-1.2687	-52.034
1596750000	-0.874	-70.487	-13.404	-129.07	-13.404	-128.55	-0.874	-68.75
1664000000	-0.7183	-85.905	-17.738	-140.72	-17.738	-141.2	-0.7183	-84.514
1731250000	-0.5517	-100.41	-23.688	-151.98	-23.688	-150.42	-0.5517	-98.832
1798500000	-0.536	-113.18	-31.754	-162.13	-31.754	-162.95	-0.536	-111.87
1865750000	-0.4705	-124.8	-26.683	-171.67	-26.683	-172.11	-0.4705	-123.61
1933000000	-0.5031	-134.77	-22.299	-179.42	-22.299	-179.76	-0.5031	-133.26
2000250000	-0.395	-143.2	-19.652	173.56	-19.652	171.37	-0.395	-141.9
2067500000	-0.457	-151.15	-18.219	167.52	-18.219	165.3	-0.457	-149.28
2134750000	-0.4097	-157.85	-17.053	162.99	-17.053	162.26	-0.4097	-156.15
2202000000	-0.4712	-163.81	-16.319	159.59	-16.319	159.76	-0.4712	-161.92
2269250000	-0.424	-169.43	-15.675	157.12	-15.675	153.04	-0.424	-167.79
2336500000	-0.4632	-174.43	-15.407	158.48	-15.407	156.98	-0.4632	-172.46
2403750000	-0.391	-179.23	-15.066	176.96	-15.066	-179.16	-0.391	-177.71
2471000000	-0.452	176.37	-14.863	-76.233	-14.863	-80.132	-0.452	178.46
2538250000	-0.3827	172.44	-14.631	-58.09	-14.631	-62.384	-0.3827	174.36
2605500000	-0.4583	168.24	-14.62	-56.614	-14.62	-61.345	-0.4583	170.77
2672750000	-0.3438	164.62	-14.459	-57.22	-14.459	-57.994	-0.3438	167.59
2740000000	-0.4381	161	-14.369	-57.379	-14.369	-57.827	-0.4381	164.5
2807250000	-0.3355	157.48	-14.35	-59.172	-14.35	-62.919	-0.3355	161.39
2874500000	-0.4203	154.43	-14.335	-60.984	-14.335	-64.532	-0.4203	158.61
2941750000	-0.3316	151	-14.325	-62.751	-14.325	-67.598	-0.3316	155.51
3009000000	-0.3819	148.02	-14.175	-63.817	-14.175	-65.833	-0.3819	152.37
3076250000	-0.314	145.12	-14.365	-65.099	-14.365	-59.476	-0.314	149.39
3143500000	-0.3513	142.07	-14.26	-65.249	-14.26	-65.731	-0.3513	146.17
3210750000	-0.2928	139.38	-14.351	-66.834	-14.351	-71.851	-0.2928	142.83
3278000000	-0.3356	136.52	-14.255	-66.272	-14.255	-71.462	-0.3356	140.16
3345250000	-0.2799	133.89	-14.339	-58.916	-14.339	-59.003	-0.2799	137.71
3412500000	-0.2837	131.26	-14.316	66.622	-14.316	77.68	-0.2837	134.71
3479750000	-0.28	128.58	-14.535	93.943	-14.535	91.707	-0.28	131.61
3547000000	-0.2685	126.11	-14.364	96.768	-14.364	90.496	-0.2685	128.88
3614250000	-0.2132	123.67	-14.544	95.761	-14.544	91.62	-0.2132	126.55
3681500000	-0.2508	121.2	-14.577	94.861	-14.577	92.436	-0.2508	124.09
3748750000	-0.2017	118.93	-14.693	93.694	-14.693	98.185	-0.2017	121.9
3816000000	-0.1957	116.47	-14.697	93.72	-14.697	92.797	-0.1957	119.16
3883250000	-0.1847	114.22	-14.849	91.453	-14.849	85.498	-0.1847	117.31
3950500000	-0.1615	111.91	-14.835	90.492	-14.835	85.123	-0.1615	115.27
4017750000	-0.1599	109.59	-14.999	89.195	-14.999	85.693	-0.1599	112.98
4085000000	-0.1248	107.41	-15.164	87.601	-15.164	90.132	-0.1248	110.59
4152250000	-0.1369	105.23	-15.202	87.159	-15.202	86.276	-0.1369	108.39
4219500000	-0.0966	103.03	-15.258	84.841	-15.258	78.952	-0.0966	106.33
4286750000	-0.0835	100.81	-15.35	83.436	-15.35	77.621	-0.0835	103.85
4354000000	-0.0465	98.726	-15.51	83.54	-15.51	77.279	-0.0465	101.4
4421250000	-0.0629	96.497	-15.515	81.057	-15.515	80.685	-0.0629	99.321
4488500000	-0.0041	94.466	-15.731	80.092	-15.731	78.55	-0.0041	97.093
4555750000	-0.0079	92.379	-15.753	78.891	-15.753	73.923	-0.0079	95.187
