!	AVX	Thin	Film	Operation	Date:	2007		
!	Description:	"Series,"	Thin	"Film,"	"LGA,"	RF	Filters	
!	Part	Number:	LP0603N5500AN					
!	50	MHz	-	20	GHz			
!	Serial	Measurements			Agilent 8720ES			
!								
#	mhz	S	db	R	50			
!	S11	S11	S21	S21	S12	S12	S22	S22
!	dB	Phase	dB	Phase	dB	Phase	dB	Phase
50.000	-48.186	-43.708	-0.008	-0.728	-0.008	-0.728	-48.186	-43.708
149.750	-40.447	-71.378	-0.052	-1.682	-0.052	-1.682	-40.447	-71.378
249.500	-36.200	-83.680	-0.027	-2.992	-0.027	-2.992	-36.200	-83.680
349.250	-33.261	-91.059	-0.024	-3.753	-0.024	-3.753	-33.261	-91.059
449.000	-31.137	-97.199	-0.041	-5.087	-0.041	-5.087	-31.137	-97.199
548.750	-29.310	-102.630	-0.037	-6.103	-0.037	-6.103	-29.310	-102.630
648.500	-27.873	-108.170	-0.035	-7.273	-0.035	-7.273	-27.873	-108.170
748.250	-26.650	-112.600	-0.056	-8.385	-0.056	-8.385	-26.650	-112.600
848.000	-25.594	-117.160	-0.030	-9.538	-0.030	-9.538	-25.594	-117.160
947.750	-24.690	-121.520	-0.030	-10.688	-0.030	-10.688	-24.690	-121.520
1047.500	-23.811	-125.850	-0.031	-11.754	-0.031	-11.754	-23.811	-125.850
1147.250	-23.076	-130.310	-0.062	-13.065	-0.062	-13.065	-23.076	-130.310
1247.000	-22.415	-134.630	-0.038	-14.115	-0.038	-14.115	-22.415	-134.630
1346.750	-21.834	-138.820	-0.058	-15.097	-0.058	-15.097	-21.834	-138.820
1446.500	-21.259	-143.050	-0.053	-16.250	-0.053	-16.250	-21.259	-143.050
1546.250	-20.786	-147.090	-0.063	-17.420	-0.063	-17.420	-20.786	-147.090
1646.000	-20.347	-151.480	-0.064	-18.528	-0.064	-18.528	-20.347	-151.480
1745.750	-19.984	-155.710	-0.058	-19.742	-0.058	-19.742	-19.984	-155.710
1845.500	-19.615	-159.690	-0.063	-20.863	-0.063	-20.863	-19.615	-159.690
1945.250	-19.323	-163.650	-0.079	-21.951	-0.079	-21.951	-19.323	-163.650
2045.000	-19.025	-167.350	-0.088	-23.025	-0.088	-23.025	-19.025	-167.350
2144.750	-18.771	-171.700	-0.049	-24.530	-0.049	-24.530	-18.771	-171.700
2244.500	-18.557	-175.780	-0.016	-25.572	-0.016	-25.572	-18.557	-175.780
2344.250	-18.404	-179.490	-0.058	-26.818	-0.058	-26.818	-18.404	-179.490
2444.000	-18.277	176.220	-0.049	-27.817	-0.049	-27.817	-18.277	176.220
2543.750	-18.200	172.520	-0.067	-29.257	-0.067	-29.257	-18.200	172.520
2643.500	-18.088	168.200	-0.075	-30.667	-0.075	-30.667	-18.088	168.200
2743.250	-18.086	164.360	-0.077	-31.766	-0.077	-31.766	-18.086	164.360
2843.000	-18.069	161.150	-0.064	-33.209	-0.064	-33.209	-18.069	161.150
2942.750	-18.082	157.510	-0.093	-34.310	-0.093	-34.310	-18.082	157.510
3042.500	-18.183	154.210	-0.070	-35.443	-0.070	-35.443	-18.183	154.210
3142.250	-18.259	150.520	-0.132	-36.711	-0.132	-36.711	-18.259	150.520
3242.000	-18.423	147.360	-0.161	-38.004	-0.161	-38.004	-18.423	147.360
3341.750	-18.545	144.400	-0.153	-39.271	-0.153	-39.271	-18.545	144.400
3441.500	-18.778	141.160	-0.112	-40.708	-0.112	-40.708	-18.778	141.160
3541.250	-19.044	138.670	-0.131	-41.770	-0.131	-41.770	-19.044	138.670
3641.000	-19.275	136.620	-0.144	-43.179	-0.144	-43.179	-19.275	136.620
3740.750	-19.561	134.290	-0.147	-44.291	-0.147	-44.291	-19.561	134.290
3840.500	-19.951	132.570	-0.123	-45.942	-0.123	-45.942	-19.951	132.570
3940.250	-20.304	131.270	-0.134	-46.978	-0.134	-46.978	-20.304	131.270
4040.000	-20.606	130.030	-0.165	-48.451	-0.165	-48.451	-20.606	130.030
4139.750	-20.988	129.920	-0.119	-49.844	-0.119	-49.844	-20.988	129.920
4239.500	-21.361	130.900	-0.146	-51.345	-0.146	-51.345	-21.361	130.900
4339.250	-21.760	131.080	-0.118	-52.924	-0.118	-52.924	-21.760	131.080
4439.000	-22.118	133.060	-0.115	-53.966	-0.115	-53.966	-22.118	133.060
4538.750	-22.295	135.240	-0.098	-55.934	-0.098	-55.934	-22.295	135.240
4638.500	-22.489	138.030	-0.081	-57.377	-0.081	-57.377	-22.489	138.030
4738.250	-22.534	141.930	-0.065	-59.021	-0.065	-59.021	-22.534	141.930
4838.000	-22.515	145.050	-0.070	-60.621	-0.070	-60.621	-22.515	145.050
4937.750	-22.290	148.320	-0.065	-62.383	-0.065	-62.383	-22.290	148.320
5037.500	-21.912	152.300	-0.043	-64.259	-0.043	-64.259	-21.912	152.300
5137.250	-21.428	155.790	-0.019	-66.172	-0.019	-66.172	-21.428	155.790
5237.000	-20.894	158.540	-0.028	-67.850	-0.028	-67.850	-20.894	158.540
5336.750	-20.213	160.490	-0.004	-70.017	-0.004	-70.017	-20.213	160.490
5436.500	-19.513	162.420	0.057	-71.944	0.057	-71.944	-19.513	162.420
5536.250	-18.786	163.350	0.014	-74.217	0.014	-74.217	-18.786	163.350
5636.000	-18.055	163.930	0.018	-76.359	0.018	-76.359	-18.055	163.930
5735.750	-17.240	164.580	-0.002	-78.609	-0.002	-78.609	-17.240	164.580
5835.500	-16.463	164.640	0.055	-81.120	0.055	-81.120	-16.463	164.640
5935.250	-15.706	164.700	-0.051	-83.853	-0.051	-83.853	-15.706	164.700
6035.000	-14.888	163.830	-0.049	-86.314	-0.049	-86.314	-14.888	163.830
6134.750	-14.111	162.910	-0.076	-89.256	-0.076	-89.256	-14.111	162.910
6234.500	-13.193	162.120	-0.078	-91.887	-0.078	-91.887	-13.193	162.120
6334.250	-12.276	161.180	-0.264	-94.731	-0.264	-94.731	-12.276	161.180
6434.000	-11.223	159.420	-0.529	-97.717	-0.529	-97.717	-11.223	159.420
6533.750	-10.600	157.000	-0.425	-100.520	-0.425	-100.520	-10.600	157.000
6633.500	-9.728	153.680	-0.296	-103.990	-0.296	-103.990	-9.728	153.680
6733.250	-8.821	150.470	-0.465	-107.460	-0.465	-107.460	-8.821	150.470
6833.000	-8.031	146.900	-0.754	-110.380	-0.754	-110.380	-8.031	146.900
6932.750	-7.128	142.960	-0.722	-114.470	-0.722	-114.470	-7.128	142.960
7032.500	-6.280	138.190	-0.915	-118.090	-0.915	-118.090	-6.280	138.190
7132.250	-5.540	133.170	-1.044	-122.300	-1.044	-122.300	-5.540	133.170
7232.000	-4.888	128.340	-1.380	-126.330	-1.380	-126.330	-4.888	128.340
7331.750	-4.216	122.980	-1.726	-130.910	-1.726	-130.910	-4.216	122.980
7431.500	-3.508	117.190	-1.732	-134.910	-1.732	-134.910	-3.508	117.190
7531.250	-2.992	110.700	-2.300	-140.240	-2.300	-140.240	-2.992	110.700
7631.000	-2.556	104.990	-2.886	-144.470	-2.886	-144.470	-2.556	104.990
7730.750	-2.155	99.487	-3.564	-148.210	-3.564	-148.210	-2.155	99.487
7830.500	-1.651	93.131	-3.838	-154.180	-3.838	-154.180	-1.651	93.131
7930.250	-1.419	86.211	-4.617	-157.330	-4.617	-157.330	-1.419	86.211
8030.000	-1.283	80.695	-5.563	-160.330	-5.563	-160.330	-1.283	80.695
8129.750	-0.955	75.304	-6.176	-164.010	-6.176	-164.010	-0.955	75.304
8229.500	-0.679	68.976	-7.001	-168.150	-7.001	-168.150	-0.679	68.976
8329.250	-0.685	62.607	-7.560	-168.810	-7.560	-168.810	-0.685	62.607
8429.000	-0.687	58.267	-8.769	-170.760	-8.769	-170.760	-0.687	58.267
8528.750	-0.604	53.468	-9.778	-171.790	-9.778	-171.790	-0.604	53.468
8628.500	-0.426	48.244	-10.289	-174.110	-10.289	-174.110	-0.426	48.244
8728.250	-0.489	43.329	-10.917	-176.400	-10.917	-176.400	-0.489	43.329
8828.000	-0.484	39.332	-11.728	-172.210	-11.728	-172.210	-0.484	39.332
8927.750	-0.389	34.463	-12.492	-175.730	-12.492	-175.730	-0.389	34.463
9027.500	-0.311	29.575	-13.453	-176.370	-13.453	-176.370	-0.311	29.575
9127.250	-0.362	24.795	-13.713	-177.460	-13.713	-177.460	-0.362	24.795
9227.000	-0.474	20.999	-14.450	-178.800	-14.450	-178.800	-0.474	20.999
9326.750	-0.502	17.183	-15.423	-178.620	-15.423	-178.620	-0.502	17.183
9426.500	-0.375	13.061	-15.683	178.560	-15.683	178.560	-0.375	13.061
9526.250	-0.411	8.833	-16.554	177.410	-16.554	177.410	-0.411	8.833
9626.000	-0.475	5.405	-17.412	177.330	-17.412	177.330	-0.475	5.405
9725.750	-0.496	1.982	-18.313	173.890	-18.313	173.890	-0.496	1.982
9825.500	-0.389	-1.991	-19.283	172.480	-19.283	172.480	-0.389	-1.991
9925.250	-0.409	-6.210	-20.134	169.880	-20.134	169.880	-0.409	-6.210
10025.000	-0.478	-9.343	-21.206	168.860	-21.206	168.860	-0.478	-9.343
10124.750	-0.421	-12.707	-22.759	167.110	-22.759	167.110	-0.421	-12.707
10224.500	-0.298	-16.455	-23.890	165.450	-23.890	165.450	-0.298	-16.455
10324.250	-0.386	-20.288	-25.452	167.620	-25.452	167.620	-0.386	-20.288
10424.000	-0.360	-23.556	-27.060	166.840	-27.060	166.840	-0.360	-23.556
10523.750	-0.331	-27.127	-29.212	169.370	-29.212	169.370	-0.331	-27.127
10623.500	-0.224	-30.685	-31.079	170.610	-31.079	170.610	-0.224	-30.685
10723.250	-0.284	-34.239	-33.459	176.040	-33.459	176.040	-0.284	-34.239
10823.000	-0.261	-37.786	-36.481	-173.140	-36.481	-173.140	-0.261	-37.786
10922.750	-0.233	-41.222	-39.415	-154.370	-39.415	-154.370	-0.233	-41.222
11022.500	-0.213	-44.783	-41.804	-124.050	-41.804	-124.050	-0.213	-44.783
11122.250	-0.215	-48.395	-40.535	-88.678	-40.535	-88.678	-0.215	-48.395
11222.000	-0.207	-52.284	-37.622	-70.624	-37.622	-70.624	-0.207	-52.284
11321.750	-0.223	-55.734	-35.184	-61.474	-35.184	-61.474	-0.223	-55.734
11421.500	-0.184	-59.086	-33.299	-53.264	-33.299	-53.264	-0.184	-59.086
11521.250	-0.147	-63.062	-31.812	-53.383	-31.812	-53.383	-0.147	-63.062
11621.000	-0.199	-66.677	-30.605	-52.554	-30.605	-52.554	-0.199	-66.677
11720.750	-0.244	-70.307	-29.432	-53.380	-29.432	-53.380	-0.244	-70.307
11820.500	-0.181	-74.064	-28.598	-52.682	-28.598	-52.682	-0.181	-74.064
11920.250	-0.353	-77.840	-28.187	-54.227	-28.187	-54.227	-0.353	-77.840
12020.000	-0.281	-81.358	-27.148	-55.989	-27.148	-55.989	-0.281	-81.358
12119.750	-0.327	-84.983	-26.792	-56.386	-26.792	-56.386	-0.327	-84.983
12219.500	-0.385	-88.525	-26.435	-57.658	-26.435	-57.658	-0.385	-88.525
12319.250	-0.454	-92.222	-26.243	-59.712	-26.243	-59.712	-0.454	-92.222
12419.000	-0.517	-95.893	-25.909	-62.781	-25.909	-62.781	-0.517	-95.893
12518.750	-0.582	-99.369	-25.942	-63.575	-25.942	-63.575	-0.582	-99.369
12618.500	-0.634	-102.850	-25.637	-64.992	-25.637	-64.992	-0.634	-102.850
12718.250	-0.696	-106.560	-25.822	-68.654	-25.822	-68.654	-0.696	-106.560
12818.000	-0.817	-109.880	-26.033	-69.351	-26.033	-69.351	-0.817	-109.880
12917.750	-0.907	-113.130	-25.958	-70.742	-25.958	-70.742	-0.907	-113.130
13017.500	-0.997	-116.630	-26.589	-74.828	-26.589	-74.828	-0.997	-116.630
13117.250	-1.095	-120.000	-27.113	-72.135	-27.113	-72.135	-1.095	-120.000
13217.000	-1.137	-123.380	-27.068	-76.168	-27.068	-76.168	-1.137	-123.380
13316.750	-1.287	-126.480	-28.021	-75.237	-28.021	-75.237	-1.287	-126.480
13416.500	-1.340	-129.630	-28.679	-73.971	-28.679	-73.971	-1.340	-129.630
13516.250	-1.435	-132.680	-29.452	-75.987	-29.452	-75.987	-1.435	-132.680
13616.000	-1.515	-135.780	-30.903	-71.042	-30.903	-71.042	-1.515	-135.780
13715.750	-1.637	-138.690	-31.330	-64.157	-31.330	-64.157	-1.637	-138.690
13815.500	-1.710	-141.930	-32.250	-52.921	-32.250	-52.921	-1.710	-141.930
13915.250	-1.792	-145.050	-31.423	-43.102	-31.423	-43.102	-1.792	-145.050
14015.000	-1.844	-147.820	-30.356	-35.446	-30.356	-35.446	-1.844	-147.820
14114.750	-1.937	-150.640	-29.420	-31.226	-29.420	-31.226	-1.937	-150.640
14214.500	-2.029	-153.320	-27.840	-31.602	-27.840	-31.602	-2.029	-153.320
14314.250	-2.058	-155.800	-27.524	-37.424	-27.524	-37.424	-2.058	-155.800
14414.000	-2.030	-158.710	-27.252	-37.999	-27.252	-37.999	-2.030	-158.710
14513.750	-1.989	-161.840	-27.264	-41.175	-27.264	-41.175	-1.989	-161.840
14613.500	-2.008	-164.650	-27.181	-42.724	-27.181	-42.724	-2.008	-164.650
14713.250	-1.966	-167.470	-27.178	-40.681	-27.178	-40.681	-1.966	-167.470
14813.000	-1.928	-170.280	-27.362	-42.892	-27.362	-42.892	-1.928	-170.280
14912.750	-1.894	-173.090	-27.213	-38.129	-27.213	-38.129	-1.894	-173.090
15012.500	-1.880	-176.090	-27.595	-39.310	-27.595	-39.310	-1.880	-176.090
15112.250	-1.825	-179.070	-27.647	-40.779	-27.647	-40.779	-1.825	-179.070
15212.000	-1.764	177.890	-27.652	-40.895	-27.652	-40.895	-1.764	177.890
15311.750	-1.698	174.520	-27.669	-40.958	-27.669	-40.958	-1.698	174.520
15411.500	-1.626	171.110	-27.636	-36.698	-27.636	-36.698	-1.626	171.110
15511.250	-1.652	168.220	-26.990	-35.736	-26.990	-35.736	-1.652	168.220
15611.000	-1.557	164.820	-26.595	-38.193	-26.595	-38.193	-1.557	164.820
15710.750	-1.411	161.880	-25.896	-42.442	-25.896	-42.442	-1.411	161.880
15810.500	-1.297	158.460	-26.046	-50.319	-26.046	-50.319	-1.297	158.460
15910.250	-1.159	155.350	-26.519	-54.759	-26.519	-54.759	-1.159	155.350
16010.000	-1.031	151.480	-27.023	-57.307	-27.023	-57.307	-1.031	151.480
16109.750	-0.794	147.500	-27.860	-60.885	-27.860	-60.885	-0.794	147.500
16209.500	-0.670	143.280	-28.283	-62.014	-28.283	-62.014	-0.670	143.280
16309.250	-0.545	138.610	-29.143	-65.429	-29.143	-65.429	-0.545	138.610
16409.000	-0.475	134.030	-30.015	-65.674	-30.015	-65.674	-0.475	134.030
16508.750	-0.322	129.090	-31.117	-65.027	-31.117	-65.027	-0.322	129.090
16608.500	-0.219	124.620	-31.835	-63.138	-31.835	-63.138	-0.219	124.620
16708.250	-0.165	118.770	-32.913	-55.738	-32.913	-55.738	-0.165	118.770
16808.000	-0.118	114.610	-33.265	-53.565	-33.265	-53.565	-0.118	114.610
16907.750	-0.097	108.980	-33.318	-49.628	-33.318	-49.628	-0.097	108.980
17007.500	-0.131	103.460	-33.661	-50.327	-33.661	-50.327	-0.131	103.460
17107.250	-0.197	97.538	-33.678	-43.473	-33.678	-43.473	-0.197	97.538
17207.000	-0.387	91.622	-34.767	-49.364	-34.767	-49.364	-0.387	91.622
17306.750	-0.507	85.375	-34.947	-48.345	-34.947	-48.345	-0.507	85.375
17406.500	-0.697	80.324	-36.795	-45.516	-36.795	-45.516	-0.697	80.324
17506.250	-1.019	75.444	-37.074	-38.557	-37.074	-38.557	-1.019	75.444
17606.000	-1.271	70.939	-38.963	-28.364	-38.963	-28.364	-1.271	70.939
17705.750	-1.554	65.547	-38.535	-21.841	-38.535	-21.841	-1.554	65.547
17805.500	-1.863	60.209	-38.694	-13.942	-38.694	-13.942	-1.863	60.209
17905.250	-2.163	55.822	-37.664	-6.472	-37.664	-6.472	-2.163	55.822
18005.000	-2.455	50.992	-37.638	-4.881	-37.638	-4.881	-2.455	50.992
18104.750	-2.830	46.649	-37.016	-4.216	-37.016	-4.216	-2.830	46.649
18204.500	-3.179	43.217	-37.511	-5.485	-37.511	-5.485	-3.179	43.217
18304.250	-3.416	39.331	-36.725	-7.105	-36.725	-7.105	-3.416	39.331
18404.000	-3.842	35.162	-37.125	-6.739	-37.125	-6.739	-3.842	35.162
18503.750	-3.999	31.610	-36.218	-12.424	-36.218	-12.424	-3.999	31.610
18603.500	-4.486	27.515	-36.806	-18.397	-36.806	-18.397	-4.486	27.515
18703.250	-4.732	22.407	-36.449	-29.261	-36.449	-29.261	-4.732	22.407
18803.000	-4.915	19.483	-36.444	-40.886	-36.444	-40.886	-4.915	19.483
18902.750	-5.174	15.510	-35.412	-60.270	-35.412	-60.270	-5.174	15.510
19002.500	-5.520	12.019	-34.314	-74.391	-34.314	-74.391	-5.520	12.019
19102.250	-5.893	8.531	-31.778	-92.806	-31.778	-92.806	-5.893	8.531
19202.000	-6.253	4.417	-29.624	-107.940	-29.624	-107.940	-6.253	4.417
19301.750	-6.698	-0.098	-26.588	-123.420	-26.588	-123.420	-6.698	-0.098
19401.500	-7.291	-4.496	-23.891	-138.070	-23.891	-138.070	-7.291	-4.496
19501.250	-8.058	-7.355	-20.771	-153.550	-20.771	-153.550	-8.058	-7.355
19601.000	-9.192	-7.408	-18.226	-172.860	-18.226	-172.860	-9.192	-7.408
19700.750	-9.731	-1.057	-16.351	166.400	-16.351	166.400	-9.731	-1.057
19800.500	-9.130	4.712	-15.806	144.550	-15.806	144.550	-9.130	4.712
19900.250	-7.971	5.338	-15.901	128.120	-15.901	128.120	-7.971	5.338
20000.000	-6.961	-3.804	-16.926	113.480	-16.926	113.480	-6.961	-3.804
