!	AVX THIN FILM OPERATION
!
!	LP0603 LOW PASS FILTERS
!	P/N LP0603A1747ALTR
!
!	Network	Analyzer	HP8720ES.07.64:	Feb	"23,"	2000	Serial	No.	US39172382
!	Hewlett-Packard								
!	2	Feb	2004	02:33:11					
!	Frequency	S11	S21	S12	S22
!
!				
#	HZ	S	DB	R	50				
50000000	-30.863	-80.7	-0.0288	-2.2989	-0.0288	-2.3566	-30.863	14.779	
117250000	-28.08	-90.625	-0.0184	-4.2778	-0.0184	-4.3588	-28.08	-95.941	
184500000	-25.915	-97.597	-0.0218	-6.5836	-0.0218	-6.4641	-25.915	-101.56	
251750000	-24.35	-102.36	-0.0274	-8.8358	-0.0274	-8.6737	-24.35	-102.58	
319000000	-23.07	-107.29	-0.0724	-10.87	-0.0724	-11.014	-23.07	-108.8	
386250000	-21.864	-111.44	-0.0706	-12.894	-0.0706	-13.038	-21.864	-113.01	
453500000	-20.895	-115.78	-0.0647	-15.33	-0.0647	-15.134	-20.895	-119.62	
520750000	-20.159	-120.03	-0.0766	-17.244	-0.0766	-17.332	-20.159	-121.86	
588000000	-19.42	-124.05	-0.1112	-19.432	-0.1112	-19.449	-19.42	-124.15	
655250000	-18.812	-128.56	-0.1061	-21.697	-0.1061	-21.907	-18.812	-127.61	
722500000	-18.391	-132.65	-0.1221	-23.864	-0.1221	-24.057	-18.391	-130.88	
789750000	-17.961	-136.68	-0.1364	-26.001	-0.1364	-25.925	-17.961	-134.69
857000000	-17.637	-140.85	-0.1604	-28.151	-0.1604	-28.18	-17.637	-138.23
924250000	-17.469	-145.09	-0.1637	-30.395	-0.1637	-30.714	-17.469	-142.07
991500000	-17.35	-149.28	-0.1736	-32.763	-0.1736	-32.877	-17.35	-146.57
1058750000	-17.328	-153.55	-0.1998	-35.136	-0.1998	-35.24	-17.328	-151.38
1126000000	-17.437	-157.73	-0.197	-37.538	-0.197	-37.472	-17.437	-156.54
1193250000	-17.607	-161.9	-0.2033	-39.891	-0.2033	-39.234	-17.607	-161.45
1260500000	-17.914	-166.24	-0.2053	-42.159	-0.2053	-41.689	-17.914	-166.97
1327750000	-18.454	-170.71	-0.2393	-44.776	-0.2393	-44.826	-18.454	-171.69
1395000000	-19.112	-174.82	-0.2475	-47.182	-0.2475	-47.041	-19.112	-176.43
1462250000	-20.003	-179.04	-0.2467	-49.536	-0.2467	-48.428	-20.003	178.57
1529500000	-21.308	175.77	-0.2613	-52.316	-0.2613	-51.692	-21.308	173.46
1596750000	-22.781	171.11	-0.2717	-54.977	-0.2717	-55.414	-22.781	169.86
1664000000	-24.315	166.55	-0.3022	-57.799	-0.3022	-57.38	-24.315	165.92
1731250000	-24.847	161.37	-0.3062	-60.642	-0.3062	-60.635	-24.847	160.58
1798500000	-23.041	156.46	-0.3222	-63.589	-0.3222	-63.973	-23.041	156.3
1865750000	-20.222	151.1	-0.3708	-66.551	-0.3708	-66.547	-20.222	152.82
1933000000	-17.323	145.26	-0.4559	-69.765	-0.4559	-70.056	-17.323	148.96
2000250000	-14.78	139.47	-0.5199	-73.141	-0.5199	-73.728	-14.78	143.46
2067500000	-12.57	133.11	-0.7001	-76.435	-0.7001	-76.811	-12.57	136.66
2134750000	-10.616	126.04	-0.8328	-79.953	-0.8328	-80.046	-10.616	130.13
2202000000	-8.9192	117.21	-1.1681	-83.853	-1.1681	-84.205	-8.9192	123.36
2269250000	-7.4489	107.66	-1.4657	-87.827	-1.4657	-88.849	-7.4489	114.09
2336500000	-6.1975	95.298	-2.0811	-92.038	-2.0811	-92.074	-6.1975	99.651
2403750000	-5.0333	76.941	-2.4259	-96.563	-2.4259	-96.696	-5.0333	79.375
2471000000	-4.0998	48.558	-3.3127	-101.35	-3.3127	-101.83	-4.0998	47.229
2538250000	-3.246	8.4073	-3.9761	-106.32	-3.9761	-106.9	-3.246	-11.559
2605500000	-2.7073	-27.857	-5.0749	-111.75	-5.0749	-111.95	-2.7073	-47.712
2672750000	-2.0888	-52.626	-5.8822	-117.56	-5.8822	-117.63	-2.0888	-63.586
2740000000	-1.7609	-70.078	-7.2027	-123.67	-7.2027	-122.97	-1.7609	-76.215
2807250000	-1.3788	-83.927	-8.3932	-129.95	-8.3932	-129.13	-1.3788	-87.972
2874500000	-1.1787	-96.816	-9.6881	-136.91	-9.6881	-136.42	-1.1787	-98.712
2941750000	-0.925	-108.58	-11.1794	-143.73	-11.1794	-143.89	-0.925	-108.48
3009000000	-0.8392	-120.15	-12.7131	-151.07	-12.7131	-154.34	-0.8392	-118.73
3076250000	-0.7232	-130.64	-14.4973	-158.91	-14.4973	-158.61	-0.7232	-128.75
3143500000	-0.6343	-140.62	-16.2089	-165.93	-16.2089	-161.83	-0.6343	-138.46
3210750000	-0.5859	-150	-18.4553	-173.48	-18.4553	-173.55	-0.5859	-148.29
3278000000	-0.549	-159.12	-20.821	-179.89	-20.821	174.91	-0.549	-157.19
3345250000	-0.5397	-167.35	-24.0174	173.06	-24.0174	168.44	-0.5397	-165.75
3412500000	-0.4862	-174.51	-27.4598	165.83	-27.4598	169.28	-0.4862	-173.38
3479750000	-0.5313	178.3	-33.0352	161.14	-33.0352	162.1	-0.5313	179.57
3547000000	-0.4523	172.19	-36.1139	155.07	-36.1139	150.79	-0.4523	172.89
3614250000	-0.5422	166.25	-32.0646	150.08	-32.0646	145.1	-0.5422	167.18
3681500000	-0.4277	160.66	-28.2043	145.41	-28.2043	139.76	-0.4277	161.53
3748750000	-0.5672	155.87	-25.9812	140.15	-25.9812	142.74	-0.5672	156.91
3816000000	-0.4443	150.83	-23.921	137.03	-23.921	140.07	-0.4443	152.1
3883250000	-0.5721	146.52	-22.7527	132.77	-22.7527	128.67	-0.5721	147.81
3950500000	-0.4415	142.26	-21.5945	129.08	-21.5945	123.69	-0.4415	143.77
4017750000	-0.5838	138.05	-20.9019	125.83	-20.9019	121.1	-0.5838	140.07
4085000000	-0.4614	134.45	-19.9816	122.14	-19.9816	124.19	-0.4614	136.38
4152250000	-0.5761	130.63	-19.6049	120.51	-19.6049	122	-0.5761	132.54
4219500000	-0.4541	127.12	-18.9749	116.97	-18.9749	112.61	-0.4541	129
4286750000	-0.6422	123.83	-18.7313	113.88	-18.7313	109.06	-0.6422	125.41
4354000000	-0.4839	120.32	-18.1221	112.54	-18.1221	106.48	-0.4839	121.91
4421250000	-0.6036	117.36	-18.0395	109.86	-18.0395	109.03	-0.6036	118.8
4488500000	-0.501	114.21	-17.6291	108.28	-17.6291	108.25	-0.501	115.35
4555750000	-0.6732	111.22	-17.5799	105.65	-17.5799	102.21	-0.6732	112.53
4623000000	-0.512	108.34	-17.2412	102.31	-17.2412	104.07	-0.512	109.27
4690250000	-0.6389	105.45	-17.0963	106.41	-17.0963	104.78	-0.6389	106.74
4757500000	-0.5246	102.74	-16.9741	113.85	-16.9741	111.64	-0.5246	103.99
4824750000	-0.6965	99.998	-16.9883	142.51	-16.9883	138.07	-0.6965	101.48
4892000000	-0.5456	97.192	-16.7428	-120.19	-16.7428	-149.13	-0.5456	98.922
4959250000	-0.6729	94.73	-16.7552	-107.8	-16.7552	-108.13	-0.6729	95.876
5026500000	-0.5817	92.155	-16.6397	-98.996	-16.6397	-96.968	-0.5817	93.138
5093750000	-0.6995	89.566	-16.657	-99.172	-16.657	-97.284	-0.6995	90.939
5161000000	-0.5664	87.163	-16.5061	-95.475	-16.5061	-100.53	-0.5664	87.965
5228250000	-0.6995	84.657	-16.5551	-94.348	-16.5551	-96.074	-0.6995	85.397
5295500000	-0.5746	82.316	-16.5065	-94.904	-16.5065	-92.615	-0.5746	82.436
5362750000	-0.6786	79.897	-16.4311	-88.235	-16.4311	-87.117	-0.6786	80.294
5430000000	-0.5648	77.557	-16.451	-76.933	-16.451	-66.555	-0.5648	77.96
5497250000	-0.7067	75.248	-16.4538	42.108	-16.4538	35.994	-0.7067	75.39
5564500000	-0.6224	73	-16.434	58.148	-16.434	54.947	-0.6224	72.492
5631750000	-0.6834	70.753	-16.4156	63.63	-16.4156	61.798	-0.6834	70.185
5699000000	-0.6158	68.423	-16.4614	65.457	-16.4614	69.033	-0.6158	68.082
5766250000	-0.6885	66.32	-16.3926	66.75	-16.3926	67.113	-0.6885	65.853
5833500000	-0.6214	64.004	-16.4163	67.945	-16.4163	61.712	-0.6214	63.552
5900750000	-0.6834	61.863	-16.4268	66.592	-16.4268	61.342	-0.6834	61.144
5968000000	-0.6047	59.645	-16.5159	66.688	-16.5159	71.367	-0.6047	59.126
6035250000	-0.6879	57.49	-16.4681	67.602	-16.4681	70.51	-0.6879	57.399
6102500000	-0.6159	55.451	-16.4457	66.427	-16.4457	60.592	-0.6159	55.392
6169750000	-0.6618	53.258	-16.5216	66.153	-16.5216	61.179	-0.6618	53.152
6237000000	-0.6404	50.985	-16.7533	64.99	-16.7533	61.184	-0.6404	51.059
6304250000	-0.6224	49.086	-16.7727	64.83	-16.7727	62.054	-0.6224	49.209
6371500000	-0.6343	46.805	-16.7784	65.12	-16.7784	66.172	-0.6343	47.335
6438750000	-0.6622	44.834	-16.9473	63.965	-16.9473	63.152	-0.6622	44.572
6506000000	-0.6576	42.822	-17.1308	63.843	-17.1308	59.185	-0.6576	42.306
6573250000	-0.6385	40.63	-17.2615	63.964	-17.2615	58.1	-0.6385	40.35
6640500000	-0.6318	38.823	-17.2041	63.012	-17.2041	62.082	-0.6318	38.18
6707750000	-0.6429	36.606	-17.5309	62.611	-17.5309	65.093	-0.6429	35.696
6775000000	-0.6358	34.644	-17.7497	62.383	-17.7497	59.122	-0.6358	33.54
6842250000	-0.6256	32.782	-17.7438	62.334	-17.7438	57.575	-0.6256	31.771
6909500000	-0.6454	30.486	-17.9697	61.922	-17.9697	56.245	-0.6454	30.274
6976750000	-0.6179	28.792	-18.2509	60.625	-18.2509	54.43	-0.6179	28.129
7044000000	-0.6263	26.672	-18.3068	60.951	-18.3068	58.156	-0.6263	26.05
7111250000	-0.5927	24.634	-18.6728	60.826	-18.6728	55.883	-0.5927	24.921
7178500000	-0.6111	22.808	-18.6291	59.646	-18.6291	53.109	-0.6111	23.283
7245750000	-0.6088	20.553	-18.8717	59.365	-18.8717	54.138	-0.6088	21.304
7313000000	-0.622	18.748	-19.1881	58.895	-19.1881	54.146	-0.622	19.387
7380250000	-0.5743	16.951	-19.2025	58.604	-19.2025	55.769	-0.5743	17.946
7447500000	-0.5986	14.818	-19.2194	57.909	-19.2194	54.528	-0.5986	16.835
7514750000	-0.5871	12.942	-19.4464	56.828	-19.4464	54.175	-0.5871	14.638
7582000000	-0.5701	10.947	-19.3833	56.341	-19.3833	55.366	-0.5701	12.191
7649250000	-0.5603	8.9003	-19.495	55.633	-19.495	52.144	-0.5603	10.574
7716500000	-0.554	7.2359	-19.572	54.58	-19.572	51.493	-0.554	8.8
7783750000	-0.5464	5.0029	-19.4899	53.994	-19.4899	51.048	-0.5464	6.5121
7851000000	-0.531	3.3344	-19.3676	53.385	-19.3676	50.056	-0.531	3.7285
7918250000	-0.5401	1.4433	-19.5451	52.419	-19.5451	51.4	-0.5401	1.4598
7985500000	-0.5543	-0.6289	-19.2746	51.476	-19.2746	49.4	-0.5543	0.4779
8052750000	-0.5585	-2.2343	-19.4701	50.672	-19.4701	46.721	-0.5585	-1.2717
8120000000	-0.5379	-4.4028	-19.078	49.997	-19.078	45.838	-0.5379	-4.1473
8187250000	-0.4565	-6.0329	-19.1776	48.961	-19.1776	46.91	-0.4565	-6.4449
8254500000	-0.5522	-7.7783	-18.895	48.323	-18.895	48.987	-0.5522	-7.1631
8321750000	-0.5416	-10.091	-19.0429	47.249	-19.0429	47.288	-0.5416	-8.2988
8389000000	-0.5156	-11.698	-18.547	46.425	-18.547	44.326	-0.5156	-10.8
8456250000	-0.5345	-13.55	-18.7972	45.563	-18.7972	43.256	-0.5345	-13.337
8523500000	-0.5378	-15.576	-18.3822	44.379	-18.3822	42.991	-0.5378	-14.326
8590750000	-0.5981	-16.767	-18.6269	43.55	-18.6269	44.003	-0.5981	-15.816
8658000000	-0.5225	-19.173	-17.8528	43.561	-17.8528	44.138	-0.5225	-17.932
8725250000	-0.4715	-21.136	-18.1968	41.942	-18.1968	40.152	-0.4715	-19.595
8792500000	-0.5545	-22.46	-17.7179	41.215	-17.7179	38.541	-0.5545	-22.365
8859750000	-0.5973	-24.767	-17.8491	39.728	-17.8491	38.524	-0.5973	-22.635
8927000000	-0.5392	-26.31	-17.0395	38.874	-17.0395	39.089	-0.5392	-24.819
8994250000	-0.5671	-28.224	-17.1115	38.272	-17.1115	38.749	-0.5671	-27.577
9061500000	-0.6294	-30.026	-16.5947	37.474	-16.5947	37.724	-0.6294	-29.464
9128750000	-0.734	-31.463	-16.3318	37.314	-16.3318	36.705	-0.734	-30.096
9196000000	-0.7422	-33.765	-15.2814	36.252	-15.2814	35.04	-0.7422	-30.984
9263250000	-0.8793	-35.127	-15.0037	35.112	-15.0037	34.823	-0.8793	-33.868
9330500000	-1.0476	-36.969	-13.7599	34.361	-13.7599	35.059	-1.0476	-36.255
9397750000	-1.4013	-38.951	-12.8564	33.758	-12.8564	33.709	-1.4013	-37.149
9465000000	-1.9301	-40.265	-11.2625	33.49	-11.2625	32.373	-1.9301	-37.881
9532250000	-3.0942	-42.505	-9.9344	32.195	-9.9344	31.821	-3.0942	-40.24
9599500000	-4.6831	-43.984	-8.723	31.638	-8.723	30.984	-4.6831	-43.575
9666750000	-4.9009	-45.625	-8.86	31.367	-8.86	30.331	-4.9009	-44.897
9734000000	-3.27	-47.751	-10.0239	30.164	-10.0239	29.876	-3.27	-45.665
9801250000	-2.1182	-49.237	-12.3434	29.601	-12.3434	29.648	-2.1182	-48.216
