!	AVX THIN FILM OPERATION
!
!	LP0603 LOW PASS FILTERS
!	P/N LP0603A1880ALTR
!
!	Network	Analyzer	HP8720ES.07.64:	Feb	"23,"	2000	Serial	No.	US39172382
!	Hewlett-Packard								
!	2	Feb	2004	02:33:11					
!	Frequency	S11	S21	S12	S22
!
!				
#	HZ	S	DB	R	50				
50000000	-50.235	-85.254	0	-1.9734	0	-2.0723	-50.235	14.258	
117250000	-42.391	-91.702	0	-3.7683	0	-3.9262	-42.391	-90.089	
184500000	-34.521	-97.751	-0.0123	-5.8516	-0.0123	-5.6003	-34.521	-100.53	
251750000	-30.863	-102.04	-0.0288	-7.6712	-0.0288	-7.6561	-30.863	-104.04	
319000000	-28.08	-106.16	-0.0184	-9.4592	-0.0184	-9.6281	-28.08	-106.9	
386250000	-25.915	-109.87	-0.0218	-11.253	-0.0218	-11.279	-25.915	-112.58	
453500000	-24.35	-113.77	-0.0274	-13.214	-0.0274	-13.129	-24.35	-119.06	
520750000	-23.07	-117.67	-0.0724	-15.087	-0.0724	-15.083	-23.07	-119.77	
588000000	-21.864	-121.38	-0.0706	-16.863	-0.0706	-16.931	-21.864	-122.95	
655250000	-20.895	-125.49	-0.0647	-18.855	-0.0647	-19.113	-20.895	-125.71	
722500000	-20.159	-129.17	-0.0766	-20.738	-0.0766	-21.039	-20.159	-128.05	
789750000	-19.42	-132.8	-0.1112	-22.6	-0.1112	-22.474	-19.42	-131.31
857000000	-18.812	-136.62	-0.1061	-24.354	-0.1061	-24.516	-18.812	-135.45
924250000	-18.391	-140.43	-0.1221	-26.294	-0.1221	-26.664	-18.391	-138.57
991500000	-17.961	-144.12	-0.1364	-28.423	-0.1364	-28.466	-17.961	-142.38
1058750000	-17.637	-148	-0.1604	-30.374	-0.1604	-30.542	-17.637	-146.56
1126000000	-17.469	-151.74	-0.1637	-32.419	-0.1637	-32.411	-17.469	-151.66
1193250000	-17.35	-155.41	-0.1736	-34.406	-0.1736	-33.933	-17.35	-155.9
1260500000	-17.328	-159.32	-0.1998	-36.44	-0.1998	-35.958	-17.328	-160.74
1327750000	-17.437	-163.23	-0.197	-38.511	-0.197	-38.518	-17.437	-164.7
1395000000	-17.607	-166.91	-0.2033	-40.574	-0.2033	-40.54	-17.607	-169.12
1462250000	-17.914	-170.41	-0.2053	-42.576	-0.2053	-41.523	-17.914	-173.75
1529500000	-18.454	-174.9	-0.2393	-44.848	-0.2393	-44.059	-18.454	-178.03
1596750000	-19.112	-178.98	-0.2475	-46.994	-0.2475	-47.477	-19.112	178.59
1664000000	-20.003	177.27	-0.2467	-49.341	-0.2467	-48.943	-20.003	175.3
1731250000	-21.308	172.98	-0.2613	-51.655	-0.2613	-51.548	-21.308	170.79
1798500000	-22.781	168.96	-0.2717	-53.94	-0.2717	-54.444	-22.781	167.41
1865750000	-24.315	164.77	-0.3022	-56.371	-0.3022	-56.316	-24.315	164.7
1933000000	-24.847	160.33	-0.3062	-58.797	-0.3062	-59.133	-24.847	161.62
2000250000	-23.041	155.97	-0.3222	-61.404	-0.3222	-62.194	-23.041	157.23
2067500000	-20.222	151.55	-0.3708	-64.002	-0.3708	-64.557	-20.222	152.49
2134750000	-17.323	147.07	-0.4559	-66.592	-0.4559	-66.782	-17.323	148.26
2202000000	-14.78	141.74	-0.5199	-69.42	-0.5199	-69.833	-14.78	144.22
2269250000	-12.57	136.67	-0.7001	-72.525	-0.7001	-73.884	-12.57	139.07
2336500000	-10.616	131.59	-0.8328	-75.451	-0.8328	-75.664	-10.616	133.67
2403750000	-8.9192	125.36	-1.1681	-78.482	-1.1681	-78.486	-8.9192	127.28
2471000000	-7.4489	118.67	-1.4657	-81.946	-1.4657	-83.07	-7.4489	121.63
2538250000	-6.1975	111.7	-2.0811	-85.215	-2.0811	-86.822	-6.1975	116.88
2605500000	-5.0333	103.59	-2.4259	-88.951	-2.4259	-90.207	-5.0333	109.32
2672750000	-4.0998	93.878	-3.3127	-92.867	-3.3127	-93.186	-4.0998	97.802
2740000000	-3.246	80.583	-3.9761	-96.82	-3.9761	-97.167	-3.246	81.865
2807250000	-2.7073	61.572	-5.0749	-101.31	-5.0749	-102.11	-2.7073	53.803
2874500000	-2.0888	33.078	-5.8822	-105.79	-5.8822	-106.25	-2.0888	5.9436
2941750000	-1.7609	-5.7774	-7.2027	-110.55	-7.2027	-110.83	-1.7609	-34.378
3009000000	-1.3788	-40.582	-8.3932	-115.84	-8.3932	-116.39	-1.3788	-54.623
3076250000	-1.1787	-64.542	-9.6881	-121.59	-9.6881	-122.11	-1.1787	-70.35
3143500000	-0.925	-81.149	-11.1794	-127.39	-11.1794	-126.42	-0.925	-83.647
3210750000	-0.8392	-94.644	-12.7131	-133.66	-12.7131	-132.53	-0.8392	-96.511
3278000000	-0.7232	-107.31	-14.4973	-140.19	-14.4973	-141.12	-0.7232	-108.83
3345250000	-0.6343	-119.25	-16.2089	-146.52	-16.2089	-150.43	-0.6343	-120.75
3412500000	-0.5859	-130.09	-18.4553	-154.84	-18.4553	-154.45	-0.5859	-131.66
3479750000	-0.549	-140.2	-20.821	-161.24	-20.821	-158.96	-0.549	-141.87
3547000000	-0.5397	-150.03	-24.0174	-168.56	-24.0174	-170.34	-0.5397	-151.82
3614250000	-0.4862	-159.34	-27.4598	-176.03	-27.4598	-179.34	-0.4862	-160.83
3681500000	-0.5313	-168.31	-33.0352	177	-33.0352	171.09	-0.5313	-169.46
3748750000	-0.4523	-175.58	-36.1139	169.39	-36.1139	169.55	-0.4523	-176.85
3816000000	-0.5422	176.98	-32.0646	163.9	-32.0646	168.09	-0.5422	176.23
3883250000	-0.4277	170.29	-28.2043	157.93	-28.2043	155.79	-0.4277	169.79
3950500000	-0.5672	164.25	-25.9812	152.04	-25.9812	147.3	-0.5672	163.68
4017750000	-0.4443	158.28	-23.921	147.07	-23.921	141.56	-0.4443	158.43
4085000000	-0.5721	153.4	-22.7527	141.35	-22.7527	142.48	-0.5721	153.38
4152250000	-0.4415	148.27	-21.5945	138.24	-21.5945	141.3	-0.4415	148.68
4219500000	-0.5838	143.58	-20.9019	133.57	-20.9019	130.59	-0.5838	143.95
4286750000	-0.4614	139.44	-19.9816	129.18	-19.9816	124.66	-0.4614	139.2
4354000000	-0.5761	135.05	-19.6049	126.59	-19.6049	120.13	-0.5761	134.8
4421250000	-0.4541	131.27	-18.9749	122.56	-18.9749	120.89	-0.4541	131.13
4488500000	-0.6422	127.56	-18.7313	119.9	-18.7313	119.99	-0.6422	127
4555750000	-0.4839	123.78	-18.1221	116.71	-18.1221	112.45	-0.4839	123.38
4623000000	-0.6036	120.56	-18.0395	113.81	-18.0395	112.37	-0.6036	119.6
4690250000	-0.501	117.13	-17.6291	112.49	-17.6291	110.54	-0.501	116.65
4757500000	-0.6732	113.93	-17.5799	110.82	-17.5799	108.55	-0.6732	113.51
4824750000	-0.512	110.91	-17.2412	110.31	-17.2412	113.5	-0.512	110.54
4892000000	-0.6389	107.57	-17.0963	110.36	-17.0963	112.38	-0.6389	107.41
4959250000	-0.5246	104.93	-16.9741	114.8	-16.9741	114.51	-0.5246	104.2
5026500000	-0.6965	102.06	-16.9883	132.29	-16.9883	134.54	-0.6965	101.48
5093750000	-0.5456	99.157	-16.7428	-137.99	-16.7428	-132.57	-0.5456	98.472
5161000000	-0.6729	96.571	-16.7552	-104.07	-16.7552	-106.61	-0.6729	95.414
5228250000	-0.5817	93.837	-16.6397	-97.811	-16.6397	-102.37	-0.5817	92.733
5295500000	-0.6995	91.288	-16.657	-96.202	-16.657	-93.503	-0.6995	89.589
5362750000	-0.5664	88.709	-16.5061	-95.044	-16.5061	-95.37	-0.5664	87.087
5430000000	-0.6995	86.09	-16.5551	-95.972	-16.5551	-104.53	-0.6995	84.342
5497250000	-0.5746	83.703	-16.5065	-96.287	-16.5065	-100.48	-0.5746	81.797
5564500000	-0.6786	81.124	-16.4311	-96.891	-16.4311	-98.712	-0.6786	78.898
5631750000	-0.5648	78.794	-16.451	-97.012	-16.451	-99.404	-0.5648	76.304
5699000000	-0.7067	76.458	-16.4538	-98.639	-16.4538	-95.749	-0.7067	73.606
5766250000	-0.6224	74.132	-16.434	-98.723	-16.434	-96.851	-0.6224	71.494
5833500000	-0.6834	71.741	-16.4156	-97.888	-16.4156	-102.08	-0.6834	69.144
5900750000	-0.6158	69.421	-16.4614	-98.759	-16.4614	-105.21	-0.6158	66.749
5968000000	-0.6885	67.131	-16.3926	-99.528	-16.3926	-95.335	-0.6885	64.543
6035250000	-0.6214	64.795	-16.4163	-97.364	-16.4163	-92.28	-0.6214	62.588
6102500000	-0.6834	62.735	-16.4268	-96.647	-16.4268	-101	-0.6834	60.596
6169750000	-0.6047	60.458	-16.5159	-90.305	-16.5159	-95.462	-0.6047	58.406
6237000000	-0.6879	58.219	-16.4681	-79.074	-16.4681	-77.702	-0.6879	56.247
6304250000	-0.6159	56.114	-16.4457	-3.3961	-16.4457	-8.3936	-0.6159	54.083
6371500000	-0.6618	53.738	-16.5216	45.655	-16.5216	49.169	-0.6618	52.184
6438750000	-0.6404	51.803	-16.7533	57.376	-16.7533	56.753	-0.6404	49.655
6506000000	-0.6224	49.719	-16.7727	62.207	-16.7727	57.658	-0.6224	47.388
6573250000	-0.6343	47.431	-16.7784	62.998	-16.7784	57.903	-0.6343	45.019
6640500000	-0.6622	45.442	-16.9473	62.669	-16.9473	62.25	-0.6622	42.933
6707750000	-0.6576	43.257	-17.1308	64.304	-17.1308	66.732	-0.6576	40.563
6775000000	-0.6385	41.244	-17.2615	64.826	-17.2615	62.049	-0.6385	38.441
6842250000	-0.6318	39.288	-17.2041	64.384	-17.2041	59.811	-0.6318	36.552
6909500000	-0.6429	36.95	-17.5309	64.681	-17.5309	59.549	-0.6429	34.486
6976750000	-0.6358	35.219	-17.7497	64.041	-17.7497	57.626	-0.6358	32.701
7044000000	-0.6256	33.033	-17.7438	64.086	-17.7438	61.427	-0.6256	30.605
7111250000	-0.6454	30.992	-17.9697	64.733	-17.9697	59.561	-0.6454	29.019
7178500000	-0.6179	29.075	-18.2509	63.482	-18.2509	56.99	-0.6179	27.436
7245750000	-0.6263	26.808	-18.3068	63.358	-18.3068	57.757	-0.6263	25.615
7313000000	-0.5927	24.946	-18.6728	62.776	-18.6728	57.535	-0.5927	23.637
7380250000	-0.6111	23.078	-18.6291	62.626	-18.6291	59.233	-0.6111	21.866
7447500000	-0.6088	20.892	-18.8717	62.203	-18.8717	57.93	-0.6088	20.68
7514750000	-0.622	19.005	-19.1881	61.037	-19.1881	57.733	-0.622	18.631
7582000000	-0.5743	16.978	-19.2025	60.12	-19.2025	59.532	-0.5743	16.469
7649250000	-0.5986	14.886	-19.2194	59.51	-19.2194	56.265	-0.5986	14.253
7716500000	-0.5871	13.188	-19.4464	58.931	-19.4464	55.852	-0.5871	12.608
7783750000	-0.5701	10.997	-19.3833	58.395	-19.3833	55.418	-0.5701	10.039
7851000000	-0.5603	9.2656	-19.495	57.52	-19.495	54.076	-0.5603	7.6794
7918250000	-0.554	7.3306	-19.572	56.451	-19.572	55.642	-0.554	5.8228
7985500000	-0.5464	5.246	-19.4899	56.111	-19.4899	53.959	-0.5464	4.2188
8052750000	-0.531	3.5582	-19.3676	55.383	-19.3676	51.021	-0.531	2.6106
8120000000	-0.5401	1.3568	-19.5451	54.29	-19.5451	50.055	-0.5401	-0.1263
8187250000	-0.5543	-0.3584	-19.2746	53.711	-19.2746	50.797	-0.5543	-2.3126
8254500000	-0.5585	-2.1066	-19.4701	52.749	-19.4701	53.295	-0.5585	-3.1311
8321750000	-0.5379	-4.3835	-19.078	51.946	-19.078	52.023	-0.5379	-4.2366
8389000000	-0.4565	-6.0562	-19.1776	50.728	-19.1776	48.896	-0.4565	-6.6248
8456250000	-0.5522	-7.8882	-18.895	49.846	-18.895	47.59	-0.5522	-9.0802
8523500000	-0.5416	-9.8616	-19.0429	48.88	-19.0429	47.369	-0.5416	-10.491
8590750000	-0.5156	-11.039	-18.547	48.075	-18.547	48.892	-0.5156	-11.869
8658000000	-0.5345	-13.103	-18.7972	48.234	-18.7972	48.785	-0.5345	-13.413
8725250000	-0.5378	-15.462	-18.3822	46.449	-18.3822	44.242	-0.5378	-16.131
8792500000	-0.5981	-16.956	-18.6269	45.661	-18.6269	42.991	-0.5981	-18.114
8859750000	-0.5225	-19.258	-17.8528	44.072	-17.8528	42.65	-0.5225	-18.914
8927000000	-0.4715	-20.783	-18.1968	43.437	-18.1968	43.112	-0.4715	-20.919
8994250000	-0.5545	-22.761	-17.7179	42.841	-17.7179	43.049	-0.5545	-23.205
9061500000	-0.5973	-24.55	-17.8491	41.984	-17.8491	42.175	-0.5973	-25.285
9128750000	-0.5392	-26.031	-17.0395	41.832	-17.0395	41.48	-0.5392	-26.19
9196000000	-0.5671	-28.338	-17.1115	40.743	-17.1115	39.315	-0.5671	-27.209
9263250000	-0.6294	-29.708	-16.5947	39.525	-16.5947	38.673	-0.6294	-29.67
9330500000	-0.734	-31.518	-16.3318	38.706	-16.3318	39.109	-0.734	-31.822
9397750000	-0.7422	-33.599	-15.2814	38.179	-15.2814	38.477	-0.7422	-32.925
9465000000	-0.8793	-34.942	-15.0037	37.842	-15.0037	36.832	-0.8793	-33.753
9532250000	-1.0476	-37.207	-13.7599	36.722	-13.7599	35.947	-1.0476	-35.843
9599500000	-1.4013	-38.691	-12.8564	35.951	-12.8564	35.074	-1.4013	-39.01
9666750000	-1.9301	-40.339	-11.2625	35.685	-11.2625	34.618	-1.9301	-40.465
9734000000	-3.0942	-42.435	-9.9344	34.347	-9.9344	34.195	-3.0942	-41.553
9801250000	-4.6831	-43.899	-8.723	33.787	-8.723	33.815	-4.6831	-43.629
9868500000	-4.9009	-45.725	-8.86	34.17	-8.86	32.503	-4.9009	-47.241
9935750000	-3.27	-47.491	-10.0239	32.473	-10.0239	30.447	-3.27	-48.701
10003000000	-2.1182	-49.024	-12.3434	31.68	-12.3434	29.747	-2.1182	-49.18
