!	AVX THIN FILM OPERATION
!
!	LP0603 LOW PASS FILTERS
!	P/N LP0603A1842ALTR
!
!	Network	Analyzer	HP8720ES.07.64:	Feb	"23,"	2000	Serial	No.	US39172382
!	Hewlett-Packard								
!	2	Feb	2004	02:33:11					
!	Frequency	S11	S21	S12	S22
!
!				
#	HZ	S	DB	R	50				
50000000	-42.391	-89.157	0	-2.1231	0	-2.2	-42.391	-40.358	
117250000	-34.521	-93.8	0.0018	-3.8081	0.0018	-3.9784	-34.521	-104.18	
184500000	-30.863	-98.554	-0.0288	-5.9065	-0.0288	-5.8434	-30.863	-100.98	
251750000	-28.08	-102.71	-0.0184	-7.9308	-0.0184	-7.7907	-28.08	-104.72	
319000000	-25.915	-106.86	-0.0218	-9.749	-0.0218	-9.7847	-25.915	-109.03	
386250000	-24.35	-110.37	-0.0274	-11.449	-0.0274	-11.533	-24.35	-113.35	
453500000	-23.07	-114.37	-0.0724	-13.521	-0.0724	-13.468	-23.07	-118.2	
520750000	-21.864	-118.12	-0.0706	-15.289	-0.0706	-15.414	-21.864	-120.35	
588000000	-20.895	-121.93	-0.0647	-17.188	-0.0647	-17.332	-20.895	-122.76	
655250000	-20.159	-125.88	-0.0766	-19.225	-0.0766	-19.601	-20.159	-125.61	
722500000	-19.42	-129.5	-0.1112	-21.102	-0.1112	-21.312	-19.42	-128.69	
789750000	-18.812	-133.27	-0.1061	-23.085	-0.1061	-23.025	-18.812	-132.18
857000000	-18.391	-136.99	-0.1221	-24.994	-0.1221	-24.976	-18.391	-135.5
924250000	-17.961	-140.71	-0.1364	-26.86	-0.1364	-27.241	-17.961	-138.9
991500000	-17.637	-144.71	-0.1604	-28.97	-0.1604	-29.079	-17.637	-142.9
1058750000	-17.469	-148.39	-0.1637	-31.008	-0.1637	-31.137	-17.469	-147.05
1126000000	-17.35	-152.16	-0.1736	-33.078	-0.1736	-33.153	-17.35	-151.94
1193250000	-17.328	-155.84	-0.1998	-35.148	-0.1998	-34.596	-17.328	-156.27
1260500000	-17.437	-159.65	-0.197	-37.137	-0.197	-36.606	-17.437	-160.85
1327750000	-17.607	-163.68	-0.2033	-39.433	-0.2033	-39.328	-17.607	-164.99
1395000000	-17.914	-167.27	-0.2053	-41.44	-0.2053	-41.314	-17.914	-169.35
1462250000	-18.454	-170.94	-0.2393	-43.569	-0.2393	-42.308	-18.454	-173.85
1529500000	-19.112	-175.34	-0.2475	-45.768	-0.2475	-44.996	-19.112	-178.11
1596750000	-20.003	-179.37	-0.2467	-47.984	-0.2467	-48.503	-20.003	178.65
1664000000	-21.308	176.83	-0.2613	-50.452	-0.2613	-49.988	-21.308	175.2
1731250000	-22.781	172.56	-0.2717	-52.759	-0.2717	-52.653	-22.781	170.72
1798500000	-24.315	168.52	-0.3022	-55.182	-0.3022	-55.647	-24.315	167.29
1865750000	-24.847	164.24	-0.3062	-57.703	-0.3062	-57.593	-24.847	164.32
1933000000	-23.041	159.85	-0.3222	-60.209	-0.3222	-60.525	-23.041	161.15
2000250000	-20.222	155.45	-0.3708	-62.963	-0.3708	-63.733	-20.222	156.91
2067500000	-17.323	151.08	-0.4559	-65.484	-0.4559	-66.172	-17.323	151.85
2134750000	-14.78	146.41	-0.5199	-68.39	-0.5199	-68.335	-14.78	147.65
2202000000	-12.57	141.16	-0.7001	-71.294	-0.7001	-71.612	-12.57	143.46
2269250000	-10.616	136.06	-0.8328	-74.46	-0.8328	-75.865	-10.616	138.35
2336500000	-8.9192	130.97	-1.1681	-77.493	-1.1681	-77.666	-8.9192	132.41
2403750000	-7.4489	124.62	-1.4657	-80.717	-1.4657	-80.785	-7.4489	125.96
2471000000	-6.1975	118.07	-2.0811	-84.291	-2.0811	-85.588	-6.1975	120.47
2538250000	-5.0333	110.76	-2.4259	-87.906	-2.4259	-89.507	-5.0333	115.19
2605500000	-4.0998	102.38	-3.3127	-91.836	-3.3127	-93.087	-4.0998	107.08
2672750000	-3.246	91.965	-3.9761	-96.058	-3.9761	-96.287	-3.246	94.772
2740000000	-2.7073	77.617	-5.0749	-100.29	-5.0749	-100.62	-2.7073	76.91
2807250000	-2.0888	54.862	-5.8822	-105	-5.8822	-105.82	-2.0888	43.813
2874500000	-1.7609	17.179	-7.2027	-110.06	-7.2027	-110.51	-1.7609	-12.014
2941750000	-1.3788	-28.198	-8.3932	-115.44	-8.3932	-115.61	-1.3788	-48.032
3009000000	-1.1787	-59.601	-9.6881	-121.19	-9.6881	-121.74	-1.1787	-66.128
3076250000	-0.925	-80.005	-11.1794	-127.46	-11.1794	-127.95	-0.925	-80.942
3143500000	-0.8392	-94.591	-12.7131	-133.97	-12.7131	-132.46	-0.8392	-93.844
3210750000	-0.7232	-107.31	-14.4973	-140.89	-14.4973	-139.7	-0.7232	-106.69
3278000000	-0.6343	-119.75	-16.2089	-147.94	-16.2089	-149.7	-0.6343	-119.12
3345250000	-0.5859	-131.48	-18.4553	-155.06	-18.4553	-159.57	-0.5859	-130.81
3412500000	-0.549	-142	-20.821	-163.88	-20.821	-162.73	-0.549	-141.64
3479750000	-0.5397	-151.92	-24.0174	-170.54	-24.0174	-168.2	-0.5397	-151.44
3547000000	-0.4862	-161.36	-27.4598	-178.07	-27.4598	179.24	-0.4862	-161.45
3614250000	-0.5313	-170.18	-33.0352	174.28	-33.0352	170.49	-0.5313	-169.96
3681500000	-0.4523	-178.32	-36.1139	167.72	-36.1139	161.42	-0.4523	-177.86
3748750000	-0.5422	174.86	-32.0646	160.27	-32.0646	161.13	-0.5422	175.2
3816000000	-0.4277	167.86	-28.2043	155.2	-28.2043	159.08	-0.4277	168.4
3883250000	-0.5672	161.85	-25.9812	149.38	-25.9812	146.58	-0.5672	162.69
3950500000	-0.4443	156.25	-23.921	144.28	-23.921	138.85	-0.4443	157.25
4017750000	-0.5721	150.72	-22.7527	139.44	-22.7527	134.12	-0.5721	152.13
4085000000	-0.4415	146.28	-21.5945	134.42	-21.5945	135.77	-0.4415	147.38
4152250000	-0.5838	141.49	-20.9019	131.36	-20.9019	133.85	-0.5838	142.81
4219500000	-0.4614	137.14	-19.9816	127.27	-19.9816	123.4	-0.4614	138.61
4286750000	-0.5761	133.31	-19.6049	122.99	-19.6049	118.28	-0.5761	134.22
4354000000	-0.4541	129.25	-18.9749	120.83	-18.9749	114.33	-0.4541	129.99
4421250000	-0.6422	125.7	-18.7313	117	-18.7313	115.5	-0.6422	126.47
4488500000	-0.4839	122.1	-18.1221	114.51	-18.1221	114.38	-0.4839	122.56
4555750000	-0.6036	118.63	-18.0395	111.52	-18.0395	107.1	-0.6036	119.21
4623000000	-0.501	115.52	-17.6291	108.54	-17.6291	107.59	-0.501	115.43
4690250000	-0.6732	112.23	-17.5799	108.03	-17.5799	105.56	-0.6732	112.76
4757500000	-0.512	109.26	-17.2412	106.21	-17.2412	104.1	-0.512	109.53
4824750000	-0.6389	106.25	-17.0963	104.69	-17.0963	108.54	-0.6389	106.75
4892000000	-0.5246	103.15	-16.9741	103.48	-16.9741	105.62	-0.5246	103.94
4959250000	-0.6965	100.52	-16.9883	104.84	-16.9883	105.22	-0.6965	100.79
5026500000	-0.5456	97.798	-16.7428	105.8	-16.7428	108.28	-0.5456	98.153
5093750000	-0.6729	94.956	-16.7552	118.46	-16.7552	116.89	-0.6729	95.15
5161000000	-0.5817	92.438	-16.6397	155.13	-16.6397	164.62	-0.5817	92.271
5228250000	-0.6995	89.885	-16.657	-126.94	-16.657	-130.41	-0.6995	89.773
5295500000	-0.5664	87.278	-16.5061	-108.67	-16.5061	-100.23	-0.5664	86.494
5362750000	-0.6995	84.777	-16.5551	-103.8	-16.5551	-103.82	-0.6995	84.196
5430000000	-0.5746	82.297	-16.5065	-93.796	-16.5065	-109.1	-0.5746	81.716
5497250000	-0.6786	79.882	-16.4311	-93.616	-16.4311	-101.2	-0.6786	78.798
5564500000	-0.5648	77.426	-16.451	-95.479	-16.451	-96.626	-0.5648	76.06
5631750000	-0.7067	75.13	-16.4538	-45.459	-16.4538	-61.473	-0.7067	73.689
5699000000	-0.6224	72.793	-16.434	64.541	-16.434	42.177	-0.6224	71.213
5766250000	-0.6834	70.539	-16.4156	65.702	-16.4156	63.719	-0.6834	68.958
5833500000	-0.6158	68.213	-16.4614	67.056	-16.4614	62.093	-0.6158	66.668
5900750000	-0.6885	65.963	-16.3926	67.97	-16.3926	62.974	-0.6885	64.241
5968000000	-0.6214	63.673	-16.4163	68.883	-16.4163	73.31	-0.6214	62.095
6035250000	-0.6834	61.434	-16.4268	69.513	-16.4268	73.354	-0.6834	60.401
6102500000	-0.6047	59.315	-16.5159	67.977	-16.5159	63.335	-0.6047	58.248
6169750000	-0.6879	57.106	-16.4681	68.195	-16.4681	63.254	-0.6879	56.102
6237000000	-0.6159	54.783	-16.4457	68.034	-16.4457	63.772	-0.6159	53.863
6304250000	-0.6618	52.847	-16.5216	67.563	-16.5216	64.435	-0.6618	51.762
6371500000	-0.6404	50.484	-16.7533	67.21	-16.7533	68.503	-0.6404	49.893
6438750000	-0.6224	48.521	-16.7727	66.426	-16.7727	66.191	-0.6224	47.238
6506000000	-0.6343	46.419	-16.7784	66.454	-16.7784	61.86	-0.6343	44.871
6573250000	-0.6622	44.212	-16.9473	66.18	-16.9473	60.513	-0.6622	42.722
6640500000	-0.6576	42.304	-17.1308	65.663	-17.1308	64.273	-0.6576	40.546
6707750000	-0.6385	40.143	-17.2615	64.895	-17.2615	67.554	-0.6385	38.279
6775000000	-0.6318	38.05	-17.2041	64.935	-17.2041	62.148	-0.6318	36.146
6842250000	-0.6429	36.149	-17.5309	64.829	-17.5309	59.755	-0.6429	34.247
6909500000	-0.6358	33.81	-17.7497	64.421	-17.7497	58.799	-0.6358	32.217
6976750000	-0.6256	32.01	-17.7438	63.122	-17.7438	56.7	-0.6256	30.398
7044000000	-0.6454	29.906	-17.9697	62.831	-17.9697	60.415	-0.6454	28.31
7111250000	-0.6179	27.867	-18.2509	63.066	-18.2509	58.6	-0.6179	26.827
7178500000	-0.6263	25.95	-18.3068	61.996	-18.3068	55.239	-0.6263	25.367
7245750000	-0.5927	23.698	-18.6728	61.71	-18.6728	56.391	-0.5927	23.404
7313000000	-0.6111	21.911	-18.6291	61.298	-18.6291	56.466	-0.6111	21.511
7380250000	-0.6088	19.899	-18.8717	60.458	-18.8717	57.892	-0.6088	19.784
7447500000	-0.622	17.829	-19.1881	60.275	-19.1881	56.651	-0.622	18.453
7514750000	-0.5743	16.052	-19.2025	59.233	-19.2025	56.212	-0.5743	16.567
7582000000	-0.5986	13.925	-19.2194	58.554	-19.2194	57.783	-0.5986	14.459
7649250000	-0.5871	11.993	-19.4464	57.693	-19.4464	54.491	-0.5871	12.375
7716500000	-0.5701	10.173	-19.3833	56.841	-19.3833	53.925	-0.5701	10.603
7783750000	-0.5603	7.9321	-19.495	56.172	-19.495	53.384	-0.5603	8.1354
7851000000	-0.554	6.2567	-19.572	55.617	-19.572	52.192	-0.554	5.5096
7918250000	-0.5464	4.2915	-19.4899	54.613	-19.4899	53.583	-0.5464	3.6324
7985500000	-0.531	2.3442	-19.3676	53.707	-19.3676	51.898	-0.531	2.141
8052750000	-0.5401	0.5918	-19.5451	53.087	-19.5451	48.866	-0.5401	0.4545
8120000000	-0.5543	-1.6054	-19.2746	52.026	-19.2746	47.869	-0.5543	-2.1259
8187250000	-0.5585	-3.2753	-19.4701	51.405	-19.4701	48.937	-0.5585	-4.1707
8254500000	-0.5379	-5.0647	-19.078	50.493	-19.078	51.167	-0.5379	-5.2927
8321750000	-0.4565	-7.3553	-19.1776	49.628	-19.1776	49.57	-0.4565	-6.3954
8389000000	-0.5522	-9.0404	-18.895	48.587	-18.895	46.452	-0.5522	-8.6682
8456250000	-0.5416	-10.835	-19.0429	47.694	-19.0429	45.522	-0.5416	-11.456
8523500000	-0.5156	-12.861	-18.547	46.659	-18.547	45.158	-0.5156	-12.408
8590750000	-0.5345	-14.3	-18.7972	45.019	-18.7972	46.301	-0.5345	-13.997
8658000000	-0.5378	-16.109	-18.3822	45.102	-18.3822	46.134	-0.5378	-16.138
8725250000	-0.5981	-18.333	-18.6269	44.5	-18.6269	42.299	-0.5981	-17.614
8792500000	-0.5225	-19.944	-17.8528	43.342	-17.8528	40.636	-0.5225	-20.344
8859750000	-0.4715	-22.21	-18.1968	41.777	-18.1968	40.553	-0.4715	-20.889
8927000000	-0.5545	-23.792	-17.7179	41.164	-17.7179	41.001	-0.5545	-22.997
8994250000	-0.5973	-25.782	-17.8491	40.537	-17.8491	40.725	-0.5973	-25.532
9061500000	-0.5392	-27.563	-17.0395	39.567	-17.0395	39.716	-0.5392	-27.312
9128750000	-0.5671	-29.007	-17.1115	39.451	-17.1115	38.885	-0.5671	-28.066
9196000000	-0.6294	-31.395	-16.5947	38.309	-16.5947	37.061	-0.6294	-29.309
9263250000	-0.734	-32.701	-16.3318	37.073	-16.3318	36.508	-0.734	-31.895
9330500000	-0.7422	-34.57	-15.2814	36.418	-15.2814	36.965	-0.7422	-34.037
9397750000	-0.8793	-36.624	-15.0037	35.923	-15.0037	35.888	-0.8793	-35.104
9465000000	-1.0476	-37.904	-13.7599	35.62	-13.7599	34.444	-1.0476	-36.156
9532250000	-1.4013	-40.226	-12.8564	34.218	-12.8564	33.609	-1.4013	-38.099
9599500000	-1.9301	-41.703	-11.2625	33.582	-11.2625	32.69	-1.9301	-41.203
9666750000	-3.0942	-43.375	-9.9344	33.232	-9.9344	32.149	-3.0942	-42.822
9734000000	-4.6831	-45.515	-8.723	32.054	-8.723	31.72	-4.6831	-43.702
9801250000	-4.9009	-47.013	-8.86	31.543	-8.86	31.447	-4.9009	-46.063
9868500000	-3.27	-48.814	-10.0239	31.75	-10.0239	29.806	-3.27	-49.64
9935750000	-2.1182	-50.69	-12.3434	30.174	-12.3434	28.076	-2.1182	-50.971
10003000000	-1.3985	-52.133	-13.942	29.432	-13.942	27.415	-1.3985	-51.623
