!	AVX THIN FILM OPERATION
!
!	LP0603 LOW PASS FILTERS
!	P/N LP0603A2140ALTR
!
!	Network	Analyzer	HP8720ES.07.64:	Feb	"23,"	2000	Serial	No.	US39172382
!	Hewlett-Packard								
!	2	Feb	2004	02:33:11					
!	Frequency	S11	S21	S12	S22
!
!				
#	HZ	S	DB	R	50				
50000000	-42.88	-79.81	0	-1.8677	0	-1.7715	-42.88	16.069	
117250000	-36.063	-90.78	-0.0086	-3.2574	-0.0086	-3.3591	-36.063	-112.5	
184500000	-32.457	-96.596	-0.0077	-4.8999	-0.0077	-4.8148	-32.457	-100.8	
251750000	-29.781	-101.03	0.0065	-6.4655	0.0065	-6.4119	-29.781	-105.07	
319000000	-27.592	-105.2	-0.0049	-8.0722	-0.0049	-8.0571	-27.592	-106.21	
386250000	-26.062	-108.86	-0.0207	-9.5499	-0.0207	-9.6391	-26.062	-112.4	
453500000	-24.783	-112.68	-0.044	-11.213	-0.044	-11.128	-24.783	-119.76	
520750000	-23.51	-116.29	-0.0454	-12.766	-0.0454	-12.799	-23.51	-119.62	
588000000	-22.55	-119.97	-0.0521	-14.351	-0.0521	-14.321	-22.55	-121.51	
655250000	-21.805	-123.82	-0.0661	-15.947	-0.0661	-16.202	-21.805	-123.89	
722500000	-21.016	-127.38	-0.0855	-17.647	-0.0855	-17.703	-21.016	-127.16	
789750000	-20.358	-130.84	-0.0752	-19.153	-0.0752	-19.13	-20.358	-129.85
857000000	-19.915	-134.48	-0.0975	-20.783	-0.0975	-20.733	-19.915	-132.49
924250000	-19.449	-138	-0.1042	-22.352	-0.1042	-22.581	-19.449	-135.45
991500000	-19.071	-141.7	-0.113	-24.114	-0.113	-24.133	-19.071	-139.34
1058750000	-18.868	-145.23	-0.1274	-25.803	-0.1274	-25.806	-18.868	-143.42
1126000000	-18.676	-148.88	-0.1435	-27.577	-0.1435	-27.544	-18.676	-147.81
1193250000	-18.568	-152.26	-0.1385	-29.279	-0.1385	-28.779	-18.568	-152.58
1260500000	-18.594	-155.72	-0.1801	-30.862	-0.1801	-30.41	-18.594	-157.28
1327750000	-18.652	-159.44	-0.1628	-32.588	-0.1628	-32.639	-18.652	-161.32
1395000000	-18.799	-163.06	-0.1644	-34.409	-0.1644	-34.354	-18.799	-165.26
1462250000	-19.164	-166.26	-0.1936	-36.145	-0.1936	-35.254	-19.164	-169.79
1529500000	-19.569	-170.31	-0.1937	-37.981	-0.1937	-37.24	-19.569	-174.15
1596750000	-20.081	-174.22	-0.2212	-39.825	-0.2212	-40.06	-20.081	-177.23
1664000000	-20.925	-177.69	-0.2097	-41.747	-0.2097	-41.39	-20.925	-179.89
1731250000	-21.854	178.42	-0.2362	-43.65	-0.2362	-43.448	-21.854	176.03
1798500000	-22.963	174.66	-0.2344	-45.571	-0.2344	-45.86	-22.963	172.55
1865750000	-24.251	170.96	-0.261	-47.579	-0.261	-47.439	-24.251	170.19
1933000000	-24.949	166.95	-0.2442	-49.554	-0.2442	-49.666	-24.949	167.98
2000250000	-24.479	163.04	-0.2717	-51.659	-0.2717	-52.23	-24.479	164.26
2067500000	-22.684	159.14	-0.3099	-53.745	-0.3099	-54.212	-22.684	159.6
2134750000	-20.275	155.17	-0.3214	-55.872	-0.3214	-55.897	-20.275	155.92
2202000000	-17.961	150.7	-0.4005	-58.175	-0.4005	-58.193	-17.961	152.9
2269250000	-15.777	146.2	-0.4532	-60.484	-0.4532	-61.718	-15.777	148.48
2336500000	-13.843	142.29	-0.5551	-62.754	-0.5551	-63.077	-13.843	143.97
2403750000	-12.149	137.53	-0.6723	-65.197	-0.6723	-64.806	-12.149	138.36
2471000000	-10.586	132.23	-0.9236	-67.769	-0.9236	-68.538	-10.586	134.56
2538250000	-9.1645	127.21	-1.0319	-70.313	-1.0319	-71.517	-9.1645	131.95
2605500000	-7.8805	121.87	-1.4134	-72.898	-1.4134	-74.281	-7.8805	127.1
2672750000	-6.7018	116.29	-1.6444	-75.813	-1.6444	-76.131	-6.7018	118.9
2740000000	-5.8156	109.8	-2.2513	-78.602	-2.2513	-78.743	-5.8156	111.28
2807250000	-4.8545	102.18	-2.5196	-81.686	-2.5196	-82.542	-4.8545	103.11
2874500000	-4.1585	94.039	-3.2463	-84.761	-3.2463	-85.42	-4.1585	91.719
2941750000	-3.4275	83.903	-3.7814	-87.97	-3.7814	-88.888	-3.4275	72.661
3009000000	-2.9737	71.767	-4.599	-91.629	-4.599	-91.627	-2.9737	54.535
3076250000	-2.4033	55.059	-5.2486	-95.216	-5.2486	-94.772	-2.4033	35.38
3143500000	-2.0862	31.676	-6.1438	-98.979	-6.1438	-99.226	-2.0862	12.703
3210750000	-1.7225	3.1984	-6.9808	-103.12	-6.9808	-103.31	-1.7225	-9.3727
3278000000	-1.5095	-24.729	-7.9417	-107.14	-7.9417	-107.32	-1.5095	-29.475
3345250000	-1.2738	-47.818	-8.9417	-111.6	-8.9417	-112.23	-1.2738	-49.613
3412500000	-1.1358	-65.716	-9.956	-116.24	-9.956	-116.8	-1.1358	-67.269
3479750000	-0.9804	-79.674	-11.2294	-121.19	-11.2294	-120.43	-0.9804	-80.347
3547000000	-0.8585	-91.586	-12.1208	-126.16	-12.1208	-125.9	-0.8585	-91.512
3614250000	-0.8007	-102.9	-13.5792	-131.81	-13.5792	-132.22	-0.8007	-104.03
3681500000	-0.715	-113.59	-14.7419	-137.08	-14.7419	-139.96	-0.715	-114.99
3748750000	-0.6959	-123.95	-16.3596	-143.49	-16.3596	-145.64	-0.6959	-124.46
3816000000	-0.5872	-133.3	-17.6173	-149.89	-17.6173	-146.64	-0.5872	-133.66
3883250000	-0.6475	-142.19	-19.6062	-155.73	-19.6062	-154.36	-0.6475	-141.77
3950500000	-0.5288	-151.52	-21.149	-162.81	-21.149	-164.72	-0.5288	-150.98
4017750000	-0.6207	-160.52	-23.5157	-169.1	-23.5157	-173.93	-0.6207	-159.08
4085000000	-0.5065	-168.19	-25.8785	-176.65	-25.8785	-177.73	-0.5065	-166.56
4152250000	-0.5954	-175.67	-29.0909	177.49	-29.0909	-178.34	-0.5954	-173.32
4219500000	-0.4778	177	-32.6236	171.5	-32.6236	171.46	-0.4778	179.6
4286750000	-0.5796	170.67	-37.1629	164.69	-37.1629	162	-0.5796	172.85
4354000000	-0.465	164.08	-37.2579	159.59	-37.2579	154.05	-0.465	166.51
4421250000	-0.6294	158.6	-33.8763	154.03	-33.8763	151.2	-0.6294	161.07
4488500000	-0.4624	153.35	-30.6391	148.94	-30.6391	149.74	-0.4624	155.31
4555750000	-0.5831	147.91	-28.7375	144.05	-28.7375	140.15	-0.5831	150.19
4623000000	-0.4807	143.61	-26.9861	139.31	-26.9861	136.98	-0.4807	145.08
4690250000	-0.6359	138.82	-25.8609	136.33	-25.8609	133.68	-0.6359	140.84
4757500000	-0.4861	134.65	-24.6752	131.74	-24.6752	127.99	-0.4861	136.47
4824750000	-0.6186	130.71	-23.9293	128.82	-23.9293	130.3	-0.6186	132.7
4892000000	-0.5191	126.52	-23.2691	125.97	-23.2691	127.06	-0.5191	128.68
4959250000	-0.6497	123.07	-22.8333	123.37	-22.8333	122.09	-0.6497	124.54
5026500000	-0.523	119.44	-22.1728	120.89	-22.1728	120.68	-0.523	120.8
5093750000	-0.6567	115.84	-21.8562	118.84	-21.8562	119.47	-0.6567	117.64
5161000000	-0.5463	112.75	-21.4337	117.77	-21.4337	116.56	-0.5463	113.59
5228250000	-0.6653	109.31	-21.222	116.36	-21.222	112.13	-0.6653	110.41
5295500000	-0.5483	106.26	-20.8291	116.12	-20.8291	119.4	-0.5483	106.64
5362750000	-0.6752	103.27	-20.6861	120.02	-20.6861	123.65	-0.6752	103.45
5430000000	-0.5386	100.17	-20.4285	133.53	-20.4285	128.53	-0.5386	100.54
5497250000	-0.6724	97.482	-20.2751	-142.42	-20.2751	-141.55	-0.6724	97.236
5564500000	-0.564	94.444	-20.098	-100.24	-20.098	-102.31	-0.564	94.031
5631750000	-0.6667	91.733	-19.9798	-94.11	-19.9798	-96.637	-0.6667	90.71
5699000000	-0.5857	89.03	-19.855	-91.652	-19.855	-89.951	-0.5857	87.785
5766250000	-0.6724	86.399	-19.7366	-90.912	-19.7366	-88.577	-0.6724	85.354
5833500000	-0.5815	83.831	-19.6894	-90.419	-19.6894	-94.643	-0.5815	82.871
5900750000	-0.6693	81.126	-19.5276	-92.115	-19.5276	-97.774	-0.6693	80.045
5968000000	-0.5881	78.615	-19.4923	-92.582	-19.4923	-89.596	-0.5881	77.401
6035250000	-0.6696	76.165	-19.4318	-92.236	-19.4318	-85.748	-0.6696	75.741
6102500000	-0.5951	73.714	-19.4529	-93.601	-19.4529	-95.944	-0.5951	73.295
6169750000	-0.6788	71.189	-19.3271	-93.421	-19.3271	-97.71	-0.6788	71.013
6237000000	-0.605	68.798	-19.2497	-94.694	-19.2497	-97.977	-0.605	68.494
6304250000	-0.6784	66.495	-19.2776	-95.065	-19.2776	-98.633	-0.6784	66.221
6371500000	-0.6282	64.052	-19.4723	-95.492	-19.4723	-93.44	-0.6282	64.043
6438750000	-0.6814	61.746	-19.4807	-95.919	-19.4807	-94.875	-0.6814	61.396
6506000000	-0.6013	59.446	-19.4594	-96.047	-19.4594	-100.13	-0.6013	58.841
6573250000	-0.6511	57.048	-19.5973	-96.082	-19.5973	-102.06	-0.6511	56.589
6640500000	-0.6335	54.921	-19.7618	-96.195	-19.7618	-97.87	-0.6335	54.259
6707750000	-0.6551	52.516	-19.8825	-96.283	-19.8825	-92.738	-0.6551	51.687
6775000000	-0.6415	50.43	-19.8021	-94.804	-19.8021	-97.615	-0.6415	49.2
6842250000	-0.6312	48.242	-20.1079	-94.743	-20.1079	-97.516	-0.6312	47.179
6909500000	-0.6566	45.894	-20.3377	-91.561	-20.3377	-96.744	-0.6566	45.174
6976750000	-0.6408	43.956	-20.3698	-89.359	-20.3698	-97.545	-0.6408	42.94
7044000000	-0.6658	41.627	-20.5877	-82.451	-20.5877	-80.303	-0.6658	40.656
7111250000	-0.6342	39.467	-20.9119	-46.343	-20.9119	-53.199	-0.6342	38.725
7178500000	-0.618	37.415	-20.9968	27.199	-20.9968	19.124	-0.618	37.113
7245750000	-0.6122	35.107	-21.3888	53.4	-21.3888	46.357	-0.6122	35.129
7313000000	-0.6238	33.18	-21.4031	61.506	-21.4031	53.27	-0.6238	32.838
7380250000	-0.5924	31.111	-21.6737	63.336	-21.6737	59.476	-0.5924	30.933
7447500000	-0.6252	28.851	-22.0881	65.933	-22.0881	59.102	-0.6252	29.472
7514750000	-0.589	26.866	-22.1665	65.04	-22.1665	60.261	-0.589	27.466
7582000000	-0.5939	24.734	-22.2634	64.645	-22.2634	63.568	-0.5939	25.325
7649250000	-0.5696	22.588	-22.5614	63.758	-22.5614	61.131	-0.5696	22.852
7716500000	-0.5818	20.716	-22.6013	63.717	-22.6013	60.341	-0.5818	21.362
7783750000	-0.5455	18.468	-22.782	63.865	-22.782	60.26	-0.5455	18.708
7851000000	-0.5339	16.668	-23	63.89	-23	58.854	-0.5339	16.121
7918250000	-0.5726	14.52	-23.0549	62.265	-23.0549	60.901	-0.5726	14.083
7985500000	-0.5243	12.439	-23.0546	61.834	-23.0546	59.529	-0.5243	12.487
8052750000	-0.5152	10.584	-23.3151	61.569	-23.3151	56.687	-0.5152	10.856
8120000000	-0.5601	8.4389	-23.2146	60.491	-23.2146	54.903	-0.5601	7.9967
8187250000	-0.5583	6.6302	-23.5241	60.158	-23.5241	56.114	-0.5583	5.5605
8254500000	-0.4994	4.7159	-23.287	58.977	-23.287	58.553	-0.4994	4.8944
8321750000	-0.4468	2.4527	-23.5266	58.346	-23.5266	57.794	-0.4468	3.5088
8389000000	-0.5219	0.6138	-23.463	56.975	-23.463	55.01	-0.5219	0.9791
8456250000	-0.5117	-1.2923	-23.8289	55.756	-23.8289	53.531	-0.5117	-1.4516
8523500000	-0.4979	-3.4607	-23.538	54.996	-23.538	52.798	-0.4979	-2.8098
8590750000	-0.4923	-4.9796	-24.0322	53.961	-24.0322	54.072	-0.4923	-4.4756
8658000000	-0.493	-7.2263	-23.8752	53.79	-23.8752	54.12	-0.493	-6.4215
8725250000	-0.5501	-9.1434	-24.3709	52.711	-24.3709	50.826	-0.5501	-8.3304
8792500000	-0.4919	-10.772	-23.9068	51.86	-23.9068	48.815	-0.4919	-11.071
8859750000	-0.4089	-13.09	-24.6008	50.283	-24.6008	48.031	-0.4089	-11.744
8927000000	-0.4565	-14.746	-24.5239	49.71	-24.5239	48.452	-0.4565	-13.802
8994250000	-0.5032	-16.727	-25.1311	48.956	-25.1311	48.561	-0.5032	-16.44
9061500000	-0.4397	-18.607	-24.8105	48.181	-24.8105	47.8	-0.4397	-18.382
9128750000	-0.4402	-20.182	-25.4675	47.921	-25.4675	46.862	-0.4402	-19.285
9196000000	-0.4618	-22.516	-25.5407	46.945	-25.5407	44.65	-0.4618	-20.311
9263250000	-0.5104	-23.956	-26.0718	45.628	-26.0718	43.522	-0.5104	-22.966
9330500000	-0.4765	-25.921	-25.7634	44.458	-25.7634	44.327	-0.4765	-25.345
9397750000	-0.445	-27.956	-26.5427	43.896	-26.5427	43.75	-0.445	-26.37
9465000000	-0.4444	-29.384	-26.4399	43.544	-26.4399	42.008	-0.4444	-27.213
9532250000	-0.5181	-31.698	-26.9274	42.259	-26.9274	40.982	-0.5181	-29.354
9599500000	-0.4073	-33.221	-26.6505	41.461	-26.6505	40.052	-0.4073	-32.765
9666750000	-0.4709	-34.921	-26.9694	41.06	-26.9694	39.389	-0.4709	-34.227
9734000000	-0.4459	-37.12	-26.6927	39.711	-26.6927	38.929	-0.4459	-34.993
9801250000	-0.5318	-38.721	-26.684	38.982	-26.684	38.665	-0.5318	-37.386
9868500000	-0.5093	-40.482	-26.1079	39.272	-26.1079	37.609	-0.5093	-41.197
9935750000	-0.5738	-42.396	-25.9134	37.676	-25.9134	35.213	-0.5738	-42.803
10003000000	-0.5073	-43.951	-24.964	36.65	-24.964	33.949	-0.5073	-43.13
