!
! AVX THIN FILM OPERATION
!
! 0805 Size Low Pass Filter P/N  LP0805A1907AWTR
!
! Network Analyzer HP8720ES.07.64: Feb 23, 2000 Serial No. US39172382
! Hewlett-Packard
!  2 Feb 2003  04:16:59
! Frequency       S11                S21                S12                S22
# HZ  S  DB R  50 
50000000  -40.767   -85.285   -.0014   -2.0297    .0063   -2.0091   -41.761    14.757   
100000000  -34.929   -93.488   -.0279   -3.5555   -.0057   -3.837   -33.682   -94.048   
150000000  -31.312   -97.494   -.0367   -5.6676    .0005   -5.6442   -31.854   -103.59   
200000000  -28.728   -102.22   -.0123   -7.6286   -.0486   -7.5188   -29.437   -102.24   
250000000  -26.714   -106.2   -.0252   -9.2065   -.0339   -9.451   -27.107   -108.57   
300000000  -25.114   -110.2   -.0474   -11.034   -.0429   -11.313   -25.259   -112.93   
350000000  -23.779   -114.22   -.0423   -13.248   -.0832   -13.075   -23.547   -118.88   
400000000  -22.599   -118.04   -.0570   -14.816   -.0717   -15.014   -22.243   -120.88   
450000000  -21.553   -121.86   -.0718   -16.731   -.0576   -16.696   -21.044   -122.72   
500000000  -20.619   -126   -.0814   -18.648   -.0569   -18.883   -20.117   -125.98   
550000000  -19.788   -129.7   -.0868   -20.487   -.0971   -20.663   -19.471   -128.82   
600000000  -19.015   -133.36   -.1022   -22.339   -.0901   -22.19   -18.722   -131.75   
650000000  -18.287   -137.26   -.1113   -24.137   -.0511   -24.239   -18.113   -134.8   
700000000  -17.651   -141.09   -.1183   -26.145   -.0756   -26.268   -17.636   -138.11   
750000000  -17.047   -145.02   -.0984   -28.082   -.1072   -28.11   -17.245   -142.37   
800000000  -16.501   -148.7   -.1342   -30.057   -.0971   -30.072   -16.993   -146.57   
850000000  -15.99   -152.55   -.1051   -32.028   -.1457   -32.108   -16.466   -151.57   
900000000  -15.509   -156.31   -.1439   -34.051   -.1524   -33.57   -15.935   -156.38   
950000000  -15.022   -160.11   -.1230   -35.843   -.0917   -35.571   -15.475   -161.1   
1000000000  -14.64   -164.23   -.1074   -38.167   -.1062   -38.16   -15.157   -165.31   
1050000000  -14.286   -167.93   -.1298   -40.119   -.2268   -40.17   -14.774   -169.77   
1100000000  -13.908   -171.6   -.1488   -42.161   -.1868   -41.221   -14.22   -174.54   
1150000000  -13.521   -176.05   -.1095   -44.405   -.0033   -43.802   -13.72   -178.95   
1200000000  -13.305    179.81   -.1383   -46.553   -.1102   -47.024   -13.376    177.7   
1250000000  -13.046    176.03   -.1406   -48.921   -.1787   -48.593   -13.186    174.43   
1300000000  -12.81    171.61   -.1346   -51.17   -.0676   -51.14   -12.927    169.94   
1350000000  -12.653    167.6   -.1301   -53.505   -.1569   -53.961   -12.561    166.5   
1400000000  -12.481    163.28   -.1450   -55.951   -.1720   -55.903   -12.364    163.76   
1450000000  -12.377    158.73   -.1185   -58.37   -.1209   -58.679   -12.397    160.61   
1500000000  -12.331    154.22   -.1284   -61.063   -.1720   -61.718   -12.539    156.5   
1550000000  -12.301    149.75   -.1542   -63.608   -.1932   -64.083   -12.598    151.53   
1600000000  -12.303    145.12   -.1506   -66.232   -.1768   -66.271   -12.495    147.17   
1650000000  -12.348    139.86   -.1099   -68.928   -.0275   -69.252   -12.672    143.45   
1700000000  -12.584    134.58   -.1645   -71.923   -.1286   -73.205   -13.161    138.39   
1750000000  -12.777    129.33   -.1425   -74.794   -.2462   -75.127   -13.545    132.67   
1800000000  -13.015    123.01   -.1113   -77.934    .0196   -77.893   -13.705    126.09   
1850000000  -13.543    116.12   -.1228   -81.333    .0183   -82.399   -14.23    120.59   
1900000000  -14.151    109.08   -.1352   -84.493   -.0783   -86.033   -15.267    115.99   
1950000000  -14.95    100.61   -.1350   -88.164   -.1638   -89.415   -16.83    108.5   
2000000000  -15.947    90.595   -.1592   -91.962   -.1751   -92.302   -18.458    94.772   
2050000000  -17.201    77.087   -.1697   -95.79   -.0934   -96.194   -20.369    78.05   
2100000000  -18.792    58.363   -.1793   -100.11   -.1689   -100.78   -22.854    49.764   
2150000000  -20.132    31.352   -.2302   -104.49   -.2356   -104.97   -23.284    2.7507   
2200000000  -19.922   -3.5706   -.2807   -109.18   -.2859   -109.5   -19.679   -32.822   
2250000000  -17.84   -35.894   -.3785   -114.17   -.3999   -114.67   -16.565   -50.459   
2300000000  -15.048   -59.556   -.5210   -119.71   -.5830   -120.12   -13.975   -66.147   
2350000000  -12.425   -76.494   -.6099   -125.17   -.7440   -124.47   -11.73   -79.489   
2400000000  -10.056   -90.17   -.8276   -131.22   -.6554   -130.17   -9.6626   -91.673   
2450000000  -8.0604   -103.01   -1.1317   -137.42   -.7901   -138.37   -7.9905   -104.17   
2500000000  -6.3665   -115.11   -1.3197   -143.69   -1.4175   -147.26   -6.4656   -116.09   
2550000000  -5.0777   -126.02   -1.8045   -151.52   -2.2501   -151.45   -5.1707   -127.4   
2600000000  -3.9108   -136.06   -2.2492   -157.85   -2.0822   -155.51   -4.0007   -137.05   
2650000000  -2.9182   -145.98   -2.8167   -165.01   -2.3213   -166.45   -3.0573   -147.14   
2700000000  -2.2701   -155.69   -3.5954   -172.54   -3.2599   -175.54   -2.2545   -156.74   
2750000000  -1.6867   -164.84   -4.2202   -179.27   -4.4438    174.63   -1.6046   -165.52   
2800000000  -1.2862   -172.51   -5.2826    172.81   -6.0397    172.7   -1.2439   -173.21   
2850000000  -.9591    179.7   -6.3026    166.95   -6.0406    171.25   -.7910    179.4   
2900000000  -.6183    172.71   -7.2722    160.69   -6.5079    158.87   -.4690    172.62   
2950000000  -.5335    166.27   -8.5876    154.64   -8.2201    149.79   -.3059    166.4   
3000000000  -.3614    160   -9.6308    149.34   -10.025    143.99   -.1713    160.73   
3050000000  -.2433    154.86   -11.125    143.57   -11.696    144.31   -.1051    155.49   
3100000000  -.2231    149.42   -12.464    139.66   -11.944    142.79   -.0421    150.43   
3150000000  -.0926    144.47   -13.766    134.95   -12.956    132.04   -.0194    145.47   
3200000000  -.0939    140.2   -15.371    130.34   -14.88    125.72   -.0169    140.66   
3250000000  -.0609    135.57   -16.764    127.33   -16.798    120.84    .0403    136.16   
3300000000   .0164    131.56   -18.356    122.94   -18.83    121.39    .0497    132.18   
3350000000  -.0382    127.66   -20.012    120   -19.734    119.9    .0507    127.86   
3400000000  -.0070    123.8   -21.749    116.65   -21.58    112.09    .0245    124.23   
3450000000   .0127    120.44   -23.651    113.29   -23.909    111.82    .0453    120.34   
3500000000  -.0294    116.74   -25.328    111.8   -25.523    109.32    .0689    117.06   
3550000000  -.0023    113.55   -27.58    108.94   -28.225    106.64    .0343    113.73   
3600000000  -.0166    110.32   -29.938    107.15   -30.325    110.28    .0016    110.7   
3650000000  -.0075    106.91   -32.146    105.39   -32.071    106.74   -.0385    107.58   
3700000000  -.0383    104.12   -34.797    104.32   -34.998    103.96   -.1265    104.07   
3750000000  -.0520    101.05   -37.839    103.8   -38.057    104.55   -.0958    101.09   
3800000000  -.0709    98.201   -41.681    104.45   -41.731    104.48   -.1670    98.141   
3850000000  -.1026    95.444   -46.081    107.03   -45.916    107.7   -.2339    95.095   
3900000000  -.0964    92.749   -53.739    118.13   -53.457    112.44   -.2435    92.258   
3950000000  -.1440    90.004   -61.999   -157.89   -61.355   -161.08   -.3118    88.823   
4000000000  -.1502    87.366   -55.235   -113.52   -53.453   -109.35   -.2799    86.173   
4050000000  -.1861    84.622   -51.062   -102.49   -50.416   -109.33   -.3152    83.554   
4100000000  -.2024    82.124   -49.034   -98.88   -50   -104.02   -.3530    80.836   
4150000000  -.2269    79.644   -48.478   -98.793   -48.828   -98.764   -.4535    77.856   
4200000000  -.2639    77.142   -48.602   -97.91   -49.129   -99.489   -.3705    75.145   
4250000000  -.2972    74.74   -49.441   -96.989   -50.236   -96.198   -.3700    72.541   
4300000000  -.3232    72.309   -51.413   -90.78   -50.742   -91.686   -.3901    70.306   
4350000000  -.3490    69.869   -53.877   -85.74   -53.584   -95.131   -.4353    67.879   
4400000000  -.3898    67.496   -59.897   -77.385   -60.581   -80.803   -.4017    65.37   
4450000000  -.4191    65.141   -62.704   -3.9455   -62.803    11.453   -.3922    63.004   
4500000000  -.4622    62.809   -55.986    45.993   -54.253    53.372   -.4516    61.201   
4550000000  -.4962    60.635   -50.427    59.203   -49.254    54.241   -.5214    59.003   
4600000000  -.5469    58.322   -46.814    61.636   -46.428    56.224   -.6135    56.762   
4650000000  -.5566    55.89   -44.323    62.151   -43.984    58.137   -.6248    54.522   
4700000000  -.6149    53.867   -42.302    64.774   -42.368    61.098   -.6783    52.427   
4750000000  -.6595    51.386   -40.283    65.202   -40.524    66.282   -.8199    50.389   
4800000000  -.6799    49.462   -38.715    65.076   -38.301    64.372   -.8684    47.682   
4850000000  -.7474    47.295   -37.675    64.778   -36.976    59.837   -.8799    45.225   
4900000000  -.7830    44.942   -36.236    64.738   -36.264    58.973   -.9074    43.22   
4950000000  -.8167    42.915   -35.257    63.365   -35.763    62.915   -.9638    40.902   
5000000000  -.8949    40.691   -34.272    64.259   -34.059    66.344   -1.043    38.382   
5050000000  -.8929    38.635   -33.361    64.096   -32.657    60.868   -1.0161    36.109   
5100000000  -.9432    36.696   -32.682    63.439   -32.333    58.696   -1.0346    34.298   
5150000000  -.9989    34.266   -31.745    63.493   -31.474    57.464   -1.074    32.395   
5200000000  -1.0183    32.423   -31.024    62.18   -31.425    55.423   -1.1542    30.273   
5250000000  -1.1053    30.243   -30.548    62.478   -30.913    59.453   -1.1142    28.063   
5300000000  -1.1279    28.147   -29.749    62.338   -29.824    57.678   -1.1714    26.57   
5350000000  -1.1695    26.179   -29.174    60.808   -29.517    54.934   -1.222    25.068   
5400000000  -1.2414    23.952   -28.609    61.019   -29.114    55.443   -1.3288    23.031   
5450000000  -1.2727    22.039   -28.038    60.474   -28.835    55.275   -1.3504    20.867   
5500000000  -1.3332    20.097   -27.549    59.748   -28.415    57.052   -1.3794    19.208   
5550000000  -1.3733    17.872   -26.953    59.22   -27.68    55.809   -1.4859    18.013   
5600000000  -1.3933    15.886   -26.532    58.114   -27.422    55.291   -1.7135    15.948   
5650000000  -1.5194    13.916   -26.134    57.346   -26.543    56.836   -1.7915    13.486   
5700000000  -1.5148    11.845   -25.602    56.702   -25.934    53.58   -1.8447    11.591   
5750000000  -1.5674    10.048   -25.188    55.752   -25.901    52.95   -1.8943    10.063   
5800000000  -1.6362    7.7824   -24.806    55.269   -25.361    52.445   -2.1187    7.3567   
5850000000  -1.6328    6.0411   -24.371    54.542   -25.14    51.283   -2.1673    4.6541   
5900000000  -1.7428    4.0498   -24.113    53.451   -24.805    52.56   -2.0466    2.634   
5950000000  -1.7446    1.9405   -23.683    52.685   -24.142    50.71   -2.0886    1.2634   
6000000000  -1.8068    .3076   -23.449    51.805   -23.957    48.049   -2.2687   -.4710   
6050000000  -1.857   -1.9102   -23.104    50.799   -23.865    46.905   -2.3304   -3.5143   
6100000000  -1.8696   -3.6708   -22.729    50.03   -23.841    47.999   -2.2605   -5.7156   
6150000000  -1.9668   -5.4547   -22.604    49.254   -23.447    50.002   -2.2173   -6.4682   
6200000000  -2.0226   -7.7975   -22.35    48.036   -22.773    48.41   -2.3912   -7.8539   
6250000000  -2.0342   -9.4826   -22.114    47.009   -22.504    45.422   -2.5871   -10.426   
6300000000  -2.1166   -11.402   -21.845    46.145   -22.39    44.403   -2.5348   -12.675   
6350000000  -2.1184   -13.412   -21.481    45.17   -22.451    44.143   -2.4448   -14.009   
6400000000  -2.1638   -14.729   -21.307    43.562   -22.266    44.841   -2.582   -15.646   
6450000000  -2.1778   -16.463   -21.068    43.763   -21.558    45.206   -2.7046   -17.452   
6500000000  -2.2417   -18.898   -21.046    42.785   -21.286    41.064   -2.8741   -19.497   
6550000000  -2.3832   -20.539   -20.812    41.535   -21.388    39.282   -2.785   -22.091   
6600000000  -2.4082   -22.92   -20.507    40.106   -21.508    39.153   -2.7857   -22.749   
6650000000  -2.4287   -24.408   -20.475    39.293   -21.363    39.703   -2.9851   -24.858   
6700000000  -2.5326   -26.344   -20.378    38.581   -21.072    39.522   -3.0988   -27.408   
6750000000  -2.531   -28.209   -20.221    37.84   -20.81    38.348   -2.9328   -29.666   
6800000000  -2.6357   -29.765   -20.176    37.56   -20.651    37.406   -2.9874   -30.092   
6850000000  -2.6682   -32.028   -19.843    36.406   -20.71    35.678   -3.2106   -31.075   
6900000000  -2.7294   -33.398   -19.794    35.089   -20.779    35.252   -3.366   -34.052   
6950000000  -2.805   -35.306   -19.797    34.383   -20.52    35.578   -3.3356   -36.378   
7000000000  -2.8323   -37.358   -19.641    33.854   -20.219    34.321   -3.2768   -37.264   
7050000000  -2.8961   -38.643   -19.567    33.488   -20.18    32.889   -3.5386   -38.235   
7100000000  -2.9892   -40.946   -19.395    32.164   -20.188    32.237   -3.7759   -40.523   
7150000000  -3.0054   -42.443   -19.395    31.587   -20.059    31.267   -3.7946   -43.86   
7200000000  -3.099   -44.076   -19.376    31.211   -19.964    30.594   -3.7053   -45.176   
7250000000  -3.1402   -46.261   -19.166    30   -19.968    30.296   -3.8443   -46.155   
7300000000  -3.203   -47.758   -19.29    29.31   -19.821    30.049   -4.1709   -48.687   
7350000000  -3.3176   -49.602   -19.111    29.438   -19.508    28.427   -4.1505   -52.563   
7400000000  -3.3537   -51.394   -18.994    27.982   -19.448    26.548   -4.0742   -53.895   
7450000000  -3.4407   -52.91   -19.077    27.102   -19.563    25.808   -4.0559   -54.37   
7500000000  -3.5366   -55.099   -18.992    26.639   -19.59    25.606   -4.3838   -56.471   
7550000000  -3.572   -56.58   -18.966    26.274   -19.424    24.449   -4.5409   -59.957   
7600000000  -3.7173   -58.296   -18.964    25.42   -19.363    23.656   -4.3433   -62.455   
7650000000  -3.7749   -60.226   -18.918    24.527   -19.261    23.739   -4.2656   -62.875   
7700000000  -3.8637   -61.599   -19.013    24.553   -19.179    23.669   -4.5483   -63.828   
7750000000  -3.9745   -63.872   -18.833    23.57   -19.127    21.738   -4.7745   -66.378   
7800000000  -4.0174   -65.189   -18.951    22.47   -19.218    20.355   -4.7227   -69.416   
7850000000  -4.1831   -67.206   -19.07    22.6   -19.327    22   -4.6317   -70.135   
7900000000  -4.264   -69.119   -18.949    22.21   -19.055    22.823   -4.8549   -70.542   
7950000000  -4.3308   -70.594   -18.982    21.364   -19.112    20.518   -5.1878   -72.572   
8000000000  -4.4777   -72.723   -19.072    21.139   -19.226    20.115   -5.2868   -76.001   
8050000000  -4.5595   -74.474   -19.049    20.694   -19.137    18.875   -5.2507   -78.024   
8100000000  -4.7048   -76.218   -19.133    19.946   -19.396    17.781   -5.3987   -78.387   
8150000000  -4.8354   -78.298   -19.184    19.391   -19.801    18.247   -5.8405   -80.336   
8200000000  -4.9134   -80.272   -19.273    19.358   -19.893    19.254   -6.1098   -84.107   
8250000000  -5.0784   -81.782   -19.271    20.167   -19.603    18.084   -6.1244   -87.352   
8300000000  -5.2178   -84.342   -19.293    18.353   -19.79    14.61   -6.2334   -88.967   
8350000000  -5.2988   -85.978   -19.491    18.066   -20.541    14.138   -6.5899   -90.949   
8400000000  -5.5024   -88.222   -19.654    18.491   -20.874    17.331   -6.8398   -95.202   
8450000000  -5.5816   -90.423   -19.665    18.502   -20.645    16.631   -6.8104   -99.495   
8500000000  -5.781   -92.457   -19.99    18.48   -20.85    16.301   -6.8171   -101.83   
8550000000  -5.8957   -95.008   -20.086    18.291   -20.928    15.504   -7.0615   -103.93   
8600000000  -6.0234   -97.105   -20.43    17.619   -21.549    14.013   -7.3879   -107.66   
8650000000  -6.2121   -99.411   -21.02    18.815   -22.434    16.271   -7.3968   -113.27   
8700000000  -6.3078   -102.44   -21.724    20.83   -23.07    20.925   -7.3101   -117.07   
8750000000  -6.566   -104.82   -22.997    26.886   -23.66    27.591   -7.5629   -120.01   
8800000000  -6.7409   -108.49   -24.242    40.209   -24.704    40.243   -8.0411   -125.73   
8850000000  -7.0557   -111.48   -23.248    70.873   -23.843    71.625   -8.7118   -134.34   
8900000000  -7.6944   -114.85   -18.009    83.959   -17.955    85.8   -10.553   -141.9   
8950000000  -8.3413   -113.56   -13.807    68.611   -13.123    65.814   -14.164   -124.69   
9000000000  -8.112   -111.64   -12.702    48.72   -12.421    40.088   -11.702   -105.19   
9050000000  -7.8847   -114.07   -12.749    35.222   -12.98    26.252   -9.856   -112.31   
9100000000  -7.7976   -117.44   -12.969    27.109   -14.127    15.77   -8.9448   -120.03   
9150000000  -7.8487   -120.28   -13.494    20.745   -15.146    14.328   -8.5617   -124.09   
9200000000  -7.8889   -123.71   -13.747    16.714   -15.057    15.801   -8.6369   -127.48   
9250000000  -7.9189   -126.62   -13.988    13.289   -14.904    12.11   -8.7229   -133.41   
9300000000  -7.9996   -130.13   -14.026    10.308   -14.93    7.104   -8.4411   -138.94   
9350000000  -8.0895   -133.71   -14.178    6.5369   -15.682    2.8249   -8.1714   -142.41   
9400000000  -8.122   -136.39   -14.591    4.0759   -16.015    5.5399   -8.2204   -144.3   
9450000000  -8.2143   -139.95   -14.694    1.6782   -15.426    3.9523   -8.3967   -148.06   
9500000000  -8.1926   -143.17   -14.821   -1.1632   -15.7   -.3817   -8.2873   -152.97   
9550000000  -8.3189   -146.43   -15.132   -3.1091   -15.726   -1.2401   -8.076   -155.99   
9600000000  -8.2986   -150.07   -15.223   -5.4945   -15.948   -5.8736   -8.0669   -158.02   
9650000000  -8.2992   -152.97   -15.628   -8.5803   -16.542   -4.0814   -8.2459   -161.77   
9700000000  -8.306   -156.61   -15.815   -9.7682   -16.066   -3.6392   -8.2467   -166.34   
9750000000  -8.2489   -159.94   -15.912   -12.06   -16.259   -8.8165   -7.997   -169.73   
9800000000  -8.2503   -163.12   -16.192   -13.777   -16.481   -10.48   -7.9822   -171.96   
9850000000  -8.1893   -166.57   -16.366   -16.161   -16.642   -12.81   -8.0391   -175.8   
9900000000  -8.1133   -169.72   -16.803   -18.281   -16.808   -12.961   -8.0388    179.73   
9950000000  -8.0506   -173.04   -16.985   -19.832   -16.683   -17.066   -7.719    175.86   
10000000000  -7.9298   -176.32   -17.152   -22.173   -17.408   -20.863   -7.4561    173.32   
10050000000  -7.8502   -179.27   -17.621   -23.741   -17.355   -18.956   -7.43    170.6   

