!
! AVX THIN FILM OPERATION
!
! 0805 Size Low Pass Filter P/N  LP0805A1950AWTR
!
! Network Analyzer HP8720ES.07.64: Feb 23, 2000 Serial No. US39172382
! Hewlett-Packard
!  2 Feb 2003  04:20:02
! Frequency       S11                S21                S12                S22
# HZ  S  DB R  50 
50000000  -42.159   -81.646   -.0232   -1.9295   -.0167   -1.8951   -46.867   -6.9942   
100000000  -34.952   -92.591   -.0258   -3.6131   -.0065   -3.7038   -34.446   -92.45   
150000000  -31.416   -97.912   -.0412   -5.6209   -.0126   -5.349   -32.272   -105.58   
200000000  -28.937   -101.33   -.0131   -7.3444   -.0436   -7.3512   -29.148   -102.86   
250000000  -26.951   -105.71   -.0367   -9.1571   -.0576   -9.2711   -27.587   -108.5   
300000000  -25.34   -109.43   -.0517   -10.681   -.0546   -10.938   -25.365   -113.8   
350000000  -23.945   -113.55   -.0405   -12.865   -.0667   -12.766   -23.664   -119.64   
400000000  -22.779   -117.29   -.0760   -14.561   -.0678   -14.635   -22.332   -121.59   
450000000  -21.726   -121.01   -.0802   -16.33   -.0683   -16.364   -21.212   -123.1   
500000000  -20.79   -125.06   -.0729   -18.169   -.0580   -18.476   -20.314   -125.67   
550000000  -19.964   -128.63   -.0872   -20.027   -.1036   -20.183   -19.59   -129.49   
600000000  -19.19   -132.38   -.1090   -21.971   -.0966   -21.804   -18.882   -131.77   
650000000  -18.44   -136.17   -.0899   -23.692   -.0527   -23.669   -18.299   -135.32   
700000000  -17.829   -139.9   -.1239   -25.491   -.0766   -25.679   -17.815   -138.75   
750000000  -17.221   -143.7   -.1120   -27.458   -.0978   -27.484   -17.382   -142.67   
800000000  -16.673   -147.4   -.1245   -29.486   -.0983   -29.52   -17.066   -147.27   
850000000  -16.155   -151.13   -.1078   -31.4   -.1500   -31.393   -16.609   -151.82   
900000000  -15.666   -154.8   -.1232   -33.344   -.1524   -32.82   -16.063   -156.4   
950000000  -15.161   -158.41   -.1323   -35.155   -.0867   -34.747   -15.573   -161.41   
1000000000  -14.77   -162.38   -.1146   -37.212   -.0935   -37.326   -15.22   -165.95   
1050000000  -14.421   -166   -.1297   -39.297   -.2153   -39.238   -14.879   -170.32   
1100000000  -14.022   -169.49   -.1312   -41.317   -.1810   -40.232   -14.267   -174.88   
1150000000  -13.638   -173.91   -.1101   -43.437   -.0066   -42.713   -13.762   -179.23   
1200000000  -13.398   -177.91   -.1321   -45.497   -.1051   -45.898   -13.436    177.49   
1250000000  -13.133    178.45   -.1333   -47.756   -.1807   -47.432   -13.199    174.23   
1300000000  -12.891    174.12   -.1505   -49.993   -.0705   -49.844   -12.955    169.66   
1350000000  -12.737    170.19   -.1436   -52.354   -.1621   -52.677   -12.589    166.21   
1400000000  -12.547    166.18   -.1458   -54.579   -.1787   -54.503   -12.323    163.42   
1450000000  -12.398    161.83   -.1282   -56.894   -.1180   -57.207   -12.357    160.31   
1500000000  -12.344    157.53   -.1270   -59.509   -.1831   -60.116   -12.455    156.31   
1550000000  -12.293    153.27   -.1701   -61.981   -.2118   -62.438   -12.472    151.46   
1600000000  -12.255    148.89   -.1471   -64.381   -.1925   -64.495   -12.346    147.12   
1650000000  -12.292    143.76   -.1199   -67.305   -.0372   -67.437   -12.46    143.08   
1700000000  -12.463    138.9   -.1644   -70.06   -.1351   -71.294   -12.899    138.24   
1750000000  -12.616    134.17   -.1505   -72.826   -.2463   -73.04   -13.197    132.62   
1800000000  -12.803    128.22   -.1113   -75.899    .0090   -75.674   -13.253    126.12   
1850000000  -13.249    122.12   -.1395   -79.016    .0167   -80.126   -13.677    120.88   
1900000000  -13.772    115.78   -.1392   -82.22   -.0796   -83.603   -14.545    116.37   
1950000000  -14.468    108.73   -.1608   -85.596   -.1571   -86.887   -15.747    108.9   
2000000000  -15.323    100.39   -.1745   -89.366   -.1950   -89.474   -17.053    97.56   
2050000000  -16.425    89.775   -.1625   -92.944   -.0848   -93.161   -18.368    83.757   
2100000000  -17.974    75.869   -.1773   -97.009   -.1513   -97.645   -20.337    64.122   
2150000000  -19.836    56.245   -.2361   -101.1   -.2244   -101.62   -22.096    30.903   
2200000000  -21.259    25.065   -.2783   -105.52   -.2711   -106.02   -20.597   -7.3004   
2250000000  -20.67   -13.775   -.3388   -110.41   -.3834   -110.55   -17.954   -31.134   
2300000000  -17.953   -45.753   -.4572   -115.32   -.5051   -115.6   -15.52   -50.398   
2350000000  -14.897   -67.007   -.5541   -120.8   -.6094   -120.14   -13.232   -66.728   
2400000000  -12.13   -82.421   -.7207   -126.39   -.5865   -125.64   -11.078   -80.6   
2450000000  -9.7985   -95.887   -.9624   -132.28   -.6807   -132.94   -9.3037   -94.301   
2500000000  -7.8383   -108.12   -1.1282   -138.17   -1.1541   -141.23   -7.6057   -106.95   
2550000000  -6.3041   -119.36   -1.532   -145.64   -1.9027   -145.86   -6.1663   -118.84   
2600000000  -4.9442   -129.42   -1.9144   -151.73   -1.7477   -149.67   -4.803   -129.03   
2650000000  -3.7633   -139.44   -2.3735   -158.72   -1.9321   -159.95   -3.7412   -139.84   
2700000000  -2.9427   -149.35   -3.0815   -166.24   -2.7138   -168.9   -2.8394   -149.83   
2750000000  -2.214   -158.79   -3.6022   -173.07   -3.744   -178.78   -2.0417   -159.28   
2800000000  -1.7351   -166.89   -4.5699    179.12   -5.2891    178.31   -1.5655   -167.33   
2850000000  -1.325   -174.88   -5.5069    172.98   -5.3114    176.96   -1.0086   -175.03   
2900000000  -.9114    177.75   -6.407    166.53   -5.6579    165.08   -.6610    177.42   
2950000000  -.7678    170.96   -7.6835    160.05   -7.2751    155.51   -.4573    170.82   
3000000000  -.5870    164.35   -8.6932    154.32   -9.0309    148.73   -.2030    164.67   
3050000000  -.4121    158.98   -10.082    148.14   -10.71    148.85   -.1459    159.06   
3100000000  -.3731    153.35   -11.442    144.13   -10.963    147.31   -.0715    153.9   
3150000000  -.2094    148.25   -12.673    139.13   -11.882    136.54   -.0449    148.51   
3200000000  -.1974    143.75   -14.276    134.34   -13.781    129.91   -.0381    143.46   
3250000000  -.1742    138.9   -15.673    130.98   -15.68    124.64    .0379    138.65   
3300000000  -.0866    134.88   -17.253    126.26   -17.694    124.65    .0464    134.58   
3350000000  -.1175    130.82   -18.887    123.1   -18.628    123.3    .0531    130.02   
3400000000  -.0720    126.82   -20.602    119.53   -20.412    115.19    .0372    126.03   
3450000000  -.0595    123.41   -22.527    115.99   -22.778    114.47    .0582    122.09   
3500000000  -.0898    119.65   -24.214    114.34   -24.393    111.87    .0822    118.81   
3550000000  -.0507    116.36   -26.435    111.34   -27.064    108.64    .0638    115.27   
3600000000  -.0845    113.08   -28.83    109.22   -29.252    112.25    .0583    112.18   
3650000000  -.0510    109.65   -31.085    107.07   -31.084    108.77    .0044    108.88   
3700000000  -.0882    106.78   -33.863    106.14   -34.042    104.91   -.1017    105.44   
3750000000  -.0971    103.81   -37.119    104.64   -37.424    105.09   -.1198    102.46   
3800000000  -.1064    100.71   -41.417    104.35   -41.575    105.68   -.1171    99.224   
3850000000  -.1216    97.984   -47.067    106.03   -47.104    105.76   -.1944    96.051   
3900000000  -.1364    95.169   -59.778    122.59   -61.439    136.7   -.2577    93.249   
3950000000  -.1667    92.435   -54.321   -94.488   -54.979   -95.841   -.2388    89.831   
4000000000  -.1961    89.804   -48.123   -92.325   -47.221   -89.077   -.2655    87.137   
4050000000  -.2058    87.045   -45.67   -89.099   -44.966   -98.199   -.3026    84.571   
4100000000  -.2289    84.523   -43.798   -88.966   -44.719   -94.709   -.3292    81.767   
4150000000  -.2560    82.018   -43.226   -88.988   -43.594   -91.107   -.3796    78.665   
4200000000  -.2909    79.444   -42.588   -88.325   -43.437   -90.309   -.3531    75.898   
4250000000  -.3197    76.974   -43.078   -89.419   -43.289   -86.597   -.3665    73.464   
4300000000  -.3400    74.555   -43.566   -88.941   -42.959   -86.784   -.3941    71.11   
4350000000  -.3696    72.12   -44.374   -86.531   -43.49   -91.6   -.4173    68.681   
4400000000  -.3998    69.773   -45.426   -83.981   -46.004   -89.403   -.4223    65.965   
4450000000  -.4479    67.376   -47.447   -82.168   -47.801   -75.313   -.3713    63.57   
4500000000  -.4740    64.929   -49.005   -69.7   -48.353   -65.084   -.4538    61.885   
4550000000  -.5164    62.775   -52.18   -52.557   -50.614   -59.089   -.5359    59.999   
4600000000  -.5701    60.425   -53.323   -17.165   -53.287   -20.661   -.5862    57.498   
4650000000  -.5724    58.055   -51.835    16.588   -51.761    12.02   -.6294    55.265   
4700000000  -.6238    55.923   -48.606    35.755   -48.671    34.034   -.6591    52.984   
4750000000  -.6721    53.421   -45.585    47.499   -45.455    49.297   -.7818    51.027   
4800000000  -.6798    51.415   -43.213    52.173   -42.374    51.64   -.8502    48.304   
4850000000  -.7365    49.257   -41.297    56.12   -40.63    49.892   -.8575    45.829   
4900000000  -.7794    46.921   -39.382    57.697   -39.549    50.709   -.8922    43.804   
4950000000  -.8184    44.915   -38.169    57.835   -38.501    56.125   -.9532    41.479   
5000000000  -.8886    42.613   -36.793    58.988   -36.442    61.272   -1.0262    38.979   
5050000000  -.8944    40.574   -35.591    59.231   -34.866    56.243   -.9974    36.615   
5100000000  -.9539    38.573   -34.616    59.73   -34.336    54.877   -1.0065    34.954   
5150000000  -.9924    36.156   -33.546    60.275   -33.305    53.998   -1.0486    32.855   
5200000000  -1.0342    34.316   -32.614    59.058   -33.025    53.052   -1.136    30.861   
5250000000  -1.1116    32.018   -32.05    59.691   -32.454    56.702   -1.114    28.718   
5300000000  -1.1397    29.979   -31.165    59.991   -31.255    55.481   -1.1307    27.065   
5350000000  -1.1646    28.041   -30.461    59.057   -30.892    52.611   -1.2085    25.613   
5400000000  -1.2454    25.74   -29.835    59.447   -30.352    53.674   -1.3191    23.573   
5450000000  -1.2589    23.791   -29.186    59.071   -29.997    53.845   -1.3221    21.495   
5500000000  -1.3427    21.804   -28.612    58.517   -29.537    55.727   -1.3694    20.028   
5550000000  -1.382    19.579   -27.948    57.972   -28.744    54.318   -1.4696    18.563   
5600000000  -1.4068    17.654   -27.464    57.045   -28.385    54.27   -1.6814    16.626   
5650000000  -1.5024    15.569   -27.061    56.581   -27.522    55.903   -1.759    14.194   
5700000000  -1.5073    13.472   -26.44    55.872   -26.814    52.704   -1.8035    12.107   
5750000000  -1.566    11.635   -25.996    55.161   -26.752    52.169   -1.8766    10.462   
5800000000  -1.6335    9.3974   -25.554    54.425   -26.192    51.807   -2.066    8.0379   
5850000000  -1.6509    7.5998   -25.141    53.797   -25.93    50.528   -2.1332    5.224   
5900000000  -1.7392    5.6442   -24.811    52.771   -25.571    52.136   -2.026    3.3   
5950000000  -1.7575    3.495   -24.371    52.086   -24.862    50.412   -2.0648    1.9775   
6000000000  -1.8041    1.7537   -24.107    51.551   -24.633    47.608   -2.2184    .3433   
6050000000  -1.857   -.4847   -23.742    50.574   -24.472    46.592   -2.2897   -2.7493   
6100000000  -1.8874   -2.2426   -23.324    49.769   -24.45    47.633   -2.2057   -4.9644   
6150000000  -1.9731   -4.0622   -23.183    48.86   -24.063    49.671   -2.1623   -5.9766   
6200000000  -2.0242   -6.3748   -22.921    47.951   -23.317    48.201   -2.378   -6.7744   
6250000000  -2.0389   -8.1079   -22.638    46.942   -23.055    45.157   -2.5055   -9.3906   
6300000000  -2.1301   -10.002   -22.377    46.012   -22.909    44.205   -2.4962   -12.159   
6350000000  -2.1405   -12.058   -21.975    45.023   -22.955    43.735   -2.3754   -13.129   
6400000000  -2.1677   -13.428   -21.757    43.796   -22.765    44.927   -2.5751   -14.417   
6450000000  -2.2332   -15.19   -21.55    44.095   -22.034    44.786   -2.7304   -16.701   
6500000000  -2.2731   -17.728   -21.511    42.8   -21.687    41.067   -2.764   -18.321   
6550000000  -2.3929   -19.337   -21.259    41.797   -21.811    39.441   -2.7321   -21.184   
6600000000  -2.4224   -21.75   -20.919    40.364   -21.889    39.262   -2.7442   -21.682   
6650000000  -2.4487   -23.283   -20.855    39.654   -21.781    39.602   -2.9291   -23.606   
6700000000  -2.5549   -25.237   -20.773    38.866   -21.456    39.488   -3.0424   -26.267   
6750000000  -2.5462   -27.21   -20.573    38.175   -21.197    38.386   -2.8843   -28.536   
6800000000  -2.6637   -28.732   -20.542    37.945   -21.033    37.704   -2.94   -29.115   
6850000000  -2.6893   -31.078   -20.206    36.799   -21.074    35.837   -3.1595   -30.053   
6900000000  -2.7428   -32.522   -20.122    35.587   -21.105    35.365   -3.3007   -32.775   
6950000000  -2.847   -34.448   -20.11    34.816   -20.854    35.607   -3.2666   -35.051   
7000000000  -2.8662   -36.513   -19.951    34.214   -20.551    34.446   -3.1838   -36.017   
7050000000  -2.9285   -37.906   -19.865    33.916   -20.495    33.067   -3.4653   -36.998   
7100000000  -3.0229   -40.181   -19.69    32.701   -20.496    32.336   -3.7118   -39.036   
7150000000  -3.0429   -41.69   -19.686    32.062   -20.342    31.431   -3.7237   -42.428   
7200000000  -3.1488   -43.45   -19.645    31.823   -20.236    30.852   -3.6616   -43.797   
7250000000  -3.1871   -45.618   -19.425    30.601   -20.226    30.35   -3.7628   -44.599   
7300000000  -3.2401   -47.197   -19.533    29.96   -20.081    29.969   -4.0915   -46.961   
7350000000  -3.3538   -49.047   -19.349    30.184   -19.763    28.522   -4.0771   -50.852   
7400000000  -3.397   -50.907   -19.234    28.527   -19.698    26.723   -3.9688   -52.28   
7450000000  -3.4903   -52.461   -19.309    27.885   -19.785    26.043   -4.0097   -52.512   
7500000000  -3.5841   -54.689   -19.214    27.511   -19.803    25.689   -4.3037   -54.583   
7550000000  -3.6321   -56.176   -19.176    27.002   -19.624    24.651   -4.4605   -58.035   
7600000000  -3.7719   -57.983   -19.189    26.36   -19.545    23.614   -4.2747   -60.507   
7650000000  -3.8376   -60.036   -19.139    25.248   -19.47    23.847   -4.1724   -61.015   
7700000000  -3.9293   -61.378   -19.212    25.571   -19.351    23.74   -4.4566   -61.658   
7750000000  -4.0329   -63.721   -19.009    24.659   -19.299    21.909   -4.6911   -64.162   
7800000000  -4.0948   -65.235   -19.134    23.483   -19.396    20.506   -4.6185   -67.341   
7850000000  -4.2555   -67.206   -19.23    23.555   -19.473    22.011   -4.5479   -67.788   
7900000000  -4.3239   -69.199   -19.101    23.264   -19.202    22.81   -4.7587   -68.037   
7950000000  -4.4053   -70.694   -19.128    22.526   -19.246    20.664   -5.1135   -69.92   
8000000000  -4.5701   -72.861   -19.193    22.31   -19.336    20.288   -5.2151   -73.379   
8050000000  -4.6608   -74.853   -19.167    22.059   -19.232    19.001   -5.1604   -75.118   
8100000000  -4.8029   -76.568   -19.233    21.382   -19.478    17.787   -5.303   -75.406   
8150000000  -4.9317   -78.729   -19.267    20.866   -19.851    18.331   -5.7424   -77.264   
8200000000  -5.0188   -80.75   -19.339    20.995   -19.921    19.122   -5.9966   -80.622   
8250000000  -5.1845   -82.345   -19.324    21.936   -19.631    17.934   -5.9816   -83.651   
8300000000  -5.3314   -84.983   -19.317    20.208   -19.766    14.546   -6.1184   -85.023   
8350000000  -5.4147   -86.711   -19.485    20.153   -20.469    14.078   -6.4338   -87.005   
8400000000  -5.6425   -89.103   -19.589    20.65   -20.737    17.221   -6.7125   -90.803   
8450000000  -5.7284   -91.369   -19.53    20.976   -20.428    16.286   -6.7235   -94.68   
8500000000  -5.9207   -93.653   -19.758    21.044   -20.573    15.809   -6.6979   -96.718   
8550000000  -6.08   -96.237   -19.774    21.068   -20.524    14.874   -6.9278   -98.369   
8600000000  -6.1996   -98.51   -19.885    20.735   -20.978    13.384   -7.2412   -101.79   
8650000000  -6.4033   -101.05   -20.169    21.584   -21.527    14.641   -7.2526   -106.43   
8700000000  -6.5294   -104.08   -20.437    22.808   -21.725    17.239   -7.1427   -108.8   
8750000000  -6.7957   -106.66   -20.876    25.171   -21.699    19.116   -7.2801   -110.26   
8800000000  -6.9838   -110.37   -21.258    27.175   -22.111    18.982   -7.5964   -113.55   
8850000000  -7.257   -113.44   -21.97    33.805   -23.472    25.407   -7.7521   -118.4   
8900000000  -7.7222   -117.64   -22.365    48.399   -23.819    43.296   -7.8632   -122.2   
8950000000  -8.3659   -121.43   -20.456    67.673   -21.677    62.152   -8.2462   -125   
9000000000  -9.5048   -121.94   -16.505    72.252   -17.857    66.929   -9.119   -127.86   
9050000000  -10.137   -115.17   -13.386    58.629   -14.718    54.786   -9.7607   -128.21   
9100000000  -9.24   -111.77   -12.351    41.759   -13.913    35.119   -9.3513   -126.91   
9150000000  -8.6034   -114.75   -12.676    29.023   -14.65    24.63   -8.8323   -127.03   
9200000000  -8.3199   -119.31   -13.064    21.415   -14.748    22.758   -8.7982   -128.84   
9250000000  -8.1922   -123.3   -13.51    16.385   -14.591    17.233   -8.8151   -133.84   
9300000000  -8.1852   -127.6   -13.66    12.287   -14.629    10.717   -8.4957   -138.81   
9350000000  -8.2135   -131.76   -13.869    8.1134   -15.407    4.9205   -8.2242   -141.94   
9400000000  -8.2381   -135.01   -14.361    5.246   -15.859    7.0381   -8.278   -143.51   
9450000000  -8.2973   -138.93   -14.522    2.8235   -15.309    5.1265   -8.4374   -146.95   
9500000000  -8.2579   -142.55   -14.682   -.0823   -15.576    .6852   -8.3403   -151.9   
9550000000  -8.3612   -146.12   -14.981   -2.0654   -15.654   -.6468   -8.1433   -154.68   
9600000000  -8.3325   -150.01   -15.039   -4.6637   -15.887   -5.6277   -8.1404   -156.62   
9650000000  -8.3123   -153.04   -15.494   -7.7042   -16.482   -4.6376   -8.4094   -160.19   
9700000000  -8.3337   -156.88   -15.722   -9.1859   -16.084   -4.2531   -8.333   -164.53   
9750000000  -8.2636   -160.29   -15.869   -11.153   -16.298   -9.3233   -8.137   -168.04   
9800000000  -8.2478   -163.59   -16.149   -12.884   -16.558   -11.115   -8.1387   -170.25   
9850000000  -8.1768   -167.25   -16.355   -15.305   -16.714   -13.737   -8.2336   -174.02   
9900000000  -8.0761   -170.43   -16.736   -17.211   -16.884   -13.567   -8.2146   -178.49   
9950000000  -8.0127   -173.92   -16.873   -18.914   -16.739   -17.875   -7.8979    177.52   
10000000000  -7.8964   -177.2   -17.059   -21.342   -17.478   -21.778   -7.6225    175.06   
10050000000  -7.787    179.77   -17.503   -23.184   -17.453   -20.251   -7.5762    172.33   

