!
! AVX THIN FILM OPERATION
!
! 0805 Size Low Pass Filter P/N  LP0805A0965AWTR
!
! Network Analyzer HP8720ES.07.64: Feb 23, 2000 Serial No. US39172382
! Hewlett-Packard
!  2 Feb 2003  02:49:11
! Frequency       S11                S21                S12                S22
# HZ  S  DB R  50 
50000000  -35.326   -87.856   -.0136   -3.4923    .0022   -3.2437   -34.231   -18.659   
100000000  -29.666   -94.988   -.0210   -6.2251   -.0206   -6.3789   -29.421   -98.871   
150000000  -26.059   -101.27   -.0491   -9.554   -.0414   -9.2052   -26.334   -103.69   
200000000  -23.605   -106.75   -.0344   -12.681   -.0558   -12.575   -23.667   -107.02   
250000000  -21.781   -112.44   -.0848   -15.698   -.0802   -15.808   -21.801   -114.1   
300000000  -20.336   -117.47   -.0885   -18.818   -.0999   -19.016   -20.41   -119.5   
350000000  -19.195   -122.8   -.1003   -22.317   -.144   -22.15   -18.964   -126.27   
400000000  -18.275   -128.07   -.1276   -25.391   -.1288   -25.458   -17.859   -130.19   
450000000  -17.541   -133.41   -.1394   -28.691   -.1230   -28.762   -17.055   -133.54   
500000000  -16.975   -139.01   -.1411   -32.136   -.1482   -32.574   -16.62   -138.7   
550000000  -16.604   -144.71   -.1602   -35.62   -.1830   -35.865   -16.365   -143.38   
600000000  -16.349   -150.53   -.1779   -39.268   -.1511   -39.195   -16.195   -148.73   
650000000  -16.282   -156.91   -.1717   -43.077   -.1007   -43.278   -16.312   -153.98   
700000000  -16.463   -163.46   -.1757   -47.177   -.1457   -47.455   -16.823   -160.56   
750000000  -16.94   -170.75   -.1598   -51.497   -.1603   -51.443   -17.568   -169.04   
800000000  -17.779   -179.09   -.1694   -56.004   -.1424   -56.128   -18.846   -178.92   
850000000  -19.185    170.74   -.1327   -60.984   -.1703   -61.004   -20.537    167.92   
900000000  -21.584    156.55   -.1463   -66.395   -.1619   -66.075   -23.241    145.9   
950000000  -25.78    127.71   -.1719   -72.315   -.1473   -72.175   -25.875    103.3   
1000000000  -27.508    51.785   -.2138   -78.9   -.2256   -78.952   -24.047    42.001   
1050000000  -20.58    1.869   -.3105   -86.208   -.3333   -86.2   -18.72    6.3611   
1100000000  -15.22   -20.22   -.5149   -94.355   -.5583   -94.716   -14.452   -13.995   
1150000000  -11.343   -36.08   -.8266   -103.4   -.9909   -103.07   -11.151   -31.63   
1200000000  -8.2735   -50.558   -1.2952   -113.07   -1.3363   -112.89   -8.3503   -48.112   
1250000000  -5.9391   -65.141   -2.0778   -123.49   -2.1602   -124.17   -6.0436   -63.758   
1300000000  -4.208   -79.178   -3.0205   -134.13   -3.1394   -133.15   -4.3226   -78.08   
1350000000  -2.9055   -92.593   -4.2858   -144.22   -4.1956   -144.65   -3.0374   -92.019   
1400000000  -2.0342   -105.28   -5.8216   -154.35   -5.881   -154.92   -2.1511   -105.31   
1450000000  -1.4216   -116.66   -7.5018   -163.15   -7.4618   -163.15   -1.4601   -116.84   
1500000000  -1.0531   -126.53   -9.5277   -171.2   -9.3112   -173.29   -.9929   -126.83   
1550000000  -.8026   -135.66   -11.648   -178.62   -11.651    179.24   -.7233   -135.8   
1600000000  -.6091   -143.57   -14.097    175.28   -14.272    174.68   -.5591   -143.76   
1650000000  -.5457   -150.48   -16.673    170.39   -16.432    170.97   -.3998   -150.71   
1700000000  -.4266   -156.95   -19.526    165.58   -19.209    162.34   -.3222   -157.21   
1750000000  -.4015   -162.63   -23.027    162.55   -23.288    160.43   -.2794   -162.74   
1800000000  -.3772   -168.09   -27.074    161.29   -26.877    163.27   -.1768   -168.75   
1850000000  -.3132   -172.86   -32.63    163.62   -32.096    162.87   -.0662   -173.14   
1900000000  -.3223   -177.33   -42.164   -169.4   -41.743   -171.29    .0116   -177.62   
1950000000  -.2803    177.95   -41.255   -74.855   -40.582   -76.286   -.0076    178.49   
2000000000  -.2282    174.15   -35.147   -57.666   -35.034   -58.184    .0514    174.93   
2050000000  -.2656    170.17   -32.446   -53.746   -31.709   -53.403    .0282    170.95   
2100000000  -.2158    166.4   -30.752   -53.767   -30.185   -57.627   -.0190    167.9   
2150000000  -.2071    163.17   -30.184   -55.673   -29.652   -58.597   -.0701    164.8   
2200000000  -.2078    159.48   -29.569   -57.393   -29.439   -62.163   -.1099    161.46   
2250000000  -.1457    156.38   -29.671   -58.254   -30.299   -60.947   -.1533    158.09   
2300000000  -.1760    153.3   -29.941   -59.491   -30.137   -54.351   -.2159    154.66   
2350000000  -.1358    150.07   -30.355   -61.276   -29.541   -60.676   -.2422    151.2   
2400000000  -.1403    147.31   -31.313   -63.189   -30.814   -68.104   -.1968    147.84   
2450000000  -.1239    144.36   -32.359   -63.609   -32.81   -69.917   -.2117    144.64   
2500000000  -.1177    141.48   -33.695   -66.302   -34.983   -65.871   -.2170    142.12   
2550000000  -.1395    138.81   -36.056   -66.676   -36.084   -62.063   -.2242    138.62   
2600000000  -.0962    136.01   -38.802   -66.059   -38.504   -67.977   -.2139    135.58   
2650000000  -.0847    133.46   -43.998   -65.752   -44.431   -70.571   -.1520    132.92   
2700000000  -.0955    130.96   -57.609   -37.119   -57.991   -19.994   -.0643    130.22   
2750000000  -.0798    128.34   -46.606    93.281   -47.256    90.699   -.0642    127.73   
2800000000  -.0785    125.94   -40.112    96.239   -40.117    100.34   -.1030    125.12   
2850000000  -.0852    123.5   -35.926    96.958   -35.055    98.313   -.0323    122.6   
2900000000  -.0539    121.1   -33.231    95.64   -32.728    90.599    .0015    120.7   
2950000000  -.0808    118.7   -31.223    95.008   -31.331    89.474   -.0061    118.49   
3000000000  -.0684    116.4   -29.412    93.845   -30.132    90.461   -.0560    116.25   
3050000000  -.0874    114.19   -28.249    92.379   -28.529    95.129   -.1048    113.79   
3100000000  -.0941    111.95   -26.969    92.248   -26.144    91.776   -.0787    111.45   
3150000000  -.0892    109.68   -25.882    89.606   -25.314    84.364   -.1218    109.37   
3200000000  -.0985    107.54   -25.054    88.338   -24.961    82.809   -.1595    106.87   
3250000000  -.1057    105.31   -24.186    88.216   -24.538    81.878   -.1559    104.45   
3300000000  -.1242    103.09   -23.568    85.827   -23.937    85.431   -.1600    102.37   
3350000000  -.1250    101.08   -22.887    84.626   -22.514    83.621   -.1396    99.838   
3400000000  -.1392    98.952   -22.316    83.437   -22.345    78.493   -.2025    98.027   
3450000000  -.1612    96.816   -21.871    82.251   -22.158    80.858   -.1746    95.714   
3500000000  -.1702    94.743   -21.199    81.874   -21.435    78.896   -.1575    93.869   
3550000000  -.1907    92.727   -20.991    79.798   -21.626    78.845   -.1865    91.964   
3600000000  -.2019    90.629   -20.611    79.299   -20.91    82.869   -.2645    89.967   
3650000000  -.2080    88.532   -20.17    78.835   -20.058    79.074   -.3070    87.591   
3700000000  -.2612    86.499   -19.922    77.341   -20.04    76.653   -.3626    85.288   
3750000000  -.2637    84.541   -19.65    76.775   -19.801    77.061   -.3351    83.629   
3800000000  -.2975    82.393   -19.481    76.046   -19.483    76.562   -.4293    81.514   
3850000000  -.3277    80.372   -19.24    75.293   -19.191    73.405   -.4984    79.019   
3900000000  -.3305    78.398   -19.111    74.505   -19.73    71.388   -.5015    76.782   
3950000000  -.3938    76.219   -19.251    73.821   -19.478    77.635   -.5009    74.369   
4000000000  -.4088    74.037   -19.063    73.667   -18.254    73.231   -.5529    72.328   
4050000000  -.4557    71.849   -19.439    73.184   -19.378    64.973   -.6120    70.019   
4100000000  -.4897    69.403   -19.696    73.323   -20.634    70.547   -.6679    67.094   
4150000000  -.5235    66.816   -20.527    74.103   -21.045    73.808   -.6916    64.491   
4200000000  -.6671    63.692   -22.416    79.305   -23.021    80.072   -.7884    61.42   
4250000000  -.9264    59.212   -25.74    111.94   -25.721    118.44   -1.0636    57.452   
4300000000  -2.131    54.09   -16.982    165.52   -15.983    163.74   -2.1751    53.23   
4350000000  -3.2975    69.809   -8.9671    126.57   -8.5723    121.4   -3.2389    66.048   
4400000000  -1.4306    69.833   -9.5341    91.677   -10.062    86.387   -1.4897    67.121   
4450000000  -.9914    65.256   -11.17    80.563   -11.659    84.537   -.9906    62.858   
4500000000  -.9083    61.886   -11.702    77.351   -10.765    81.826   -.9092    59.954   
4550000000  -.8782    59.361   -12.111    74.564   -10.989    69.862   -.9103    57.507   
4600000000  -.9182    56.97   -12.366    72.909   -12.088    68.496   -.9679    55.07   
4650000000  -.9074    54.726   -12.403    71.661   -12.212    67.839   -.9733    53.074   
4700000000  -.9482    52.822   -12.556    70.781   -12.81    68.041   -1.0373    50.992   
4750000000  -.9813    50.78   -12.481    70.354   -12.539    72.223   -1.1514    48.896   
4800000000  -.9940    48.779   -12.356    69.274   -11.865    69.137   -1.1624    46.909   
4850000000  -1.0657    46.972   -12.544    69.156   -11.939    65.223   -1.2132    44.857   
4900000000  -1.0883    45.056   -12.24    69.244   -12.374    63.717   -1.2453    42.87   
4950000000  -1.1326    43.393   -12.237    68.397   -12.726    67.523   -1.28    40.913   
5000000000  -1.1994    41.428   -12.187    68.119   -11.958    70.84   -1.3274    38.866   
5050000000  -1.2151    39.651   -11.993    67.827   -11.336    65.636   -1.3438    36.954   
5100000000  -1.2616    38.05   -12.013    67.755   -11.659    63.561   -1.3758    35.391   
5150000000  -1.3101    35.958   -11.735    67.997   -11.448    62.441   -1.3842    33.43   
5200000000  -1.3409    34.527   -11.573    66.617   -11.903    60.355   -1.4412    31.924   
5250000000  -1.4268    32.668   -11.649    66.6   -11.948    64.02   -1.4264    30.288   
5300000000  -1.4611    30.884   -11.381    66.993   -11.384    62.746   -1.4806    28.819   
5350000000  -1.4812    29.334   -11.222    65.965   -11.559    59.56   -1.5387    27.377   
5400000000  -1.5511    27.283   -11.105    65.836   -11.607    60.467   -1.578    25.832   
5450000000  -1.5853    25.752   -10.928    65.54   -11.663    60.29   -1.597    24.379   
5500000000  -1.6492    24.167   -10.834    65.26   -11.631    62.11   -1.6568    22.876   
5550000000  -1.6806    22.243   -10.632    64.725   -11.276    60.844   -1.7569    21.714   
5600000000  -1.7344    20.616   -10.516    63.688   -11.329    60.658   -1.9227    20.11   
5650000000  -1.8256    18.918   -10.412    63.598   -10.846    62.669   -2.0363    18.419   
5700000000  -1.8523    17.121   -10.156    63.173   -10.451    60.017   -2.1311    16.71   
5750000000  -1.9084    15.596   -10.051    62.566   -10.68    59.464   -2.1629    14.936   
5800000000  -1.9688    13.747   -9.9026    62.1   -10.402    59.093   -2.311    12.894   
5850000000  -1.981    12.225   -9.6957    61.691   -10.377    57.886   -2.339    10.835   
5900000000  -2.0914    10.632   -9.6557    60.838   -10.291    59.858   -2.3071    9.3864   
5950000000  -2.0995    8.8756   -9.4377    60.374   -9.8376    58.635   -2.3582    7.8374   
6000000000  -2.1688    7.4583   -9.3671    59.972   -9.7962    55.933   -2.4237    6.2979   
6050000000  -2.2298    5.555   -9.2256    59.134   -9.8138    54.896   -2.5276    4.2339   
6100000000  -2.2458    3.9661   -9.0114    58.416   -9.9931    55.746   -2.5061    2.1561   
6150000000  -2.3529    2.6367   -9.0331    57.886   -9.8581    58.145   -2.4596    1.5683   
6200000000  -2.4111    .6605   -8.8841    57.253   -9.3394    57.544   -2.6362    .7951   
6250000000  -2.4318   -.7869   -8.8041    56.856   -9.1745    54.804   -2.7545   -1.181   
6300000000  -2.5203   -2.3318   -8.7056    56.398   -9.1401    53.796   -2.8064   -3.3591   
6350000000  -2.5466   -4.124   -8.4694    55.456   -9.2943    53.204   -2.7407   -4.4206   
6400000000  -2.6342   -5.0551   -8.4081    55.029   -9.2946    54.205   -2.822   -5.8749   
6450000000  -2.7761   -7.2839   -8.379    54.978   -8.9622    55.775   -2.9489   -6.817   
6500000000  -2.6866   -8.8962   -8.3894    53.766   -8.544    52.311   -3.1222   -8.9236   
6550000000  -2.8141   -10.136   -8.2768    53.367   -8.5921    50.625   -3.0544   -11.153   
6600000000  -2.848   -12.068   -8.0525    52.101   -8.8162    50.166   -3.0716   -11.985   
6650000000  -2.8799   -13.427   -8.0724    51.445   -8.8634    50.365   -3.2214   -13.361   
6700000000  -2.9576   -14.985   -8.0144    51.185   -8.6917    50.58   -3.3367   -15.252   
6750000000  -3.0003   -16.561   -7.9294    50.462   -8.4487    50.408   -3.2306   -16.957   
6800000000  -3.1094   -17.839   -7.9703    50.459   -8.3589    49.952   -3.2493   -17.77   
6850000000  -3.1504   -19.792   -7.7208    49.86   -8.3809    47.682   -3.3768   -18.64   
6900000000  -3.2042   -20.97   -7.7217    48.877   -8.539    46.614   -3.55   -20.579   
6950000000  -3.309   -22.554   -7.7365    48.165   -8.5449    47.69   -3.5721   -22.245   
7000000000  -3.3447   -24.144   -7.6366    47.977   -8.2336    48.374   -3.474   -22.864   
7050000000  -3.3986   -25.367   -7.6145    47.859   -8.0848    46.663   -3.6845   -23.732   
7100000000  -3.5034   -27.25   -7.4889    46.916   -8.1108    45.589   -3.9246   -24.984   
7150000000  -3.5356   -28.514   -7.484    46.417   -8.006    45.037   -4.0104   -27.651   
7200000000  -3.6377   -29.84   -7.5097    46.316   -7.9787    44.835   -3.9727   -29.163   
7250000000  -3.6802   -31.616   -7.3273    45.332   -8.0034    44.561   -4.0365   -29.474   
7300000000  -3.7561   -32.908   -7.4472    44.789   -7.9005    44.797   -4.3461   -31.098   
7350000000  -3.8626   -34.339   -7.323    45.17   -7.4565    44.438   -4.4175   -34.093   
7400000000  -3.9016   -35.873   -7.1925    44.021   -7.2331    41.637   -4.3395   -35.556   
7450000000  -3.9953   -37.182   -7.2711    43.535   -7.5942    40.264   -4.3325   -35.891   
7500000000  -4.0979   -38.883   -7.2195    43.164   -7.6864    40.986   -4.6165   -36.865   
7550000000  -4.1442   -40.044   -7.1782    42.994   -7.3489    40.369   -4.8282   -39.427   
7600000000  -4.2737   -41.484   -7.1716    42.472   -7.3197    39.563   -4.7464   -41.811   
7650000000  -4.348   -43.106   -7.1251    41.602   -7.3219    40.347   -4.6384   -42.248   
7700000000  -4.4584   -44.124   -7.1972    41.725   -7.1821    40.843   -4.8247   -42.26   
7750000000  -4.5414   -45.88   -7.0185    41.438   -6.9243    38.408   -5.0964   -43.727   
7800000000  -4.6205   -47.046   -7.077    40.193   -7.0827    36.568   -5.1774   -46.666   
7850000000  -4.7735   -48.58   -7.172    40.56   -7.381    39.165   -5.1255   -47.433   
7900000000  -4.8581   -49.863   -7.0443    40.393   -6.9816    41.071   -5.1921   -47.048   
7950000000  -4.9381   -51.156   -7.0286    39.743   -6.8476    37.649   -5.4787   -48.135   
8000000000  -5.0979   -52.675   -7.0977    39.735   -6.9592    37.45   -5.7024   -50.412   
8050000000  -5.179   -54.135   -7.031    39.549   -6.6764    36.877   -5.7093   -52.013   
8100000000  -5.3234   -55.484   -7.0246    39.045   -6.9272    34.417   -5.7473   -52.461   
8150000000  -5.491   -57.088   -7.0671    38.588   -7.388    34.401   -6.1265   -52.852   
8200000000  -5.6076   -58.417   -7.0375    38.952   -7.4412    36.428   -6.5226   -54.719   
8250000000  -5.762   -59.22   -7.048    39.71   -6.8532    37.005   -6.625   -56.927   
8300000000  -5.8625   -61.383   -6.9435    38.333   -6.6858    31.668   -6.6014   -58.092   
8350000000  -6.0543   -62.809   -6.9933    38.734   -7.5068    29.244   -7.0511   -58.781   
8400000000  -6.3344   -64.201   -7.0208    38.661   -7.9552    33.486   -7.4725   -60.142   
8450000000  -6.4057   -65.279   -6.8993    39.709   -7.3221    34.542   -7.5608   -63.033   
8500000000  -6.6098   -66.636   -6.9211    39.482   -7.2838    34.038   -7.653   -64.477   
8550000000  -6.7469   -68.073   -6.8332    39.85   -6.8783    33.672   -7.8045   -64.413   
8600000000  -6.864   -69.829   -6.6655    40.073   -6.9241    29.822   -8.2209   -66.61   
8650000000  -7.1745   -71.245   -6.6658    40.003   -7.4297    29.737   -8.6135   -70.13   
8700000000  -7.3855   -72.525   -6.5748    40.559   -7.4963    33.04   -8.7033   -71.757   
8750000000  -7.6215   -72.723   -6.5141    41.293   -6.9001    36.682   -8.7634   -70.634   
8800000000  -7.5597   -74.469   -6.3339    40.707   -5.7816    33.07   -8.7798   -71.783   
8850000000  -7.8361   -77.29   -6.1377    41.637   -6.3562    25.914   -9.1362   -77.061   
8900000000  -8.317   -78.517   -6.0747    40.938   -7.2965    29.366   -9.5893   -78.854   
8950000000  -8.4977   -78.431   -5.9766    41.705   -6.8133    34.478   -9.5694   -77.101   
9000000000  -8.6117   -79.772   -5.7407    41.744   -6.4329    32.625   -9.6864   -77.27   
9050000000  -8.7649   -80.969   -5.5884    40.757   -5.9672    33.578   -9.9379   -78.709   
9100000000  -8.8842   -83.833   -5.3194    41.905   -5.7886    27.567   -9.938   -83.246   
9150000000  -9.4298   -85.866   -5.1769    40.482   -6.6695    26.178   -10.348   -84.677   
9200000000  -9.8059   -85.665   -5.0622    39.751   -6.8509    32.373   -10.846   -80.961   
9250000000  -9.8631   -85.273   -4.8794    39.942   -6.1931    34.843   -11.157   -79.84   
9300000000  -9.7453   -86.62   -4.6591    38.797   -5.2943    35.015   -10.905   -82.608   
9350000000  -9.8668   -91.446   -4.3904    39.039   -5.0475    27.53   -10.709   -88.559   
9400000000  -10.534   -93.043   -4.2297    37.4   -5.9386    26.906   -11.482   -88.764   
9450000000  -10.666   -92.236   -4.1077    36.059   -5.6359    32.624   -11.785   -85.016   
9500000000  -10.55   -94.573   -3.9209    36.006   -4.8614    30.539   -11.806   -89.707   
9550000000  -10.898   -96.1   -3.7731    34.365   -4.9871    31.062   -11.768   -92.09   
9600000000  -10.759   -99.293   -3.6078    34.566   -4.2442    28.714   -11.238   -92.755   
9650000000  -11.32   -104   -3.4129    32.145   -4.6908    23.656   -12.189   -96.294   
9700000000  -11.73   -103.42   -3.3371    30.565   -4.995    28.147   -12.977   -95.758   
9750000000  -11.566   -105.5   -3.1535    30.152   -4.3135    28.618   -12.464   -99.244   
9800000000  -11.859   -109.28   -3.0389    28.404   -4.2715    25.94   -12.359   -102.17   
9850000000  -12.005   -113.51   -2.9512    26.89   -3.9734    23.868   -12.705   -102.9   
9900000000  -12.402   -116.79   -2.9198    25.046   -4.0693    22.279   -13.852   -107.24   
9950000000  -12.409   -117.68   -2.7614    23.6   -3.8469    25.296   -13.742   -111.35   
10000000000  -12.404   -123.99   -2.6065    22.374   -3.2728    21.003   -12.991   -119.79   
10050000000  -13.023   -127.96   -2.6679    20.253   -3.6877    18.2   -13.786   -121.65   

