!
! AVX THIN FILM OPERATION
!
! 0805 Size Low Pass Filter P/N  LP0805A3500AWTR
!
!	Network	Analyzer	HP8720ES.07.64:	Feb	"23,"	2000	Serial	No.	US39172382
!	Hewlett-Packard								
!	2	Feb	2003	05:05:16					
!	Frequency	S11	S21	S12	S22				
#	HZ	S	DB	R	50				
50000000	-54.282	-92.752	0.0069	-0.7127	-0.013	-1.0904	-54.282	94.211	
117250000	-47.041	-90.474	-0.0318	-1.9693	-0.0111	-2.1973	-47.041	-102.05	
184500000	-42.724	-96.11	0.0107	-3.2822	-0.0462	-3.5678	-42.724	-110.57	
251750000	-39.938	-101.13	-0.0201	-4.6829	-0.0234	-4.5676	-39.938	-107.87	
319000000	-37.716	-105.96	-0.0151	-5.7225	-0.0266	-5.9299	-37.716	-112.7	
386250000	-35.878	-110.53	-0.0303	-6.9489	-0.0373	-7.2977	-35.878	-116.44	
453500000	-34.33	-115.07	-0.0178	-8.2796	-0.0372	-8.4801	-34.33	-117.35	
520750000	-32.991	-119.26	-0.0304	-9.5073	-0.0448	-9.7353	-32.991	-117.54	
588000000	-31.811	-123.29	-0.0353	-10.745	-0.0473	-10.827	-31.811	-120.82	
655250000	-30.648	-127.08	-0.029	-11.956	-0.001	-12.067	-30.648	-121.51	
722500000	-29.648	-131.41	-0.0408	-13.336	-0.0277	-13.484	-29.648	-125.74	
789750000	-28.724	-135.14	-0.0418	-14.602	-0.0399	-14.708	-28.724	-128.66
857000000	-27.819	-138.93	-0.0309	-15.864	-0.0615	-15.937	-27.819	-135.18
924250000	-26.963	-142.18	-0.0443	-16.968	-0.0521	-16.907	-26.963	-140.36
991500000	-26.141	-145.94	-0.0347	-18.292	-0.0345	-18.373	-26.141	-145.98
1058750000	-25.435	-149.5	-0.0275	-19.509	-0.1008	-19.716	-25.435	-151.88
1126000000	-24.658	-152.53	-0.0421	-20.819	-0.0621	-20.354	-24.658	-155.96
1193250000	-23.93	-156.52	-0.0338	-22.047	-0.0007	-22.32	-23.93	-159.76
1260500000	-23.287	-159.64	-0.0138	-23.236	-0.0655	-23.268	-23.287	-162.26
1327750000	-22.626	-163.6	-0.0348	-24.752	0.0174	-24.94	-22.626	-164.77
1395000000	-22.033	-166.88	-0.0197	-26.05	-0.0371	-26.285	-22.033	-167.16
1462250000	-21.428	-170.34	-0.0206	-27.403	0.0411	-27.679	-21.428	-169.58
1529500000	-20.903	-173.8	-0.0084	-28.766	-0.0348	-29.421	-20.903	-171.14
1596750000	-20.388	-176.77	-0.0262	-30.093	-0.0692	-30.436	-20.388	-173.38
1664000000	-19.798	179.98	-0.0132	-31.301	0.0665	-31.705	-19.798	-175.77
1731250000	-19.375	176.28	-0.0222	-32.877	-0.0418	-34.01	-19.375	-178.03
1798500000	-18.862	173.63	-0.0303	-34.253	0.0449	-33.909	-18.862	179.77
1865750000	-18.402	169.64	-0.0202	-35.94	0.1679	-36.527	-18.402	175.4
1933000000	-17.965	166.51	-0.0002	-37.101	0.1149	-38.563	-17.965	172.98
2000250000	-17.638	163.38	-0.0188	-38.925	-0.0033	-39.621	-17.638	169.09
2067500000	-17.166	160.37	-0.0175	-40.226	0.1902	-40.489	-17.166	163.97
2134750000	-16.837	156.72	-0.0325	-42.036	0.1358	-42.962	-16.837	159.7
2202000000	-16.49	153.37	-0.0108	-43.399	0.1017	-45.012	-16.49	154.31
2269250000	-16.264	150.9	-0.0054	-45.065	-0.2146	-45.302	-16.264	150.17
2336500000	-15.779	147.73	0.0066	-46.494	0.2035	-45.501	-15.779	147.71
2403750000	-15.548	143.66	-0.0072	-48.209	0.1969	-50.058	-15.548	144.43
2471000000	-15.375	140.42	0.0184	-49.888	-0.1462	-51.946	-15.375	141.87
2538250000	-15.097	138.16	-0.018	-51.85	-0.1551	-50.341	-15.097	141.22
2605500000	-14.7311	133.9	0.0415	-53.225	0.2916	-53.943	-14.7311	138.68
2672750000	-14.6432	130.54	0	-55.191	0.0065	-57.053	-14.6432	136.56
2740000000	-14.4484	127.22	0.0598	-56.762	-0.1552	-58.679	-14.4484	134.66
2807250000	-14.2677	124.94	-0.0623	-58.692	-0.2073	-57.472	-14.2677	133.3
2874500000	-13.9636	120.51	0.0179	-60.535	0.3099	-61.192	-13.9636	129.78
2941750000	-13.9886	116.96	-0.0364	-62.509	-0.0176	-64.804	-13.9886	126.54
3009000000	-13.9085	113.76	0.0091	-64.638	-0.2704	-66.058	-13.9085	123.96
3076250000	-13.7031	110.75	-0.1143	-66.287	-0.0419	-65.614	-13.7031	119.36
3143500000	-13.5925	106.12	-0.0558	-68.632	0.2098	-70.439	-13.5925	113.26
3210750000	-13.6708	102.78	-0.1515	-70.606	-0.0614	-73.444	-13.6708	109.68
3278000000	-13.6658	99.811	-0.1494	-72.772	-0.3389	-74.825	-13.6658	105.61
3345250000	-13.5428	96.173	-0.2125	-74.772	-0.1072	-75.629	-13.5428	101.69
3412500000	-13.6977	92.325	-0.2259	-77.158	-0.2456	-79.66	-13.6977	99.939
3479750000	-13.6825	89.079	-0.2736	-78.791	-0.3051	-80.372	-13.6825	98.362
3547000000	-13.8038	85.43	-0.3073	-81.384	-0.4906	-82.869	-13.8038	94.386
3614250000	-13.8133	81.974	-0.3591	-83.252	-0.4252	-82.809	-13.8133	92.586
3681500000	-14.0066	77.72	-0.3853	-85.354	-0.347	-86.03	-14.0066	89.296
3748750000	-14.1763	74.2	-0.4362	-87.45	-0.4809	-87.889	-14.1763	83.897
3816000000	-14.3849	70.146	-0.4873	-89.734	-0.4551	-89.816	-14.3849	78.768
3883250000	-14.7036	66.015	-0.4978	-91.891	-0.5434	-93.289	-14.7036	75.953
3950500000	-15.027	62.198	-0.5778	-94.243	-0.6671	-93.402	-15.027	70.516
4017750000	-15.421	56.652	-0.5175	-96.505	-0.3186	-97.578	-15.421	63.814
4085000000	-16.039	52.898	-0.558	-98.795	-0.7313	-100.95	-16.039	61.219
4152250000	-16.571	47.826	-0.5439	-101.32	-0.6577	-102.27	-16.571	56.339
4219500000	-17.365	42.506	-0.5356	-104.15	-0.6814	-104.49	-17.365	51.866
4286750000	-18.223	36.002	-0.5002	-106.79	-0.4573	-106.55	-18.223	47.379
4354000000	-19.546	28.482	-0.4822	-109.52	-0.3123	-110.7	-19.546	40.77
4421250000	-21.32	20.329	-0.3896	-113	-0.5069	-114.3	-21.32	37.256
4488500000	-23.389	8.1656	-0.3607	-116.22	-0.3711	-115.46	-23.389	34.625
4555750000	-26.491	-14.852	-0.2528	-119.91	-0.0433	-119.56	-26.491	21.539
4623000000	-29.498	-59.041	-0.1847	-124.09	-0.0475	-124.28	-29.498	-0.7237
4690250000	-21.934	-112.76	-0.0823	-128.49	0.0377	-129.09	-28.989	-143.65
4757500000	-17.595	-141.07	-0.0243	-133.34	-0.1135	-133.54	-19.178	-157.54
4824750000	-13.86	-156.23	0.1068	-138.88	0.1276	-137.34	-14.763	-162.22
4892000000	-10.916	-169.12	0.0134	-144.96	0.3593	-144.24	-11.567	-172.86
4959250000	-8.6181	179.33	0.0659	-151.81	0.0346	-153.12	-8.8265	179.41
5026500000	-6.7289	169.76	-0.1151	-158.94	-0.3208	-155.92	-6.9818	172.11
5093750000	-5.022	159.24	-0.3389	-167.67	-0.0237	-164.43	-5.1812	162.06
5161000000	-3.7168	149.28	-0.9214	-175.05	-0.1909	-172.32	-3.7768	152.46
5228250000	-2.596	138.56	-1.2722	175.51	-0.7483	174.81	-2.6723	142.5
5295500000	-1.7756	129.32	-2.2988	167.63	-1.5672	169.39	-1.7633	132.42
5362750000	-1.0674	119.2	-3.0811	159.27	-2.0193	157.83	-0.9733	122.62
5430000000	-0.6591	110.66	-4.2113	152.74	-3.1625	148.15	-0.4576	113.79
5497250000	-0.2437	101.76	-5.3314	145.27	-4.861	139.21	-0.0683	104.53
5564500000	-0.0356	93.851	-6.551	140.63	-5.8761	133.89	0.3673	96.354
5631750000	0.155	86.061	-7.7788	133.85	-7.6618	129.82	0.4452	89.442
5699000000	0.1779	79.181	-9.1605	129.88	-8.3588	126.46	0.5124	82.373
5766250000	0.253	72.335	-10.424	124.89	-9.9261	119.23	0.5435	75.309
5833500000	0.1967	66.548	-11.735	121.86	-11.228	115.28	0.4636	69.767
5900750000	0.1703	60.476	-13.217	117.08	-13.077	112.77	0.4018	63.715
5968000000	0.0787	55.23	-14.583	113.93	-14.06	109.82	0.3295	58.123
6035250000	0.0134	49.894	-16.148	110.29	-15.61	103.76	0.2042	53.718
6102500000	-0.1057	45.144	-17.496	107.67	-17.851	99.974	0.1089	48.561
6169750000	-0.2148	40.415	-19.331	104.01	-19.647	102.26	-0.0143	44.177
6237000000	-0.296	35.929	-21.026	101.06	-20.868	98.788	-0.1844	40.107
6304250000	-0.4241	31.639	-23.093	98.079	-22.9	94.01	-0.3694	35.782
6371500000	-0.5268	27.705	-24.735	94.231	-25.491	89.698	-0.4495	31.104
6438750000	-0.6293	23.575	-27.318	92.039	-27.839	92.984	-0.6289	28.364
6506000000	-0.7862	19.928	-30.345	89.54	-29.969	90.393	-0.827	24.436
6573250000	-0.8949	16.083	-33.096	86.35	-33.407	83.448	-0.8055	19.867
6640500000	-0.975	12.567	-37.214	85.908	-38.101	82.024	-0.9476	16.349
6707750000	-1.1092	8.9182	-44.338	88.895	-44.897	84.872	-1.0675	12.766
6775000000	-1.1877	5.4698	-64.337	143.71	-62.657	175.7	-1.1299	9.0005
6842250000	-1.3408	1.9666	-46.636	-107.95	-46.304	-115.2	-1.2664	6.3652
6909500000	-1.421	-0.8171	-41.297	-105.42	-41.67	-112.13	-1.4187	3.002
6976750000	-1.5829	-4.5717	-38.401	-106.6	-38.87	-108.82	-1.5051	-0.0769
7044000000	-1.6567	-7.4556	-36.679	-106.91	-36.836	-110.67	-1.662	-2.6285
7111250000	-1.7967	-10.973	-35.204	-108.26	-35.524	-112.96	-1.8795	-5.9505
7178500000	-1.9018	-13.623	-34.658	-110.15	-34.939	-114.12	-2.0239	-9.5828
7245750000	-2.0372	-17.037	-34.009	-111.1	-34.478	-115.54	-2.1011	-12.307
7313000000	-2.1419	-19.892	-33.973	-112.94	-34.06	-115.67	-2.3415	-15.638
7380250000	-2.2264	-23.069	-33.554	-112.79	-33.479	-116.71	-2.4217	-19.108
7447500000	-2.3618	-25.63	-33.727	-114.81	-33.665	-121.19	-2.4869	-22.148
7514750000	-2.4964	-29.085	-33.896	-115.74	-33.963	-119.86	-2.663	-24.962
7582000000	-2.6303	-31.431	-34.126	-116.03	-33.994	-121.01	-2.7688	-28.549
7649250000	-2.7433	-34.582	-34.36	-116.45	-34.465	-119.78	-2.7365	-31.013
7716500000	-2.9007	-37.028	-34.951	-115.61	-34.439	-118.98	-2.9933	-33.346
7783750000	-3.0155	-40.273	-34.965	-116.96	-34.853	-121.63	-3.1023	-36.325
7851000000	-3.1937	-42.999	-35.755	-116.91	-35.893	-119.33	-3.1802	-38.289
7918250000	-3.2789	-46.052	-36.132	-116.06	-35.836	-118.26	-3.4827	-40.699
7985500000	-3.4938	-48.295	-36.971	-116.96	-36.644	-120.52	-3.7351	-43.463
8052750000	-3.5826	-51.342	-37.513	-115.3	-37.285	-120.04	-3.9628	-45.928
8120000000	-3.784	-53.823	-38.402	-115.34	-38.424	-122.91	-4.2351	-48.367
8187250000	-3.8679	-57.025	-39.446	-115.35	-39.767	-120.5	-4.6033	-51.586
8254500000	-4.109	-59.219	-40.953	-111.68	-40.454	-118.05	-4.783	-55.084
8321750000	-4.2909	-62.012	-42.465	-109.31	-42.332	-121.89	-5.1191	-58.221
8389000000	-4.4881	-65.251	-44.153	-103.56	-44.705	-112.96	-5.4457	-61.902
8456250000	-4.5778	-68.128	-45.601	-95.245	-46.043	-103.3	-5.6274	-65.527
8523500000	-4.8932	-70.94	-48.039	-82.235	-48.225	-89.713	-5.9369	-68.621
8590750000	-5.0312	-73.581	-49.607	-59.036	-49.835	-75.223	-6.2701	-73.007
8658000000	-5.2921	-76.621	-49.842	-31.869	-50.533	-45.279	-6.4766	-77.447
8725250000	-5.4413	-79.816	-48.001	-12.279	-48.665	-18.715	-6.6634	-80.752
8792500000	-5.6523	-82.717	-45.709	3.3275	-45.554	-8.9072	-6.958	-84.764
8859750000	-5.8655	-85.368	-43.557	9.6474	-44.659	-6.6289	-7.1486	-89.253
8927000000	-6.1754	-89.206	-41.92	16.172	-43.475	7.7605	-7.2787	-93.211
8994250000	-6.3472	-92.175	-40.076	19.314	-41.206	10.223	-7.569	-96.691
9061500000	-6.583	-95.99	-38.457	20.939	-39.441	10.502	-7.7987	-101.76
9128750000	-6.8198	-99.043	-36.956	19.851	-39.174	6.3116	-7.8771	-105.34
9196000000	-7.0916	-103.25	-35.877	18.973	-38.516	14.772	-8.2374	-109.27
9263250000	-7.342	-106.58	-34.877	17.486	-36.521	16.044	-8.4447	-114.73
9330500000	-7.5164	-111.17	-33.73	15.4	-35.121	8.2919	-8.5114	-119.51
9397750000	-7.6881	-114.61	-33.136	10.364	-35.613	8.1752	-8.7783	-123.93
9465000000	-7.981	-119.54	-32.312	8.2013	-33.952	10.096	-8.9513	-129.15
9532250000	-8.1674	-123.29	-31.909	4.1693	-33.541	5.7033	-9.0072	-133.89
9599500000	-8.314	-128.35	-31.215	0.9379	-32.693	0.4682	-9.1453	-138.81
9666750000	-8.4745	-132.39	-31.137	-3.6063	-33.096	-0.6907	-9.2649	-145.25
9734000000	-8.555	-137.82	-30.757	-6.3048	-31.921	-0.9791	-9.228	-150.09
9801250000	-8.7625	-142.12	-30.638	-10.161	-31.686	-5.316	-9.261	-155.18
9868500000	-8.7464	-147.36	-30.455	-14.886	-31.477	-9.429	-9.2739	-161.67
9935750000	-8.8501	-152.25	-30.523	-18.34	-30.842	-10.981	-9.0134	-167.16
10003000000	-8.7558	-157.59	-30.245	-23.108	-30.702	-19.226	-8.8772	-172.19
10070250000	-8.7798	-162.42	-30.464	-27.061	-30.596	-19.81	-8.7483	-177.97
10137500000	-8.6471	-167.51	-30.4	-31.564	-30.523	-28.353	-8.2821	177.05
10204750000	-8.6166	-172.25	-30.663	-34.103	-30.562	-31.996	-8.0425	173.9
10272000000	-8.3921	-177.34	-31.001	-38.834	-31.181	-37.428	-7.8782	169.62
10339250000	-8.3138	178.18	-31.321	-44.897	-31.054	-37.215	-7.5079	165.13
10406500000	-8.0587	173.62	-31.408	-47.984	-30.903	-44.517	-7.2147	161.39
10473750000	-7.9087	169.42	-31.871	-52.071	-31.334	-51.967	-7.0411	157.45
10541000000	-7.627	165.2	-32.433	-58.295	-32.283	-52.354	-6.6896	153.33
10608250000	-7.4097	161.29	-32.306	-62	-31.538	-54.921	-6.3006	150.17
10675500000	-7.1334	157.19	-32.49	-63.876	-31.662	-62.836	-5.9827	146.62
10742750000	-6.8638	153.58	-32.493	-68.654	-32.108	-70.492	-5.6352	143.15
10810000000	-6.5521	150.24	-32.792	-72.971	-32.752	-69.637	-5.282	141.13
10877250000	-6.302	146.69	-32.655	-77.368	-31.518	-74.402	-5.0856	139.16
10944500000	-6.0232	143.59	-32.451	-81.494	-31.428	-84.249	-4.8847	136.47
11011750000	-5.7437	140.35	-32.094	-90.33	-31.868	-91.949	-4.6968	133.66
11079000000	-5.4331	137.73	-32.288	-97.06	-31.778	-93.645	-4.5001	131.18
11146250000	-5.1497	134.78	-32.114	-103.29	-31.005	-100.33	-4.2824	128.22
11213500000	-4.8549	132.17	-31.812	-107.2	-30.624	-108.99	-4.1263	125.79
11280750000	-4.5746	129.44	-31.254	-115.86	-31.064	-116.92	-3.834	122.85
11348000000	-4.2829	127.15	-30.766	-122.67	-30.289	-117.28	-3.5525	120.48
11415250000	-3.9645	124.83	-30.554	-130.41	-29.443	-127.81	-3.286	118.09
11482500000	-3.667	122.55	-30.406	-136.34	-29.564	-134.86	-2.9776	115.62
11549750000	-3.3743	120.07	-30.273	-141.12	-29.806	-138.93	-2.7535	113.91
11617000000	-3.0705	118.13	-29.894	-143.54	-29.291	-139.41	-2.4631	111.78
11684250000	-2.7575	115.39	-29.441	-146.69	-28.694	-142.7	-2.23	109.11
11751500000	-2.5249	113.32	-28.592	-148.26	-28	-146.62	-1.9982	106.9
11818750000	-2.2137	111.08	-27.871	-152.36	-27.781	-147.76	-1.8327	104.58
11886000000	-1.9785	109.1	-26.987	-154.74	-26.408	-149.36	-1.6069	102.48
11953250000	-1.6983	107.17	-26.155	-156.83	-25.654	-155.12	-1.4155	100.95
12020500000	-1.4666	105.4	-24.988	-161.79	-24.816	-158.27	-1.1958	98.767
12087750000	-1.2235	103.49	-23.943	-167.14	-23.918	-162.47	-0.9178	96.747
12155000000	-0.9579	101.92	-22.867	-172.42	-22.892	-168.27	-0.6863	95.676
12222250000	-0.7069	100.06	-21.941	179.69	-21.899	-174.29	-0.5513	93.911
12289500000	-0.4919	98.295	-20.939	168.76	-20.948	172.55	-0.404	91.99
12356750000	-0.3246	96.86	-20.751	149.47	-21.288	153.85	-0.2415	91.528
12424000000	-0.1004	96.608	-24.841	133.77	-25.715	140.97	-0.07	90.42
12491250000	0.344	95.127	-26.899	163.52	-27.368	173.86	0.1887	88.215
12558500000	0.5992	93.739	-24.661	177.54	-24.693	-175.67	0.4272	87.083
12625750000	0.9189	91.855	-22.659	177.61	-23.015	-176.42	0.4771	85.895
12693000000	1.1852	90.674	-21.197	176.16	-22.2	-176.51	0.6479	83.776
12760250000	1.4768	89.265	-19.799	172.98	-20.648	-176.4	0.8669	82.724
12827500000	1.6862	88.548	-18.894	170.41	-19.335	179.48	0.9987	81.399
12894750000	2.0276	87.124	-17.931	166.64	-18.374	174.59	1.1228	80.277
12962000000	2.2926	86.192	-17.07	163.81	-18.201	170.81	1.2234	78.753
13029250000	2.5976	85.324	-16.128	159.77	-17.158	172.41	1.3297	77.392
13096500000	2.8773	84.814	-15.4	157.07	-15.892	168.9	1.5272	76.54
13163750000	3.1477	84.066	-14.479	153.48	-15.144	161.88	1.9214	75.306
13231000000	3.4508	83.471	-13.959	151.65	-15.003	161.05	1.9328	75.329
13298250000	3.7643	83.629	-13.274	149.42	-14.085	162.52	2.0226	74.222
13365500000	4.0755	83.671	-12.505	148.39	-13.204	160.2	2.364	73.761
13432750000	4.4372	83.805	-11.69	147.81	-12.325	158.9	2.5125	74.332
13500000000	4.7014	84.326	-11.117	147.51	-12.186	159.59	2.6264	74.093
