!
! AVX THIN FILM OPERATION
!
! 0805 Size Low Pass Filter P/N  LP0805A2442AWTR
!
! Network Analyzer HP8720ES.07.64: Feb 23, 2000 Serial No. US39172382
! Hewlett-Packard
!  2 Feb 2003  04:38:51
! Frequency       S11                S21                S12                S22
# HZ  S  DB R  50 
50000000  -48.947   -73.783   -.0197   -1.7812    .0194   -1.5353   -42.846   -2.3016   
100000000  -43.958   -84.437   -.0127   -2.9759   -.0100   -2.9842   -44.822   -93.831   
150000000  -40.413   -92.889   -.0149   -4.455   -.0196   -4.2833   -42.076   -104.63   
200000000  -37.803   -99.09   -.0020   -5.9793   -.0092   -5.8942   -38.919   -106.54   
250000000  -35.609   -104.12   -.0056   -7.3073   -.0086   -7.2867   -35.365   -106.28   
300000000  -34.147   -108.12   -.0238   -8.5638   -.0293   -8.5899   -34.753   -112.59   
350000000  -32.504   -112.91   -.0135   -10.308   -.0452   -10.044   -31.936   -127.45   
400000000  -31.351   -117.52   -.0458   -11.545   -.0349   -11.602   -30.424   -123.95   
450000000  -30.213   -121.7   -.0443   -12.998   -.0305   -12.952   -28.916   -123.47   
500000000  -29.162   -126.27   -.0423   -14.395   -.0185   -14.623   -27.96   -125.58   
550000000  -28.255   -130.19   -.0385   -15.944   -.0449   -15.995   -27.64   -129.92   
600000000  -27.39   -133.92   -.0543   -17.361   -.0440   -17.338   -26.545   -132.25   
650000000  -26.512   -137.83   -.0436   -18.763   -.0152   -18.77   -26.078   -134.4   
700000000  -25.803   -141.74   -.0464   -20.284   -.0413   -20.343   -25.791   -136.29   
750000000  -25.083   -145.78   -.0495   -21.874   -.0484   -21.783   -25.454   -141.63   
800000000  -24.4   -149.7   -.0492   -23.394   -.0351   -23.362   -25.131   -148.61   
850000000  -23.753   -153.47   -.0288   -24.94   -.0495   -24.844   -24.546   -153.04   
900000000  -23.163   -157.06   -.0310   -26.565   -.0648   -26.098   -23.97   -158.71   
950000000  -22.564   -160.61   -.0470   -27.979   -.0267   -27.621   -23.201   -164.73   
1000000000  -22.011   -164.54   -.0312   -29.568   -.0211   -29.467   -22.619   -168.83   
1050000000  -21.534   -168.18   -.0269   -31.105   -.0826   -31.006   -22.228   -172.72   
1100000000  -21.061   -171.47   -.0389   -32.672   -.0667   -32.125   -21.475   -177.83   
1150000000  -20.476   -175.55   -.0155   -34.272    .0298   -33.854   -20.59    177.59   
1200000000  -20.107   -179.53   -.0235   -35.854   -.0139   -36.06   -19.931    175.13   
1250000000  -19.704    176.84   -.0144   -37.63   -.0483   -37.369   -19.717    173.51   
1300000000  -19.276    172.94   -.0144   -39.256    .0275   -39.165   -19.409    168.86   
1350000000  -18.983    169.08   -.0113   -40.971   -.0175   -41.141   -18.775    165.92   
1400000000  -18.648    165.28   -.0225   -42.869   -.0236   -42.665   -18.358    163.77   
1450000000  -18.319    161.28   -.0010   -44.578    .0161   -44.53   -18.339    162.61   
1500000000  -18.069    157.24   -.0001   -46.405   -.0204   -46.648   -18.424    158.51   
1550000000  -17.855    153.41   -.0210   -48.262   -.0343   -48.338   -18.367    153.13   
1600000000  -17.642    149.56   -.0203   -50.011   -.0316   -49.988   -17.892    149.85   
1650000000  -17.394    145.12   -.0105   -51.998    .0602   -51.909   -17.869    147.03   
1700000000  -17.268    140.45   -.0172   -53.952    .0347   -54.608   -18.148    142.52   
1750000000  -17.212    136.4   -.0152   -55.922   -.0757   -56.148   -18.233    137.12   
1800000000  -17.012    131.88   -.0028   -58.042    .0773   -57.593   -17.823    131.72   
1850000000  -16.969    126.64   -.0065   -60.05    .1291   -60.417   -17.644    128.32   
1900000000  -16.992    121.54   -.0053   -62.049    .0831   -63.002   -18.215    126.17   
1950000000  -17.101    116.2   -.0287   -64.422    .0148   -65.224   -19.049    120.54   
2000000000  -17.219    110.75   -.0287   -66.802   -.0528   -66.941   -19.486    110.93   
2050000000  -17.266    104.83   -.0422   -68.935    .0406   -68.891   -19.512    102.88   
2100000000  -17.461    97.636   -.0179   -71.441    .0245   -71.956   -20.142    94.287   
2150000000  -17.772    90.358   -.0620   -73.851   -.0369   -74.257   -21.122    81.365   
2200000000  -18.048    81.896   -.0538   -76.404   -.0902   -76.944   -21.065    63.133   
2250000000  -18.454    72.868   -.0937   -79.022   -.1836   -79.283   -20.141    52.388   
2300000000  -18.722    62.466   -.1266   -81.782   -.1280   -81.359   -19.618    42.742   
2350000000  -18.891    49.455   -.1083   -84.576   -.0801   -84.773   -19.288    31.432   
2400000000  -19.054    34.949   -.1787   -87.543   -.1453   -87.874   -18.613    19.495   
2450000000  -18.948    19.438   -.2019   -90.412   -.2293   -90.707   -18.483    8.5899   
2500000000  -18.438    3.1242   -.2151   -93.522   -.2591   -93.551   -18.075   -4.937   
2550000000  -17.521   -13.45   -.2892   -96.827   -.3080   -96.857   -17.402   -21.246   
2600000000  -16.414   -28.324   -.3383   -99.971   -.344   -99.886   -16.17   -34.698   
2650000000  -15.061   -41.957   -.3902   -103.3   -.3540   -103.25   -15.151   -45.989   
2700000000  -13.644   -54.375   -.5054   -107.02   -.3979   -106.9   -14.083   -59.815   
2750000000  -12.203   -65.231   -.5253   -110.3   -.4127   -111.22   -12.452   -72.596   
2800000000  -10.848   -76.045   -.6201   -114.24   -.7103   -115.56   -10.816   -82.268   
2850000000  -9.6653   -85.599   -.8044   -118.55   -.9335   -117.26   -9.5398   -90.805   
2900000000  -8.4123   -93.705   -.8597   -122.2   -.7298   -120.64   -8.3895   -98.767   
2950000000  -7.2173   -102.66   -1.0582   -126.74   -.7072   -126.43   -7.1288   -107.45   
3000000000  -6.1339   -111.34   -1.1595   -130.85   -.8647   -132.78   -5.8842   -115.33   
3050000000  -5.2003   -119.89   -1.3249   -135.93   -1.5254   -137.89   -4.9508   -122.63   
3100000000  -4.466   -127.78   -1.6964   -141.24   -1.7965   -138.25   -4.1767   -129.13   
3150000000  -3.5952   -135.18   -1.8156   -145.7   -1.3962   -143.33   -3.4366   -136.19   
3200000000  -2.886   -143.07   -2.1784   -151.73   -1.5912   -151.2   -2.7257   -143.66   
3250000000  -2.2953   -151.23   -2.5839   -157.12   -1.9824   -159.24   -2.1369   -151.14   
3300000000  -1.7593   -158.58   -2.9787   -162.9   -3.0166   -165.55   -1.7182   -158.18   
3350000000  -1.438   -165.49   -3.5945   -169.05   -3.4121   -167.3   -1.2928   -165.2   
3400000000  -1.0023   -172.74   -4.0868   -174.88   -3.5187   -176.28   -.9547   -172.18   
3450000000  -.7339   -178.97   -4.8736    179.18   -4.7413    176.68   -.6682   -178.97   
3500000000  -.5520    174.47   -5.5911    174.12   -5.3466    172.66   -.4237    175.13   
3550000000  -.2732    168.52   -6.2892    167.88   -6.4756    163.53   -.1904    169.1   
3600000000  -.2122    163.19   -7.3844    163.1   -7.96    162.42   -.0491    163.94   
3650000000  -.0126    157.37   -8.2021    158.22   -8.2331    159.3    .0538    158.79   
3700000000   .0794    152.68   -9.1704    153.84   -9.2168    152.39    .1005    153.43   
3750000000   .1229    147.71   -10.249    149.29   -10.409    148.7    .1465    148.44   
3800000000   .2332    142.82   -11.329    145.04   -11.451    145.51    .2038    143.75   
3850000000   .2542    138.83   -12.449    141.47   -12.149    140.85    .2324    138.9   
3900000000   .2673    134.1   -13.53    137.73   -13.589    132.55    .1781    134.68   
3950000000   .3312    130.2   -14.82    133.94   -15.519    134.88    .1761    130.03   
4000000000   .3110    126.3   -16.004    131.68   -15.393    136.11    .1838    125.66   
4050000000   .3466    122.2   -17.288    127.81   -16.33    122.23    .2355    121.61   
4100000000   .3506    118.96   -18.57    126.11   -18.889    118.9    .2460    117.98   
4150000000   .3311    115.15   -19.873    122.79   -20.188    120.55    .1889    113.71   
4200000000   .3663    111.58   -21.285    120.24   -21.765    117.44    .2179    109.42   
4250000000   .3092    108.42   -22.78    118.13   -23.325    119.92    .2673    106.11   
4300000000   .3180    104.96   -24.333    116.34   -23.962    119.84    .3282    102.74   
4350000000   .3210    101.96   -25.928    115.32   -24.983    113.49    .3467    99.948   
4400000000   .2714    98.759   -27.315    112.98   -27.485    106.53    .3577    96.541   
4450000000   .2703    95.615   -29.362    110.11   -30.306    112.94    .3662    93.384   
4500000000   .2328    92.826   -31.303    110.76   -30.727    119.07    .3453    90.817   
4550000000   .1887    89.778   -33.287    109.31   -31.826    109.59    .3183    88.392   
4600000000   .1753    87.039   -35.598    108.64   -34.964    105.85    .2233    85.667   
4650000000   .1501    84.183   -37.986    108.33   -37.495    105.79    .2102    82.793   
4700000000   .0981    81.337   -41.066    108.83   -41.037    105.47    .1254    80.211   
4750000000   .0819    78.659   -44.175    110.23   -44.608    113.02    .0139    77.639   
4800000000   .0392    76.014   -48.424    114.22   -48.633    117.42   -.0288    74.686   
4850000000   .0176    73.404   -55.467    129.01   -54.776    125.45   -.0504    71.877   
4900000000  -.0434    70.827   -63.405   -160.31   -61.475   -161.81   -.0744    69.305   
4950000000  -.0834    68.107   -56.697   -106.91   -57.204   -107.41   -.1356    66.782   
5000000000  -.1128    65.63   -52.894   -99.123   -52.518   -95.446   -.2300    64.013   
5050000000  -.1653    63.244   -50.709   -90.548   -49.608   -94.947   -.2484    61.264   
5100000000  -.1872    60.834   -50.176   -90.122   -49.342   -93.095   -.2589    58.862   
5150000000  -.2397    58.247   -49.081   -85.527   -48.628   -95.095   -.2879    56.413   
5200000000  -.2951    55.988   -49.546   -85.031   -49.638   -92.818   -.3934    54.145   
5250000000  -.3495    53.502   -51.073   -86.111   -50.642   -89.541   -.4235    51.523   
5300000000  -.3863    51.129   -52.425   -82.576   -51.918   -82.557   -.4267    49.209   
5350000000  -.4175    48.741   -54.614   -77.893   -54.823   -80.408   -.4849    47.223   
5400000000  -.4741    46.303   -60.642   -56.633   -60.423   -67.374   -.5619    45.102   
5450000000  -.5218    44.12   -63.436    32.448   -63.038    11.245   -.6127    42.847   
5500000000  -.5756    41.858   -55.621    53.407   -56.191    50.319   -.6513    40.662   
5550000000  -.6045    39.493   -50.435    64.869   -50.869    57.892   -.7186    38.826   
5600000000  -.6593    37.198   -47.001    69.376   -48.148    64.164   -.8509    36.639   
5650000000  -.7388    34.927   -44.532    70.163   -45.159    69.613   -.9418    34.464   
5700000000  -.7713    32.701   -42.44    69.646   -42.391    66.178   -1.007    32.009   
5750000000  -.8193    30.641   -40.552    69.668   -41.096    66.3   -1.0716    29.901   
5800000000  -.8821    28.231   -38.842    69.774   -39.441    66.537   -1.2296    27.29   
5850000000  -.9018    26.145   -37.534    71.2   -38.213    65.395   -1.2999    24.725   
5900000000  -1.0072    24.082   -36.539    69.559   -37.029    67.547   -1.2489    22.411   
5950000000  -1.0132    21.778   -35.245    68.538   -35.628    66.048   -1.2555    20.77   
6000000000  -1.0696    19.785   -34.304    67.791   -34.58    63.487   -1.4055    18.945   
6050000000  -1.1238    17.438   -33.492    67.942   -33.881    61.378   -1.4314    16.111   
6100000000  -1.1525    15.444   -32.525    66.732   -33.541    62.1   -1.4252    13.884   
6150000000  -1.2414    13.494   -31.87    66.595   -32.699    64.812   -1.3637    12.632   
6200000000  -1.2899    11.074   -31.273    66.043   -31.539    64.969   -1.5149    11.301   
6250000000  -1.3345    9.2079   -30.671    64.204   -30.72    62.18   -1.6922    8.8028   
6300000000  -1.4132    7.0697   -29.94    62.558   -30.1    60.667   -1.7271    6.2457   
6350000000  -1.4434    4.8944   -29.048    62.383   -29.801    59.267   -1.6387    4.6211   
6400000000  -1.5077    3.6736   -28.4    61.837   -29.403    60.862   -1.7425    2.9993   
6450000000  -1.6452    1.2044   -28.06    61.72   -28.639    61.602   -1.9339    1.3458   
6500000000  -1.5783   -1.1453   -27.657    59.509   -27.604    57.916   -1.9836   -1.718   
6550000000  -1.6994   -2.8839   -27.109    58.701   -27.378    55.725   -1.998   -3.8521   
6600000000  -1.7234   -5.3435   -26.451    57.413   -27.238    54.539   -1.9818   -4.6925   
6650000000  -1.7757   -7.1095   -26.196    56.898   -27.001    54.518   -2.1484   -6.9035   
6700000000  -1.8704   -9.1461   -25.869    56.047   -26.526    54.787   -2.2873   -9.3974   
6750000000  -1.8807   -11.153   -25.41    55.079   -25.996    54.478   -2.1721   -11.611   
6800000000  -1.9695   -12.791   -25.185    54.628   -25.584    53.464   -2.1735   -12.43   
6850000000  -2.0251   -15.204   -24.647    53.959   -25.29    51.014   -2.3789   -13.646   
6900000000  -2.0813   -16.797   -24.336    52.331   -25.196    49.474   -2.5224   -16.517   
6950000000  -2.1569   -18.84   -24.141    51.144   -24.951    49.933   -2.4925   -18.877   
7000000000  -2.2081   -20.97   -23.841    50.405   -24.424    49.867   -2.4311   -19.867   
7050000000  -2.2755   -22.46   -23.599    49.889   -24.095    47.954   -2.6764   -20.807   
7100000000  -2.3583   -24.813   -23.282    48.631   -23.966    46.667   -2.9327   -22.931   
7150000000  -2.4029   -26.511   -23.093    47.561   -23.674    45.788   -2.9835   -26.312   
7200000000  -2.5012   -28.283   -22.958    47.137   -23.445    45.18   -2.8942   -27.916   
7250000000  -2.5285   -30.538   -22.572    45.971   -23.302    44.545   -2.991   -28.666   
7300000000  -2.6005   -32.178   -22.541    44.944   -23.03    44.431   -3.3325   -30.844   
7350000000  -2.7223   -34.034   -22.297    45.24   -22.457    43.721   -3.3755   -34.835   
7400000000  -2.7513   -35.994   -21.988    43.676   -22.142    40.725   -3.2616   -36.501   
7450000000  -2.8534   -37.693   -21.93    42.567   -22.305    39.103   -3.2632   -36.898   
7500000000  -2.944   -39.875   -21.772    41.933   -22.275    39.319   -3.5578   -38.76   
7550000000  -3.008   -41.478   -21.596    41.211   -21.862    38.438   -3.7506   -42.194   
7600000000  -3.1345   -43.257   -21.498    40.449   -21.684    37.146   -3.5903   -44.826   
7650000000  -3.2029   -45.317   -21.334    39.195   -21.568    37.461   -3.4659   -45.39   
7700000000  -3.3068   -46.8   -21.309    38.996   -21.33    37.505   -3.7502   -45.967   
7750000000  -3.3932   -49.013   -21.036    38.412   -21.057    34.939   -4.0106   -48.358   
7800000000  -3.4663   -50.54   -21.04    36.666   -21.096    33.025   -4.0404   -51.522   
7850000000  -3.6186   -52.548   -21.07    36.633   -21.321    34.968   -3.9   -52.497   
7900000000  -3.7058   -54.428   -20.868    36.38   -20.82    36.671   -4.0858   -52.502   
7950000000  -3.793   -56.034   -20.767    35.294   -20.685    33.176   -4.4231   -54.403   
8000000000  -3.9353   -58.068   -20.797    35.046   -20.713    32.846   -4.5991   -57.56   
8050000000  -4.0249   -59.977   -20.64    34.706   -20.402    31.687   -4.5451   -59.391   
8100000000  -4.1715   -61.654   -20.595    33.875   -20.61    29.108   -4.6606   -59.856   
8150000000  -4.2933   -63.722   -20.565    33.236   -21.018    29.299   -5.0827   -61.275   
8200000000  -4.3892   -65.696   -20.517    33.423   -21.017    30.899   -5.408   -64.598   
8250000000  -4.5665   -67.136   -20.469    34.367   -20.442    30.618   -5.4389   -68.067   
8300000000  -4.7059   -69.766   -20.263    32.528   -20.315    25.407   -5.5218   -69.162   
8350000000  -4.8005   -71.294   -20.275    32.359   -21.094    23.327   -5.8451   -70.453   
8400000000  -5.0137   -73.387   -20.299    32.576   -21.419    27.559   -6.2234   -74.081   
8450000000  -5.1018   -75.513   -20.07    33.032   -20.761    27.62   -6.2381   -77.996   
8500000000  -5.2892   -77.368   -20.088    32.75   -20.678    26.647   -6.2426   -79.715   
8550000000  -5.4423   -79.774   -19.902    32.852   -20.272    25.701   -6.4889   -81.238   
8600000000  -5.5807   -81.73   -19.696    32.294   -20.4    22.19   -6.8771   -84.103   
8650000000  -5.7781   -83.75   -19.673    32.191   -20.85    22.371   -6.9643   -88.801   
8700000000  -5.8826   -86.208   -19.521    32.439   -20.775    25.311   -6.8691   -91.366   
8750000000  -6.122   -88.114   -19.456    32.881   -20.013    27.573   -6.972   -92.232   
8800000000  -6.2337   -90.89   -19.098    31.889   -19.201    22.18   -7.29   -95.025   
8850000000  -6.416   -92.899   -18.878    31.198   -19.966    16.971   -7.4638   -99.237   
8900000000  -6.6157   -95.644   -18.905    30.293   -20.566    21.371   -7.4767   -101.9   
8950000000  -6.7598   -98.08   -18.622    30.723   -19.83    24.806   -7.5346   -103.57   
9000000000  -6.9229   -100.46   -18.38    29.246   -19.564    22.186   -7.8962   -105.98   
9050000000  -7.1154   -103.19   -18.207    27.832   -19.135    21.44   -8.0627   -110.39   
9100000000  -7.272   -106.16   -17.878    26.818   -19.374    15.45   -7.9653   -114.35   
9150000000  -7.4591   -108.62   -17.91    24.619   -20.085    16.54   -7.916   -115.96   
9200000000  -7.6214   -111.79   -17.771    23.41   -19.733    22.434   -8.2585   -117.64   
9250000000  -7.7596   -114.47   -17.631    22.15   -18.975    21.433   -8.5623   -122.25   
9300000000  -7.9013   -117.59   -17.418    20.029   -18.378    17.439   -8.4505   -127.03   
9350000000  -8.0451   -121.18   -17.207    17.522   -18.826    11.085   -8.2585   -129.97   
9400000000  -8.1524   -123.93   -17.37    15.189   -19.336    13.966   -8.4015   -131.32   
9450000000  -8.3235   -127.44   -17.302    13.353   -18.528    15.366   -8.6939   -134.7   
9500000000  -8.3434   -130.89   -17.243    10.911   -18.376    10.697   -8.6841   -140.11   
9550000000  -8.5306   -134.22   -17.382    8.6998   -18.35    10.264   -8.5354   -142.93   
9600000000  -8.5637   -138.12   -17.273    6.5945   -18.218    4.8518   -8.5946   -144.8   
9650000000  -8.6231   -141.39   -17.556    3.1284   -18.96    4.7681   -8.9245   -148.56   
9700000000  -8.705   -145.19   -17.695    1.4241   -18.61    7.1548   -8.9638   -153.71   
9750000000  -8.6808   -148.91   -17.78   -.6056   -18.453    2.0641   -8.766   -157.34   
9800000000  -8.7242   -152.43   -17.993   -2.7727   -18.691   -.1826   -8.7952   -159.75   
9850000000  -8.707   -156.36   -18.152   -5.5275   -18.746   -3.1668   -9.0332   -164.01   
9900000000  -8.6602   -160.03   -18.504   -7.8333   -18.991   -3.2739   -9.016   -169.42   
9950000000  -8.6226   -163.8   -18.683   -9.6913   -18.74   -6.1661   -8.6622   -174   
10000000000  -8.532   -167.61   -18.871   -12.307   -19.316   -11.886   -8.3854   -176.91   
10050000000  -8.4517   -171.02   -19.399   -14.7   -19.505   -10.749   -8.3986    179.89   

