!
! AVX THIN FILM OPERATION
!
! 0805 Size Low Pass Filter P/N  LP0805A0881AWTR
!
! Network Analyzer HP8720ES.07.64: Feb 23, 2000 Serial No. US39172382
! Hewlett-Packard
!  2 Feb 2003  02:38:38
! Frequency       S11                S21                S12                S22
# HZ  S  DB R  50 
50000000  -33.918   -87.178   -.0196   -3.642    .0153   -3.6433   -37.08   -74.317   
100000000  -27.84   -96.33   -.0350   -6.8198   -.0269   -6.9461   -27.481   -99.544   
150000000  -24.208   -102.64   -.0683   -10.261   -.0394   -9.9193   -24.404   -105.24   
200000000  -21.769   -108.55   -.0427   -13.696   -.0707   -13.637   -21.885   -108.34   
250000000  -19.97   -113.96   -.0786   -16.992   -.0886   -17.137   -19.962   -114.64   
300000000  -18.557   -119.17   -.1192   -20.325   -.1278   -20.43   -18.616   -121.65   
350000000  -17.415   -124.73   -.1332   -24.131   -.1835   -23.894   -17.178   -127.1   
400000000  -16.506   -130.16   -.1676   -27.422   -.1775   -27.532   -16.145   -131.09   
450000000  -15.768   -135.73   -.1759   -31.042   -.1609   -31.135   -15.347   -135.47   
500000000  -15.234   -141.62   -.1968   -34.807   -.1804   -35.273   -14.951   -140.21   
550000000  -14.858   -147.22   -.205   -38.544   -.2457   -38.887   -14.673   -145.68   
600000000  -14.615   -153.3   -.2293   -42.52   -.1849   -42.402   -14.494   -151.02   
650000000  -14.608   -159.95   -.2175   -46.752   -.1363   -46.936   -14.674   -157.19   
700000000  -14.836   -166.67   -.2455   -51.104   -.1849   -51.557   -15.146   -164.09   
750000000  -15.337   -174.24   -.1891   -55.827   -.2027   -55.99   -15.934   -172.53   
800000000  -16.334    177.24   -.2019   -61.102   -.1844   -61.254   -17.241    178   
850000000  -18.039    166.61   -.1576   -66.899   -.1937   -66.684   -19.344    164.65   
900000000  -21.128    150.89   -.1762   -73.169   -.1792   -72.745   -22.734    139.81   
950000000  -27.265    110.62   -.2141   -80.206   -.1915   -80.019   -26.353    82.654   
1000000000  -24.384    12.21   -.2775   -88.103   -.2986   -88.087   -21.616    13.741   
1050000000  -16.625   -21.14   -.4630   -97.17   -.4965   -97.217   -15.553   -15.735   
1100000000  -11.702   -40.044   -.8252   -107.21   -.9313   -107.67   -11.339   -34.818   
1150000000  -8.1985   -56.028   -1.3796   -118.13   -1.6077   -117.31   -8.2147   -52.475   
1200000000  -5.5518   -71.711   -2.1974   -129.82   -2.1804   -129.41   -5.678   -69.695   
1250000000  -3.7296   -87.06   -3.4625   -141.69   -3.5999   -142.14   -3.8515   -85.645   
1300000000  -2.4899   -101.38   -4.9148   -153.08   -4.9751   -151.31   -2.5988   -100.05   
1350000000  -1.6724   -114.08   -6.7639   -163.21   -6.6453   -163.9   -1.7647   -113.25   
1400000000  -1.1884   -125.58   -8.8588   -172.76   -8.9745   -173.09   -1.2417   -125.1   
1450000000  -.8519   -135.5   -11.134    179.24   -11.043    179.11   -.8845   -134.96   
1500000000  -.6691   -143.82   -13.672    172.76   -13.554    170.27   -.6128   -143.41   
1550000000  -.5482   -151.64   -16.474    166.46   -16.529    164.5   -.5023   -151.09   
1600000000  -.4524   -158.28   -19.623    162.18   -19.821    161.54   -.3693   -157.75   
1650000000  -.4177   -164.22   -23.159    158.83   -22.941    158.95   -.2801   -163.79   
1700000000  -.3453   -169.83   -27.608    156.46   -27.415    152.96   -.2728   -169.43   
1750000000  -.3320   -174.73   -33.857    159.89   -34.306    158.3   -.2545   -174.48   
1800000000  -.3249   -179.6   -44.589   -163.2   -44.45   -159.64   -.1474   -179.68   
1850000000  -.2655    176.12   -40.017   -68.702   -39.041   -69.825   -.0439    176.38   
1900000000  -.2645    172.13   -34.822   -57.504   -34.201   -62.063    .0004    172.43   
1950000000  -.2333    167.95   -32.403   -57.211   -32.02   -61.261    .0170    168.82   
2000000000  -.2100    164.41   -31.182   -57.8   -31.153   -59.536    .0553    165.43   
2050000000  -.2328    160.73   -30.553   -58.016   -29.977   -58.889    .0553    162.09   
2100000000  -.2020    157.25   -30.395   -60.462   -29.876   -64.269   -.0191    159.26   
2150000000  -.1884    154.23   -30.834   -62.056   -30.429   -65.393   -.0498    156.29   
2200000000  -.1765    150.8   -31.201   -64.281   -31.138   -68.537   -.0615    152.94   
2250000000  -.1289    147.89   -32.058   -64.983   -32.944   -67.359   -.1362    150.27   
2300000000  -.1555    144.98   -33.525   -65.886   -33.64   -61.411   -.1586    147   
2350000000  -.1460    141.86   -35.221   -67.802   -34.447   -67.096   -.2117    143.67   
2400000000  -.1335    139.24   -38.052   -68.009   -37.554   -73.299   -.1498    140.28   
2450000000  -.1181    136.43   -42.069   -66.434   -42.609   -70.469   -.1791    137.9   
2500000000  -.1180    133.71   -51.506   -54.645   -52.7   -51.704   -.1701    135.01   
2550000000  -.1400    131.13   -50.29    82.244   -49.524    89.848   -.2213    132   
2600000000  -.0950    128.5   -41.198    94.942   -40.497    91.846   -.1864    128.91   
2650000000  -.1034    125.97   -36.828    95.46   -36.705    89.72   -.1579    126.34   
2700000000  -.1107    123.53   -33.866    95.006   -34.091    91.347   -.0829    124.15   
2750000000  -.105    121.03   -31.504    93.538   -32.418    91.266   -.1080    121.81   
2800000000  -.1026    118.65   -29.924    92.483   -30.243    96.972   -.1618    119.09   
2850000000  -.1085    116.32   -28.269    92.219   -27.466    91.848   -.0807    116.46   
2900000000  -.1048    114   -27.041    89.703   -26.632    83.834   -.0463    114.53   
2950000000  -.1184    111.65   -25.972    88.855   -26.222    83.736   -.0706    112.46   
3000000000  -.1194    109.36   -24.945    87.399   -25.725    84.31   -.1308    110.21   
3050000000  -.1211    107.13   -24.324    85.894   -24.56    88.746   -.1624    107.83   
3100000000  -.1491    104.99   -23.441    85.512   -22.696    84.611   -.1592    105.42   
3150000000  -.1548    102.76   -22.781    83.114   -22.343    77.333   -.2099    103.37   
3200000000  -.1624    100.56   -22.264    81.852   -22.305    76.234   -.2702    100.89   
3250000000  -.1822    98.406   -21.689    81.567   -22.156    75.613   -.2295    98.536   
3300000000  -.1942    96.199   -21.332    79.21   -21.701    79.14   -.2132    96.667   
3350000000  -.2008    94.079   -20.865    78.297   -20.582    76.973   -.2312    94.183   
3400000000  -.2478    91.946   -20.54    77.066   -20.688    72.382   -.3085    92.344   
3450000000  -.2538    89.806   -20.298    76.117   -20.619    74.94   -.2754    89.729   
3500000000  -.2813    87.689   -19.849    75.508   -20.109    72.889   -.2153    88.108   
3550000000  -.3166    85.655   -19.849    73.67   -20.521    73.202   -.2710    86.217   
3600000000  -.3297    83.298   -19.705    73.213   -19.954    77.201   -.3457    84.107   
3650000000  -.3547    81.079   -19.61    72.883   -19.482    72.97   -.4089    81.861   
3700000000  -.3993    78.765   -19.723    71.757   -19.888    71.355   -.4765    79.446   
3750000000  -.4078    76.336   -19.975    71.638   -20.171    72.198   -.4422    77.355   
3800000000  -.5031    73.669   -20.693    72.326   -20.704    73.022   -.5087    75.166   
3850000000  -.5828    70.378   -21.984    75.325   -22.076    74.144   -.7037    71.776   
3900000000  -.7903    66.287   -25.153    94.633   -25.854    94.936   -.7973    68.324   
3950000000  -1.7602    59.785   -20.414    159.93   -19.887    163.02   -1.3484    63.561   
4000000000  -4.0934    73.298   -10.033    134.13   -9.5231    131.23   -2.6714    69.039   
4050000000  -1.556    78.511   -9.9745    92.457   -9.9112    84.852   -1.5284    73.26   
4100000000  -.9530    73.003   -11.337    79.625   -12.214    76.128   -1.042    69.236   
4150000000  -.8139    69.18   -12.136    74.316   -12.589    73.58   -.9595    66.172   
4200000000  -.7967    66.403   -12.647    71.381   -13.143    71.423   -.8938    63.651   
4250000000  -.7926    63.745   -12.853    69.964   -13.04    72.96   -.9115    61.337   
4300000000  -.8189    61.599   -13.044    69.175   -12.418    69.857   -.9045    59.1   
4350000000  -.8455    59.322   -13.022    68.575   -12.545    63.608   -.9006    57.248   
4400000000  -.8583    57.343   -12.879    66.646   -13.516    62.445   -.8777    55.286   
4450000000  -.9068    55.364   -13.139    66.337   -13.473    70.985   -.8908    53.413   
4500000000  -.9389    53.214   -12.9    66.654   -11.848    70.023   -.9595    51.669   
4550000000  -.9921    51.612   -12.873    65.224   -11.851    60.246   -1.0014    50.096   
4600000000  -1.0454    49.605   -12.802    65.124   -12.599    60.746   -1.094    48.479   
4650000000  -1.0567    47.613   -12.642    64.491   -12.544    60.82   -1.1189    46.795   
4700000000  -1.112    46.009   -12.65    64.299   -12.923    61.709   -1.1891    44.874   
4750000000  -1.1536    43.912   -12.495    64.223   -12.511    65.906   -1.2897    43.244   
4800000000  -1.1859    42.238   -12.328    63.1   -11.803    62.691   -1.312    41.233   
4850000000  -1.2613    40.497   -12.447    63.272   -11.877    59.075   -1.3783    39.391   
4900000000  -1.3176    38.621   -12.057    63.192   -12.305    58.346   -1.4329    37.395   
4950000000  -1.3325    36.985   -12.063    62.759   -12.541    62.262   -1.4458    35.401   
5000000000  -1.4059    34.989   -12.005    62.574   -11.689    64.97   -1.4864    33.631   
5050000000  -1.4165    33.341   -11.764    62.188   -11.127    59.374   -1.5188    31.925   
5100000000  -1.4962    31.763   -11.775    62.271   -11.441    58   -1.5739    30.245   
5150000000  -1.5277    29.693   -11.467    62.236   -11.264    56.928   -1.5834    28.331   
5200000000  -1.5597    28.243   -11.33    61.111   -11.676    55.437   -1.6225    26.904   
5250000000  -1.6616    26.477   -11.38    61.127   -11.664    59.071   -1.6308    25.297   
5300000000  -1.676    24.607   -11.087    61.393   -11.126    57.285   -1.6833    24.035   
5350000000  -1.717    23.08   -10.97    60.297   -11.36    54.612   -1.7255    22.429   
5400000000  -1.7987    21.02   -10.822    60.34   -11.35    55.467   -1.7842    20.764   
5450000000  -1.8216    19.543   -10.682    60.09   -11.429    55.478   -1.8087    19.358   
5500000000  -1.9046    17.943   -10.58    59.707   -11.367    57.231   -1.8881    18.235   
5550000000  -1.9428    16.046   -10.325    59.171   -11.013    56.194   -2.0154    16.827   
5600000000  -1.9806    14.483   -10.237    58.278   -11.092    55.85   -2.1439    15.278   
5650000000  -2.0786    12.611   -10.196    58.053   -10.587    57.423   -2.2193    13.716   
5700000000  -2.0904    10.901   -9.9175    57.881   -10.247    54.636   -2.3194    11.761   
5750000000  -2.1741    9.4798   -9.8219    57.056   -10.466    54.224   -2.3674    10.254   
5800000000  -2.228    7.4913   -9.6912    56.621   -10.203    53.931   -2.5571    7.8635   
5850000000  -2.2225    6.0315   -9.4608    55.948   -10.187    52.987   -2.5752    5.9889   
5900000000  -2.3379    4.3987   -9.4585    55.29   -10.038    54.517   -2.5354    4.6033   
5950000000  -2.3681    2.6505   -9.2693    54.69   -9.6465    53.253   -2.5954    3.0473   
6000000000  -2.4243    1.2524   -9.1789    54.419   -9.6385    50.647   -2.6478    1.4845   
6050000000  -2.4793   -.6468   -9.0349    53.587   -9.6605    49.8   -2.7443   -.5232   
6100000000  -2.5114   -2.2316   -8.8641    53.009   -9.8176    50.775   -2.7158   -2.3277   
6150000000  -2.6263   -3.598   -8.8502    52.108   -9.6297    52.939   -2.7097   -3.2547   
6200000000  -2.6645   -5.6168   -8.7587    51.768   -9.1789    51.828   -2.7706   -4.0347   
6250000000  -2.679   -7.0752   -8.6739    51.229   -9.0281    49.194   -2.9608   -6.0123   
6300000000  -2.8022   -8.6119   -8.5857    50.614   -9.0065    48.371   -3.0273   -8.0214   
6350000000  -2.7912   -10.588   -8.347    49.76   -9.1574    48.068   -2.9425   -9.1612   
6400000000  -2.869   -11.714   -8.4161    48.91   -9.2176    49.601   -3.0893   -10.448   
6450000000  -2.8924   -13.936   -8.2713    48.716   -8.7888    49.058   -3.2022   -11.89   
6500000000  -2.9192   -15.18   -8.2547    48.358   -8.3741    46.259   -3.1748   -13.19   
6550000000  -3.0814   -16.405   -8.1886    47.867   -8.5429    45.049   -3.2928   -15.636   
6600000000  -3.1178   -18.458   -7.9945    46.387   -8.7252    44.742   -3.2887   -16.305   
6650000000  -3.1576   -19.771   -8.0361    45.898   -8.7884    45.124   -3.4179   -17.934   
6700000000  -3.2686   -21.407   -8.0057    45.504   -8.5814    45.201   -3.5214   -19.682   
6750000000  -3.2694   -22.966   -7.8991    44.683   -8.3888    44.67   -3.4249   -21.488   
6800000000  -3.3818   -24.189   -7.9575    44.751   -8.2982    44.33   -3.4864   -22.177   
6850000000  -3.4265   -26.189   -7.7067    44.102   -8.361    42.222   -3.6092   -23.03   
6900000000  -3.4739   -27.382   -7.706    43.252   -8.5108    41.457   -3.7661   -25.017   
6950000000  -3.5853   -28.957   -7.7615    42.551   -8.4374    42.414   -3.8067   -26.581   
7000000000  -3.6067   -30.711   -7.6921    42.348   -8.1693    42.624   -3.7354   -27.635   
7050000000  -3.6731   -31.712   -7.6274    42.362   -8.0804    41.164   -3.9537   -28.445   
7100000000  -3.7688   -33.747   -7.5111    41.375   -8.1171    40.176   -4.1665   -29.66   
7150000000  -3.8199   -35.019   -7.541    40.931   -8.0002    39.549   -4.2675   -32.256   
7200000000  -3.9154   -36.354   -7.5628    40.637   -7.975    39.345   -4.2355   -33.6   
7250000000  -3.9561   -38.224   -7.3911    39.863   -8.0205    39.229   -4.2833   -34.507   
7300000000  -4.0177   -39.446   -7.4992    39.505   -7.9177    39.135   -4.5801   -35.903   
7350000000  -4.1359   -40.964   -7.3891    39.81   -7.5126    38.39   -4.6433   -38.863   
7400000000  -4.1652   -42.498   -7.2575    38.78   -7.3713    36.065   -4.594   -40.43   
7450000000  -4.2791   -43.785   -7.3592    38.094   -7.6664    35.018   -4.6039   -40.691   
7500000000  -4.362   -45.63   -7.3052    37.95   -7.75    35.631   -4.8543   -41.791   
7550000000  -4.4231   -46.829   -7.2592    37.492   -7.4589    34.728   -5.0577   -44.282   
7600000000  -4.5606   -48.207   -7.2841    37.067   -7.4098    34.133   -5.0045   -46.82   
7650000000  -4.6262   -49.936   -7.245    36.438   -7.3901    34.718   -4.9142   -47.141   
7700000000  -4.7417   -50.9   -7.2921    36.491   -7.2721    34.957   -5.0488   -47.333   
7750000000  -4.8285   -52.804   -7.1317    36.105   -7.1067    32.65   -5.3008   -48.777   
7800000000  -4.8962   -53.99   -7.2054    34.949   -7.2041    31.229   -5.4021   -51.35   
7850000000  -5.0727   -55.517   -7.2769    35.355   -7.4454    33.729   -5.3737   -52.66   
7900000000  -5.1593   -56.919   -7.175    35.283   -7.0757    35.171   -5.397   -52.181   
7950000000  -5.235   -58.222   -7.1637    34.619   -7.0109    31.928   -5.676   -53.356   
8000000000  -5.3992   -59.858   -7.2164    34.478   -7.0698    32.027   -5.929   -55.753   
8050000000  -5.4836   -61.335   -7.1433    34.434   -6.8377    31.208   -5.9144   -57.357   
8100000000  -5.6331   -62.757   -7.1618    33.993   -7.1185    29.231   -5.9561   -57.814   
8150000000  -5.781   -64.416   -7.181    33.544   -7.5121    29.349   -6.3373   -57.997   
8200000000  -5.9075   -65.816   -7.1872    33.863   -7.513    30.938   -6.6916   -59.915   
8250000000  -6.0681   -66.695   -7.1633    34.667   -7.0027    31.071   -6.7658   -62.415   
8300000000  -6.1703   -69.077   -7.0691    33.284   -6.9316    26.488   -6.8348   -63.887   
8350000000  -6.3725   -70.477   -7.1093    33.617   -7.7056    24.6   -7.2032   -64.337   
8400000000  -6.6214   -71.923   -7.1352    33.843   -8.0121    28.728   -7.6455   -65.76   
8450000000  -6.6968   -73.188   -7.0179    34.54   -7.3952    28.978   -7.716   -68.588   
8500000000  -6.9225   -74.601   -7.0614    34.518   -7.3785    28.385   -7.8112   -70.529   
8550000000  -7.0284   -76.257   -6.9192    34.706   -7.0417    27.956   -7.9528   -70.495   
8600000000  -7.1897   -78.131   -6.7813    34.736   -7.1427    24.395   -8.3546   -72.71   
8650000000  -7.4681   -79.711   -6.7674    34.788   -7.5323    24.782   -8.7321   -75.944   
8700000000  -7.6559   -81.086   -6.684    35.224   -7.5181    27.699   -8.76   -77.735   
8750000000  -7.8729   -81.674   -6.6227    35.905   -6.9139    30.28   -8.7521   -76.775   
8800000000  -7.8242   -83.933   -6.4256    35.27   -6.0225    26.202   -8.793   -78.681   
8850000000  -8.1249   -86.649   -6.2324    35.699   -6.6329    20.646   -9.202   -83.741   
8900000000  -8.5656   -87.944   -6.2056    35.255   -7.3476    24.309   -9.6089   -85.269   
8950000000  -8.6962   -88.437   -6.075    35.773   -6.7994    28.28   -9.5277   -83.984   
9000000000  -8.8182   -90.077   -5.8509    35.616   -6.4793    26.286   -9.6967   -84.725   
9050000000  -8.9535   -91.755   -5.7193    34.803   -6.0879    26.503   -9.838   -86.824   
9100000000  -9.1229   -95.062   -5.4378    35.281   -6.063    21.051   -9.8645   -91.608   
9150000000  -9.6245   -96.862   -5.3583    33.808   -6.8013    21.02   -10.238   -92.734   
9200000000  -9.8777   -97.235   -5.2389    33.198   -6.7882    26.597   -10.566   -89.628   
9250000000  -9.8864   -97.977   -5.0626    33.322   -6.1347    27.669   -10.781   -89.746   
9300000000  -9.792   -100.31   -4.8393    32.312   -5.348    26.524   -10.502   -93.84   
9350000000  -10.009   -105.29   -4.551    31.799   -5.3652    20.223   -10.411   -100.04   
9400000000  -10.564   -106.63   -4.4897    30.26   -6.0987    20.908   -11.063   -99.628   
9450000000  -10.588   -107.34   -4.3929    28.994   -5.5954    24.912   -11.21   -97.232   
9500000000  -10.519   -110.66   -4.1772    28.575   -5.0254    22.028   -11.217   -103.03   
9550000000  -10.796   -112.72   -4.0757    26.948   -5.069    22.717   -11.105   -105.81   
9600000000  -10.712   -116.94   -3.8608    26.706   -4.5472    19.512   -10.7   -107.72   
9650000000  -11.206   -121.04   -3.7648    24.145   -5.0774    16.214   -11.63   -110.82   
9700000000  -11.417   -121.86   -3.7539    22.699   -5.0762    20.131   -12.156   -111.57   
9750000000  -11.281   -125.39   -3.5619    21.899   -4.4777    19.052   -11.635   -116.78   
9800000000  -11.553   -129.42   -3.4891    20.178   -4.5467    16.537   -11.594   -119.59   
9850000000  -11.652   -134.04   -3.4282    18.59   -4.3358    14.112   -11.953   -121.51   
9900000000  -11.891   -137.29   -3.4738    16.699   -4.4175    13.281   -12.853   -126.43   
9950000000  -11.819   -139.86   -3.3532    15.154   -4.0682    14.788   -12.495   -132.01   
10000000000  -11.891   -146.05   -3.2045    13.782   -3.8783    9.7531   -11.91   -139.46   
10050000000  -12.238   -149.23   -3.3644    11.707   -4.2419    8.8893   -12.537   -140.68   

