!
! AVX THIN FILM OPERATION
!
! 0805 Size Low Pass Filter P/N  LP0805A0837AWTR
!
! Network Analyzer HP8720ES.07.64: Feb 23, 2000 Serial No. US39172382
! Hewlett-Packard
! 2 Feb 2003  04:34:11
! Frequency       S11                S21                S12                S22
# HZ  S  DB R  50 
50000000  -42.991   -79.81   -.0070   -1.8677    .0215   -1.7715   -38.269    16.069   
100000000  -37.174   -90.78   -.0133   -3.2574   -.0135   -3.3591   -37.959   -112.5   
150000000  -33.442   -96.596   -.0005   -4.8999   -.0030   -4.8148   -35.114   -100.8   
200000000  -30.952   -101.03    .0067   -6.4655   -.0384   -6.4119   -31.684   -105.07   
250000000  -28.942   -105.2   -.0057   -8.0722   -.0296   -8.0571   -29.249   -106.21   
300000000  -27.349   -108.86   -.0366   -9.5499   -.0378   -9.6391   -27.67   -112.4   
350000000  -25.906   -112.68   -.0253   -11.213   -.0468   -11.128   -25.807   -119.76   
400000000  -24.766   -116.29   -.0523   -12.766   -.0643   -12.799   -24.471   -119.62   
450000000  -23.687   -119.97   -.0528   -14.351   -.0358   -14.321   -23.031   -121.51   
500000000  -22.748   -123.82   -.0581   -15.947   -.0355   -16.202   -22.226   -123.89   
550000000  -21.897   -127.38   -.0588   -17.647   -.0609   -17.703   -21.484   -127.16   
600000000  -21.108   -130.84   -.0775   -19.153   -.0589   -19.13   -20.763   -129.85   
650000000  -20.34   -134.48   -.0615   -20.783   -.0269   -20.733   -20.158   -132.49   
700000000  -19.696   -138   -.0854   -22.352   -.0477   -22.581   -19.686   -135.45   
750000000  -19.08   -141.7   -.0841   -24.114   -.0672   -24.133   -19.308   -139.34   
800000000  -18.492   -145.23   -.0928   -25.803   -.0621   -25.806   -18.933   -143.42   
850000000  -17.956   -148.88   -.0781   -27.577   -.0958   -27.544   -18.447   -147.81   
900000000  -17.44   -152.26   -.0836   -29.279   -.1142   -28.779   -17.881   -152.58   
950000000  -16.919   -155.72   -.0847   -30.862   -.0579   -30.41   -17.381   -157.28   
1000000000  -16.478   -159.44   -.0736   -32.588   -.0541   -32.639   -16.971   -161.32   
1050000000  -16.105   -163.06   -.0904   -34.409   -.1554   -34.354   -16.611   -165.26   
1100000000  -15.692   -166.26   -.0936   -36.145   -.1303   -35.254   -16.036   -169.79   
1150000000  -15.209   -170.31   -.0507   -37.981    .0186   -37.24   -15.403   -174.15   
1200000000  -14.937   -174.22   -.0726   -39.825   -.0534   -40.06   -15.001   -177.23   
1250000000  -14.628   -177.69   -.0735   -41.747   -.1235   -41.39   -14.718   -179.89   
1300000000  -14.318    178.42   -.0950   -43.65   -.0203   -43.448   -14.488    176.03   
1350000000  -14.098    174.66   -.0723   -45.571   -.0903   -45.86   -13.999    172.55   
1400000000  -13.843    170.96   -.0682   -47.579   -.1119   -47.439   -13.679    170.19   
1450000000  -13.618    166.95   -.0836   -49.554   -.0587   -49.666   -13.651    167.98   
1500000000  -13.484    163.04   -.0709   -51.659   -.0931   -52.23   -13.66    164.26   
1550000000  -13.323    159.14   -.0821   -53.745   -.1269   -54.212   -13.613    159.6   
1600000000  -13.202    155.17   -.0961   -55.872   -.1204   -55.897   -13.348    155.92   
1650000000  -13.078    150.7   -.0500   -58.175    .0157   -58.193   -13.33    152.9   
1700000000  -13.085    146.2   -.0642   -60.484   -.0242   -61.718   -13.611    148.48   
1750000000  -13.115    142.29   -.0900   -62.754   -.1774   -63.077   -13.76    143.97   
1800000000  -13.044    137.53   -.0662   -65.197    .0601   -64.806   -13.566    138.36   
1850000000  -13.199    132.23   -.0601   -67.769    .1091   -68.538   -13.615    134.56   
1900000000  -13.395    127.21   -.0651   -70.313    .0140   -71.517   -14.107    131.95   
1950000000  -13.661    121.87   -.0757   -72.898   -.0582   -74.281   -14.843    127.1   
2000000000  -13.959    116.29   -.0712   -75.813   -.1222   -76.131   -15.475    118.9   
2050000000  -14.337    109.8   -.0795   -78.602    .0301   -78.743   -15.988    111.28   
2100000000  -14.953    102.18   -.0725   -81.686   -.0216   -82.542   -17.067    103.11   
2150000000  -15.662    94.039   -.1060   -84.761   -.0773   -85.42   -18.492    91.719   
2200000000  -16.573    83.903   -.109   -87.97   -.1467   -88.888   -19.626    72.661   
2250000000  -17.679    71.767   -.1300   -91.629   -.2714   -91.627   -19.73    54.535   
2300000000  -18.752    55.059   -.2031   -95.216   -.1617   -94.772   -19.725    35.38   
2350000000  -19.65    31.676   -.1856   -98.979   -.1506   -99.226   -19.464    12.703   
2400000000  -19.711    3.1984   -.2632   -103.12   -.2420   -103.31   -18.316   -9.3727   
2450000000  -18.395   -24.729   -.3366   -107.14   -.3117   -107.32   -17.228   -29.475   
2500000000  -16.144   -47.818   -.3925   -111.6   -.3797   -112.23   -15.474   -49.613   
2550000000  -13.83   -65.716   -.5049   -116.24   -.6082   -116.8   -13.489   -67.269   
2600000000  -11.71   -79.674   -.6550   -121.19   -.6672   -120.43   -11.485   -80.347   
2650000000  -9.699   -91.586   -.7957   -126.16   -.6041   -125.9   -9.7341   -91.512   
2700000000  -7.9685   -102.9   -1.0485   -131.81   -.7749   -132.22   -8.1121   -104.03   
2750000000  -6.4382   -113.59   -1.201   -137.08   -1.0091   -139.96   -6.4377   -114.99   
2800000000  -5.2079   -123.95   -1.5114   -143.49   -1.8739   -145.64   -5.1598   -124.46   
2850000000  -4.2088   -133.3   -1.9867   -149.89   -2.0871   -146.64   -4.0936   -133.66   
2900000000  -3.1466   -142.19   -2.307   -155.73   -1.7775   -154.36   -3.092   -141.77   
2950000000  -2.4375   -151.52   -2.9754   -162.81   -2.3731   -164.72   -2.2645   -150.98   
3000000000  -1.8123   -160.52   -3.4715   -169.1   -3.3441   -173.93   -1.6079   -159.08   
3050000000  -1.3595   -168.19   -4.2814   -176.65   -4.789   -177.73   -1.2096   -166.56   
3100000000  -1.0429   -175.67   -5.2627    177.49   -5.0091   -178.34   -.8018   -173.32   
3150000000  -.6536    177   -6.0195    171.5   -5.1814    171.46   -.5237    179.6   
3200000000  -.4784    170.67   -7.166    164.69   -6.4431    162   -.3771    172.85   
3250000000  -.3381    164.08   -8.2393    159.59   -7.8667    154.05   -.1760    166.51   
3300000000  -.1213    158.6   -9.4271    154.03   -9.7169    151.2   -.0751    161.07   
3350000000  -.1164    153.35   -10.7    148.94   -10.432    149.74    .0321    155.31   
3400000000   .0162    147.91   -11.975    144.05   -11.61    140.15    .0511    150.19   
3450000000   .0527    143.61   -13.555    139.31   -13.638    136.98    .1292    145.08   
3500000000   .0532    138.82   -14.84    136.33   -14.818    133.68    .1923    140.84   
3550000000   .1467    134.65   -16.409    131.74   -16.931    127.99    .248    136.47   
3600000000   .1128    130.71   -18.182    128.82   -18.792    130.3    .2156    132.7   
3650000000   .1599    126.52   -19.801    125.97   -19.781    127.06    .2125    128.68   
3700000000   .1627    123.07   -21.611    123.37   -21.777    122.09    .1519    124.54   
3750000000   .1479    119.44   -23.599    120.89   -23.85    120.68    .1272    120.8   
3800000000   .1624    115.84   -25.809    118.84   -25.977    119.47    .1237    117.64   
3850000000   .1448    112.75   -28.215    117.77   -28.092    116.56    .1003    113.59   
3900000000   .1409    109.31   -30.983    116.36   -31.427    112.13    .0167    110.41   
3950000000   .1369    106.26   -34.568    116.12   -35.207    119.4    .0189    106.64   
4000000000   .0977    103.27   -38.917    120.02   -38.264    123.65   -.0101    103.45   
4050000000   .0979    100.17   -46.096    133.53   -45.796    128.53   -.0291    100.54   
4100000000   .0795    97.482   -51.457   -142.42   -51.43   -141.55   -.0201    97.236   
4150000000   .0514    94.444   -44.201   -100.24   -44.281   -102.31   -.1012    94.031   
4200000000   .0414    91.733   -40.318   -94.11   -40.693   -96.637   -.0624    90.71   
4250000000  -.0083    89.03   -38.073   -91.652   -38.304   -89.951   -.0307    87.785   
4300000000  -.0304    86.399   -36.558   -90.912   -36.034   -88.577   -.0315    85.354   
4350000000  -.0385    83.831   -35.606   -90.419   -34.681   -94.643   -.0532    82.871   
4400000000  -.0686    81.126   -34.755   -92.115   -35.045   -97.774   -.0352    80.045   
4450000000  -.1022    78.615   -34.679   -92.582   -35.278   -89.596   -.0237    77.401   
4500000000  -.1429    76.165   -34.295   -92.236   -33.363   -85.748   -.0423    75.741   
4550000000  -.1732    73.714   -34.166   -93.601   -32.753   -95.944   -.1240    73.295   
4600000000  -.2136    71.189   -34.309   -93.421   -33.72   -97.71   -.1839    71.013   
4650000000  -.2193    68.798   -34.384   -94.694   -34.014   -97.977   -.2101    68.494   
4700000000  -.2763    66.495   -34.798   -95.065   -34.873   -98.633   -.2590    66.221   
4750000000  -.3225    64.052   -35.095   -95.492   -35.245   -93.44   -.3999    64.043   
4800000000  -.3311    61.746   -35.527   -95.919   -34.966   -94.875   -.4656    61.396   
4850000000  -.3903    59.446   -36.421   -96.047   -35.427   -100.13   -.4490    58.841   
4900000000  -.4246    57.048   -36.79   -96.082   -36.673   -102.06   -.4941    56.589   
4950000000  -.4582    54.921   -37.712   -96.195   -38.295   -97.87   -.5412    54.259   
5000000000  -.5214    52.516   -38.955   -96.283   -38.842   -92.738   -.6364    51.687   
5050000000  -.5380    50.43   -40.162   -94.804   -39.243   -97.615   -.6185    49.2   
5100000000  -.5788    48.242   -41.584   -94.743   -41.242   -97.516   -.6412    47.179   
5150000000  -.6319    45.894   -43.594   -91.561   -43.087   -96.744   -.6778    45.174   
5200000000  -.6634    43.956   -46.316   -89.359   -46.377   -97.545   -.7594    42.94   
5250000000  -.7258    41.627   -50.864   -82.451   -51.171   -80.303   -.745    40.656   
5300000000  -.7589    39.467   -56.361   -46.343   -57.216   -53.199   -.7682    38.725   
5350000000  -.8037    37.415   -55.435    27.199   -55.063    19.124   -.8245    37.113   
5400000000  -.8592    35.107   -49.035    53.4   -49.294    46.357   -.9273    35.129   
5450000000  -.8949    33.18   -44.997    61.506   -45.69    53.27   -.9503    32.838   
5500000000  -.9390    31.111   -42.222    63.336   -42.798    59.476   -.9703    30.933   
5550000000  -.9895    28.851   -39.752    65.933   -40.468    59.102   -1.0878    29.472   
5600000000  -1.0302    26.866   -38.103    65.04   -38.843    60.261   -1.2412    27.466   
5650000000  -1.1058    24.734   -36.669    64.645   -36.954    63.568   -1.3394    25.325   
5700000000  -1.1292    22.588   -35.26    63.758   -35.368    61.131   -1.3882    22.852   
5750000000  -1.1813    20.716   -34.077    63.717   -34.592    60.341   -1.4457    21.362   
5800000000  -1.2431    18.468   -32.973    63.865   -33.57    60.26   -1.6605    18.708   
5850000000  -1.2601    16.668   -32.103    63.89   -32.736    58.854   -1.6831    16.121   
5900000000  -1.344    14.52   -31.356    62.265   -31.913    60.901   -1.6053    14.083   
5950000000  -1.3566    12.439   -30.434    61.834   -30.809    59.529   -1.6257    12.487   
6000000000  -1.4183    10.584   -29.818    61.569   -30.168    56.687   -1.7359    10.856   
6050000000  -1.462    8.4389   -29.138    60.491   -29.667    54.903   -1.8356    7.9967   
6100000000  -1.4944    6.6302   -28.482    60.158   -29.458    56.114   -1.7776    5.5605   
6150000000  -1.5805    4.7159   -27.984    58.977   -28.84    58.553   -1.6874    4.8944   
6200000000  -1.6218    2.4527   -27.55    58.346   -27.86    57.794   -1.8976    3.5088   
6250000000  -1.6562    .6138   -27.126    56.975   -27.279    55.01   -2.0552    .9791   
6300000000  -1.7402   -1.2923   -26.572    55.756   -26.895    53.531   -2.084   -1.4516   
6350000000  -1.7448   -3.4607   -25.92    54.996   -26.72    52.798   -1.9458   -2.8098   
6400000000  -1.7936   -4.9796   -25.614    53.961   -26.533    54.072   -2.0919   -4.4756   
6450000000  -1.7913   -7.2263   -25.248    53.79   -25.666    54.12   -2.2901   -6.4215   
6500000000  -1.8605   -9.1434   -24.926    52.711   -24.979    50.826   -2.3059   -8.3304   
6550000000  -2.0051   -10.772   -24.551    51.86   -24.914    48.815   -2.3162   -11.071   
6600000000  -2.0341   -13.09   -24.04    50.283   -24.904    48.031   -2.3146   -11.744   
6650000000  -2.0683   -14.746   -23.881    49.71   -24.7    48.452   -2.5326   -13.802   
6700000000  -2.1597   -16.727   -23.646    48.956   -24.294    48.561   -2.6146   -16.44   
6750000000  -2.1682   -18.607   -23.302    48.181   -23.87    47.8   -2.4921   -18.382   
6800000000  -2.2628   -20.182   -23.153    47.921   -23.581    46.862   -2.4704   -19.285   
6850000000  -2.3071   -22.516   -22.701    46.945   -23.458    44.65   -2.7159   -20.311   
6900000000  -2.3473   -23.956   -22.476    45.628   -23.402    43.522   -2.8634   -22.966   
6950000000  -2.4489   -25.921   -22.382    44.458   -23.162    44.327   -2.8277   -25.345   
7000000000  -2.4794   -27.956   -22.145    43.896   -22.714    43.75   -2.7519   -26.37   
7050000000  -2.5344   -29.384   -21.976    43.544   -22.5    42.008   -3.0321   -27.213   
7100000000  -2.6309   -31.698   -21.716    42.259   -22.424    40.982   -3.2806   -29.354   
7150000000  -2.6635   -33.221   -21.599    41.461   -22.206    40.052   -3.3091   -32.765   
7200000000  -2.7626   -34.921   -21.516    41.06   -22.03    39.389   -3.2291   -34.227   
7250000000  -2.8066   -37.12   -21.221    39.711   -21.962    38.929   -3.336   -34.993   
7300000000  -2.8648   -38.721   -21.244    38.982   -21.746    38.665   -3.676   -37.386   
7350000000  -2.9763   -40.482   -21.025    39.272   -21.259    37.609   -3.6929   -41.197   
7400000000  -3.0059   -42.396   -20.775    37.676   -21.05    35.213   -3.5985   -42.803   
7450000000  -3.104   -43.951   -20.795    36.65   -21.207    33.949   -3.5821   -43.13   
7500000000  -3.1957   -46.097   -20.679    36.244   -21.178    33.975   -3.8961   -45.069   
7550000000  -3.2475   -47.628   -20.544    35.717   -20.869    32.96   -4.073   -48.55   
7600000000  -3.3869   -49.338   -20.497    34.806   -20.726    31.904   -3.9064   -51.015   
7650000000  -3.4517   -51.424   -20.383    33.643   -20.648    32.219   -3.8024   -51.582   
7700000000  -3.5389   -52.803   -20.41    33.615   -20.438    32.139   -4.0588   -52.203   
7750000000  -3.6432   -54.976   -20.141    32.996   -20.268    29.861   -4.3246   -54.588   
7800000000  -3.7173   -56.408   -20.21    31.422   -20.332    28.139   -4.2971   -57.817   
7850000000  -3.8542   -58.391   -20.256    31.635   -20.476    30.168   -4.2105   -58.524   
7900000000  -3.944   -60.222   -20.069    31.24   -20.079    31.417   -4.3901   -58.619   
7950000000  -4.0284   -61.779   -20.034    30.256   -20.025    28.29   -4.7337   -60.646   
8000000000  -4.1715   -63.839   -20.079    30   -20.064    27.864   -4.8757   -63.787   
8050000000  -4.2451   -65.768   -19.972    29.748   -19.833    26.636   -4.8426   -65.676   
8100000000  -4.4031   -67.364   -19.967    28.89   -20.067    24.655   -4.9478   -66.046   
8150000000  -4.5188   -69.365   -19.947    28.368   -20.456    25.133   -5.3968   -67.688   
8200000000  -4.6111   -71.315   -19.935    28.353   -20.461    26.327   -5.6892   -70.935   
8250000000  -4.782   -72.822   -19.89    29.246   -19.972    25.624   -5.7021   -74.178   
8300000000  -4.9293   -75.321   -19.718    27.377   -19.936    21.081   -5.8252   -75.493   
8350000000  -5.0181   -76.925   -19.778    27.342   -20.691    19.795   -6.1738   -77.097   
8400000000  -5.2319   -79.054   -19.795    27.486   -20.939    23.527   -6.4873   -80.549   
8450000000  -5.3156   -81.006   -19.62    27.918   -20.381    23.148   -6.4845   -84.82   
8500000000  -5.5072   -82.998   -19.662    27.658   -20.333    22.238   -6.496   -86.53   
8550000000  -5.6449   -85.515   -19.447    27.374   -19.987    21.242   -6.7773   -88.006   
8600000000  -5.7691   -87.312   -19.326    26.691   -20.189    17.998   -7.0762   -91.074   
8650000000  -5.9536   -89.407   -19.33    26.516   -20.615    18.48   -7.1544   -95.875   
8700000000  -6.0633   -91.884   -19.201    26.59   -20.489    20.944   -7.0242   -98.284   
8750000000  -6.2836   -93.827   -19.162    26.934   -19.774    22.154   -7.1617   -99.329   
8800000000  -6.4055   -96.726   -18.829    25.499   -19.189    17.032   -7.458   -102.09   
8850000000  -6.5662   -98.692   -18.707    24.495   -19.976    13.011   -7.5868   -106.39   
8900000000  -6.7556   -101.32   -18.768    23.79   -20.454    17.401   -7.5973   -109.24   
8950000000  -6.8915   -103.99   -18.522    23.772   -19.737    19.414   -7.6712   -110.89   
9000000000  -7.0372   -106.31   -18.401    22.159   -19.616    17.041   -8.0102   -113.65   
9050000000  -7.2143   -109.2   -18.252    20.668   -19.272    16.026   -8.1325   -118.19   
9100000000  -7.3525   -112.05   -17.987    19.288   -19.672    10.9   -7.9934   -122.17   
9150000000  -7.5311   -114.65   -18.169    17.143   -20.255    12.527   -7.9462   -123.91   
9200000000  -7.6701   -117.92   -18.097    15.833   -19.837    17.139   -8.2353   -125.9   
9250000000  -7.7733   -120.66   -18.12    14.101   -19.254    15.363   -8.4987   -130.63   
9300000000  -7.9113   -123.83   -17.971    12.068   -18.902    10.925   -8.3386   -135.38   
9350000000  -8.0314   -127.36   -17.911    9.451   -19.506    5.9367   -8.1326   -138.26   
9400000000  -8.1188   -130.19   -18.241    7.2908   -19.939    9.0747   -8.2382   -139.76   
9450000000  -8.2555   -133.78   -18.311    5.5289   -19.263    9.1708   -8.4731   -143.39   
9500000000  -8.2642   -137.2   -18.436    3.013   -19.387    4.6239   -8.436   -148.3   
9550000000  -8.4139   -140.65   -18.751    1.0973   -19.48    4.3149   -8.2363   -151.39   
9600000000  -8.4262   -144.49   -18.866   -1.0052   -19.69   -.7237   -8.2712   -153.44   
9650000000  -8.4445   -147.8   -19.466   -3.9592   -20.532    .5397   -8.5527   -157.73   
9700000000  -8.5   -151.74   -19.901   -5.132   -20.447    2.016   -8.483   -162.37   
9750000000  -8.4522   -155.55   -20.443   -6.7772   -20.834   -2.7727   -8.2931   -166.32   
9800000000  -8.4656   -159.25   -21.284   -7.7715   -21.648   -3.6777   -8.3116   -169.06   
9850000000  -8.4172   -163.49   -22.359   -8.112   -22.603   -4.2352   -8.4429   -173.96   
9900000000  -8.3352   -167.76   -24.084   -4.6404   -24.14    1.1742   -8.3431   -179.34   
9950000000  -8.3163   -172.53   -26.135    8.5048   -25.803    12.667   -8.0284    175.24   
10000000000  -8.3304   -178.18   -26.181    43.841   -26.076    45.764   -7.8786    170.44   
10050000000  -8.7476    175.58   -20.277    63.828   -19.66    65.892   -8.3806    163.73   

