!
! AVX THIN FILM OPERATION
!
! 0805 Size Low Pass Filter P/N  LP0805A0800AWTR
!
! Network Analyzer HP8720ES.07.64: Feb 23, 2000 Serial No. US39172382
! Hewlett-Packard
!  2 Feb 2003  02:44:22
! Frequency       S11                S21                S12                S22
!
#	 HZ  	S  	DB 	R  	50 
50000000  -29.018   -93.702   -.0235   -4.6046   -.0029   -4.2943   -29.375   -85.145   
100000000  -22.839   -99.716   -.0364   -8.5872   -.0570   -8.6559   -22.776   -101.66   
150000000  -19.395   -106.03   -.0993   -12.818   -.0863   -12.66   -19.605   -108.29   
200000000  -17.006   -112.23   -.0962   -17.217   -.1440   -17.016   -17.147   -113.32   
250000000  -15.25   -118.38   -.1676   -21.26   -.1788   -21.574   -15.289   -119.05   
300000000  -13.885   -124.26   -.2281   -25.595   -.2717   -25.637   -13.881   -125.66   
350000000  -12.811   -130.27   -.3007   -29.892   -.3513   -29.902   -12.674   -132.17   
400000000  -11.978   -136.3   -.3534   -34.199   -.3750   -34.255   -11.71   -137.14   
450000000  -11.339   -142.45   -.4129   -38.574   -.3633   -38.805   -11.042   -142.62   
500000000  -10.896   -148.68   -.4489   -43.071   -.4314   -43.822   -10.638   -148.4   
550000000  -10.645   -155.12   -.4674   -47.972   -.5235   -48.161   -10.473   -154.28   
600000000  -10.572   -161.92   -.4863   -52.872   -.4317   -52.791   -10.458   -160.48   
650000000  -10.802   -169.4   -.4576   -58.355   -.3513   -58.851   -10.8   -167.38   
700000000  -11.379   -177.17   -.4473   -64.299   -.3944   -64.951   -11.586   -175.15   
750000000  -12.538    173.83   -.3603   -71.16   -.3654   -71.292   -12.969    175.13   
800000000  -14.825    163.21   -.3244   -78.88   -.3238   -79.166   -15.69    163.77   
850000000  -20.024    147.54   -.2906   -88.201   -.3144   -88.183   -21.723    143.96   
900000000  -31.536    6.416   -.3892   -99.234   -.3888   -98.996   -26.254   -.3529   
950000000  -14.907   -44.484   -.6751   -112.27   -.7276   -111.94   -14.137   -40.604   
1000000000  -8.6524   -64.519   -1.3843   -127.01   -1.3796   -126.58   -8.4312   -62.163   
1050000000  -5.0391   -83.896   -2.6093   -142.57   -2.7317   -143.6   -5.0053   -81.858   
1100000000  -2.9374   -101.81   -4.491   -157.49   -4.9747   -156.75   -3.041   -100.14   
1150000000  -1.741   -117.34   -6.7127   -170.79   -6.7288   -166.75   -1.8949   -116.3   
1200000000  -1.0585   -130.43   -9.4227    177.99   -9.3275    177.48   -1.2449   -129.68   
1250000000  -.7390   -140.92   -12.415    168.98   -12.676    169.65   -.8554   -140.52   
1300000000  -.5614   -149.92   -15.664    161.93   -15.454    163.32   -.6907   -149.54   
1350000000  -.4425   -157.09   -19.19    156.44   -19.241    155.05   -.4863   -157.26   
1400000000  -.3954   -163.85   -23.229    152.38   -23.502    152.66   -.4297   -164.07   
1450000000  -.3287   -169.53   -28.172    150.25   -28.276    150.04   -.3638   -169.61   
1500000000  -.3081   -174.46   -35.418    155.42   -35.587    153.55   -.3049   -174.79   
1550000000  -.2846   -179.4   -47.491   -144.38   -47.363   -138.75   -.3105   -179.52   
1600000000  -.2555    176.29   -39.308   -69.131   -39.118   -68.666   -.2299    175.99   
1650000000  -.2482    172.36   -34.884   -61.867   -34.579   -62.641   -.1717    172.05   
1700000000  -.2043    168.56   -33.147   -61.826   -32.906   -66.238   -.2260    168.01   
1750000000  -.2066    165.03   -32.414   -62.748   -32.706   -63.717   -.2086    164.38   
1800000000  -.1935    161.56   -32.251   -63.559   -31.843   -62.726   -.1342    160.36   
1850000000  -.1621    158.24   -32.728   -64.954   -32.102   -68.86   -.0046    157.85   
1900000000  -.1736    155.27   -33.693   -66.716   -33.426   -71.69    .0223    154.45   
1950000000  -.1589    152.16   -35.084   -68.643   -35.013   -73.282    .0207    151.67   
2000000000  -.1216    149.25   -37.376   -69.99   -37.302   -70.693    .0421    148.82   
2050000000  -.1421    146.38   -40.591   -69.557   -40.234   -69.861    .0852    146.35   
2100000000  -.1147    143.62   -47.011   -64.527   -47.022   -68.688    .0279    144.38   
2150000000  -.1259    141.05   -58.184    83.784   -57.706    53.832    .0073    141.83   
2200000000  -.1172    138.32   -43.994    101.59   -44.3    91.086   -.0208    139.13   
2250000000  -.0930    135.79   -38.363    96.651   -38.999    95.364   -.0642    136.48   
2300000000  -.1077    133.32   -35.009    97.052   -34.814    102.26   -.0942    133.92   
2350000000  -.1013    130.88   -32.387    96.152   -31.499    94.822   -.1464    131.4   
2400000000  -.1013    128.51   -30.599    94.485   -30.158    88.48   -.1526    128.74   
2450000000  -.0910    126.12   -28.838    94.699   -29.403    89.197   -.1663    126.3   
2500000000  -.0924    123.78   -27.458    91.63   -28.476    93.934   -.1494    124.18   
2550000000  -.0986    121.56   -26.511    90.942   -26.205    95.996   -.231    121.56   
2600000000  -.0961    119.33   -25.309    90.346   -24.711    87.01   -.1965    118.85   
2650000000  -.1125    117.04   -24.513    88.235   -24.61    83.565   -.1520    116.5   
2700000000  -.0965    114.94   -23.704    87.376   -24.122    84.089   -.1292    114.26   
2750000000  -.1118    112.73   -22.917    85.758   -23.911    84.619   -.1670    112.29   
2800000000  -.1225    110.48   -22.481    84.536   -22.724    89.68   -.2240    109.96   
2850000000  -.1203    108.47   -21.74    84.246   -21.006    83.598   -.1512    107.52   
2900000000  -.1391    106.37   -21.275    81.648   -21.047    76.238   -.1339    105.69   
2950000000  -.1441    104.04   -20.871    81.028   -21.276    76.506   -.1408    104   
3000000000  -.1592    102.12   -20.458    79.739   -21.298    77.868   -.2376    101.89   
3050000000  -.1849    99.941   -20.372    78.389   -20.563    82.027   -.2584    99.426   
3100000000  -.1944    97.907   -19.97    78.143   -19.298    77.157   -.2576    97.219   
3150000000  -.2199    95.713   -19.887    76.168   -19.598    70.508   -.2840    95.268   
3200000000  -.2267    93.415   -19.978    75.488   -20.124    70.083   -.3750    92.791   
3250000000  -.2476    91.088   -20.131    75.815   -20.747    70.561   -.3366    90.287   
3300000000  -.3064    88.421   -20.908    74.776   -21.345    75.521   -.3432    87.843   
3350000000  -.3606    85.262   -22.438    78.846   -22.302    78.002   -.4145    84.913   
3400000000  -.6459    80.7   -26.122    111.47   -26.271    110.59   -.6191    81.469   
3450000000  -2.3312    75.339   -15.404    160.66   -15.272    157.47   -1.6422    77.544   
3500000000  -1.9161    94.136   -9.5348    107.47   -9.9006    103.84   -1.5988    88.502   
3550000000  -.7669    88.771   -11.598    82.606   -12.253    81.653   -.7531    85.776   
3600000000  -.5633    84.74   -12.615    76.244   -12.927    80.011   -.6588    82.463   
3650000000  -.5100    81.836   -13.069    73.505   -12.967    73.853   -.6441    79.725   
3700000000  -.5358    79.422   -13.394    70.99   -13.548    70.698   -.6303    77.193   
3750000000  -.5215    77.305   -13.517    70.164   -13.642    70.539   -.6019    75.321   
3800000000  -.562    75.244   -13.593    68.898   -13.588    69.721   -.6811    73.522   
3850000000  -.5821    73.176   -13.527    68.195   -13.528    66.4   -.7947    71.19   
3900000000  -.5873    71.414   -13.493    67.474   -14.126    65.097   -.7788    69.185   
3950000000  -.6436    69.465   -13.603    66.721   -13.779    70.693   -.7736    66.745   
4000000000  -.6583    67.551   -13.331    66.528   -12.566    65.399   -.7983    65.256   
4050000000  -.7129    65.842   -13.494    65.672   -13.511    57.844   -.8227    63.332   
4100000000  -.7359    63.954   -13.246    65.278   -14.143    62.95   -.8791    61.198   
4150000000  -.7291    62.2   -13.155    64.707   -13.598    64.424   -.9176    59.205   
4200000000  -.8139    60.528   -13.115    64.146   -13.643    64.392   -.9009    57.568   
4250000000  -.8291    58.546   -13.032    63.701   -13.168    66.956   -.9821    55.974   
4300000000  -.8667    57.038   -12.96    63.913   -12.371    64.159   -1.0152    53.855   
4350000000  -.9094    55.193   -12.771    63.57   -12.382    58.699   -1.0273    52.278   
4400000000  -.9381    53.534   -12.556    62.151   -13.238    58.399   -.9908    50.654   
4450000000  -.9900    51.803   -12.8    62.292   -13.046    67.212   -1.0271    48.849   
4500000000  -1.0221    49.93   -12.426    63.051   -11.382    65.919   -1.0883    47.648   
4550000000  -1.0751    48.44   -12.405    62.139   -11.452    56.31   -1.1523    45.946   
4600000000  -1.1426    46.659   -12.332    61.924   -12.155    57.498   -1.2069    44.504   
4650000000  -1.13    44.802   -12.111    61.441   -12.032    57.736   -1.2441    42.891   
4700000000  -1.2103    43.399   -12.108    61.202   -12.403    58.921   -1.3081    41.145   
4750000000  -1.2507    41.416   -11.942    61.194   -11.949    63.148   -1.4334    39.434   
4800000000  -1.2672    39.9   -11.74    60.658   -11.286    59.858   -1.458    37.532   
4850000000  -1.3527    38.362   -11.864    60.647   -11.361    56.514   -1.5049    35.762   
4900000000  -1.3764    36.425   -11.497    60.783   -11.749    55.934   -1.5675    33.993   
4950000000  -1.4173    34.996   -11.477    60.482   -11.969    59.837   -1.5858    31.984   
5000000000  -1.4941    33.147   -11.406    60.211   -11.12    62.673   -1.6276    30.155   
5050000000  -1.5077    31.561   -11.206    60.139   -10.63    57.16   -1.6451    28.634   
5100000000  -1.5619    30.256   -11.166    60.149   -10.956    55.934   -1.688    27.073   
5150000000  -1.6168    28.082   -10.867    60.114   -10.75    54.959   -1.703    25.313   
5200000000  -1.6538    26.787   -10.776    59.112   -11.184    53.583   -1.7548    23.825   
5250000000  -1.7438    25.01   -10.809    59.26   -11.181    57.257   -1.7394    22.297   
5300000000  -1.7633    23.29   -10.513    59.464   -10.655    55.58   -1.7839    21.07   
5350000000  -1.8107    21.926   -10.41    58.52   -10.88    53.159   -1.8733    19.72   
5400000000  -1.8907    19.877   -10.284    58.55   -10.869    53.935   -1.9115    18.129   
5450000000  -1.9124    18.497   -10.138    58.314   -10.949    54.029   -1.9177    17.003   
5500000000  -1.9866    16.967   -10.058    58.009   -10.899    55.849   -1.9971    15.683   
5550000000  -2.0251    15.079   -9.8324    57.479   -10.548    54.654   -2.117    14.61   
5600000000  -2.0593    13.624   -9.6944    56.779   -10.621    54.413   -2.2827    12.935   
5650000000  -2.1615    11.944   -9.6444    56.42   -10.099    56.039   -2.3787    11.148   
5700000000  -2.1823    10.191   -9.3969    56.201   -9.7875    53.536   -2.4928    9.6103   
5750000000  -2.24    8.8522   -9.3263    55.659   -10.039    53.063   -2.4603    7.917   
5800000000  -2.3092    6.909   -9.1743    55.162   -9.7646    52.876   -2.6624    5.7582   
5850000000  -2.3273    5.614   -9.0129    54.711   -9.749    51.923   -2.7131    3.7532   
5900000000  -2.419    3.9578   -9.0004    53.944   -9.6119    53.517   -2.6674    2.4348   
5950000000  -2.452    2.244   -8.7842    53.547   -9.225    52.219   -2.6875    1.0286   
6000000000  -2.5084    .9008   -8.714    52.966   -9.2217    49.835   -2.7884   -.2801   
6050000000  -2.5614   -.9585   -8.6085    52.336   -9.2723    49.002   -2.8804   -2.5722   
6100000000  -2.5788   -2.3772   -8.4093    51.765   -9.4159    49.743   -2.8573   -4.2352   
6150000000  -2.695   -3.8177   -8.429    51.019   -9.2525    52.213   -2.818   -5.1924   
6200000000  -2.7421   -5.6772   -8.3113    50.517   -8.7832    51.155   -2.9811   -5.8406   
6250000000  -2.7651   -7.0518   -8.2007    50.249   -8.6395    48.56   -3.081   -7.6506   
6300000000  -2.8635   -8.5638   -8.1539    49.576   -8.6399    47.799   -3.1443   -9.8698   
6350000000  -2.8741   -10.458   -7.9322    48.679   -8.806    47.58   -3.0839   -10.746   
6400000000  -2.9487   -11.514   -7.9797    47.926   -8.7858    48.484   -3.2066   -12.093   
6450000000  -2.993   -13.786   -7.8778    47.914   -8.4029    49.673   -3.2589   -13.153   
6500000000  -3.0002   -14.954   -7.8426    47.362   -8.1095    46.14   -3.4349   -14.992   
6550000000  -3.149   -16.092   -7.791    46.965   -8.2057    44.728   -3.3944   -17.357   
6600000000  -3.1787   -18.09   -7.586    45.694   -8.3792    44.448   -3.4102   -17.856   
6650000000  -3.2274   -19.304   -7.6081    45.275   -8.4149    44.67   -3.5685   -19.205   
6700000000  -3.3192   -20.882   -7.5955    44.743   -8.2536    44.887   -3.6616   -21.294   
6750000000  -3.3319   -22.484   -7.502    44.109   -8.0421    44.519   -3.5518   -22.935   
6800000000  -3.4476   -23.606   -7.5463    44.175   -7.9588    44.073   -3.5938   -23.73   
6850000000  -3.4784   -25.638   -7.3222    43.477   -8.0254    42.014   -3.7191   -24.429   
6900000000  -3.5442   -26.716   -7.3237    42.455   -8.1659    41.3   -3.9188   -26.344   
6950000000  -3.6374   -28.227   -7.3633    42.133   -8.1045    42.377   -3.939   -28.162   
7000000000  -3.6703   -29.936   -7.2959    41.891   -7.8261    42.722   -3.873   -28.842   
7050000000  -3.7417   -30.984   -7.2576    41.674   -7.719    41.221   -4.0868   -29.46   
7100000000  -3.8281   -32.91   -7.1225    40.912   -7.7793    40.226   -4.3049   -30.841   
7150000000  -3.8786   -34.071   -7.1474    40.397   -7.6751    39.694   -4.3965   -33.617   
7200000000  -3.9796   -35.417   -7.1678    40.316   -7.6351    39.442   -4.3347   -34.781   
7250000000  -4.0286   -37.219   -7.0058    39.566   -7.6771    39.367   -4.4034   -35.318   
7300000000  -4.0846   -38.436   -7.1244    39.01   -7.5733    39.393   -4.7305   -36.998   
7350000000  -4.191   -39.876   -6.9902    39.364   -7.1656    38.721   -4.7968   -40.066   
7400000000  -4.2335   -41.407   -6.8857    38.399   -7.0498    36.365   -4.7199   -41.752   
7450000000  -4.3346   -42.689   -6.978    37.896   -7.3545    35.3   -4.7133   -41.988   
7500000000  -4.4365   -44.361   -6.9214    37.619   -7.4137    35.98   -5.0065   -42.671   
7550000000  -4.4934   -45.567   -6.8801    37.314   -7.1329    35.233   -5.2153   -45.308   
7600000000  -4.6214   -46.973   -6.8817    36.915   -7.0874    34.461   -5.1486   -47.652   
7650000000  -4.7011   -48.522   -6.8455    36.284   -7.0829    35.182   -5.0069   -48.312   
7700000000  -4.7967   -49.541   -6.9078    36.406   -6.9204    35.405   -5.2117   -48.115   
7750000000  -4.8887   -51.365   -6.7337    36.039   -6.7404    33.25   -5.4849   -49.743   
7800000000  -4.9622   -52.57   -6.8181    34.91   -6.8835    31.704   -5.572   -52.657   
7850000000  -5.1407   -53.981   -6.9018    35.236   -7.1137    34.174   -5.5084   -53.502   
7900000000  -5.2025   -55.35   -6.7749    35.132   -6.7327    35.778   -5.5456   -52.854   
7950000000  -5.2973   -56.595   -6.7724    34.52   -6.6623    32.717   -5.8736   -53.862   
8000000000  -5.4552   -58.182   -6.8228    34.536   -6.7042    32.657   -6.1347   -56.223   
8050000000  -5.5456   -59.567   -6.7591    34.357   -6.5061    31.869   -6.0678   -58.175   
8100000000  -5.7037   -60.959   -6.7587    34.001   -6.7501    29.71   -6.1305   -58.405   
8150000000  -5.8484   -62.636   -6.7789    33.659   -7.1728    30.004   -6.5269   -58.752   
8200000000  -5.9869   -63.907   -6.7673    33.732   -7.1613    31.591   -6.9099   -60.373   
8250000000  -6.1339   -64.72   -6.7525    34.729   -6.6453    31.837   -6.9929   -62.847   
8300000000  -6.2224   -67.012   -6.6198    33.409   -6.5661    27.161   -6.9876   -64.266   
8350000000  -6.444   -68.353   -6.6862    33.707   -7.3446    25.137   -7.4176   -64.683   
8400000000  -6.7199   -69.754   -6.7317    33.735   -7.6591    29.284   -7.8788   -65.988   
8450000000  -6.7827   -70.958   -6.5809    34.538   -7.0623    29.876   -7.9737   -68.864   
8500000000  -6.9957   -72.333   -6.6049    34.42   -7.0305    29.314   -7.9991   -70.583   
8550000000  -7.1319   -73.865   -6.4883    34.525   -6.6889    28.964   -8.1921   -70.811   
8600000000  -7.2744   -75.688   -6.3487    34.614   -6.7448    25.163   -8.6018   -72.854   
8650000000  -7.5693   -77.216   -6.3261    34.665   -7.2016    25.611   -8.9609   -76.474   
8700000000  -7.7877   -78.452   -6.2569    35.13   -7.1967    28.61   -9.0045   -77.797   
8750000000  -7.9749   -78.658   -6.1639    35.795   -6.5831    31.326   -9.0543   -76.535   
8800000000  -7.9219   -80.765   -5.9929    35.35   -5.658    27.496   -9.0762   -78.534   
8850000000  -8.2314   -83.595   -5.7693    35.593   -6.2491    21.55   -9.4944   -83.754   
8900000000  -8.7017   -84.738   -5.7524    35.053   -7.0145    25.089   -9.898   -85.246   
8950000000  -8.8273   -84.893   -5.6277    35.612   -6.4906    29.288   -9.7877   -83.677   
9000000000  -8.9572   -86.403   -5.4187    35.447   -6.169    27.359   -9.9829   -84.229   
9050000000  -9.0877   -87.968   -5.2809    34.504   -5.7482    27.754   -10.179   -86.357   
9100000000  -9.2457   -91.259   -5.0074    35.105   -5.6964    22.258   -10.176   -91.145   
9150000000  -9.7911   -92.878   -4.9161    33.593   -6.4516    21.827   -10.598   -91.961   
9200000000  -10.069   -92.832   -4.8104    32.949   -6.4881    27.334   -10.98   -88.496   
9250000000  -10.064   -93.117   -4.6384    32.96   -5.8299    28.978   -11.19   -88.403   
9300000000  -9.9488   -95.293   -4.4014    32.027   -5.0544    28.319   -10.9   -92.557   
9350000000  -10.176   -100.41   -4.1538    31.652   -4.982    21.672   -10.789   -98.604   
9400000000  -10.786   -101.62   -4.0781    29.961   -5.7475    21.866   -11.526   -98.145   
9450000000  -10.778   -101.66   -3.9727    28.85   -5.2968    26.492   -11.725   -95.143   
9500000000  -10.704   -104.7   -3.7775    28.563   -4.6798    23.925   -11.671   -101.19   
9550000000  -11.023   -106.69   -3.6709    26.9   -4.7704    24.505   -11.559   -103.88   
9600000000  -10.917   -110.82   -3.4615    26.746   -4.1755    21.561   -11.139   -105.41   
9650000000  -11.48   -115.03   -3.3605    24.169   -4.6589    17.835   -12.138   -108.75   
9700000000  -11.736   -115.17   -3.3506    22.823   -4.7589    21.944   -12.735   -109.2   
9750000000  -11.585   -118.3   -3.152    22.278   -4.1596    21.341   -12.146   -114.04   
9800000000  -11.888   -122.56   -3.0774    20.472   -4.1881    18.658   -12.084   -116.74   
9850000000  -12.013   -127.18   -3.0107    18.887   -3.9176    16.37   -12.524   -118.5   
9900000000  -12.312   -130.26   -3.0268    17.151   -4.0155    15.466   -13.509   -123.67   
9950000000  -12.256   -132.33   -2.9103    15.715   -3.7143    17.489   -13.133   -129.09   
10000000000  -12.346   -138.96   -2.7767    14.425   -3.3966    12.49   -12.49   -136.33   
10050000000  -12.828   -142.32   -2.9067    12.236   -3.8095    11.078   -13.214   -137.87   

