!
! AVX THIN FILM OPERATION
!
! 0805 Size Low Pass Filter P/N  LP0805A1842AWTR
!
!	Network	Analyzer	HP8720ES.07.64:	Feb	"23,"	2000	Serial	No.	US39172382
!	Hewlett-Packard								
!	2	Feb	2003	04:02:59					
!	Frequency	S11	S21	S12	S22				
#	HZ	S	DB	R	50				
50000000	-40.086	-89.157	-0.0014	-2.1231	0.0285	-2.2	-40.086	-40.358	
100000000	-33.394	-93.8	-0.0062	-3.8081	-0.0042	-3.9784	-33.394	-104.18	
150000000	-30.505	-98.554	-0.027	-5.9065	-0.0317	-5.8434	-30.505	-100.98	
200000000	-27.925	-102.71	-0.0095	-7.9308	-0.0439	-7.7907	-27.925	-104.72	
250000000	-26.198	-106.86	-0.0134	-9.749	-0.0413	-9.7847	-26.198	-109.03	
300000000	-24.163	-110.37	-0.0583	-11.449	-0.0522	-11.533	-24.163	-113.35	
350000000	-22.516	-114.37	-0.0535	-13.521	-0.0807	-13.468	-22.516	-118.2	
400000000	-21.271	-118.12	-0.0717	-15.289	-0.0766	-15.414	-21.271	-120.35	
450000000	-20.032	-121.93	-0.0843	-17.188	-0.0748	-17.332	-20.032	-122.76	
500000000	-19.105	-125.88	-0.0984	-19.225	-0.0817	-19.601	-19.105	-125.61	
550000000	-18.475	-129.5	-0.1064	-21.102	-0.1232	-21.312	-18.475	-128.69	
600000000	-17.79	-133.27	-0.1273	-23.085	-0.1158	-23.025	-17.79	-132.18
650000000	-17.159	-136.99	-0.1356	-24.994	-0.0733	-24.976	-17.159	-135.5
700000000	-16.664	-140.71	-0.149	-26.86	-0.1114	-27.241	-16.664	-138.9
750000000	-16.233	-144.71	-0.1517	-28.97	-0.141	-29.079	-16.233	-142.9
800000000	-15.959	-148.39	-0.1693	-31.008	-0.145	-31.137	-15.959	-147.05
850000000	-15.478	-152.16	-0.1522	-33.078	-0.1936	-33.153	-15.478	-151.94
900000000	-14.936	-155.84	-0.1759	-35.148	-0.1952	-34.596	-14.936	-156.27
950000000	-14.469	-159.65	-0.1836	-37.137	-0.1224	-36.606	-14.469	-160.85
1000000000	-14.15	-163.68	-0.177	-39.433	-0.1536	-39.328	-14.15	-164.99
1050000000	-13.823	-167.27	-0.1859	-41.44	-0.3053	-41.314	-13.823	-169.35
1100000000	-13.24	-170.94	-0.2061	-43.569	-0.2434	-42.308	-13.24	-173.85
1150000000	-12.752	-175.34	-0.1716	-45.768	-0.0402	-44.996	-12.752	-178.11
1200000000	-12.519	-179.37	-0.2112	-47.984	-0.1711	-48.503	-12.519	178.65
1250000000	-12.286	176.83	-0.1933	-50.452	-0.2495	-49.988	-12.286	175.2
1300000000	-12.056	172.56	-0.2109	-52.759	-0.1282	-52.653	-12.056	170.72
1350000000	-11.694	168.52	-0.2181	-55.182	-0.2416	-55.647	-11.694	167.29
1400000000	-11.512	164.24	-0.198	-57.703	-0.2518	-57.593	-11.512	164.32
1450000000	-11.597	159.85	-0.2113	-60.209	-0.1914	-60.525	-11.597	161.15
1500000000	-11.707	155.45	-0.203	-62.963	-0.2653	-63.733	-11.707	156.91
1550000000	-11.74	151.08	-0.2363	-65.484	-0.291	-66.172	-11.74	151.85
1600000000	-11.685	146.41	-0.2181	-68.39	-0.2606	-68.335	-11.685	147.65
1650000000	-11.917	141.16	-0.1864	-71.294	-0.0872	-71.612	-11.917	143.46
1700000000	-12.392	136.06	-0.2275	-74.46	-0.2062	-75.865	-12.392	138.35
1750000000	-12.706	130.97	-0.2006	-77.493	-0.3205	-77.666	-12.706	132.41
1800000000	-12.903	124.62	-0.1713	-80.717	-0.0126	-80.785	-12.903	125.96
1850000000	-13.434	118.07	-0.1821	-84.291	-0.0274	-85.588	-13.434	120.47
1900000000	-14.44	110.76	-0.1728	-87.906	-0.1287	-89.507	-14.44	115.19
1950000000	-15.886	102.38	-0.1768	-91.836	-0.2047	-93.087	-15.886	107.08
2000000000	-17.584	91.965	-0.1774	-96.058	-0.2162	-96.287	-17.584	94.772
2050000000	-19.644	77.617	-0.1822	-100.29	-0.1158	-100.62	-19.644	76.91
2100000000	-22.525	54.862	-0.2006	-105	-0.1963	-105.82	-22.525	43.813
2150000000	-23.564	17.179	-0.2784	-110.06	-0.2532	-110.51	-23.564	-12.014
2200000000	-20.061	-28.198	-0.3305	-115.44	-0.3159	-115.61	-20.061	-48.032
2250000000	-16.395	-59.601	-0.4562	-121.19	-0.4321	-121.74	-16.395	-66.128
2300000000	-13.559	-80.005	-0.6597	-127.46	-0.7909	-127.95	-13.559	-80.942
2350000000	-11.267	-94.591	-0.8248	-133.97	-0.9356	-132.46	-11.267	-93.844
2400000000	-9.159	-107.31	-1.1126	-140.89	-0.8205	-139.7	-9.159	-106.69
2450000000	-7.402	-119.75	-1.5664	-147.94	-1.1227	-149.7	-7.402	-119.12
2500000000	-5.8592	-131.48	-1.8847	-155.06	-2.0959	-159.57	-5.8592	-130.81
2550000000	-4.676	-142	-2.6178	-163.88	-3.1088	-162.73	-4.676	-141.64
2600000000	-3.5398	-151.92	-3.2662	-170.54	-2.9182	-168.2	-3.5398	-151.44
2650000000	-2.6782	-161.36	-4.0698	-178.07	-3.5603	179.24	-2.6782	-161.45
2700000000	-1.9134	-170.18	-5.1221	174.28	-4.8556	170.49	-1.9134	-169.96
2750000000	-1.3558	-178.32	-5.976	167.72	-6.4199	161.42	-1.3558	-177.86
2800000000	-1.0141	174.86	-7.3666	160.27	-8.1379	161.13	-1.0141	175.2
2850000000	-0.599	167.86	-8.5506	155.2	-8.1375	159.08	-0.599	168.4
2900000000	-0.3454	161.85	-9.7186	149.38	-8.9617	146.58	-0.3454	162.69
2950000000	-0.2258	156.25	-11.192	144.28	-10.963	138.85	-0.2258	157.25
3000000000	-0.1248	150.72	-12.425	139.44	-12.936	134.12	-0.1248	152.13
3050000000	-0.0066	146.28	-14.098	134.42	-14.698	135.77	-0.0066	147.38
3100000000	0.014	141.49	-15.562	131.36	-14.986	133.85	0.014	142.81
3150000000	-0.0214	137.14	-17.021	127.27	-16.273	123.4	-0.0214	138.61
3200000000	-0.0198	133.31	-18.751	122.99	-18.424	118.28	-0.0198	134.22
3250000000	0.059	129.25	-20.369	120.83	-20.509	114.33	0.059	129.99
3300000000	0.0701	125.7	-22.149	117	-22.632	115.5	0.0701	126.47
3350000000	0.0426	122.1	-24.012	114.51	-23.73	114.38	0.0426	122.56
3400000000	0.0056	118.63	-26.053	111.52	-25.89	107.1	0.0056	119.21
3450000000	0.0549	115.52	-28.197	108.54	-28.449	107.59	0.0549	115.43
3500000000	0.0852	112.23	-30.163	108.03	-30.355	105.56	0.0852	112.76
3550000000	0.0513	109.26	-32.831	106.21	-33.462	104.1	0.0513	109.53
3600000000	-0.0057	106.25	-35.767	104.69	-35.995	108.54	-0.0057	106.75
3650000000	-0.0338	103.15	-38.388	103.48	-38.411	105.62	-0.0338	103.94
3700000000	-0.0958	100.52	-42.212	104.84	-42.098	105.22	-0.0958	100.79
3750000000	-0.1288	97.798	-46.491	105.8	-46.8	108.28	-0.1288	98.153
3800000000	-0.1452	94.956	-52.297	118.46	-52.816	116.89	-0.1452	95.15
3850000000	-0.2039	92.438	-61.524	155.13	-59.648	164.62	-0.2039	92.271
3900000000	-0.2383	89.885	-60.285	-126.94	-59.528	-130.41	-0.2383	89.773
3950000000	-0.2299	87.278	-55.33	-108.67	-55.12	-100.23	-0.2299	86.494
4000000000	-0.2831	84.777	-53.934	-103.8	-52.942	-103.82	-0.2831	84.196
4050000000	-0.3247	82.297	-53.925	-93.796	-52.834	-109.1	-0.3247	81.716
4100000000	-0.3335	79.882	-55.507	-93.616	-55.775	-101.2	-0.3335	78.798
4150000000	-0.3809	77.426	-58.546	-95.479	-58.459	-96.626	-0.3809	76.06
4200000000	-0.3873	75.13	-67.593	-45.459	-65.549	-61.473	-0.3873	73.689
4250000000	-0.382	72.793	-62.127	64.541	-61.515	42.177	-0.382	71.213
4300000000	-0.3991	70.539	-54.817	65.702	-53.907	63.719	-0.3991	68.958
4350000000	-0.3936	68.213	-50.16	67.056	-49.16	62.093	-0.3936	66.668
4400000000	-0.3847	65.963	-46.679	67.97	-47.04	62.974	-0.3847	64.241
4450000000	-0.3759	63.673	-44.474	68.883	-44.684	73.31	-0.3759	62.095
4500000000	-0.4468	61.434	-42.112	69.513	-40.976	73.354	-0.4468	60.401
4550000000	-0.4794	59.315	-40.423	67.977	-39.073	63.335	-0.4794	58.248
4600000000	-0.5727	57.106	-38.832	68.195	-38.574	63.254	-0.5727	56.102
4650000000	-0.5814	54.783	-37.501	68.034	-37.197	63.772	-0.5814	53.863
4700000000	-0.6337	52.847	-36.461	67.563	-36.688	64.435	-0.6337	51.762
4750000000	-0.7364	50.484	-35.365	67.21	-35.226	68.503	-0.7364	49.893
4800000000	-0.7942	48.521	-34.266	66.426	-33.664	66.191	-0.7942	47.238
4850000000	-0.8435	46.419	-33.615	66.454	-32.962	61.86	-0.8435	44.871
4900000000	-0.863	44.212	-32.524	66.18	-32.705	60.513	-0.863	42.722
4950000000	-0.8997	42.304	-31.93	65.663	-32.312	64.273	-0.8997	40.546
5000000000	-0.9603	40.143	-31.205	64.895	-30.845	67.554	-0.9603	38.279
5050000000	-0.963	38.05	-30.447	64.935	-29.724	62.148	-0.963	36.146
5100000000	-0.9786	36.149	-29.948	64.829	-29.66	59.755	-0.9786	34.247
5150000000	-0.9906	33.81	-29.213	64.421	-28.929	58.799	-0.9906	32.217
5200000000	-1.0673	32.01	-28.649	63.122	-28.994	56.7	-1.0673	30.398
5250000000	-1.0639	29.906	-28.321	62.831	-28.66	60.415	-1.0639	28.31
5300000000	-1.1109	27.867	-27.665	63.066	-27.673	58.6	-1.1109	26.827
5350000000	-1.1725	25.95	-27.194	61.996	-27.521	55.239	-1.1725	25.367
5400000000	-1.2314	23.698	-26.718	61.71	-27.243	56.391	-1.2314	23.404
5450000000	-1.2712	21.911	-26.196	61.298	-27.011	56.466	-1.2712	21.511
5500000000	-1.3278	19.899	-25.842	60.458	-26.677	57.892	-1.3278	19.784
5550000000	-1.4263	17.829	-25.329	60.275	-26.035	56.651	-1.4263	18.453
5600000000	-1.5956	16.052	-24.952	59.233	-25.817	56.212	-1.5956	16.567
5650000000	-1.6845	13.925	-24.667	58.554	-25.03	57.783	-1.6845	14.459
5700000000	-1.7133	11.993	-24.108	57.693	-24.483	54.491	-1.7133	12.375
5750000000	-1.8009	10.173	-23.83	56.841	-24.488	53.925	-1.8009	10.603
5800000000	-2.0103	7.9321	-23.464	56.172	-24.008	53.384	-2.0103	8.1354
5850000000	-2.016	6.2567	-23.081	55.617	-23.837	52.192	-2.016	5.5096
5900000000	-1.964	4.2915	-22.847	54.613	-23.529	53.583	-1.964	3.6324
5950000000	-1.9934	2.3442	-22.482	53.707	-22.913	51.898	-1.9934	2.141
6000000000	-2.0852	0.5918	-22.289	53.087	-22.803	48.866	-2.0852	0.4545
6050000000	-2.2021	-1.6054	-21.972	52.026	-22.697	47.869	-2.2021	-2.1259
6100000000	-2.1243	-3.2753	-21.629	51.405	-22.712	48.937	-2.1243	-4.1707
6150000000	-2.098	-5.0647	-21.551	50.493	-22.357	51.167	-2.098	-5.2927
6200000000	-2.2697	-7.3553	-21.325	49.628	-21.717	49.57	-2.2697	-6.3954
6250000000	-2.4251	-9.0404	-21.127	48.587	-21.499	46.452	-2.4251	-8.6682
6300000000	-2.4091	-10.835	-20.907	47.694	-21.393	45.522	-2.4091	-11.456
6350000000	-2.3305	-12.861	-20.539	46.659	-21.456	45.158	-2.3305	-12.408
6400000000	-2.4558	-14.3	-20.415	45.019	-21.363	46.301	-2.4558	-13.997
6450000000	-2.6353	-16.109	-20.206	45.102	-20.659	46.134	-2.6353	-16.138
6500000000	-2.6699	-18.333	-20.186	44.5	-20.349	42.299	-2.6699	-17.614
6550000000	-2.6535	-19.944	-19.986	43.342	-20.518	40.636	-2.6535	-20.344
6600000000	-2.6398	-22.21	-19.713	41.777	-20.627	40.553	-2.6398	-20.889
6650000000	-2.7975	-23.792	-19.671	41.164	-20.56	41.001	-2.7975	-22.997
6700000000	-2.907	-25.782	-19.608	40.537	-20.267	40.725	-2.907	-25.532
6750000000	-2.7871	-27.563	-19.448	39.567	-19.996	39.716	-2.7871	-27.312
6800000000	-2.8402	-29.007	-19.412	39.451	-19.87	38.885	-2.8402	-28.066
6850000000	-3.0333	-31.395	-19.126	38.309	-19.959	37.061	-3.0333	-29.309
6900000000	-3.1646	-32.701	-19.088	37.073	-20.028	36.508	-3.1646	-31.895
6950000000	-3.1534	-34.57	-19.099	36.418	-19.794	36.965	-3.1534	-34.037
7000000000	-3.1252	-36.624	-18.962	35.923	-19.5	35.888	-3.1252	-35.104
7050000000	-3.3602	-37.904	-18.904	35.62	-19.495	34.444	-3.3602	-36.156
7100000000	-3.5599	-40.226	-18.758	34.218	-19.524	33.609	-3.5599	-38.099
7150000000	-3.6043	-41.703	-18.764	33.582	-19.387	32.69	-3.6043	-41.203
7200000000	-3.5621	-43.375	-18.757	33.232	-19.324	32.149	-3.5621	-42.822
7250000000	-3.6496	-45.515	-18.575	32.054	-19.327	31.72	-3.6496	-43.702
7300000000	-3.9469	-47.013	-18.703	31.543	-19.215	31.447	-3.9469	-46.063
7350000000	-3.9487	-48.814	-18.536	31.75	-18.897	29.806	-3.9487	-49.64
7400000000	-3.8827	-50.69	-18.452	30.174	-18.855	28.076	-3.8827	-50.971
7450000000	-3.8913	-52.133	-18.541	29.432	-18.992	27.415	-3.8913	-51.623
7500000000	-4.1642	-54.363	-18.487	28.981	-19.043	27.129	-4.1642	-53.642
7550000000	-4.3247	-55.844	-18.475	28.639	-18.88	25.924	-4.3247	-56.834
7600000000	-4.1607	-57.567	-18.494	27.979	-18.812	24.98	-4.1607	-59.242
7650000000	-4.1128	-59.572	-18.491	26.855	-18.781	25.288	-4.1128	-59.896
7700000000	-4.3347	-60.893	-18.596	27.057	-18.712	25.262	-4.3347	-60.739
7750000000	-4.5541	-63.193	-18.419	26.219	-18.68	23.215	-4.5541	-63.136
7800000000	-4.5383	-64.589	-18.581	24.841	-18.788	21.867	-4.5383	-66.037
7850000000	-4.4809	-66.603	-18.725	25.167	-18.925	23.592	-4.4809	-66.886
7900000000	-4.6532	-68.481	-18.639	24.822	-18.707	24.465	-4.6532	-67.24
7950000000	-4.9503	-70.076	-18.728	24.008	-18.827	22.095	-4.9503	-69.34
8000000000	-5.099	-72.164	-18.854	23.876	-18.947	21.587	-5.099	-72.236
8050000000	-5.0847	-74.081	-18.883	23.454	-18.893	20.667	-5.0847	-74.406
8100000000	-5.2214	-75.861	-19.034	22.872	-19.241	19.427	-5.2214	-74.949
8150000000	-5.6334	-78.008	-19.16	22.445	-19.742	19.98	-5.6334	-76.687
8200000000	-5.8832	-80.105	-19.361	22.663	-19.907	20.874	-5.8832	-79.949
8250000000	-5.9307	-81.793	-19.488	23.463	-19.73	19.925	-5.9307	-83.34
8300000000	-6.0611	-84.552	-19.663	22.048	-20.088	16.683	-6.0611	-84.897
8350000000	-6.356	-86.401	-20.101	22.332	-21.102	16.639	-6.356	-87.15
8400000000	-6.6363	-88.926	-20.58	23.47	-21.72	20.428	-6.6363	-90.967
8450000000	-6.7065	-91.566	-21.096	25.226	-21.965	20.985	-6.7065	-95.249
8500000000	-6.7014	-94.334	-22.156	28.374	-22.928	23.986	-6.7014	-98.203
8550000000	-6.8804	-97.934	-23.456	36.123	-24.22	31.652	-6.8804	-100.9
8600000000	-7.1845	-101.48	-24.806	59.513	-25.748	54.989	-7.1845	-106.05
8650000000	-7.2906	-106.01	-21.242	95.007	-22.043	89.626	-7.2906	-112.72
8700000000	-7.1945	-106.54	-14.576	92.911	-15.415	86.652	-7.1945	-115.04
8750000000	-7.2882	-94.061	-11.628	65.612	-12.253	60.454	-7.2882	-100.7
8800000000	-7.5776	-94.099	-11.767	44.988	-11.948	36.988	-7.5776	-98.763
8850000000	-7.8112	-98.319	-12.414	34.806	-13.513	22.791	-7.8112	-104.77
8900000000	-7.9381	-102.49	-13.179	28.872	-14.695	21.872	-7.9381	-108.91
8950000000	-8.3198	-106.01	-13.446	26.182	-14.589	21.397	-8.3198	-111.51
9000000000	-9.5351	-109.07	-13.719	22.889	-14.855	17.527	-9.5351	-114.99
9050000000	-11.544	-112.55	-13.825	20.533	-14.844	15.304	-11.544	-119.95
9100000000	-10.378	-115.76	-13.81	18.18	-15.47	10.169	-10.378	-124.33
9150000000	-9.1064	-118.51	-14.177	15.607	-16.104	11.176	-9.1064	-126.37
9200000000	-8.8913	-121.95	-14.205	13.881	-15.753	14.718	-8.8913	-128.35
9250000000	-8.9544	-124.81	-14.347	11.989	-15.356	12.04	-8.9544	-133.07
9300000000	-8.7095	-128.24	-14.252	9.8904	-15.157	7.4611	-8.7095	-137.86
9350000000	-8.395	-131.78	-14.272	7.3512	-15.817	3.4483	-8.395	-140.86
9400000000	-8.4384	-134.54	-14.555	5.0551	-16.116	6.4421	-8.4384	-142.34
9450000000	-8.6765	-138.12	-14.64	3.3124	-15.449	5.5481	-8.6765	-145.55
9500000000	-8.6589	-141.42	-14.681	0.78	-15.62	1.236	-8.6589	-150.48
9550000000	-8.4114	-144.77	-14.906	-0.8898	-15.566	0.6633	-8.4114	-153.39
9600000000	-8.3855	-148.47	-14.904	-3.3055	-15.768	-4.0443	-8.3855	-155.3
9650000000	-8.7235	-151.48	-15.285	-6.0109	-16.348	-2.6216	-8.7235	-158.74
9700000000	-8.7299	-155.15	-15.441	-7.6437	-15.909	-2.1025	-8.7299	-163.23
9750000000	-8.5068	-158.58	-15.606	-9.5746	-15.976	-7.435	-8.5068	-166.89
9800000000	-8.461	-161.73	-15.839	-10.997	-16.252	-9.1612	-8.461	-169.03
9850000000	-8.6733	-165.33	-16.014	-13.381	-16.429	-11.397	-8.6733	-172.62
9900000000	-8.6956	-168.53	-16.4	-15.294	-16.556	-11.35	-8.6956	-177.25
9950000000	-8.3433	-171.97	-16.534	-16.931	-16.362	-15.145	-8.3433	178.45
10000000000	-8.0003	-175.34	-16.69	-19.719	-17.067	-19.245	-8.0003	175.84
10050000000	-8.0345	-178.3	-17.162	-21.068	-17.144	-17.677	-8.0345	173.82
