!
! AVX THIN FILM OPERATION
!
! 0805 Size Low Pass Filter P/N  LP0805A1880AWTR
!
! Network Analyzer HP8720ES.07.64: Feb 23, 2000 Serial No. US39172382
! Hewlett-Packard
!  2 Feb 2003  04:11:01
! Frequency       S11                S21                S12                S22
# HZ  S  DB R  50 
50000000  -39.926   -85.254   -.0001   -1.9734    .0220   -2.0723   -40.086    14.258   
100000000  -33.759   -91.702   -.0309   -3.7683   -.0154   -3.9262   -33.394   -90.089   
150000000  -30.058   -97.751   -.0388   -5.8516    .0056   -5.6003   -30.505   -100.53   
200000000  -27.57   -102.04   -.0406   -7.6712   -.0329   -7.6561   -27.925   -104.04   
250000000  -25.606   -106.16   -.0240   -9.4592   -.0440   -9.6281   -26.198   -106.9   
300000000  -24.014   -109.87   -.0412   -11.253   -.0480   -11.279   -24.163   -112.58   
350000000  -22.645   -113.77   -.0451   -13.214   -.0783   -13.129   -22.516   -119.06   
400000000  -21.492   -117.67   -.0729   -15.087   -.0830   -15.083   -21.271   -119.77   
450000000  -20.45   -121.38   -.0818   -16.863   -.0549   -16.931   -20.032   -122.95   
500000000  -19.537   -125.49   -.0876   -18.855   -.0747   -19.113   -19.105   -125.71   
550000000  -18.716   -129.17   -.0968   -20.738   -.1141   -21.039   -18.475   -128.05   
600000000  -17.952   -132.8   -.1163   -22.6   -.1097   -22.474   -17.79   -131.31   
650000000  -17.234   -136.62   -.1113   -24.354   -.0659   -24.516   -17.159   -135.45   
700000000  -16.611   -140.43   -.1284   -26.294   -.1045   -26.664   -16.664   -138.57   
750000000  -16.042   -144.12   -.1412   -28.423   -.1203   -28.466   -16.233   -142.38   
800000000  -15.503   -148   -.1466   -30.374   -.1254   -30.542   -15.959   -146.56   
850000000  -15.007   -151.74   -.1373   -32.419   -.1706   -32.411   -15.478   -151.66   
900000000  -14.537   -155.41   -.1607   -34.406   -.1851   -33.933   -14.936   -155.9   
950000000  -14.08   -159.32   -.1599   -36.44   -.1189   -35.958   -14.469   -160.74   
1000000000  -13.675   -163.23   -.1388   -38.511   -.1228   -38.518   -14.15   -164.7   
1050000000  -13.368   -166.91   -.1667   -40.574   -.2592   -40.54   -13.823   -169.12   
1100000000  -12.978   -170.41   -.1641   -42.576   -.2201   -41.523   -13.24   -173.75   
1150000000  -12.625   -174.9   -.1455   -44.848   -.0221   -44.059   -12.752   -178.03   
1200000000  -12.424   -178.98   -.1641   -46.994   -.1525   -47.477   -12.519    178.59   
1250000000  -12.167    177.27   -.1696   -49.341   -.2254   -48.943   -12.286    175.3   
1300000000  -11.958    172.98   -.1766   -51.655   -.1051   -51.548   -12.056    170.79   
1350000000  -11.818    168.96   -.1713   -53.94   -.2024   -54.444   -11.694    167.41   
1400000000  -11.653    164.77   -.1799   -56.371   -.2141   -56.316   -11.512    164.7   
1450000000  -11.56    160.33   -.1831   -58.797   -.1606   -59.133   -11.597    161.62   
1500000000  -11.506    155.97   -.1598   -61.404   -.2271   -62.194   -11.707    157.23   
1550000000  -11.514    151.55   -.1887   -64.002   -.257   -64.557   -11.74    152.49   
1600000000  -11.507    147.07   -.1904   -66.592   -.2315   -66.782   -11.685    148.26   
1650000000  -11.588    141.74   -.1544   -69.42   -.0603   -69.833   -11.917    144.22   
1700000000  -11.811    136.67   -.1773   -72.525   -.1708   -73.884   -12.392    139.07   
1750000000  -12.042    131.59   -.1939   -75.451   -.2809   -75.664   -12.706    133.67   
1800000000  -12.301    125.36   -.1388   -78.482   -.0088   -78.486   -12.903    127.28   
1850000000  -12.854    118.67   -.1501   -81.946    .0003   -83.07   -13.434    121.63   
1900000000  -13.501    111.7   -.1410   -85.215   -.1102   -86.822   -14.44    116.88   
1950000000  -14.338    103.59   -.1598   -88.951   -.1731   -90.207   -15.886    109.32   
2000000000  -15.415    93.878   -.1680   -92.867   -.1985   -93.186   -17.584    97.802   
2050000000  -16.797    80.583   -.1742   -96.82   -.0988   -97.167   -19.644    81.865   
2100000000  -18.665    61.572   -.1869   -101.31   -.1838   -102.11   -22.525    53.803   
2150000000  -20.386    33.078   -.2458   -105.79   -.2498   -106.25   -23.564    5.9436   
2200000000  -20.24   -5.7774   -.3060   -110.55   -.2908   -110.83   -20.061   -34.378   
2250000000  -17.717   -40.582   -.3913   -115.84   -.3793   -116.39   -16.395   -54.623   
2300000000  -14.628   -64.542   -.5367   -121.59   -.6213   -122.11   -13.559   -70.35   
2350000000  -11.877   -81.149   -.6747   -127.39   -.7880   -126.42   -11.267   -83.647   
2400000000  -9.4349   -94.644   -.9025   -133.66   -.6998   -132.53   -9.159   -96.511   
2450000000  -7.4517   -107.31   -1.2412   -140.19   -.8560   -141.12   -7.402   -108.83   
2500000000  -5.7925   -119.25   -1.4658   -146.52   -1.583   -150.43   -5.8592   -120.75   
2550000000  -4.5639   -130.09   -2.0297   -154.84   -2.5026   -154.45   -4.676   -131.66   
2600000000  -3.4395   -140.2   -2.5438   -161.24   -2.3386   -158.96   -3.5398   -141.87   
2650000000  -2.5202   -150.03   -3.1679   -168.56   -2.6856   -170.34   -2.6782   -151.82   
2700000000  -1.945   -159.34   -4.0535   -176.03   -3.7274   -179.34   -1.9134   -160.83   
2750000000  -1.4022   -168.31   -4.7688    177   -5.0547    171.09   -1.3558   -169.46   
2800000000  -1.0751   -175.58   -5.9305    169.39   -6.7379    169.55   -1.0141   -176.85   
2850000000  -.8021    176.98   -7.0333    163.9   -6.7205    168.09   -.5990    176.23   
2900000000  -.4926    170.29   -8.0838    157.93   -7.3114    155.79   -.3454    169.79   
2950000000  -.4305    164.25   -9.4621    152.04   -9.135    147.3   -.2258    163.68   
3000000000  -.2818    158.28   -10.586    147.07   -11.031    141.56   -.1248    158.43   
3050000000  -.1751    153.4   -12.162    141.35   -12.732    142.48   -.0066    153.38   
3100000000  -.1720    148.27   -13.603    138.24   -13.06    141.3    .0140    148.68   
3150000000  -.0622    143.58   -14.989    133.57   -14.172    130.59   -.0214    143.95   
3200000000  -.0501    139.44   -16.649    129.18   -16.206    124.66   -.0198    139.2   
3250000000  -.0479    135.05   -18.187    126.59   -18.251    120.13    .0590    134.8   
3300000000   .0415    131.27   -19.935    122.56   -20.399    120.89    .0701    131.13   
3350000000  -.0118    127.56   -21.764    119.9   -21.511    119.99    .0426    127   
3400000000   .0362    123.78   -23.745    116.71   -23.577    112.45    .0056    123.38   
3450000000   .0488    120.56   -25.943    113.81   -26.204    112.37    .0549    119.6   
3500000000  -.0180    117.13   -27.987    112.49   -28.225    110.54    .0852    116.65   
3550000000   .0309    113.93   -30.817    110.82   -31.478    108.55    .0513    113.51   
3600000000   .0067    110.91   -34    110.31   -34.371    113.5   -.0057    110.54   
3650000000   .0155    107.57   -37.34    110.36   -37.38    112.38   -.0338    107.41   
3700000000  -.0133    104.93   -42.313    114.8   -42.338    114.51   -.0958    104.2   
3750000000  -.0264    102.06   -49.66    132.29   -50.604    134.54   -.1288    101.48   
3800000000  -.0310    99.157   -53.504   -137.99   -52.712   -132.57   -.1452    98.472   
3850000000  -.0687    96.571   -46.599   -104.07   -45.987   -106.61   -.2039    95.414   
3900000000  -.0756    93.837   -43.049   -97.811   -43.397   -102.37   -.2383    92.733   
3950000000  -.1031    91.288   -41.219   -96.202   -41.543   -93.503   -.2299    89.589   
4000000000  -.1233    88.709   -39.858   -95.044   -38.996   -95.37   -.2831    87.087   
4050000000  -.1370    86.09   -39.287   -95.972   -38.945   -104.53   -.3247    84.342   
4100000000  -.1664    83.703   -38.799   -96.287   -39.683   -100.48   -.3335    81.797   
4150000000  -.1807    81.124   -38.727   -96.891   -39.198   -98.712   -.3809    78.898   
4200000000  -.2109    78.794   -38.818   -97.012   -39.397   -99.404   -.3873    76.304   
4250000000  -.2460    76.458   -39.26   -98.639   -39.567   -95.749   -.3820    73.606   
4300000000  -.2678    74.132   -39.871   -98.723   -39.281   -96.851   -.3991    71.494   
4350000000  -.2947    71.741   -40.444   -97.888   -39.856   -102.08   -.3936    69.144   
4400000000  -.3330    69.421   -41.296   -98.759   -41.877   -105.21   -.3847    66.749   
4450000000  -.3710    67.131   -42.866   -99.528   -43.41   -95.335   -.3759    64.543   
4500000000  -.3876    64.795   -44.46   -97.364   -43.387   -92.28   -.4468    62.588   
4550000000  -.4351    62.735   -46.739   -96.647   -45.511   -101   -.4794    60.596   
4600000000  -.4766    60.458   -49.712   -90.305   -50.182   -95.462   -.5727    58.406   
4650000000  -.4909    58.219   -55.093   -79.074   -55.717   -77.702   -.5814    56.247   
4700000000  -.5475    56.114   -62.007   -3.3961   -61.571   -8.3936   -.6337    54.083   
4750000000  -.6049    53.738   -53.184    45.655   -53.037    49.169   -.7364    52.184   
4800000000  -.6039    51.803   -48.477    57.376   -47.617    56.753   -.7942    49.655   
4850000000  -.6528    49.719   -45.388    62.207   -44.585    57.658   -.8435    47.388   
4900000000  -.7037    47.431   -42.515    62.998   -42.379    57.903   -.863    45.019   
4950000000  -.7252    45.442   -40.428    62.669   -40.954    62.25   -.8997    42.933   
5000000000  -.8082    43.257   -39.033    64.304   -38.622    66.732   -.9603    40.563   
5050000000  -.8018    41.244   -37.504    64.826   -36.615    62.049   -.9630    38.441   
5100000000  -.8555    39.288   -36.285    64.384   -35.934    59.811   -.9786    36.552   
5150000000  -.9160    36.95   -35.102    64.681   -34.776    59.549   -.9906    34.486   
5200000000  -.9263    35.219   -34.055    64.041   -34.403    57.626   -1.0673    32.701   
5250000000  -1.0147    33.033   -33.405    64.086   -33.72    61.427   -1.0639    30.605   
5300000000  -1.0268    30.992   -32.39    64.733   -32.37    59.561   -1.1109    29.019   
5350000000  -1.0533    29.075   -31.616    63.482   -31.943    56.99   -1.1725    27.436   
5400000000  -1.122    26.808   -30.954    63.358   -31.409    57.757   -1.2314    25.615   
5450000000  -1.1649    24.946   -30.222    62.776   -31.008    57.535   -1.2712    23.637   
5500000000  -1.2278    23.078   -29.574    62.626   -30.47    59.233   -1.3278    21.866   
5550000000  -1.2652    20.892   -28.882    62.203   -29.634    57.93   -1.4263    20.68   
5600000000  -1.2939    19.005   -28.402    61.037   -29.246    57.733   -1.5956    18.631   
5650000000  -1.3963    16.978   -27.947    60.12   -28.309    59.532   -1.6845    16.469   
5700000000  -1.3846    14.886   -27.265    59.51   -27.602    56.265   -1.7133    14.253   
5750000000  -1.4529    13.188   -26.838    58.931   -27.513    55.852   -1.8009    12.608   
5800000000  -1.5098    10.997   -26.365    58.395   -26.948    55.418   -2.0103    10.039   
5850000000  -1.5068    9.2656   -25.888    57.52   -26.651    54.076   -2.016    7.6794   
5900000000  -1.6047    7.3306   -25.6    56.451   -26.275    55.642   -1.964    5.8228   
5950000000  -1.6151    5.246   -25.109    56.111   -25.545    53.959   -1.9934    4.2188   
6000000000  -1.6721    3.5582   -24.82    55.383   -25.305    51.021   -2.0852    2.6106   
6050000000  -1.7251    1.3568   -24.427    54.29   -25.141    50.055   -2.2021   -.1263   
6100000000  -1.7364   -.3584   -24.001    53.711   -25.114    50.797   -2.1243   -2.3126   
6150000000  -1.8448   -2.1066   -23.841    52.749   -24.699    53.295   -2.098   -3.1311   
6200000000  -1.8931   -4.3835   -23.584    51.946   -23.949    52.023   -2.2697   -4.2366   
6250000000  -1.8901   -6.0562   -23.307    50.728   -23.65    48.896   -2.4251   -6.6248   
6300000000  -1.9863   -7.8882   -22.99    49.846   -23.48    47.59   -2.4091   -9.0802   
6350000000  -2.0278   -9.8616   -22.607    48.88   -23.527    47.369   -2.3305   -10.491   
6400000000  -2.046   -11.039   -22.332    48.075   -23.268    48.892   -2.4558   -11.869   
6450000000  -2.1703   -13.103   -22.16    48.234   -22.786    48.785   -2.6353   -13.413   
6500000000  -2.1282   -15.462   -22.062    46.449   -22.237    44.242   -2.6699   -16.131   
6550000000  -2.2392   -16.956   -21.796    45.661   -22.28    42.991   -2.6535   -18.114   
6600000000  -2.2693   -19.258   -21.46    44.072   -22.401    42.65   -2.6398   -18.914   
6650000000  -2.3018   -20.783   -21.402    43.437   -22.308    43.112   -2.7975   -20.919   
6700000000  -2.3937   -22.761   -21.281    42.841   -21.971    43.049   -2.907   -23.205   
6750000000  -2.3969   -24.55   -21.064    41.984   -21.645    42.175   -2.7871   -25.285   
6800000000  -2.4971   -26.031   -20.999    41.832   -21.462    41.48   -2.8402   -26.19   
6850000000  -2.5385   -28.338   -20.662    40.743   -21.482    39.315   -3.0333   -27.209   
6900000000  -2.5805   -29.708   -20.55    39.525   -21.546    38.673   -3.1646   -29.67   
6950000000  -2.6728   -31.518   -20.547    38.706   -21.294    39.109   -3.1534   -31.822   
7000000000  -2.6927   -33.599   -20.36    38.179   -20.953    38.477   -3.1252   -32.925   
7050000000  -2.7545   -34.942   -20.292    37.842   -20.877    36.832   -3.3602   -33.753   
7100000000  -2.8533   -37.207   -20.101    36.722   -20.874    35.947   -3.5599   -35.843   
7150000000  -2.8768   -38.691   -20.062    35.951   -20.691    35.074   -3.6043   -39.01   
7200000000  -2.975   -40.339   -20.036    35.685   -20.575    34.618   -3.5621   -40.465   
7250000000  -3.0096   -42.435   -19.795    34.347   -20.578    34.195   -3.6496   -41.553   
7300000000  -3.0614   -43.899   -19.897    33.787   -20.432    33.815   -3.9469   -43.629   
7350000000  -3.1743   -45.725   -19.704    34.17   -20.041    32.503   -3.9487   -47.241   
7400000000  -3.2106   -47.491   -19.567    32.473   -19.943    30.447   -3.8827   -48.701   
7450000000  -3.3047   -49.024   -19.624    31.68   -20.074    29.747   -3.8913   -49.18   
7500000000  -3.3822   -51.218   -19.544    31.339   -20.091    29.645   -4.1642   -51.177   
7550000000  -3.4392   -52.642   -19.476    30.969   -19.873    28.418   -4.3247   -54.414   
7600000000  -3.5866   -54.338   -19.458    30.17   -19.766    27.426   -4.1607   -56.799   
7650000000  -3.6412   -56.348   -19.417    29.18   -19.67    27.79   -4.1128   -57.233   
7700000000  -3.7306   -57.663   -19.478    29.351   -19.572    27.692   -4.3347   -58.17   
7750000000  -3.8281   -59.869   -19.263    28.552   -19.481    25.571   -4.5541   -60.395   
7800000000  -3.8847   -61.252   -19.367    27.205   -19.562    24.075   -4.5383   -63.309   
7850000000  -4.046   -63.214   -19.467    27.364   -19.688    26.054   -4.4809   -64.028   
7900000000  -4.1168   -65.082   -19.329    27.087   -19.385    27.094   -4.6532   -64.436   
7950000000  -4.2106   -66.55   -19.35    26.277   -19.416    24.501   -4.9503   -66.227   
8000000000  -4.3531   -68.562   -19.411    26.062   -19.481    24.067   -5.099   -69.32   
8050000000  -4.4318   -70.429   -19.36    25.8   -19.315    22.915   -5.0847   -71.087   
8100000000  -4.5652   -72.099   -19.401    25.218   -19.595    21.592   -5.2214   -71.845   
8150000000  -4.6996   -74.128   -19.439    24.634   -19.989    22.043   -5.6334   -73.331   
8200000000  -4.7853   -76.064   -19.479    24.612   -20.05    22.95   -5.8832   -76.426   
8250000000  -4.9513   -77.581   -19.479    25.499   -19.658    22.063   -5.9307   -79.645   
8300000000  -5.0907   -80.067   -19.415    23.942   -19.753    18.259   -6.0611   -81.306   
8350000000  -5.1869   -81.595   -19.529    23.752   -20.524    17.161   -6.356   -82.767   
8400000000  -5.3952   -83.826   -19.667    24.015   -20.802    20.483   -6.6363   -86.127   
8450000000  -5.4681   -85.971   -19.599    24.434   -20.378    19.936   -6.7065   -90.161   
8500000000  -5.6715   -88.032   -19.768    24.329   -20.494    19.458   -6.7014   -92.462   
8550000000  -5.8036   -90.511   -19.716    24.196   -20.379    18.379   -6.8804   -94.042   
8600000000  -5.9212   -92.51   -19.795    23.515   -20.797    15.889   -7.1845   -96.998   
8650000000  -6.1193   -94.758   -20.028    23.739   -21.36    16.76   -7.2906   -101.63   
8700000000  -6.2184   -97.53   -20.246    24.094   -21.501    19.422   -7.1945   -104.72   
8750000000  -6.4559   -99.794   -20.652    25.42   -21.32    20.974   -7.2882   -106.3   
8800000000  -6.591   -103.09   -21.007    25.451   -21.593    17.814   -7.5776   -109.33   
8850000000  -6.7776   -105.76   -21.881    28.033   -23.273    19.525   -7.8112   -114.36   
8900000000  -7.0744   -109.54   -23.416    37.355   -24.895    34.358   -7.9381   -118.92   
8950000000  -7.4162   -113.69   -23.848    64.019   -24.687    62.703   -8.3198   -122.77   
9000000000  -8.235   -117.44   -19.098    89.197   -19.639    85.946   -9.5351   -127.76   
9050000000  -9.4914   -114.57   -13.634    75.653   -13.939    70.352   -11.544   -124.81   
9100000000  -8.8755   -108.87   -12.06    51.434   -12.892    40.464   -10.378   -115.11   
9150000000  -8.3143   -111.55   -12.565    35.722   -14.299    27.169   -9.1064   -117.01   
9200000000  -8.1451   -115.76   -13.102    27.828   -14.778    25.737   -8.8913   -120   
9250000000  -8.0908   -119.3   -13.525    22.714   -14.66    20.967   -8.9544   -125.62   
9300000000  -8.1282   -123.12   -13.714    18.571   -14.591    15.189   -8.7095   -131.56   
9350000000  -8.2175   -127.08   -13.857    14.708   -15.417    9.0871   -8.395   -135.43   
9400000000  -8.2639   -130.01   -14.296    11.603   -16.018    11.407   -8.4384   -136.92   
9450000000  -8.3674   -133.68   -14.452    9.3672   -15.418    10.697   -8.6765   -140.25   
9500000000  -8.356   -137.11   -14.544    6.357   -15.524    6.0027   -8.6589   -145.82   
9550000000  -8.4966   -140.55   -14.806    4.1982   -15.589    5.4382   -8.4114   -149.02   
9600000000  -8.4857   -144.39   -14.82    1.9968   -15.723    .0878   -8.3855   -150.63   
9650000000  -8.522   -147.4   -15.21   -1.2538   -16.4    .8088   -8.7235   -154.23   
9700000000  -8.5496   -151.21   -15.352   -2.9951   -16.007    2.0256   -8.7299   -159.19   
9750000000  -8.5137   -154.66   -15.508   -5.0208   -15.985   -2.991   -8.5068   -163.25   
9800000000  -8.5307   -158.04   -15.737   -7.2386   -16.275   -4.8793   -8.461   -165.04   
9850000000  -8.4888   -161.67   -15.912   -9.7943   -16.413   -7.7275   -8.6733   -168.71   
9900000000  -8.4103   -164.91   -16.307   -11.431   -16.611   -7.641   -8.6956   -174.01   
9950000000  -8.3792   -168.53   -16.439   -13.23   -16.314   -11.069   -8.3433   -178.53   
10000000000  -8.2863   -171.99   -16.579   -15.997   -16.977   -15.419   -8.0003    179.04   
10050000000  -8.1902   -175.09   -16.986   -17.409   -17.09   -14.078   -8.0345    177.01   

