!
! AVX THIN FILM OPERATION
!
! 0805 Size Low Pass Filter P/N  LP0805A1800AWTR
!
! Network Analyzer HP8720ES.07.64: Feb 23, 2000 Serial No. US39172382
! Hewlett-Packard
!  2 Feb 2003  04:07:16
! Frequency       S11                S21                S12                S22
# HZ  S  DB R  50 
50000000  -40.243   -79.582   -.0202   -2.0544   -.0056   -2.2385   -37.145   -12.708   
100000000  -33.068   -91.012   -.0254   -4.2847   -.0190   -4.3767   -32.042   -92.545   
150000000  -29.413   -97.733   -.0161   -6.6385   -.0256   -6.3844   -29.799   -99.124   
200000000  -26.954   -102.52   -.0634   -8.8866   -.0638   -8.7341   -27.154   -102.68   
250000000  -24.942   -107.22   -.0288   -10.901   -.0447   -11.008   -25.247   -109.73   
300000000  -23.403   -111.28   -.0804   -12.928   -.0682   -12.994   -23.494   -114.23   
350000000  -22.033   -115.72   -.0542   -15.298   -.0812   -15.147   -21.84   -119.61   
400000000  -20.907   -119.88   -.0869   -17.265   -.0870   -17.494   -20.607   -121.69   
450000000  -19.89   -124.01   -.0975   -19.402   -.0790   -19.476   -19.445   -124.78   
500000000  -19.003   -128.43   -.1012   -21.636   -.0905   -22.023   -18.611   -128.19   
550000000  -18.206   -132.38   -.1221   -23.766   -.1236   -24.059   -17.972   -130.94   
600000000  -17.479   -136.42   -.1434   -25.98   -.1226   -25.892   -17.323   -134.93   
650000000  -16.81   -140.63   -.1342   -28.139   -.0778   -28.188   -16.729   -138.64   
700000000  -16.22   -144.92   -.1517   -30.428   -.1010   -30.71   -16.287   -142.47   
750000000  -15.69   -149.06   -.1513   -32.797   -.1182   -32.846   -15.935   -147.22   
800000000  -15.196   -153.25   -.1746   -35.048   -.1485   -35.13   -15.675   -151.86   
850000000  -14.755   -157.49   -.1529   -37.426   -.1851   -37.397   -15.241   -156.89   
900000000  -14.346   -161.67   -.1694   -39.874   -.1693   -39.315   -14.755   -161.98   
950000000  -13.957   -165.98   -.1759   -42.186   -.1057   -41.694   -14.397   -167.5   
1000000000  -13.662   -170.36   -.157   -44.624   -.1410   -44.745   -14.124   -172.12   
1050000000  -13.426   -174.56   -.1784   -47.182   -.2673   -47.071   -13.816   -176.87   
1100000000  -13.132   -178.83   -.1805   -49.654   -.1902   -48.512   -13.34    177.88   
1150000000  -12.903    176.03   -.1477   -52.361   -.0050   -51.677   -13    172.87   
1200000000  -12.835    171.46   -.1765   -54.932   -.1547   -55.437   -12.855    169.18   
1250000000  -12.712    166.9   -.1586   -57.752   -.2087   -57.394   -12.782    165.28   
1300000000  -12.696    161.69   -.1690   -60.579   -.0966   -60.628   -12.726    159.95   
1350000000  -12.764    156.76   -.1771   -63.577   -.2020   -63.95   -12.609    155.85   
1400000000  -12.854    151.54   -.1694   -66.539   -.1950   -66.559   -12.654    152.17   
1450000000  -13.051    145.66   -.1581   -69.73   -.1519   -70.105   -13.044    148.17   
1500000000  -13.367    139.78   -.1557   -73.102   -.2126   -73.713   -13.636    142.62   
1550000000  -13.767    133.49   -.1776   -76.373   -.2175   -76.836   -14.182    135.47   
1600000000  -14.332    126.37   -.1625   -79.888   -.1838   -80.051   -14.643    128.94   
1650000000  -15.136    117.56   -.1367   -83.826   -.0697   -84.282   -15.734    122.07   
1700000000  -16.279    107.8   -.1615   -87.914   -.1900   -88.818   -17.491    112.18   
1750000000  -17.672    95.334   -.1759   -92.067   -.2319   -92.152   -19.333    97.464   
1800000000  -19.433    76.49   -.1822   -96.552   -.0958   -96.626   -21.113    76.848   
1850000000  -21.383    47.037   -.2250   -101.44   -.1704   -101.92   -23.577    44.203   
1900000000  -21.308    6.1675   -.2893   -106.41   -.2603   -106.89   -23.617   -12.233   
1950000000  -18.607   -29.689   -.3838   -111.82   -.3292   -112.06   -18.574   -46.813   
2000000000  -15.312   -53.561   -.4975   -117.55   -.4736   -117.75   -14.709   -63.263   
2050000000  -12.435   -70.641   -.6819   -123.84   -.6825   -123.15   -11.87   -76.244   
2100000000  -9.9576   -84.357   -.8854   -129.99   -.7821   -129.34   -9.4986   -87.811   
2150000000  -7.9192   -96.784   -1.2322   -136.82   -1.0026   -136.46   -7.4596   -98.806   
2200000000  -6.2115   -108.65   -1.6063   -143.89   -1.2101   -144.02   -5.8722   -108.76   
2250000000  -4.8073   -120.15   -2.0564   -151.16   -1.9788   -154.41   -4.7324   -118.94   
2300000000  -3.8001   -130.6   -2.7477   -159.01   -3.2194   -158.87   -3.7834   -129.18   
2350000000  -2.8747   -140.55   -3.3455   -166.06   -3.2103   -161.95   -2.9097   -138.83   
2400000000  -2.1285   -149.8   -4.2148   -173.54   -3.4165   -173.69   -2.242   -148.58   
2450000000  -1.6574   -158.94   -5.1602    179.85   -4.772    174.83   -1.7854   -157.5   
2500000000  -1.2684   -167.09   -5.9528    172.91   -6.7375    168.23   -1.4353   -165.93   
2550000000  -.9906   -174.23   -7.3405    165.86   -7.8498    169.22   -1.1147   -173.64   
2600000000  -.7135    178.53   -8.3254    160.99   -7.7372    162.11   -.7921    179.32   
2650000000  -.5120    172.44   -9.5581    154.99   -9.1563    150.62   -.6248    172.45   
2700000000  -.4606    166.57   -10.894    149.88   -10.894    145.2   -.3667    166.52   
2750000000  -.3172    160.93   -12.034    144.99   -12.783    139.5   -.1996    161.09   
2800000000  -.2659    156.13   -13.691    139.93   -14.407    142.44   -.2157    156.33   
2850000000  -.2147    151.11   -14.988    136.95   -14.389    139.86   -.0455    151.67   
2900000000  -.1108    146.79   -16.357    132.41   -15.72    128.6   -.0010    147.09   
2950000000  -.1322    142.52   -17.974    128.86   -17.935    123.48    .0345    143.37   
3000000000  -.0900    138.3   -19.421    125.51   -20.047    120.85    .0745    139.36   
3050000000  -.0424    134.81   -21.245    121.91   -21.784    123.94    .0370    135.51   
3100000000  -.0821    130.95   -22.864    120.12   -22.266    121.82    .0277    131.86   
3150000000  -.0473    127.42   -24.618    116.81   -23.973    112.34    .0082    128.34   
3200000000  -.0308    124.15   -26.603    113.61   -26.372    108.57   -.0264    124.72   
3250000000  -.0552    120.67   -28.502    111.84   -28.805    105.6    .0057    121.14   
3300000000  -.0076    117.6   -30.696    109.2   -31.246    108.21   -.0014    118.05   
3350000000  -.0625    114.52   -33.168    107.61   -32.816    107.43   -.0042    114.61   
3400000000  -.0451    111.49   -35.931    104.44   -35.635    101.36   -.0357    111.68   
3450000000  -.0515    108.66   -38.72    102.22   -39.022    103.58   -.0436    108.64   
3500000000  -.0807    105.77   -41.703    103.26   -41.983    103.11   -.0123    106.05   
3550000000  -.0665    103.11   -45.84    106.72   -46.52    103.77   -.0237    103.13   
3600000000  -.1058    100.29   -52.36    104.88   -50.735    111.3   -.0640    100.65   
3650000000  -.0858    97.493   -57.628    97.766   -56.37    120.56   -.1481    97.993   
3700000000  -.1275    95.032   -68.975    151.8   -65.854    175.57   -.1985    95.387   
3750000000  -.1359    92.444   -64.046   -118.54   -63.636   -113.72   -.2011    92.596   
3800000000  -.1621    89.908   -60.711   -99.318   -60.248   -105.78   -.2272    89.938   
3850000000  -.1825    87.421   -59.74   -93.073   -59.466   -100.09   -.3061    87.225   
3900000000  -.2056    85.112   -64.249   -81.784   -66.02   -88.48   -.3074    84.754   
3950000000  -.2360    82.628   -70.271   -40.277   -70.042   -8.9951   -.3544    81.672   
4000000000  -.2562    80.189   -62.724    48.532   -60.417    49.499   -.3364    79.368   
4050000000  -.2837    77.897   -55.779    61.926   -55.08    56.95   -.4134    77.246   
4100000000  -.2979    75.482   -50.914    69.8   -51.599    64.644   -.4526    74.604   
4150000000  -.3201    73.236   -48.161    67.886   -48.035    67.28   -.5037    71.819   
4200000000  -.3696    71.033   -45.315    69.771   -46.149    67.179   -.4649    69.39   
4250000000  -.3984    68.695   -43.338    68.52   -43.49    70.959   -.4853    67.18   
4300000000  -.4188    66.511   -41.638    68.314   -40.987    69.387   -.5265    64.951   
4350000000  -.4609    64.238   -39.95    68.923   -39.501    63.677   -.5613    62.651   
4400000000  -.4805    62.121   -38.57    67.154   -39.133    62.211   -.5032    60.132   
4450000000  -.5258    59.951   -37.727    67.218   -38.019    71.047   -.5116    58.326   
4500000000  -.5678    57.74   -36.362    67.569   -35.279    71.393   -.5896    56.685   
4550000000  -.5953    55.694   -35.423    66.47   -34.233    61.238   -.6907    54.58   
4600000000  -.6673    53.524   -34.617    66.006   -34.295    60.816   -.7025    52.3   
4650000000  -.6561    51.347   -33.691    65.389   -33.451    61.316   -.7276    50.165   
4700000000  -.7212    49.414   -33.053    65.091   -33.246    61.889   -.8051    48.404   
4750000000  -.7615    47.057   -32.258    64.484   -32.232    66.666   -.9306    46.296   
4800000000  -.7801    45.108   -31.426    63.891   -30.95    63.277   -.9639    43.665   
4850000000  -.8393    43.039   -31.108    63.719   -30.508    59.192   -.9661    41.465   
4900000000  -.8805    40.858   -30.259    63.612   -30.462    58.074   -1.0012    39.56   
4950000000  -.9233    39.059   -29.834    63.074   -30.287    61.902   -1.063    37.33   
5000000000  -.9786    36.899   -29.28    62.508   -29.031    65.06   -1.1258    34.891   
5050000000  -.9898    34.906   -28.809    62.191   -28.066    58.99   -1.0941    32.697   
5100000000  -1.0544    33.073   -28.406    61.919   -28.079    56.952   -1.118    31.391   
5150000000  -1.0881    30.678   -27.772    61.767   -27.578    55.996   -1.1855    29.202   
5200000000  -1.119    29.004   -27.336    60.809   -27.724    54.296   -1.2291    27.204   
5250000000  -1.2021    26.923   -27.054    60.469   -27.46    57.934   -1.1985    25.058   
5300000000  -1.2183    24.835   -26.548    60.715   -26.6    55.929   -1.184    23.942   
5350000000  -1.2491    22.994   -26.182    59.333   -26.608    53.067   -1.2954    22.433   
5400000000  -1.3335    20.781   -25.791    59.127   -26.385    53.947   -1.4017    20.363   
5450000000  -1.3482    18.99   -25.381    58.586   -26.227    54.095   -1.4086    18.402   
5500000000  -1.4219    17.198   -25.091    58.395   -25.97    55.451   -1.4243    17.203   
5550000000  -1.4617    14.992   -24.647    57.594   -25.377    54.222   -1.5566    15.778   
5600000000  -1.4867    13.158   -24.313    56.569   -25.239    54.071   -1.7845    13.855   
5650000000  -1.5916    11.18   -24.1    55.827   -24.543    55.459   -1.8694    11.243   
5700000000  -1.5838    9.1063   -23.653    55.23   -24.04    51.98   -1.905    9.1791   
5750000000  -1.6485    7.4309   -23.425    54.304   -24.119    51.478   -1.9339    8.2164   
5800000000  -1.7102    5.2267   -23.083    53.436   -23.68    51.21   -2.1917    5.2954   
5850000000  -1.7099    3.5156   -22.795    53.005   -23.581    49.907   -2.2184    2.7136   
5900000000  -1.8046    1.6438   -22.594    51.91   -23.317    51.303   -2.0807    .7154   
5950000000  -1.8125   -.4353   -22.282    51.034   -22.742    49.274   -2.1468   -.3405   
6000000000  -1.8764   -2.0352   -22.109    50.273   -22.656    46.637   -2.2912   -2.1423   
6050000000  -1.9364   -4.2119   -21.852    49.386   -22.594    45.816   -2.4139   -4.9026   
6100000000  -1.9403   -5.9258   -21.561    48.65   -22.687    46.715   -2.2635   -7.2661   
6150000000  -2.04   -7.5888   -21.521    47.959   -22.33    48.605   -2.2039   -7.8896   
6200000000  -2.0611   -9.8767   -21.316    46.835   -21.715    47.082   -2.4345   -8.8797   
6250000000  -2.0929   -11.552   -21.148    45.842   -21.558    44.114   -2.6122   -11.504   
6300000000  -2.1894   -13.321   -20.988    45.191   -21.518    43.234   -2.5797   -14.212   
6350000000  -2.2122   -15.481   -20.674    44.041   -21.632    42.998   -2.4372   -15.26   
6400000000  -2.2485   -16.721   -20.609    43.266   -21.536    44.157   -2.6496   -16.355   
6450000000  -2.3593   -19.337   -20.544    42.952   -20.881    43.473   -2.8109   -18.82   
6500000000  -2.2948   -21.011   -20.406    41.548   -20.61    39.869   -2.7887   -20.418   
6550000000  -2.4301   -22.328   -20.272    40.77   -20.814    38.304   -2.7833   -22.978   
6600000000  -2.4514   -24.593   -20.028    39.302   -20.969    38.415   -2.804   -23.504   
6650000000  -2.4753   -26.163   -20.026    38.607   -20.917    38.883   -2.9848   -25.683   
6700000000  -2.5731   -28.067   -19.975    37.98   -20.65    38.504   -3.0891   -28.029   
6750000000  -2.5781   -29.873   -19.854    37.025   -20.449    37.606   -2.9673   -30.148   
6800000000  -2.6893   -31.318   -19.879    37.027   -20.363    36.685   -2.9945   -30.742   
6850000000  -2.7079   -33.677   -19.603    35.951   -20.461    34.945   -3.2129   -31.667   
6900000000  -2.7656   -34.964   -19.596    34.742   -20.551    34.671   -3.3753   -34.584   
6950000000  -2.8352   -36.847   -19.659    34.058   -20.339    34.812   -3.3138   -36.911   
7000000000  -2.8742   -38.864   -19.544    33.596   -20.104    33.654   -3.2692   -37.715   
7050000000  -2.9296   -40.093   -19.505    33.131   -20.156    32.34   -3.5206   -38.805   
7100000000  -3.0182   -42.424   -19.411    32.005   -20.191    31.746   -3.7789   -40.835   
7150000000  -3.0378   -43.938   -19.45    31.322   -20.109    30.804   -3.7912   -44.23   
7200000000  -3.1477   -45.581   -19.489    30.979   -20.071    30.207   -3.7282   -45.588   
7250000000  -3.1838   -47.71   -19.35    29.788   -20.119    29.752   -3.8228   -46.31   
7300000000  -3.234   -49.204   -19.52    29.368   -20.038    29.505   -4.1538   -48.801   
7350000000  -3.3449   -51.019   -19.411    29.56   -19.812    28.029   -4.1396   -52.732   
7400000000  -3.3865   -52.84   -19.371    27.963   -19.847    26.294   -4.0179   -54.062   
7450000000  -3.4738   -54.288   -19.512    27.271   -19.983    25.654   -4.0788   -54.279   
7500000000  -3.5556   -56.588   -19.507    26.919   -20.083    25.356   -4.3669   -56.471   
7550000000  -3.6057   -57.99   -19.561    26.635   -20.004    24.273   -4.5245   -60.022   
7600000000  -3.7438   -59.833   -19.642    25.913   -20.008    23.439   -4.3178   -62.481   
7650000000  -3.8026   -61.898   -19.721    24.932   -20.022    23.482   -4.2406   -62.946   
7700000000  -3.9019   -63.237   -19.908    24.969   -20.046    23.511   -4.5184   -63.806   
7750000000  -3.999   -65.521   -19.831    24.215   -20.137    21.699   -4.7563   -66.249   
7800000000  -4.0642   -66.977   -20.102    23.058   -20.397    20.575   -4.6939   -69.664   
7850000000  -4.215   -69.048   -20.4    23.503   -20.618    22.143   -4.6233   -70.288   
7900000000  -4.2933   -71.072   -20.452    22.997   -20.573    22.939   -4.83   -70.626   
7950000000  -4.3732   -72.662   -20.732    22.501   -20.872    21.002   -5.1435   -72.786   
8000000000  -4.5336   -74.935   -21.099    22.598   -21.268    21.017   -5.2407   -76.472   
8050000000  -4.6071   -77.021   -21.404    22.593   -21.489    20.061   -5.2323   -78.194   
8100000000  -4.7633   -78.967   -21.941    22.547   -22.217    19.762   -5.3987   -79.022   
8150000000  -4.9094   -81.488   -22.577    22.898   -23.203    21.566   -5.8462   -81.343   
8200000000  -5.0134   -83.833   -23.501    24.925   -24.113    24.068   -6.1003   -85.222   
8250000000  -5.2163   -86.006   -24.669    29.171   -25.086    26.588   -6.1627   -88.852   
8300000000  -5.3843   -89.285   -26.522    35.154   -27.074    31.958   -6.3355   -91.062   
8350000000  -5.5885   -92.385   -29.134    57.827   -30.08    55.257   -6.7821   -94.379   
8400000000  -5.9866   -96.464   -27.923    105.42   -28.646    104.61   -7.1956   -100.44   
8450000000  -6.5098   -101.48   -21.255    129.3   -21.835    126.07   -7.5845   -107.63   
8500000000  -7.9237   -107.02   -14.811    124.27   -15.375    120.03   -8.6703   -113.53   
8550000000  -10.686   -99.731   -10.126    97.927   -10.661    93.874   -11.844   -109.58   
8600000000  -9.2559   -79.629   -9.1851    66.451   -9.6934    59.207   -11.408   -86.321   
8650000000  -7.5951   -82.767   -10.296    47.623   -11.363    39.256   -9.2259   -89.819   
8700000000  -7.0261   -88.279   -11.358    38.275   -12.568    32.429   -8.2221   -94.996   
8750000000  -6.9413   -92.34   -12.212    33.595   -12.873    29.226   -7.938   -98.196   
8800000000  -6.8915   -96.691   -12.609    29.086   -12.97    21.224   -7.97   -102.62   
8850000000  -6.9766   -99.999   -12.98    25.958   -14.254    15.426   -7.9932   -108.23   
8900000000  -7.1213   -103.31   -13.452    23.967   -15.058    18.176   -7.9389   -111.56   
8950000000  -7.1824   -106.32   -13.556    22.71   -14.76    18.844   -7.927   -113.75   
9000000000  -7.2864   -109.18   -13.71    20.186   -14.889    16.138   -8.2221   -117   
9050000000  -7.437   -112.34   -13.784    18.248   -14.812    14.361   -8.2764   -121.99   
9100000000  -7.5495   -115.46   -13.777    16.19   -15.414    9.3796   -8.1153   -126.15   
9150000000  -7.6985   -118.13   -14.064    13.954   -16.038    10.894   -8.0493   -128.03   
9200000000  -7.8   -121.45   -14.121    12.644   -15.695    14.59   -8.2896   -130.04   
9250000000  -7.8745   -124.25   -14.247    10.646   -15.276    12.154   -8.483   -134.9   
9300000000  -7.9754   -127.65   -14.161    8.6751   -15.077    7.711   -8.2758   -139.62   
9350000000  -8.0929   -131.13   -14.198    5.9669   -15.718    3.5802   -8.063   -142.39   
9400000000  -8.1428   -133.78   -14.507    3.9001   -16.039    6.6975   -8.1441   -143.86   
9450000000  -8.2451   -137.3   -14.577    2.4019   -15.339    5.8557   -8.3755   -147.13   
9500000000  -8.235   -140.56   -14.654   -.3707   -15.531    1.9048   -8.2553   -152.14   
9550000000  -8.3775   -143.87   -14.89   -2.1986   -15.515    1.236   -8.0813   -154.73   
9600000000  -8.361   -147.52   -14.916   -4.0746   -15.648   -3.5005   -8.0964   -156.73   
9650000000  -8.3818   -150.4   -15.311   -7.1342   -16.271   -2.1794   -8.3322   -160.17   
9700000000  -8.4083   -154.07   -15.448   -8.3427   -15.835   -1.1481   -8.2694   -164.73   
9750000000  -8.3605   -157.43   -15.584   -10.275   -15.92   -6.6248   -8.1093   -168.05   
9800000000  -8.3712   -160.64   -15.88   -11.862   -16.13   -7.9829   -8.104   -170.3   
9850000000  -8.3286   -164.14   -16.036   -14.402   -16.333   -10.53   -8.2495   -173.9   
9900000000  -8.2505   -167.34   -16.426   -16.11   -16.476   -10.234   -8.1768   -178.5   
9950000000  -8.2061   -170.72   -16.587   -17.739   -16.275   -14.069   -7.8736    177.51   
10000000000  -8.1093   -174.11   -16.725   -20.127   -16.944   -18.387   -7.6161    174.91   
10050000000  -8.0181   -176.97   -17.215   -21.539   -16.978   -16.632   -7.5881    172.35   

