!
! AVX THIN FILM OPERATION
!
! 0805 Size Low Pass Filter P/N  LP0805A1750AWTR
!
! Network Analyzer HP8720ES.07.64: Feb 23, 2000 Serial No. US39172382
! Hewlett-Packard
!  2 Feb 2003  04:04:37
! Frequency       S11                S21                S12                S22
# HZ  S  DB R  50 
50000000  -39.107   -80.7   -.0129   -2.2989    .0516   -2.3566   -41.52    14.779   
100000000  -33.062   -90.625   -.0356   -4.2778   -.0134   -4.3588   -34.153   -95.941   
150000000  -29.267   -97.597   -.0240   -6.5836   -.0338   -6.4641   -30.01   -101.56   
200000000  -26.794   -102.36   -.0178   -8.8358   -.0436   -8.6737   -26.936   -102.58   
250000000  -24.832   -107.29   -.0365   -10.87   -.0399   -11.014   -25.161   -108.8   
300000000  -23.29   -111.44   -.0684   -12.894   -.0593   -13.038   -23.342   -113.01   
350000000  -21.922   -115.78   -.0526   -15.33   -.1020   -15.134   -21.739   -119.62   
400000000  -20.804   -120.03   -.0859   -17.244   -.0896   -17.332   -20.4   -121.86   
450000000  -19.767   -124.05   -.0865   -19.432   -.0757   -19.449   -19.301   -124.15   
500000000  -18.891   -128.56   -.1190   -21.697   -.0751   -21.907   -18.459   -127.61   
550000000  -18.104   -132.65   -.1197   -23.864   -.1335   -24.057   -17.877   -130.88   
600000000  -17.365   -136.68   -.1424   -26.001   -.1306   -25.925   -17.162   -134.69   
650000000  -16.695   -140.85   -.1485   -28.151   -.0614   -28.18   -16.606   -138.23   
700000000  -16.108   -145.09   -.1500   -30.395   -.1172   -30.714   -16.204   -142.07   
750000000  -15.573   -149.28   -.1533   -32.763   -.1396   -32.877   -15.845   -146.57   
800000000  -15.087   -153.55   -.1634   -35.136   -.1489   -35.24   -15.552   -151.38   
850000000  -14.65   -157.73   -.1532   -37.538   -.1872   -37.472   -15.164   -156.54   
900000000  -14.237   -161.9   -.1806   -39.891   -.1917   -39.234   -14.709   -161.45   
950000000  -13.844   -166.24   -.1784   -42.159   -.1064   -41.689   -14.339   -166.97   
1000000000  -13.567   -170.71   -.1689   -44.776   -.1342   -44.826   -14.054   -171.69   
1050000000  -13.297   -174.82   -.1762   -47.182   -.2754   -47.041   -13.752   -176.43   
1100000000  -13.029   -179.04   -.1818   -49.536   -.2008   -48.428   -13.309    178.57   
1150000000  -12.797    175.77   -.1531   -52.316   -.0110   -51.692   -12.936    173.46   
1200000000  -12.732    171.11   -.1866   -54.977   -.1549   -55.414   -12.793    169.86   
1250000000  -12.611    166.55   -.1656   -57.799   -.2080   -57.38   -12.685    165.92   
1300000000  -12.58    161.37   -.1937   -60.642   -.1002   -60.635   -12.642    160.58   
1350000000  -12.653    156.46   -.1829   -63.589   -.2020   -63.973   -12.556    156.3   
1400000000  -12.726    151.1   -.1708   -66.551   -.1888   -66.547   -12.568    152.82   
1450000000  -12.905    145.26   -.1565   -69.765   -.1520   -70.056   -12.962    148.96   
1500000000  -13.23    139.47   -.1491   -73.141   -.2127   -73.728   -13.518    143.46   
1550000000  -13.627    133.11   -.1654   -76.435   -.2246   -76.811   -14.1    136.66   
1600000000  -14.184    126.04   -.1730   -79.953   -.1804   -80.046   -14.552    130.13   
1650000000  -14.953    117.21   -.1334   -83.853   -.0600   -84.205   -15.619    123.36   
1700000000  -16.066    107.66   -.1610   -87.827   -.1880   -88.849   -17.406    114.09   
1750000000  -17.434    95.298   -.1891   -92.038   -.2384   -92.074   -19.326    99.651   
1800000000  -19.148    76.941   -.187   -96.563   -.0983   -96.696   -21.274    79.375   
1850000000  -21.087    48.558   -.2364   -101.35   -.1641   -101.83   -23.983    47.229   
1900000000  -21.18    8.4073   -.2981   -106.32   -.2504   -106.9   -24.047   -11.559   
1950000000  -18.646   -27.857   -.3824   -111.75   -.3138   -111.95   -18.812   -47.712   
2000000000  -15.399   -52.626   -.4935   -117.56   -.4785   -117.63   -14.814   -63.586   
2050000000  -12.523   -70.078   -.6922   -123.67   -.6915   -122.97   -11.944   -76.215   
2100000000  -10.015   -83.927   -.867   -129.95   -.7781   -129.13   -9.5268   -87.972   
2150000000  -7.9392   -96.816   -1.2188   -136.91   -.9913   -136.42   -7.4922   -98.712   
2200000000  -6.2428   -108.58   -1.5886   -143.73   -1.2123   -143.89   -5.8826   -108.48   
2250000000  -4.8089   -120.15   -2.0395   -151.07   -1.9653   -154.34   -4.7436   -118.73   
2300000000  -3.8128   -130.64   -2.751   -158.91   -3.2343   -158.61   -3.813   -128.75   
2350000000  -2.8783   -140.62   -3.3361   -165.93   -3.203   -161.83   -2.9301   -138.46   
2400000000  -2.1404   -150   -4.2086   -173.48   -3.3944   -173.55   -2.249   -148.29   
2450000000  -1.6485   -159.12   -5.1554   -179.89   -4.7694    174.91   -1.8155   -157.19   
2500000000  -1.2465   -167.35   -5.9572    173.06   -6.7208    168.44   -1.4516   -165.75   
2550000000  -.9936   -174.51   -7.3485    165.83   -7.835    169.28   -1.1399   -173.38   
2600000000  -.7157    178.3   -8.3291    161.14   -7.7141    162.1   -.7799    179.57   
2650000000  -.5213    172.19   -9.5576    155.07   -9.1771    150.79   -.6193    172.89   
2700000000  -.4561    166.25   -10.898    150.08   -10.896    145.1   -.3918    167.18   
2750000000  -.2999    160.66   -12.046    145.41   -12.746    139.76   -.1909    161.53   
2800000000  -.2586    155.87   -13.708    140.15   -14.441    142.74   -.2046    156.91   
2850000000  -.2184    150.83   -15.038    137.03   -14.421    140.07   -.0562    152.1   
2900000000  -.1010    146.52   -16.396    132.77   -15.74    128.67    .0142    147.81   
2950000000  -.1444    142.26   -18.032    129.08   -17.982    123.69    .0618    143.77   
3000000000  -.0844    138.05   -19.492    125.83   -20.122    121.1    .0638    140.07   
3050000000  -.0452    134.45   -21.357    122.14   -21.867    124.19    .0454    136.38   
3100000000  -.0862    130.63   -23.004    120.51   -22.377    122    .0369    132.54   
3150000000  -.0376    127.12   -24.79    116.97   -24.144    112.61    .0093    129   
3200000000  -.0526    123.83   -26.849    113.88   -26.652    109.06   -.0136    125.41   
3250000000  -.0570    120.32   -28.848    112.54   -29.16    106.48    .0012    121.91   
3300000000  -.0187    117.36   -31.227    109.86   -31.695    109.03   -.0047    118.8   
3350000000  -.0567    114.21   -33.772    108.28   -33.422    108.25   -.0032    115.35   
3400000000  -.0592    111.22   -36.91    105.65   -36.511    102.21   -.0325    112.53   
3450000000  -.0435    108.34   -40.17    102.31   -40.014    104.07   -.0093    109.27   
3500000000  -.0745    105.45   -43.602    106.41   -44.119    104.78   -.0248    106.74   
3550000000  -.0766    102.74   -49.555    113.85   -49.763    111.64   -.0251    103.99   
3600000000  -.0988    99.998   -61.264    142.51   -56.786    138.07   -.0748    101.48   
3650000000  -.0948    97.192   -62.967   -120.19   -60.733   -149.13   -.1138    98.922   
3700000000  -.1309    94.73   -53.885   -107.8   -54.76   -108.13   -.1939    95.876   
3750000000  -.1193    92.155   -51.606   -98.996   -51.496   -96.968   -.1669    93.138   
3800000000  -.1629    89.566   -51.055   -99.172   -51.014   -97.284   -.1842    90.939   
3850000000  -.1866    87.163   -50.874   -95.475   -50.666   -100.53   -.2549    87.965   
3900000000  -.1997    84.657   -51.483   -94.348   -52.214   -96.074   -.3346    85.397   
3950000000  -.2358    82.316   -53.183   -94.904   -53.554   -92.615   -.3355    82.436   
4000000000  -.2684    79.897   -56.168   -88.235   -56.261   -87.117   -.3509    80.294   
4050000000  -.2910    77.557   -63.397   -76.933   -64.118   -66.555   -.3651    77.96   
4100000000  -.3056    75.248   -61.581    42.108   -62.708    35.994   -.44    75.39   
4150000000  -.3242    73   -54.055    58.148   -54.37    54.947   -.4800    72.492   
4200000000  -.3725    70.753   -49.588    63.63   -50.318    61.798   -.4427    70.185   
4250000000  -.4048    68.423   -46.76    65.457   -46.729    69.033   -.4424    68.082   
4300000000  -.4237    66.32   -44.175    66.75   -43.631    67.113   -.5024    65.853   
4350000000  -.4591    64.004   -42.315    67.945   -41.506    61.712   -.5343    63.552   
4400000000  -.4863    61.863   -40.376    66.592   -40.896    61.342   -.4801    61.144   
4450000000  -.5225    59.645   -39.225    66.688   -39.563    71.367   -.4984    59.126   
4500000000  -.5578    57.49   -37.781    67.602   -36.627    70.51   -.5445    57.399   
4550000000  -.6066    55.451   -36.722    66.427   -35.544    60.592   -.6386    55.392   
4600000000  -.6622    53.258   -35.626    66.153   -35.321    61.179   -.7055    53.152   
4650000000  -.6588    50.985   -34.665    64.99   -34.464    61.184   -.7241    51.059   
4700000000  -.7147    49.086   -33.894    64.83   -34.195    62.054   -.7731    49.209   
4750000000  -.7693    46.805   -33.087    65.12   -33.07    66.172   -.8973    47.335   
4800000000  -.7772    44.834   -32.31    63.965   -31.701    63.152   -.9426    44.572   
4850000000  -.8513    42.822   -31.838    63.843   -31.254    59.185   -.9449    42.306   
4900000000  -.8817    40.63   -30.974    63.964   -31.136    58.1   -.9683    40.35   
4950000000  -.9166    38.823   -30.47    63.012   -31.009    62.082   -1.0427    38.18   
5000000000  -.9849    36.606   -29.955    62.611   -29.589    65.093   -1.1098    35.696   
5050000000  -.9878    34.644   -29.379    62.383   -28.651    59.122   -1.0694    33.54   
5100000000  -1.0458    32.782   -28.965    62.334   -28.596    57.575   -1.1086    31.771   
5150000000  -1.1004    30.486   -28.315    61.922   -28.07    56.245   -1.1436    30.274   
5200000000  -1.1222    28.792   -27.847    60.625   -28.226    54.43   -1.2154    28.129   
5250000000  -1.1996    26.672   -27.6    60.951   -27.915    58.156   -1.1696    26.05   
5300000000  -1.2222    24.634   -26.981    60.826   -27.042    55.883   -1.1759    24.921   
5350000000  -1.2498    22.808   -26.662    59.646   -27.011    53.109   -1.2891    23.283   
5400000000  -1.3255    20.553   -26.207    59.365   -26.761    54.138   -1.3868    21.304   
5450000000  -1.3502    18.748   -25.815    58.895   -26.619    54.146   -1.3929    19.387   
5500000000  -1.4145    16.951   -25.512    58.604   -26.309    55.769   -1.4097    17.946   
5550000000  -1.4649    14.818   -25.021    57.909   -25.712    54.528   -1.5559    16.835   
5600000000  -1.5047    12.942   -24.712    56.828   -25.569    54.175   -1.7578    14.638   
5650000000  -1.5862    10.947   -24.48    56.341   -24.841    55.366   -1.8409    12.191   
5700000000  -1.5855    8.9003   -24.009    55.633   -24.34    52.144   -1.8855    10.574   
5750000000  -1.653    7.2359   -23.727    54.58   -24.425    51.493   -1.9    8.8   
5800000000  -1.708    5.0029   -23.399    53.994   -23.924    51.048   -2.1541    6.5121   
5850000000  -1.7186    3.3344   -23.056    53.385   -23.843    50.056   -2.1803    3.7285   
5900000000  -1.8158    1.4433   -22.914    52.419   -23.568    51.4   -2.0725    1.4598   
5950000000  -1.8161   -.6289   -22.573    51.476   -22.994    49.4   -2.1155    .4779   
6000000000  -1.872   -2.2343   -22.386    50.672   -22.898    46.721   -2.2713   -1.2717   
6050000000  -1.919   -4.4028   -22.115    49.997   -22.872    45.838   -2.3449   -4.1473   
6100000000  -1.956   -6.0329   -21.838    48.961   -22.92    46.91   -2.2536   -6.4449   
6150000000  -2.0361   -7.7783   -21.783    48.323   -22.538    48.987   -2.2157   -7.1631   
6200000000  -2.0684   -10.091   -21.598    47.249   -21.937    47.288   -2.4043   -8.2988   
6250000000  -2.0853   -11.698   -21.388    46.425   -21.772    44.326   -2.5677   -10.8   
6300000000  -2.1738   -13.55   -21.195    45.563   -21.728    43.256   -2.5579   -13.337   
6350000000  -2.1979   -15.576   -20.894    44.379   -21.82    42.991   -2.4153   -14.326   
6400000000  -2.2464   -16.767   -20.796    43.55   -21.708    44.003   -2.5918   -15.816   
6450000000  -2.3913   -19.173   -20.728    43.561   -21.054    44.138   -2.741   -17.932   
6500000000  -2.3075   -21.136   -20.618    41.942   -20.818    40.152   -2.8247   -19.595   
6550000000  -2.4256   -22.46   -20.449    41.215   -20.983    38.541   -2.76   -22.365   
6600000000  -2.4504   -24.767   -20.208    39.728   -21.139    38.524   -2.7803   -22.635   
6650000000  -2.4694   -26.31   -20.195    38.874   -21.072    39.089   -3.0009   -24.819   
6700000000  -2.5761   -28.224   -20.144    38.272   -20.798    38.749   -3.0884   -27.577   
6750000000  -2.5685   -30.026   -20.017    37.474   -20.574    37.724   -2.9165   -29.464   
6800000000  -2.6742   -31.463   -20.038    37.314   -20.49    36.705   -2.9485   -30.096   
6850000000  -2.7108   -33.765   -19.747    36.252   -20.577    35.04   -3.1955   -30.984   
6900000000  -2.7555   -35.127   -19.755    35.112   -20.657    34.823   -3.3504   -33.868   
6950000000  -2.8404   -36.969   -19.776    34.361   -20.457    35.059   -3.3141   -36.255   
7000000000  -2.868   -38.951   -19.665    33.758   -20.215    33.709   -3.2281   -37.149   
7050000000  -2.9213   -40.265   -19.637    33.49   -20.239    32.373   -3.5124   -37.881   
7100000000  -3.025   -42.505   -19.529    32.195   -20.288    31.821   -3.762   -40.24   
7150000000  -3.0369   -43.984   -19.551    31.638   -20.198    30.984   -3.7653   -43.575   
7200000000  -3.1425   -45.625   -19.596    31.367   -20.15    30.331   -3.6767   -44.897   
7250000000  -3.1684   -47.751   -19.435    30.164   -20.187    29.876   -3.8077   -45.665   
7300000000  -3.2399   -49.237   -19.615    29.601   -20.098    29.648   -4.1383   -48.216   
7350000000  -3.342   -51.025   -19.472    29.774   -19.869    27.967   -4.1206   -52.099   
7400000000  -3.3812   -52.825   -19.422    28.255   -19.878    26.386   -4.015   -53.466   
7450000000  -3.4695   -54.36   -19.565    27.639   -20.014    25.907   -4.0473   -53.817   
7500000000  -3.5529   -56.527   -19.547    27.087   -20.1    25.575   -4.3448   -55.927   
7550000000  -3.6024   -57.969   -19.58    26.75   -20.013    24.381   -4.5149   -59.523   
7600000000  -3.7423   -59.73   -19.655    26.071   -20.007    23.593   -4.3163   -61.949   
7650000000  -3.8053   -61.76   -19.709    25.124   -20.018    23.638   -4.2365   -62.422   
7700000000  -3.8935   -63.085   -19.887    25.247   -20.008    23.64   -4.5064   -63.336   
7750000000  -3.9895   -65.371   -19.785    24.39   -20.067    21.916   -4.7314   -65.844   
7800000000  -4.0388   -66.684   -20.047    23.218   -20.267    20.689   -4.6972   -69.066   
7850000000  -4.2087   -68.805   -20.286    23.524   -20.487    22.26   -4.5835   -69.777   
7900000000  -4.2644   -70.751   -20.305    23.313   -20.396    22.949   -4.8205   -70.168   
7950000000  -4.3593   -72.335   -20.549    22.464   -20.675    21.167   -5.1691   -72.488   
8000000000  -4.5195   -74.56   -20.832    22.521   -20.988    20.849   -5.2547   -75.935   
8050000000  -4.5869   -76.535   -21.085    22.503   -21.163    19.852   -5.2267   -77.804   
8100000000  -4.7521   -78.429   -21.531    22.159   -21.769    19.308   -5.392   -78.515   
8150000000  -4.8743   -80.8   -22.001    22.126   -22.576    20.643   -5.8692   -80.611   
8200000000  -4.9702   -83.039   -22.673    23.345   -23.28    22.418   -6.0857   -84.545   
8250000000  -5.1482   -84.956   -23.475    25.9   -23.844    23.217   -6.1584   -88.309   
8300000000  -5.3309   -87.972   -24.681    27.933   -25.265    24.094   -6.3058   -90.596   
8350000000  -5.4574   -90.482   -26.743    36.252   -27.752    32.964   -6.7172   -93.344   
8400000000  -5.7441   -93.844   -29.094    61.363   -30.098    61.533   -7.0702   -98.703   
8450000000  -6.0292   -97.732   -27.147    107.6   -27.647    106.44   -7.2742   -105.5   
8500000000  -6.6628   -102.56   -20.505    127.42   -20.939    124.89   -7.8118   -111.15   
8550000000  -8.0448   -107.1   -14.133    118.94   -14.477    116.05   -9.5865   -118.11   
8600000000  -10.132   -96.924   -10.104    90.871   -10.303    85.552   -13.335   -109.23   
8650000000  -8.6827   -84.617   -9.7474    61.974   -10.376    53.492   -11.228   -87.216   
8700000000  -7.4642   -87.962   -10.725    46.038   -11.667    38.984   -8.987   -90.551   
8750000000  -7.1364   -92.115   -11.727    37.907   -12.235    32.625   -8.26   -94.761   
8800000000  -6.9803   -96.666   -12.262    32.139   -12.506    23.308   -8.1411   -100.28   
8850000000  -7.0206   -100.07   -12.715    28.063   -13.898    16.768   -8.098   -106.42   
8900000000  -7.1499   -103.55   -13.289    25.487   -14.805    18.723   -7.9988   -110.32   
8950000000  -7.2107   -106.57   -13.415    23.833   -14.561    19.093   -8.0025   -112.52   
9000000000  -7.302   -109.35   -13.611    21.216   -14.74    16.323   -8.2582   -116.07   
9050000000  -7.4339   -112.68   -13.72    19.137   -14.713    14.499   -8.3191   -121.1   
9100000000  -7.5479   -115.72   -13.731    17.01   -15.335    9.4304   -8.1504   -125.53   
9150000000  -7.6958   -118.45   -14.047    14.433   -15.954    10.9   -8.0748   -127.48   
9200000000  -7.8093   -121.69   -14.105    12.717   -15.63    14.398   -8.3176   -129.65   
9250000000  -7.8841   -124.52   -14.214    10.826   -15.229    11.852   -8.5021   -134.52   
9300000000  -7.9645   -127.84   -14.154    8.7314   -15.041    7.6836   -8.3096   -139.34   
9350000000  -8.0861   -131.36   -14.168    6.0054   -15.714    3.289   -8.0905   -142.17   
9400000000  -8.1396   -134.01   -14.522    4.0649   -16.008    6.5286   -8.1689   -143.69   
9450000000  -8.2468   -137.5   -14.572    2.2481   -15.352    5.7568   -8.385   -147.08   
9500000000  -8.2406   -140.73   -14.635   -.1551   -15.515    1.6013   -8.2643   -151.99   
9550000000  -8.3652   -143.97   -14.897   -2.1739   -15.492    1.1028   -8.101   -154.78   
9600000000  -8.3669   -147.66   -14.912   -4.4014   -15.654   -3.9647   -8.1041   -156.68   
9650000000  -8.3745   -150.59   -15.326   -7.0326   -16.274   -2.314   -8.3646   -160.49   
9700000000  -8.4072   -154.15   -15.498   -8.4677   -15.855   -1.4076   -8.3049   -164.88   
9750000000  -8.3504   -157.49   -15.606   -10.401   -15.943   -6.6014   -8.1199   -168.24   
9800000000  -8.3694   -160.72   -15.892   -12.155   -16.178   -8.1917   -8.1328   -170.32   
9850000000  -8.3223   -164.2   -16.065   -14.332   -16.284   -10.714   -8.2397   -174.28   
9900000000  -8.2334   -167.34   -16.451   -16.301   -16.442   -10.349   -8.1862   -178.97   
9950000000  -8.2057   -170.8   -16.582   -18.045   -16.272   -14.192   -7.8562    177.28   
10000000000  -8.1011   -174.1   -16.757   -20.391   -16.948   -18.531   -7.5928    174.62   
10050000000  -8.0178   -177.03   -17.229   -21.993   -17.015   -16.808   -7.5535    172.32   

