# MHZ S MA R 50

50 0.012 -90.227 0.999 -3.4 0.999 -3.4 0.012 -91.375
100 0.024 -93.039 0.998 -6.805 0.998 -6.805 0.024 -95.335
150 0.036 -95.848 0.997 -10.22 0.997 -10.22 0.036 -99.29
200 0.048 -98.658 0.996 -13.65 0.996 -13.65 0.048 -103.245
250 0.059 -101.473 0.995 -17.099 0.995 -17.099 0.058 -107.201
300 0.069 -104.297 0.994 -20.573 0.994 -20.573 0.069 -111.162
350 0.079 -107.133 0.992 -24.079 0.992 -24.079 0.079 -115.132
400 0.088 -109.984 0.991 -27.623 0.991 -27.623 0.087 -119.111
450 0.096 -112.853 0.989 -31.212 0.989 -31.212 0.095 -123.103
500 0.103 -115.74 0.988 -34.856 0.988 -34.856 0.102 -127.107
550 0.109 -118.644 0.986 -38.565 0.986 -38.565 0.107 -131.123
600 0.113 -121.563 0.985 -42.35 0.985 -42.35 0.11 -135.147
650 0.115 -124.487 0.983 -46.226 0.983 -46.226 0.112 -139.169
700 0.114 -127.394 0.982 -50.209 0.982 -50.209 0.111 -143.168
750 0.112 -130.244 0.981 -54.318 0.981 -54.318 0.108 -147.102
800 0.106 -132.952 0.981 -58.578 0.981 -58.578 0.102 -150.885
850 0.097 -135.341 0.98 -63.017 0.98 -63.017 0.092 -154.327
900 0.083 -136.988 0.979 -67.669 0.979 -67.669 0.078 -156.969
950 0.066 -136.718 0.979 -72.573 0.979 -72.573 0.06 -157.45
1000 0.044 -130.068 0.977 -77.779 0.977 -77.779 0.037 -149.981
1050 0.024 -91.325 0.975 -83.341 0.975 -83.341 0.02 -97.135
1100 0.04 -26.178 0.972 -89.325 0.972 -89.325 0.045 -41.132
1150 0.084 -13.102 0.966 -95.8 0.966 -95.8 0.091 -34.136
1200 0.142 -13.136 0.955 -102.837 0.955 -102.837 0.149 -36.54
1250 0.21 -17.159 0.939 -110.495 0.939 -110.495 0.218 -42.086
1300 0.29 -23.179 0.913 -118.81 0.913 -118.81 0.298 -49.325
1350 0.378 -30.504 0.877 -127.761 0.877 -127.761 0.387 -57.727
1400 0.472 -38.758 0.827 -137.257 0.827 -137.257 0.481 -66.973
1450 0.567 -47.617 0.764 -147.115 0.764 -147.115 0.576 -76.77
1500 0.657 -56.749 0.69 -157.079 0.69 -157.079 0.665 -86.799
1550 0.737 -65.824 0.608 -166.863 0.608 -166.863 0.744 -96.738
1600 0.803 -74.557 0.524 -176.208 0.524 -176.208 0.809 -106.305
1650 0.856 -82.745 0.442 175.071 0.442 175.071 0.861 -115.303
1700 0.895 -90.283 0.366 167.07 0.366 167.07 0.899 -123.627
1750 0.924 -97.143 0.299 159.814 0.299 159.814 0.927 -131.251
1800 0.945 -103.351 0.24 153.275 0.24 153.275 0.947 -138.203
1850 0.959 -108.965 0.19 147.405 0.19 147.405 0.96 -144.539
1900 0.969 -114.05 0.148 142.149 0.148 142.149 0.969 -150.327
1950 0.976 -118.676 0.112 137.468 0.112 137.468 0.975 -155.637
2000 0.981 -122.905 0.083 133.351 0.083 133.351 0.979 -160.531
2050 0.984 -126.792 0.059 129.851 0.059 129.851 0.982 -165.064
2100 0.986 -130.384 0.039 127.184 0.039 127.184 0.984 -169.285
2150 0.987 -133.723 0.023 126.131 0.023 126.131 0.985 -173.235
2200 0.988 -136.841 9.677e-3 131.055 9.677e-3 131.055 0.985 -176.946
2250 0.989 -139.768 2.677e-3 -129.866 2.677e-3 -129.866 0.985 179.551
2300 0.99 -142.526 9.878e-3 -83.354 9.878e-3 -83.354 0.985 176.233
2350 0.99 -145.137 0.016 -80.522 0.016 -80.522 0.985 173.08
2400 0.99 -147.616 0.021 -81.137 0.021 -81.137 0.985 170.075
2450 0.99 -149.978 0.025 -82.628 0.025 -82.628 0.985 167.203
2500 0.991 -152.236 0.027 -84.417 0.027 -84.417 0.985 164.451
2550 0.991 -154.399 0.029 -86.309 0.029 -86.309 0.985 161.81
2600 0.991 -156.476 0.03 -88.218 0.03 -88.218 0.985 159.269
2650 0.991 -158.476 0.03 -90.105 0.03 -90.105 0.985 156.822
2700 0.991 -160.404 0.029 -91.947 0.029 -91.947 0.985 154.461
2750 0.991 -162.267 0.028 -93.73 0.028 -93.73 0.985 152.179
2800 0.991 -164.07 0.027 -95.442 0.027 -95.442 0.985 149.972
2850 0.991 -165.817 0.025 -97.072 0.025 -97.072 0.985 147.835
2900 0.991 -167.512 0.023 -98.607 0.023 -98.607 0.985 145.764
2950 0.991 -169.159 0.021 -100.024 0.021 -100.024 0.985 143.754
3000 0.991 -170.761 0.019 -101.29 0.019 -101.29 0.985 141.803
3050 0.991 -172.321 0.016 -102.346 0.016 -102.346 0.985 139.907
3100 0.991 -173.841 0.013 -103.076 0.013 -103.076 0.985 138.063
3150 0.991 -175.323 0.01 -103.226 0.01 -103.226 0.985 136.269
3200 0.991 -176.771 7.229e-3 -102.112 7.229e-3 -102.112 0.985 134.523
3250 0.991 -178.185 4.241e-3 -97.091 4.241e-3 -97.091 0.985 132.822
3300 0.991 -179.567 1.507e-3 -64.94 1.507e-3 -64.94 0.985 131.164
3350 0.991 179.08 2.433e-3 36.416 2.433e-3 36.416 0.985 129.548
3400 0.991 177.757 5.422e-3 50.826 5.422e-3 50.826 0.985 127.971
3450 0.991 176.46 8.536e-3 53.913 8.536e-3 53.913 0.985 126.433
3500 0.991 175.189 0.012 54.634 0.012 54.634 0.984 124.931
3550 0.991 173.943 0.015 54.5 0.015 54.5 0.984 123.464
3600 0.991 172.721 0.018 53.974 0.018 53.974 0.984 122.031
3650 0.991 171.522 0.021 53.241 0.021 53.241 0.984 120.631
3700 0.991 170.344 0.024 52.392 0.024 52.392 0.984 119.262
3750 0.991 169.187 0.027 51.474 0.027 51.474 0.984 117.924
3800 0.99 168.05 0.03 50.516 0.03 50.516 0.984 116.615
3850 0.99 166.933 0.033 49.534 0.033 49.534 0.984 115.334
3900 0.99 165.834 0.036 48.54 0.036 48.54 0.984 114.081
3950 0.99 164.753 0.039 47.542 0.039 47.542 0.984 112.854
4000 0.99 163.689 0.042 46.544 0.042 46.544 0.984 111.653
4050 0.989 162.642 0.044 45.55 0.044 45.55 0.984 110.476
4100 0.989 161.612 0.047 44.562 0.047 44.562 0.983 109.324
4150 0.989 160.596 0.05 43.583 0.05 43.583 0.983 108.195
4200 0.989 159.596 0.052 42.612 0.052 42.612 0.983 107.089
4250 0.989 158.611 0.055 41.653 0.055 41.653 0.983 106.004
4300 0.989 157.639 0.057 40.704 0.057 40.704 0.983 104.941
4350 0.988 156.682 0.06 39.766 0.06 39.766 0.983 103.899
4400 0.988 155.738 0.062 38.841 0.062 38.841 0.983 102.877
4450 0.988 154.806 0.064 37.927 0.064 37.927 0.983 101.874
4500 0.988 153.887 0.067 37.025 0.067 37.025 0.982 100.89
4550 0.987 152.981 0.069 36.135 0.069 36.135 0.982 99.925
4600 0.987 152.086 0.071 35.257 0.071 35.257 0.982 98.977
4650 0.987 151.203 0.073 34.39 0.073 34.39 0.982 98.047
4700 0.987 150.331 0.075 33.535 0.075 33.535 0.982 97.134
4750 0.987 149.47 0.077 32.692 0.077 32.692 0.982 96.237
4800 0.986 148.619 0.079 31.861 0.079 31.861 0.982 95.357
4850 0.986 147.779 0.081 31.04 0.081 31.04 0.982 94.492
4900 0.986 146.949 0.083 30.231 0.083 30.231 0.982 93.642
4950 0.986 146.129 0.084 29.432 0.084 29.432 0.981 92.808
5000 0.986 145.319 0.086 28.644 0.086 28.644 0.981 91.987
5050 0.985 144.518 0.088 27.867 0.088 27.867 0.981 91.181
5100 0.985 143.726 0.089 27.1 0.089 27.1 0.981 90.389
5150 0.985 142.943 0.091 26.343 0.091 26.343 0.981 89.61
5200 0.985 142.169 0.093 25.596 0.093 25.596 0.981 88.844
5250 0.985 141.404 0.094 24.859 0.094 24.859 0.981 88.09
5300 0.984 140.647 0.095 24.131 0.095 24.131 0.981 87.35
5350 0.984 139.898 0.097 23.413 0.097 23.413 0.981 86.621
5400 0.984 139.157 0.098 22.704 0.098 22.704 0.981 85.904
5450 0.984 138.424 0.1 22.004 0.1 22.004 0.981 85.199
5500 0.984 137.699 0.101 21.313 0.101 21.313 0.98 84.505
5550 0.983 136.982 0.102 20.631 0.102 20.631 0.98 83.822
5600 0.983 136.272 0.103 19.957 0.103 19.957 0.98 83.15
5650 0.983 135.569 0.104 19.291 0.104 19.291 0.98 82.489
5700 0.983 134.873 0.106 18.634 0.106 18.634 0.98 81.837
5750 0.983 134.184 0.107 17.985 0.107 17.985 0.98 81.196
5800 0.983 133.502 0.108 17.343 0.108 17.343 0.98 80.565
5850 0.983 132.827 0.109 16.709 0.109 16.709 0.98 79.943
5900 0.982 132.159 0.11 16.083 0.11 16.083 0.98 79.33
5950 0.982 131.497 0.111 15.465 0.111 15.465 0.98 78.727
6000 0.982 130.841 0.112 14.854 0.112 14.854 0.98 78.133
6050 0.982 130.192 0.113 14.249 0.113 14.249 0.98 77.547
6100 0.982 129.549 0.114 13.652 0.114 13.652 0.98 76.971
6150 0.982 128.911 0.114 13.062 0.114 13.062 0.98 76.402
6200 0.982 128.28 0.115 12.479 0.115 12.479 0.98 75.842
6250 0.981 127.655 0.116 11.902 0.116 11.902 0.98 75.29
6300 0.981 127.035 0.117 11.332 0.117 11.332 0.98 74.745
6350 0.981 126.422 0.118 10.768 0.118 10.768 0.98 74.209
6400 0.981 125.813 0.118 10.211 0.118 10.211 0.979 73.68
6450 0.981 125.21 0.119 9.66 0.119 9.66 0.979 73.158
6500 0.981 124.613 0.12 9.114 0.12 9.114 0.979 72.644
6550 0.981 124.021 0.12 8.575 0.12 8.575 0.979 72.137
6600 0.981 123.434 0.121 8.042 0.121 8.042 0.979 71.636
6650 0.981 122.853 0.122 7.515 0.122 7.515 0.979 71.143
6700 0.98 122.276 0.122 6.993 0.122 6.993 0.979 70.656
6750 0.98 121.704 0.123 6.476 0.123 6.476 0.979 70.176
6800 0.98 121.138 0.123 5.966 0.123 5.966 0.979 69.702
6850 0.98 120.576 0.124 5.46 0.124 5.46 0.979 69.234
6900 0.98 120.019 0.124 4.96 0.124 4.96 0.979 68.773
6950 0.98 119.467 0.125 4.466 0.125 4.466 0.979 68.318
7000 0.98 118.919 0.125 3.976 0.125 3.976 0.979 67.868
7050 0.98 118.376 0.126 3.491 0.126 3.491 0.979 67.425
7100 0.98 117.838 0.126 3.012 0.126 3.012 0.979 66.987
7150 0.98 117.304 0.126 2.537 0.126 2.537 0.979 66.555
7200 0.98 116.775 0.127 2.067 0.127 2.067 0.979 66.128
7250 0.98 116.25 0.127 1.602 0.127 1.602 0.979 65.707
7300 0.979 115.729 0.128 1.141 0.128 1.141 0.979 65.291
7350 0.979 115.212 0.128 0.685 0.128 0.685 0.979 64.88
7400 0.979 114.7 0.128 0.234 0.128 0.234 0.979 64.474
7450 0.979 114.191 0.128 -0.213 0.128 -0.213 0.979 64.073
7500 0.979 113.687 0.129 -0.656 0.129 -0.656 0.979 63.677
7550 0.979 113.187 0.129 -1.094 0.129 -1.094 0.979 63.286
7600 0.979 112.691 0.129 -1.528 0.129 -1.528 0.979 62.9
7650 0.979 112.199 0.13 -1.958 0.13 -1.958 0.979 62.518
7700 0.979 111.71 0.13 -2.384 0.13 -2.384 0.979 62.141
7750 0.979 111.226 0.13 -2.806 0.13 -2.806 0.979 61.768
7800 0.979 110.745 0.13 -3.223 0.13 -3.223 0.979 61.4
7850 0.979 110.268 0.13 -3.637 0.13 -3.637 0.979 61.036
7900 0.979 109.795 0.131 -4.047 0.131 -4.047 0.979 60.677
7950 0.979 109.326 0.131 -4.453 0.131 -4.453 0.979 60.321
8000 0.979 108.86 0.131 -4.855 0.131 -4.855 0.98 59.97
8050 0.979 108.397 0.131 -5.254 0.131 -5.254 0.98 59.623
8100 0.979 107.938 0.131 -5.649 0.131 -5.649 0.98 59.279
8150 0.979 107.483 0.131 -6.04 0.131 -6.04 0.98 58.94
8200 0.979 107.031 0.132 -6.428 0.132 -6.428 0.98 58.604
8250 0.979 106.583 0.132 -6.812 0.132 -6.812 0.98 58.272
8300 0.979 106.137 0.132 -7.193 0.132 -7.193 0.98 57.944
8350 0.979 105.696 0.132 -7.57 0.132 -7.57 0.98 57.62
8400 0.979 105.257 0.132 -7.944 0.132 -7.944 0.98 57.299
8450 0.979 104.822 0.132 -8.315 0.132 -8.315 0.98 56.982
8500 0.979 104.39 0.132 -8.683 0.132 -8.683 0.98 56.668
8550 0.979 103.961 0.132 -9.047 0.132 -9.047 0.98 56.357
8600 0.979 103.536 0.132 -9.408 0.132 -9.408 0.98 56.05
8650 0.979 103.113 0.132 -9.766 0.132 -9.766 0.98 55.746
8700 0.979 102.694 0.132 -10.12 0.132 -10.12 0.98 55.446
8750 0.979 102.277 0.132 -10.472 0.132 -10.472 0.98 55.148
8800 0.979 101.864 0.132 -10.821 0.132 -10.821 0.98 54.854
8850 0.979 101.454 0.132 -11.166 0.132 -11.166 0.98 54.563
8900 0.979 101.046 0.132 -11.509 0.132 -11.509 0.98 54.275
8950 0.979 100.642 0.132 -11.849 0.132 -11.849 0.98 53.99
9000 0.979 100.24 0.132 -12.186 0.132 -12.186 0.98 53.708
9050 0.979 99.842 0.132 -12.52 0.132 -12.52 0.98 53.429
9100 0.979 99.446 0.132 -12.851 0.132 -12.851 0.98 53.153
9150 0.979 99.053 0.132 -13.18 0.132 -13.18 0.98 52.879
9200 0.979 98.663 0.132 -13.506 0.132 -13.506 0.98 52.609
9250 0.979 98.275 0.132 -13.829 0.132 -13.829 0.98 52.341
9300 0.979 97.89 0.132 -14.15 0.132 -14.15 0.981 52.075
9350 0.979 97.508 0.132 -14.467 0.132 -14.467 0.981 51.813
9400 0.979 97.129 0.132 -14.783 0.132 -14.783 0.981 51.553
9450 0.979 96.752 0.132 -15.095 0.132 -15.095 0.981 51.295
9500 0.979 96.378 0.132 -15.406 0.132 -15.406 0.981 51.04
9550 0.979 96.007 0.132 -15.713 0.132 -15.713 0.981 50.788
9600 0.979 95.638 0.132 -16.019 0.132 -16.019 0.981 50.538
9650 0.979 95.271 0.132 -16.321 0.132 -16.321 0.981 50.291
9700 0.979 94.908 0.132 -16.622 0.132 -16.622 0.981 50.046
9750 0.979 94.546 0.132 -16.92 0.132 -16.92 0.981 49.803
9800 0.979 94.187 0.131 -17.215 0.131 -17.215 0.981 49.563
9850 0.979 93.831 0.131 -17.509 0.131 -17.509 0.981 49.325
9900 0.979 93.477 0.131 -17.8 0.131 -17.8 0.981 49.089
9950 0.979 93.125 0.131 -18.088 0.131 -18.088 0.981 48.855
10000 0.979 92.776 0.131 -18.375 0.131 -18.375 0.981 48.624
10050 0.979 92.429 0.131 -18.659 0.131 -18.659 0.981 48.395
