!
! AVX THIN FILM OPERATION
!
! 0805 Size Low Pass Filter P/N  LP0805A2750AWTR
!
! Network Analyzer HP8720ES.07.64: Feb 23, 2000 Serial No. US39172382
! Hewlett-Packard
!  2 Feb 2003  05:01:14
! Frequency       S11                S21                S12                S22
# HZ  S  DB R  50 
50000000  -58.675   -68.909   -.0029   -1.3335   -.0307   -1.2827   -47.198    19.174   
117250000  -51.483   -72.975   -.0394   -2.9677   -.0018   -3.0034   -49.026   -150.58   
184500000  -46.578   -92.678   -.0163   -4.9026   -.0229   -5.0661   -45.914   -111.27   
251750000  -43.764   -102.48   -.0157   -6.5108   -.0369   -6.6234   -42.392   -116.38   
319000000  -41.125   -112.62   -.0111   -8.3029   -.0256   -8.4499   -37.319   -128.28   
386250000  -39   -120.74   -.0498   -10.044   -.0397   -10.249   -35.617   -127.63   
453500000  -37.091   -128.4   -.0238   -11.762   -.0353   -12.033   -34.276   -122.48   
520750000  -35.461   -135.76   -.0370   -13.664   -.0260   -13.828   -33.846   -120.16   
588000000  -34.049   -141.83   -.0321   -15.331   -.0539   -15.498   -33.936   -132.24   
655250000  -32.634   -147.44   -.0500   -17.228   -.0209   -17.206   -33.41   -136.38   
722500000  -31.313   -154.01   -.0337   -19.068   -.0384   -19.184   -32.512   -144.92   
789750000  -30.181   -158.89   -.0248   -20.853   -.0482   -20.98   -33.895   -157.64   
857000000  -29.078   -164.1   -.0321   -22.71   -.0461   -22.89   -31.504    179.68   
924250000  -28.033   -168.58   -.0141   -24.554   -.0446   -24.494   -29.455    173.09   
991500000  -27.043   -173.81   -.0135   -26.499   -.0323   -26.564   -27.945    163.36   
1058750000  -26.233   -178.37   -.0011   -28.202   -.0714   -28.444   -25.754    158.81   
1126000000  -25.35    177.51   -.0167   -30.241   -.0321   -29.987   -24.003    158.77   
1193250000  -24.54    172.46   -.0108   -32.054    .0013   -32.417   -22.949    158.76   
1260500000  -23.852    168.18    .0103   -33.882   -.0326   -34.18   -22.256    157.65   
1327750000  -23.175    162.6   -.0089   -36.244    .0198   -36.52   -21.499    156.23   
1395000000  -22.563    158.39    .0113   -38.112   -.0078   -38.462   -20.982    155.31   
1462250000  -21.98    153.41    .0184   -40.226    .0437   -40.629   -20.872    153.56   
1529500000  -21.559    148.42    .0019   -42.492   -.0228   -42.913   -21.32    150.94   
1596750000  -21.117    143.7    .0022   -44.771   -.0277   -44.882   -21.21    145.82   
1664000000  -20.675    138.68   -.0038   -46.865    .0509   -47.222   -21.312    142.11   
1731250000  -20.411    132.82    .0085   -49.243   -.0468   -49.923   -21.976    135.31   
1798500000  -20.082    128.04   -.0228   -51.535    .0553   -51.445   -22.162    124.65   
1865750000  -19.845    121.38    .0013   -54.102    .0807   -54.494   -21.83    115.05   
1933000000  -19.707    115.13   -.0081   -56.582    .0474   -57.265   -22.411    102.62   
2000250000  -19.71    108.68   -.0222   -59.076   -.0346   -59.502   -22.052    87.55   
2067500000  -19.636    101.75   -.0293   -61.794    .0366   -61.871   -20.627    76.09   
2134750000  -19.726    92.921   -.0597   -64.671   -.0224   -65.067   -19.669    68.362   
2202000000  -19.766    84.021   -.0570   -67.392   -.0361   -67.879   -18.87    57.366   
2269250000  -20.013    74.063   -.0485   -70.41   -.1521   -70.249   -17.81    52.932   
2336500000  -20.015    62.906   -.0746   -73.266   -.0342   -73.08   -17.302    50.371   
2403750000  -20.059    48.896   -.0968   -76.318   -.1077   -76.853   -17.557    43.672   
2471000000  -19.955    33.735   -.1390   -79.603   -.1750   -79.906   -17.902    33.911   
2538250000  -19.603    18.074   -.1612   -82.636   -.1909   -82.73   -18.279    22.53   
2605500000  -18.73    1.0533   -.1890   -86.067   -.1750   -86.233   -18.439    6.8404   
2672750000  -17.666   -15.245   -.2616   -89.631   -.2358   -89.801   -18.064   -14.719   
2740000000  -16.359   -30.346   -.3243   -93.061   -.2623   -93.494   -16.809   -32.467   
2807250000  -14.913   -45.027   -.3983   -96.906   -.4599   -97.473   -15.169   -49.502   
2874500000  -13.503   -57.202   -.4712   -100.84   -.4940   -100.02   -13.262   -63.329   
2941750000  -11.924   -68.47   -.5962   -104.81   -.4243   -104.47   -11.381   -73.096   
3009000000  -10.427   -79.286   -.6219   -108.76   -.4901   -109.9   -9.6861   -82.518   
3076250000  -9.0871   -90.139   -.8063   -113.59   -.9082   -113.63   -8.2353   -90.124   
3143500000  -7.8262   -99.363   -.8448   -118   -.7638   -116.02   -7.2158   -97.059   
3210750000  -6.5366   -108.72   -1.0595   -123.19   -.6150   -122.44   -6.073   -105.73   
3278000000  -5.3737   -118.42   -1.1455   -128.33   -.8081   -129.98   -5.0313   -114.89   
3345250000  -4.4597   -127.93   -1.4763   -134.43   -1.3136   -133.66   -4.244   -123.69   
3412500000  -3.4396   -137.13   -1.5656   -140.5   -1.0672   -141.22   -3.3789   -133.02   
3479750000  -2.7535   -146.41   -2.1252   -147.35   -1.7234   -147.83   -2.6381   -142.58   
3547000000  -1.9163   -155.89   -2.2234   -154.21   -2.0163   -157.27   -1.916   -151.39   
3614250000  -1.562   -164.62   -3.0395   -161.43   -3.2694   -161.81   -1.4194   -160.24   
3681500000  -.9725   -172.99   -3.5158   -168.14   -3.4172   -168.02   -.889   -168.35   
3748750000  -.7283    178.9   -4.3965   -175.36   -4.4053   -175.97   -.6323   -176.22   
3816000000  -.2835    171.15   -5.1775    177.57   -5.2711    178.31   -.4319    175.33   
3883250000  -.2022    163.62   -6.2392    171.28   -5.8231    169.04   -.1087    167.73   
3950500000   .0987    156.71   -7.2243    164.09   -7.9957    163.72    .0457    160.34   
4017750000   .1352    149.9   -8.4061    158.71   -7.6357    162.21    .1339    153.37   
4085000000   .3267    144.05   -9.6987    153.78   -9.2893    145.82    .2565    146.14   
4152250000   .3358    137.42   -10.872    147.79   -11.054    144.63    .3904    139.3   
4219500000   .4626    132.2   -12.225    143.28   -12.756    139.8    .4558    133.43   
4286750000   .4304    126.22   -13.632    138.08   -13.76    141.68    .5919    127.81   
4354000000   .5117    121.5   -15.219    135.35   -14.152    133.96    .6410    122.21   
4421250000   .4692    116.03   -16.402    130.16   -16.873    124.29    .7014    116.71   
4488500000   .5179    111.71   -18.317    127.66   -18.423    135.37    .7042    112.04   
4555750000   .4520    106.61   -19.804    124.23   -18.333    125.78    .7170    107.59   
4623000000   .4965    102.44   -21.508    121.71   -20.754    119.55    .7011    103.09   
4690250000   .4184    97.769   -23.242    118.72   -22.828    114.71    .6478    98.825   
4757500000   .4035    93.929   -25.224    117.32   -25.28    118.71    .5784    94.552   
4824750000   .3739    89.423   -27.118    113.72   -26.216    115.36    .4765    90.286   
4892000000   .3205    85.78   -29.338    113.85   -28.446    108.74    .4367    86.09   
4959250000   .3059    81.751   -31.508    110.92   -31.928    109.9    .3670    82.12   
5026500000   .2468    78.062   -34.133    110.57   -33.386    113.91    .3251    78.257   
5093750000   .1634    74.154   -37.007    108.62   -36.245    107.26    .2325    74.294   
5161000000   .1323    70.663   -40.194    110.48   -39.53    105.55    .1918    70.55   
5228250000   .0744    67.01   -44.34    110.03   -44.476    103.99    .1210    66.813   
5295500000   .0205    63.512   -49.657    114.95   -50.37    111.9    .0505    63.202   
5362750000  -.0257    60.007   -59.101    133.37   -60.759    135.95   -.0118    59.946   
5430000000  -.1353    56.641   -61.873   -115.61   -59.429   -114.69   -.0531    56.475   
5497250000  -.1708    53.304   -55.953   -90.001   -53.386   -93.84   -.1457    53.53   
5564500000  -.2374    49.819   -52.566   -88.804   -51.233   -92.428   -.2431    50.477   
5631750000  -.2952    46.73   -51.886   -83.382   -51.575   -84.393   -.3638    47.038   
5699000000  -.3810    43.561   -52.449   -80.364   -51.569   -86.394   -.4326    44.1   
5766250000  -.4567    40.405   -55.086   -64.797   -53.939   -79.434   -.5904    40.777   
5833500000  -.5108    37.235   -60.343   -31.38   -56.671   -53.878   -.7187    37.581   
5900750000  -.6129    34.195   -58.283    15.266   -60.805   -15.268   -.7280    34.283   
5968000000  -.6572    31.167   -52.235    48.307   -54.374    38.342   -.8167    31.334   
6035250000  -.7374    28.041   -48.664    63.136   -49.559    50.578   -.9051    28.177   
6102500000  -.7973    24.995   -45.511    64.878   -46.671    57.395   -.9536    25.256   
6169750000  -.9408    22.015   -42.987    67.466   -43.816    66.583   -.9924    22.606   
6237000000  -.9696    19.02   -41.175    68.497   -40.796    65.992   -1.1743    19.693   
6304250000  -1.0823    16.061   -38.949    63.042   -38.817    64.39   -1.2603    16.67   
6371500000  -1.0959    13.075   -36.516    66.147   -37.643    64.194   -1.3348    14.097   
6438750000  -1.2131    10.673   -35.412    66.193   -36.003    67.939   -1.4071    11.135   
6506000000  -1.4054    7.3485   -34.384    64.745   -34.119    65.006   -1.5023    7.7811   
6573250000  -1.4243    4.4096   -32.656    64.343   -33.284    60.647   -1.5649    5.4973   
6640500000  -1.468    1.7358   -31.67    63.375   -32.614    59.999   -1.7566    2.7274   
6707750000  -1.5809   -1.2318   -30.841    62.97   -31.532    60.443   -1.8181   -.3694   
6775000000  -1.6165   -3.9221   -29.971    61.537   -30.589    59.767   -1.8352   -3.0679   
6842250000  -1.7545   -7.0052   -29.123    61.106   -29.7    56.694   -1.9937   -5.0853   
6909500000  -1.822   -9.1585   -28.283    58.775   -29.304    54.79   -2.1106   -7.9376   
6976750000  -1.9535   -12.482   -27.774    56.939   -28.58    56.07   -2.1317   -10.93   
7044000000  -1.9976   -14.81   -27.165    56.323   -27.753    53.37   -2.3265   -12.751   
7111250000  -2.1341   -18.018   -26.479    54.653   -27.19    51.336   -2.4942   -15.86   
7178500000  -2.2259   -20.288   -26.129    53.068   -26.732    50.258   -2.6251   -18.793   
7245750000  -2.3453   -23.387   -25.518    51.957   -26.29    49.248   -2.7074   -21.149   
7313000000  -2.4411   -25.727   -25.319    50.422   -25.745    48.932   -2.97   -24.39   
7380250000  -2.5029   -28.654   -24.617    50.309   -24.85    47.245   -2.9629   -27.404   
7447500000  -2.6325   -30.935   -24.369    48.274   -24.694    43.293   -3.0226   -30.348   
7514750000  -2.7546   -34.059   -23.977    47.085   -24.374    44.074   -3.1786   -32.899   
7582000000  -2.8863   -36.098   -23.731    45.78   -23.84    41.999   -3.2532   -36.069   
7649250000  -2.9838   -39.125   -23.393    44.378   -23.626    42.16   -3.247   -38.353   
7716500000  -3.1408   -41.211   -23.282    43.915   -23.059    41.392   -3.4463   -40.361   
7783750000  -3.2383   -44.317   -22.735    41.765   -22.838    38.014   -3.5021   -42.919   
7851000000  -3.3994   -46.903   -22.799    41.112   -23.088    39.501   -3.6017   -44.742   
7918250000  -3.4738   -49.808   -22.399    40.717   -22.36    39.466   -3.8972   -46.791   
7985500000  -3.7002   -51.916   -22.402    39.437   -22.302    36.631   -4.1213   -49.338   
8052750000  -3.7819   -54.836   -22.1    39.08   -21.949    35.487   -4.3318   -51.724   
8120000000  -3.9876   -57.181   -21.99    37.988   -22.209    32.233   -4.6403   -53.637   
8187250000  -4.0684   -60.193   -21.82    37.382   -22.357    33.177   -4.9421   -57.025   
8254500000  -4.3178   -62.257   -21.74    38.493   -21.537    33.685   -5.1687   -60.033   
8321750000  -4.49   -64.969   -21.473    36.99   -21.697    26.741   -5.4662   -62.953   
8389000000  -4.6939   -68.051   -21.456    36.6   -22.42    29.22   -5.7981   -66.5   
8456250000  -4.7717   -70.815   -21.143    37.154   -21.724    31.204   -5.9311   -69.879   
8523500000  -5.0765   -73.699   -21.046    37.341   -21.48    30.918   -6.1989   -73.034   
8590750000  -5.2147   -76.214   -20.647    37.371   -21.18    25.825   -6.5033   -77.205   
8658000000  -5.4759   -79.313   -20.575    36.62   -21.584    26.606   -6.7478   -81.329   
8725250000  -5.6194   -82.327   -20.35    36.686   -21.24    31.918   -6.9333   -84.185   
8792500000  -5.8363   -85.246   -19.899    37.594   -19.91    28.235   -7.1905   -88.029   
8859750000  -6.0608   -87.866   -19.532    35.804   -20.762    21.193   -7.3446   -92.705   
8927000000  -6.3736   -91.631   -19.493    35.763   -20.989    28.481   -7.4781   -95.952   
8994250000  -6.5288   -94.606   -18.976    34.942   -20.174    27.444   -7.7563   -99.433   
9061500000  -6.7614   -98.405   -18.59    33.716   -19.603    24.852   -7.945   -104.22   
9128750000  -6.9887   -101.54   -18.213    31.29   -20.3    19.957   -8.0541   -107.48   
9196000000  -7.2711   -105.64   -18.038    29.057   -20.431    26.455   -8.3692   -111.15   
9263250000  -7.5015   -108.91   -17.79    27.665   -19.273    26.752   -8.5414   -116.39   
9330500000  -7.6722   -113.65   -17.287    25.06   -18.651    18.196   -8.5759   -121.11   
9397750000  -7.8529   -117.04   -17.354    20.737   -19.596    18.544   -8.8458   -125.16   
9465000000  -8.1008   -122.06   -17.1    18.809   -18.537    19.648   -8.9824   -130.03   
9532250000  -8.275   -125.96   -17.11    15.257   -18.542    15.882   -9.0488   -134.63   
9599500000  -8.4226   -131.1   -16.787    12.395   -18.181    10.806   -9.1704   -139.33   
9666750000  -8.5759   -135.25   -17.055    7.9926   -18.888    10.155   -9.2986   -145.54   
9734000000  -8.6088   -140.67   -17.018    5.5879   -18.091    9.315   -9.2309   -150.19   
9801250000  -8.8094   -145.1   -17.238    2.3415   -18.219    5.2625   -9.2944   -154.99   
9868500000  -8.7724   -150.44   -17.31   -1.9981   -18.379    1.7908   -9.333   -161.21   
9935750000  -8.8547   -155.35   -17.7   -4.0649   -18.073    .9283   -9.1066   -166.59   
10003000000  -8.7541   -160.79   -17.707   -7.8333   -18.313   -5.912   -8.9621   -171.63   
10070250000  -8.7301   -165.58   -18.166   -10.616   -18.397   -5.4204   -8.8933   -177.43   
10137500000  -8.5859   -170.76   -18.326   -13.383   -18.629   -12.166   -8.4244    177.62   
10204750000  -8.5302   -175.44   -18.699   -15.195   -18.794   -14.039   -8.1692    174.52   
10272000000  -8.2974    179.68   -19.108   -18.338   -19.693   -17.986   -8.0303    170.86   
10339250000  -8.1996    175.03   -19.59   -21.245   -19.72   -15.775   -7.6704    166   
10406500000  -7.8998    170.57   -20.094   -22.471   -19.804   -20.656   -7.3886    162.53   
10473750000  -7.7331    166.45   -20.418   -24.068   -20.312   -25.245   -7.1694    158.62   
10541000000  -7.4357    162.25   -21.032   -27.408   -21.338   -24.495   -6.8842    154.29   
10608250000  -7.2077    158.17   -21.403   -30.101   -20.85   -25.968   -6.5139    151.2   
10675500000  -6.912    154.25   -22.078   -31.587   -21.476   -32.143   -6.1812    147.63   
10742750000  -6.6343    150.64   -22.468   -33.576   -22.368   -36.619   -5.8178    144.05   
10810000000  -6.3094    147.42   -23.208   -35.625   -23.384   -32.822   -5.4589    141.95   
10877250000  -6.0362    143.97   -23.801   -37.908   -22.802   -36.109   -5.2727    139.96   
10944500000  -5.7667    140.85   -24.48   -39.146   -23.738   -43.172   -5.0633    137.53   
11011750000  -5.4673    137.57   -25.026   -43.136   -25.087   -45.978   -4.8243    134.73   
11079000000  -5.1552    135.05   -25.882   -45.836   -25.706   -43.852   -4.6184    132.18   
11146250000  -4.8598    132.02   -26.769   -51.434   -25.886   -50.133   -4.4169    129.15   
11213500000  -4.5535    129.46   -27.931   -54.792   -27.096   -58.844   -4.2257    126.38   
11280750000  -4.2567    126.62   -29.01   -62.294   -29.314   -65.749   -3.9451    123.56   
11348000000  -3.949    124.28   -30.351   -70.164   -30.279   -66.01   -3.6413    121.21   
11415250000  -3.644    121.73   -31.849   -83.474   -31.239   -82.59   -3.375    118.58   
11482500000  -3.3689    119.37   -33.146   -101.37   -32.741   -100.69   -3.0453    115.96   
11549750000  -3.0683    116.67   -34.006   -124.97   -33.652   -123.83   -2.7788    114.1   
11617000000  -2.7754    114.59   -33.086   -149.39   -32.502   -146.12   -2.5233    111.41   
11684250000  -2.466    111.68   -30.807   -167.83   -30.229   -165.69   -2.2783    108.86   
11751500000  -2.2552    109.18   -27.762    179.64   -27.271    179.96   -1.9903    106.32   
11818750000  -1.9762    106.37   -24.786    168.47   -24.956    172.35   -1.8276    103.65   
11886000000  -1.7833    103.72   -21.682    160.51   -21.236    164.77   -1.6337    101.38   
11953250000  -1.6194    100.79   -18.533    151.86   -18.256    152.31   -1.4288    98.995   
12020500000  -1.5774    98.094   -15.023    139.63   -15.009    140.95   -1.3314    96.401   
12087750000  -1.7354    95.723   -11.393    122.17   -11.515    124.89   -1.2617    94.189   
12155000000  -1.9688    94.98   -7.8679    94.573   -8.2603    95.948   -1.1786    93.466   
12222250000  -2.2725    97.16   -7.0308    54.064   -7.4612    58.236   -1.5351    91.347   
12289500000  -1.7459    102.04   -9.0048    24.988   -9.3312    28.39   -1.534    95.317   
12356750000  -.8323    101.52   -11.128    9.3329   -11.653    13.328   -.7780    96.954   
12424000000  -.2870    99.608   -12.88   -.8404   -13.474    3.4662   -.3342    95.721   
12491250000   .1977    97.118   -14.227   -8.6916   -14.774   -1.0547    .0762    93.117   
12558500000   .5044    95.21   -15.393   -13.3   -15.523   -8.0791    .4054    91.962   
12625750000   .8588    93.179   -16.352   -18.993   -16.716   -15.498    .5451    90.43   
12693000000   1.1471    91.71   -17.213   -24.028   -18.141   -19.102    .7835    88.665   
12760250000   1.4618    90.11   -18.11   -28.177   -18.739   -20.892    1.0629    87.085   
12827500000   1.6866    88.805   -18.774   -30.593   -19.141   -25.343    1.3133    86.038   
12894750000   1.9936    87.175   -19.553   -34.188   -19.84   -30.73    1.4336    84.744   
12962000000   2.255    86.072   -20.184   -37.59   -21.236   -35.642    1.6749    83.379   
13029250000   2.4998    85.251   -21.046   -41.044   -21.926   -33.632    1.8536    82.121   
13096500000   2.8054    83.896   -21.69   -41.118   -22.233   -36.302    2.1388    81.168   
13163750000   3.085    82.814   -22.09   -40.501   -22.479   -38.127    2.554    80.386   
13231000000   3.3068    82.031   -22.289   -40.268   -23.084   -37.987    2.6485    80.096   
13298250000   3.5934    81.749   -22.233   -43.738   -22.949   -38.502    2.8137    79.192   
13365500000   3.8499    81.502   -22.343   -45.078   -23.084   -41.362    3.2485    80.222   
13432750000   4.1603    81.236   -22.613   -47.442   -23.644   -43.525    3.4833    80.262   
13500000000   4.4121    81.545   -22.638   -48.064   -24.093   -43.314    3.6595    80.62   

