!
! AVX THIN FILM OPERATION
!
! 0805 Size Low Pass Filter P/N  LP0805A0942AWTR
!
! Network Analyzer HP8720ES.07.64: Feb 23, 2000 Serial No. US39172382
! Hewlett-Packard
!  2 Feb 2003  02:46:30
! Frequency       S11                S21                S12                S22
# HZ  S  DB R  50 
50000000  -33.949   -87.534   -.0056   -3.6324   -.0086   -3.653   -35.942   -47.234   
100000000  -27.786   -96.183   -.0476   -6.7319   -.0268   -6.7854   -27.462   -96.755   
150000000  -24.174   -102.76   -.0485   -10.183   -.0390   -10.044   -24.518   -106.04   
200000000  -21.712   -108.29   -.0225   -13.649   -.0576   -13.385   -21.833   -108.89   
250000000  -19.918   -113.9   -.0656   -16.904   -.0837   -16.96   -19.96   -114.48   
300000000  -18.496   -119.07   -.1018   -20.116   -.1272   -20.227   -18.537   -120.9   
350000000  -17.353   -124.58   -.1206   -23.851   -.1672   -23.63   -17.16   -127.41   
400000000  -16.45   -129.93   -.1725   -27.098   -.1774   -27.102   -16.142   -130.72   
450000000  -15.702   -135.45   -.1799   -30.594   -.1557   -30.777   -15.302   -135.15   
500000000  -15.158   -141.18   -.2000   -34.227   -.1890   -34.736   -14.839   -140.1   
550000000  -14.76   -146.9   -.2124   -38.077   -.2470   -38.322   -14.567   -145.12   
600000000  -14.51   -152.89   -.2276   -41.968   -.1982   -41.74   -14.381   -150.49   
650000000  -14.443   -159.24   -.2344   -45.981   -.1494   -46.112   -14.491   -156.11   
700000000  -14.639   -165.97   -.2428   -50.198   -.2005   -50.694   -14.95   -162.74   
750000000  -15.105   -173.42   -.2084   -55.077   -.2020   -55.143   -15.629   -171.28   
800000000  -15.977    178.32   -.2092   -60.02   -.1831   -60.252   -16.85    179.76   
850000000  -17.469    168.24   -.1742   -65.623   -.1969   -65.549   -18.55    167.36   
900000000  -20.135    154.09   -.1737   -71.8   -.1903   -71.286   -21.703    146.85   
950000000  -25.263    123.71   -.1939   -78.5   -.1790   -78.295   -25.758    102.15   
1000000000  -26.348    29.89   -.2717   -86.173   -.2609   -86.136   -23.427    25.469   
1050000000  -18.09   -15.013   -.4172   -94.79   -.4596   -94.85   -16.862   -10.447   
1100000000  -12.717   -35.545   -.7238   -104.51   -.8123   -105.01   -12.303   -30.693   
1150000000  -8.9856   -51.891   -1.2205   -115.16   -1.4313   -114.47   -8.9904   -48.389   
1200000000  -6.1513   -67.684   -1.9643   -126.54   -1.9744   -126.13   -6.3045   -65.724   
1250000000  -4.1599   -83.051   -3.0989   -138.17   -3.2223   -138.79   -4.2954   -81.786   
1300000000  -2.7989   -97.509   -4.4708   -149.65   -4.5436   -148.11   -2.9301   -96.147   
1350000000  -1.871   -110.48   -6.1968   -159.9   -6.0737   -160.7   -2.0025   -109.83   
1400000000  -1.3109   -122.28   -8.1671   -169.5   -8.2871   -169.98   -1.409   -121.68   
1450000000  -.9298   -132.48   -10.322   -177.7   -10.245   -177.8   -.9939   -131.71   
1500000000  -.7207   -141.05   -12.714    175.41   -12.609    172.99   -.6785   -140.68   
1550000000  -.6027   -149.1   -15.331    168.83   -15.408    166.96   -.5402   -148.22   
1600000000  -.4652   -155.94   -18.253    164.23   -18.458    163.47   -.4039   -155.52   
1650000000  -.4353   -161.96   -21.459    160.42   -21.23    160.91   -.3095   -161.58   
1700000000  -.3567   -167.74   -25.247    157.47   -25.02    153.66   -.2843   -167.13   
1750000000  -.3388   -172.74   -30.25    157.18   -30.542    155.92   -.2751   -172.25   
1800000000  -.3211   -177.56   -37.328    165.7   -37.177    168.07   -.1847   -177.51   
1850000000  -.2769    178.09   -46.488   -117.79   -45.824   -116.95   -.0748    178.51   
1900000000  -.2878    174.03   -38.644   -62.509   -37.935   -66.485    .0225    174.53   
1950000000  -.2486    169.81   -34.683   -57.748   -34.198   -62.041   -.0118    171.08   
2000000000  -.1991    166.21   -32.708   -57.042   -32.654   -58.898    .0325    167.54   
2050000000  -.2331    162.56   -31.612   -56.998   -31.145   -57.228    .0387    164.34   
2100000000  -.183    158.98   -31.287   -58.833   -30.819   -62.301   -.0079    161.35   
2150000000  -.1885    156.04   -31.557   -60.598   -31.168   -63.744   -.0355    158.65   
2200000000  -.1858    152.67   -31.838   -62.305   -31.705   -66.377   -.0504    155.44   
2250000000  -.1267    149.62   -32.614   -62.597   -33.453   -64.73   -.1138    152.2   
2300000000  -.1507    146.73   -33.914   -64.152   -34.019   -58.277   -.1591    149.07   
2350000000  -.1251    143.64   -35.522   -65.429   -34.676   -64.714   -.1992    145.75   
2400000000  -.1248    141.05   -38.058   -65.801   -37.638   -71.52   -.1787    142.75   
2450000000  -.1123    138.2   -41.891   -62.596   -42.301   -68.305   -.1881    139.89   
2500000000  -.1007    135.48   -49.793   -54.856   -51.46   -52.718   -.2087    137.31   
2550000000  -.118    132.93   -52.887    78.279   -51.733    83.184   -.2679    134.12   
2600000000  -.0999    130.27   -42.22    94.559   -41.341    91.626   -.1755    130.98   
2650000000  -.0770    127.81   -37.533    96.722   -37.343    91.206   -.1683    128.39   
2700000000  -.0911    125.37   -34.354    96.687   -34.618    92.185   -.1035    126.14   
2750000000  -.0865    122.88   -32.025    94.982   -32.874    92.786   -.0909    123.73   
2800000000  -.0840    120.49   -30.345    93.904   -30.6    98.709   -.1712    121.26   
2850000000  -.0944    118.19   -28.665    94.033   -27.818    93.682   -.0848    118.45   
2900000000  -.0778    115.9   -27.342    91.702   -26.94    85.92   -.0475    116.54   
2950000000  -.0916    113.53   -26.29    90.695   -26.478    85.487   -.0567    114.73   
3000000000  -.0919    111.29   -25.172    89.26   -25.939    86.276   -.1233    112.44   
3050000000  -.1127    109.16   -24.528    87.992   -24.753    90.678   -.1270    110.17   
3100000000  -.1228    106.98   -23.621    87.593   -22.87    87.028   -.1371    107.7   
3150000000  -.1322    104.79   -22.917    85.255   -22.468    79.615   -.1705    105.71   
3200000000  -.1372    102.58   -22.384    83.842   -22.387    78.191   -.2202    103.24   
3250000000  -.1496    100.46   -21.781    83.887   -22.225    77.82   -.2060    100.88   
3300000000  -.1677    98.383   -21.387    81.495   -21.77    81.23   -.1805    98.896   
3350000000  -.1677    96.254   -20.889    80.568   -20.575    79.155   -.1898    96.493   
3400000000  -.2021    94.206   -20.519    79.391   -20.621    74.393   -.2519    94.682   
3450000000  -.2056    92.093   -20.229    78.35   -20.541    76.948   -.2561    92.303   
3500000000  -.2217    90.091   -19.695    77.809   -19.97    74.968   -.2187    90.655   
3550000000  -.2574    88.168   -19.637    76.032   -20.324    75.361   -.2359    88.562   
3600000000  -.2782    85.858   -19.398    75.458   -19.678    79.233   -.3361    86.759   
3650000000  -.2833    83.853   -19.174    75.109   -19.057    75.185   -.4045    84.187   
3700000000  -.3454    81.792   -19.1    73.629   -19.252    73.104   -.4134    81.985   
3750000000  -.3306    79.682   -19.009    73.309   -19.203    73.747   -.4117    79.957   
3800000000  -.3908    77.554   -19.14    72.86   -19.143    73.519   -.5125    78.058   
3850000000  -.4107    75.174   -19.289    72.735   -19.285    70.763   -.6335    75.302   
3900000000  -.4604    72.912   -19.795    72.762   -20.434    70.341   -.6608    72.614   
3950000000  -.5490    70.145   -20.967    75.005   -21.212    79.118   -.7058    69.493   
4000000000  -.6422    66.812   -22.941    85.658   -22.263    85.85   -.8553    66.579   
4050000000  -1.086    62.143   -23.524    138.71   -23.207    132.91   -1.3937    61.724   
4100000000  -2.8249    62.067   -12.514    148.4   -12.988    144.22   -3.1437    62.095   
4150000000  -1.9296    73.978   -9.3161    103.66   -9.783    101.57   -2.2171    74.217   
4200000000  -1.0998    70.318   -10.755    83.769   -11.267    82.771   -1.1826    70.7   
4250000000  -.8864    66.752   -11.673    77.016   -11.908    79.612   -.9566    66.697   
4300000000  -.8419    64.137   -12.253    74.406   -11.614    74.854   -.8990    63.942   
4350000000  -.8444    61.666   -12.476    72.62   -11.936    67.558   -.8641    61.477   
4400000000  -.8592    59.583   -12.451    70.302   -13.078    65.808   -.8193    59.019   
4450000000  -.8771    57.48   -12.804    69.127   -13.165    74.003   -.8286    57.118   
4500000000  -.9135    55.307   -12.647    69.513   -11.591    73.081   -.8545    55.363   
4550000000  -.9503    53.557   -12.661    68.134   -11.6    63.099   -.9378    53.492   
4600000000  -1.0043    51.644   -12.661    67.909   -12.401    63.335   -.9967    52.103   
4650000000  -1.0045    49.694   -12.533    67.122   -12.389    63.357   -1.0293    50.091   
4700000000  -1.0692    48.039   -12.534    66.731   -12.785    64.09   -1.0957    48.027   
4750000000  -1.1062    45.97   -12.383    66.633   -12.397    68.398   -1.2203    46.577   
4800000000  -1.1208    44.312   -12.264    65.739   -11.687    65.43   -1.2362    44.44   
4850000000  -1.2137    42.584   -12.358    65.772   -11.764    61.669   -1.2945    42.608   
4900000000  -1.2289    40.618   -12.014    66.033   -12.199    60.539   -1.3345    40.638   
4950000000  -1.2817    39.077   -12.046    65.126   -12.453    64.315   -1.3652    38.699   
5000000000  -1.3379    37.113   -11.945    64.892   -11.611    67.485   -1.4167    36.751   
5050000000  -1.351    35.486   -11.749    64.873   -11.031    62.221   -1.4311    34.994   
5100000000  -1.4271    33.926   -11.76    64.646   -11.362    60.55   -1.4698    33.444   
5150000000  -1.4728    31.862   -11.443    64.807   -11.181    59.389   -1.4783    31.558   
5200000000  -1.5096    30.442   -11.326    63.798   -11.603    57.729   -1.5303    29.924   
5250000000  -1.5715    28.61   -11.341    63.703   -11.634    61.489   -1.5162    28.293   
5300000000  -1.6106    26.855   -11.046    64.037   -11.044    59.757   -1.5799    27.003   
5350000000  -1.6445    25.354   -10.966    62.986   -11.262    57.016   -1.633    25.524   
5400000000  -1.7338    23.331   -10.825    63.09   -11.281    57.714   -1.6934    23.939   
5450000000  -1.7641    21.826   -10.613    62.669   -11.368    57.783   -1.7172    22.595   
5500000000  -1.8216    20.24   -10.552    62.471   -11.295    59.381   -1.7548    21.153   
5550000000  -1.8626    18.316   -10.314    62.045   -10.964    58.315   -1.8604    20.043   
5600000000  -1.9094    16.762   -10.204    61.088   -10.995    58.328   -2.027    18.505   
5650000000  -2.0091    15.046   -10.156    60.866   -10.503    59.976   -2.1147    16.929   
5700000000  -2.0258    13.277   -9.8862    60.459   -10.158    57.033   -2.2174    14.865   
5750000000  -2.097    11.882   -9.7981    59.888   -10.384    56.525   -2.2507    13.337   
5800000000  -2.1542    9.8712   -9.6496    59.621   -10.105    56.445   -2.427    11.107   
5850000000  -2.1708    8.4032   -9.4547    58.884   -10.078    55.338   -2.4969    9.2175   
5900000000  -2.2606    6.7923   -9.4227    58.137   -9.969    57.063   -2.4423    7.4789   
5950000000  -2.3058    5.1237   -9.188    57.785   -9.5605    55.86   -2.4425    6.3075   
6000000000  -2.3605    3.6461   -9.1332    57.273   -9.5187    53.278   -2.5299    4.8669   
6050000000  -2.4155    1.7221   -9.0044    56.471   -9.5272    52.203   -2.6577    2.6985   
6100000000  -2.4367    .2870   -8.7984    55.922   -9.6924    52.997   -2.5993    .9722   
6150000000  -2.5325   -1.1508   -8.8076    55.453   -9.5485    55.345   -2.5705   -.0233   
6200000000  -2.5789   -3.1352   -8.6626    54.572   -9.0565    54.474   -2.7245   -.7374   
6250000000  -2.6212   -4.5442   -8.5644    54.194   -8.905    52.011   -2.8652   -2.6505   
6300000000  -2.7077   -6.0864   -8.489    53.815   -8.8842    51.033   -2.9156   -4.8189   
6350000000  -2.7274   -7.9486   -8.2724    52.679   -9.0351    50.602   -2.8454   -6.037   
6400000000  -2.8105   -9.1489   -8.3257    52.169   -9.0163    51.659   -2.945   -7.1452   
6450000000  -2.8586   -11.423   -8.1999    51.913   -8.7152    52.839   -3.0689   -8.1766   
6500000000  -2.8477   -12.625   -8.156    51.331   -8.3213    49.204   -3.1821   -10.279   
6550000000  -3.0038   -13.817   -8.0955    50.852   -8.3879    47.928   -3.1641   -12.632   
6600000000  -3.0218   -15.778   -7.883    49.632   -8.5813    47.344   -3.1801   -13.173   
6650000000  -3.0762   -17.091   -7.9094    49.117   -8.6609    47.639   -3.3015   -14.911   
6700000000  -3.1715   -18.784   -7.8662    48.562   -8.4615    47.884   -3.4197   -16.614   
6750000000  -3.1887   -20.296   -7.7932    47.962   -8.2442    47.663   -3.3577   -18.235   
6800000000  -3.3034   -21.548   -7.8286    48.045   -8.176    47.149   -3.3481   -19.223   
6850000000  -3.345   -23.496   -7.5765    47.225   -8.1816    44.997   -3.5243   -19.7   
6900000000  -3.3997   -24.69   -7.5724    46.395   -8.3488    44.024   -3.648   -21.841   
6950000000  -3.5018   -26.271   -7.5992    45.787   -8.2914    45.088   -3.6823   -23.445   
7000000000  -3.5272   -27.925   -7.5069    45.676   -8.0141    45.527   -3.6143   -24.074   
7050000000  -3.6022   -28.996   -7.4754    45.387   -7.8877    44   -3.82   -25.004   
7100000000  -3.6856   -30.955   -7.359    44.547   -7.938    42.856   -4.0391   -26.26   
7150000000  -3.7268   -32.176   -7.3732    43.965   -7.8258    42.392   -4.1212   -28.949   
7200000000  -3.8358   -33.497   -7.4043    43.921   -7.7667    42.108   -4.1188   -29.961   
7250000000  -3.8841   -35.34   -7.2072    43.035   -7.8274    41.922   -4.1534   -30.851   
7300000000  -3.9477   -36.583   -7.3462    42.568   -7.7107    42.094   -4.4708   -32.382   
7350000000  -4.0523   -38.083   -7.2253    42.88   -7.2894    41.531   -4.5317   -35.355   
7400000000  -4.094   -39.585   -7.0999    41.789   -7.1379    38.916   -4.4438   -36.914   
7450000000  -4.2042   -40.888   -7.1807    41.206   -7.4588    37.752   -4.4675   -37.05   
7500000000  -4.2969   -42.637   -7.1221    40.912   -7.5257    38.448   -4.7378   -38.047   
7550000000  -4.3475   -43.805   -7.0838    40.724   -7.2223    37.785   -4.9507   -40.658   
7600000000  -4.4924   -45.22   -7.0955    40.114   -7.1811    36.833   -4.8542   -42.937   
7650000000  -4.5522   -46.842   -7.0361    39.409   -7.1989    37.584   -4.7493   -43.598   
7700000000  -4.6629   -47.851   -7.1056    39.694   -7.0313    37.805   -4.9507   -43.551   
7750000000  -4.7462   -49.646   -6.9307    39.179   -6.8384    35.799   -5.2097   -44.984   
7800000000  -4.8153   -50.854   -7.0135    38.145   -6.9713    33.975   -5.2973   -47.88   
7850000000  -4.9995   -52.346   -7.0887    38.287   -7.2321    36.41   -5.2259   -48.652   
7900000000  -5.0773   -53.715   -6.9758    38.209   -6.8356    38.245   -5.2986   -48.376   
7950000000  -5.1487   -55.033   -6.9557    37.723   -6.7398    34.996   -5.6078   -49.322   
8000000000  -5.3249   -56.515   -7.0123    37.525   -6.8204    34.854   -5.8145   -51.774   
8050000000  -5.3813   -58.013   -6.9643    37.477   -6.5871    34.167   -5.8004   -53.586   
8100000000  -5.5561   -59.359   -6.9696    36.936   -6.8391    31.864   -5.8478   -53.911   
8150000000  -5.7144   -61.004   -6.9842    36.541   -7.2689    32.083   -6.2565   -54.234   
8200000000  -5.8444   -62.317   -6.9894    36.814   -7.2962    33.699   -6.582   -55.9   
8250000000  -5.9953   -63.108   -6.9676    37.708   -6.7378    34.049   -6.6799   -58.206   
8300000000  -6.0923   -65.397   -6.883    36.387   -6.6241    29.145   -6.6836   -59.538   
8350000000  -6.2694   -66.757   -6.9057    36.747   -7.3889    26.963   -7.1275   -60.061   
8400000000  -6.5522   -68.114   -6.963    36.752   -7.7874    31.352   -7.596   -61.46   
8450000000  -6.6345   -69.296   -6.8002    37.641   -7.1638    32.046   -7.6999   -64.135   
8500000000  -6.8545   -70.762   -6.8545    37.533   -7.1388    31.311   -7.7496   -65.871   
8550000000  -6.9707   -72.305   -6.7506    37.676   -6.7514    30.988   -7.9109   -65.668   
8600000000  -7.1114   -74.048   -6.6105    37.853   -6.8201    27.249   -8.3051   -67.939   
8650000000  -7.4139   -75.561   -6.5825    37.91   -7.2859    27.55   -8.7082   -71.517   
8700000000  -7.6158   -76.858   -6.5052    38.282   -7.2842    30.609   -8.7886   -72.658   
8750000000  -7.8458   -77.202   -6.4425    39.07   -6.7132    33.658   -8.8011   -71.856   
8800000000  -7.8012   -79.183   -6.2644    38.473   -5.7261    29.916   -8.8397   -73.724   
8850000000  -8.0673   -81.935   -6.0623    39.137   -6.271    23.6   -9.2159   -78.503   
8900000000  -8.5548   -83.177   -6.023    38.716   -7.1209    26.94   -9.6721   -80.16   
8950000000  -8.7116   -83.34   -5.9113    39.317   -6.5983    31.505   -9.5894   -78.44   
9000000000  -8.8518   -84.717   -5.6895    39.301   -6.2828    29.789   -9.7632   -79.185   
9050000000  -8.9807   -86.174   -5.5387    38.436   -5.8368    30.133   -9.9302   -80.618   
9100000000  -9.1239   -89.29   -5.274    39.317   -5.7358    24.425   -9.9437   -85.237   
9150000000  -9.6649   -91.178   -5.1612    37.807   -6.5342    23.56   -10.356   -86.267   
9200000000  -9.9973   -91.1   -5.0403    37.218   -6.615    29.52   -10.801   -82.601   
9250000000  -10.042   -91.173   -4.8614    37.283   -5.9605    31.459   -11.034   -81.961   
9300000000  -9.9177   -92.947   -4.6261    36.3   -5.1315    30.892   -10.732   -85.387   
9350000000  -10.083   -97.972   -4.3729    36.269   -5.0004    23.983   -10.607   -91.453   
9400000000  -10.721   -99.353   -4.2559    34.722   -5.8134    23.905   -11.393   -91.143   
9450000000  -10.799   -99.112   -4.1438    33.354   -5.4106    28.92   -11.595   -87.745   
9500000000  -10.694   -102.07   -3.9404    33.136   -4.7403    26.373   -11.555   -93.135   
9550000000  -11.027   -103.75   -3.7998    31.663   -4.8248    27.018   -11.522   -95.517   
9600000000  -10.892   -107.55   -3.6044    31.691   -4.1811    24.18   -11.023   -96.817   
9650000000  -11.477   -111.98   -3.4452    29.17   -4.6921    20.038   -12.014   -100.25   
9700000000  -11.776   -112.02   -3.3865    27.372   -4.8308    24.313   -12.693   -100.06   
9750000000  -11.651   -114.71   -3.2361    27.006   -4.2007    24.05   -12.157   -104.48   
9800000000  -11.921   -118.69   -3.1023    25.366   -4.1938    21.487   -12.06   -107.37   
9850000000  -12.064   -123.22   -3.0301    23.774   -3.9431    19.227   -12.445   -108.53   
9900000000  -12.408   -126.42   -3.0372    21.9   -4.0456    18.074   -13.534   -113.23   
9950000000  -12.383   -128.04   -2.8857    20.38   -3.7812    20.437   -13.294   -118.19   
10000000000  -12.412   -134.66   -2.7482    19.271   -3.3509    15.558   -12.605   -126.12   
10050000000  -12.946   -138.28   -2.8313    16.979   -3.783    13.712   -13.382   -127.9   

