!
! AVX THIN FILM OPERATION
!
! 0805 Size Low Pass Filter P/N  LP0805A2590AWTR
!
! Network Analyzer HP8720ES.07.64: Feb 23, 2000 Serial No. US39172382
! Hewlett-Packard
!  2 Feb 2003  04:53:22
! Frequency       S11                S21                S12                S22
# HZ  S  DB R  50 
50000000  -53.151   -62.979    .0058   -1.1288   -.0115   -1.4626   -41.055    29.559   
117250000  -47.49   -90.618   -.0351   -3.0624   -.0036   -3.2341   -44.807   -126.15   
184500000  -42.422   -94.224   -.0012   -4.8285   -.0295   -5.1306   -42.067   -111.91   
251750000  -39.404   -103.02   -.0113   -6.7552   -.0109   -6.942   -38.137   -107.77   
319000000  -37.153   -111.2   -.0378   -8.6092   -.0161   -8.6407   -35.763   -122.42   
386250000  -35.264   -117.72   -.0334   -10.418   -.0492   -10.484   -33.389   -125.14   
453500000  -33.543   -124.34   -.0347   -12.253   -.0458   -12.329   -31.436   -123.66   
520750000  -32.162   -131.2   -.0464   -14.209   -.0434   -14.253   -30.682   -124.68   
588000000  -30.866   -136.5   -.0392   -15.889   -.0655   -15.999   -30.097   -130.99   
655250000  -29.586   -142.03   -.0327   -17.764   -.0273   -17.899   -29.829   -132.51   
722500000  -28.44   -147.78   -.0319   -19.641   -.0234   -19.841   -29.489   -141.84   
789750000  -27.449   -153.1   -.0298   -21.65   -.0390   -21.734   -29.507   -151.29   
857000000  -26.508   -158.15   -.0337   -23.515   -.0496   -23.68   -28.346   -163.66   
924250000  -25.567   -162.65   -.0235   -25.385   -.0396   -25.292   -27.256   -172.66   
991500000  -24.729   -168.02   -.0278   -27.471   -.0279   -27.547   -26.023    176.95   
1058750000  -23.983   -172.67    .0003   -29.254   -.0750   -29.438   -24.281    171.27   
1126000000  -23.215   -177.19   -.0208   -31.402   -.0269   -31.064   -22.861    167.31   
1193250000  -22.502    177.42   -.0123   -33.459    .0066   -33.64   -21.599    164.56   
1260500000  -21.902    173.06    .0199   -35.255   -.0350   -35.473   -20.754    164.04   
1327750000  -21.329    167.41   -.0105   -37.72    .0202   -37.945   -20.287    161.29   
1395000000  -20.818    162.96    .0026   -39.728   -.0197   -39.971   -19.709    158.85   
1462250000  -20.315    157.65    .0152   -41.998    .0329   -42.293   -19.341    156.85   
1529500000  -19.913    152.6    .0161   -44.182   -.0199   -44.709   -19.723    155.54   
1596750000  -19.547    147.57    .0206   -46.634   -.0353   -46.772   -19.721    150.41   
1664000000  -19.182    142.3   -.0063   -48.88    .0719   -49.183   -19.622    145.75   
1731250000  -19.004    136.37    .0101   -51.386   -.0446   -52.108   -20.255    141.16   
1798500000  -18.727    131.18   -.0096   -53.814    .0578   -53.703   -20.636    131.89   
1865750000  -18.613    124.16   -.0087   -56.519    .0898   -57.136   -20.592    122.23   
1933000000  -18.557    117.69   -.0179   -59.138    .0426   -59.928   -21.388    112.75   
2000250000  -18.637    110.7   -.0161   -62.008   -.0352   -62.277   -21.588    95.658   
2067500000  -18.643    103.19   -.0287   -64.774    .0627   -64.958   -20.462    81.778   
2134750000  -18.871    93.943   -.0652   -67.885   -.0087   -68.291   -19.83    71.962   
2202000000  -19.055    84.063   -.0614   -70.917   -.0453   -71.337   -19.06    57.681   
2269250000  -19.443    73.173   -.0784   -73.959   -.1635   -73.949   -17.921    51.761   
2336500000  -19.531    60.064   -.0835   -77.171   -.0342   -77.114   -17.596    47.65   
2403750000  -19.669    43.896   -.1195   -80.523   -.1197   -81.142   -17.806    37.024   
2471000000  -19.501    26.235   -.1515   -84.299   -.1935   -84.453   -17.812    25.411   
2538250000  -18.946    7.5407   -.2009   -87.836   -.2148   -87.767   -18.308    12.644   
2605500000  -17.76   -11.249   -.2179   -91.574   -.2208   -91.653   -18.298   -8.1958   
2672750000  -16.36   -28.227   -.3140   -95.36   -.2792   -95.523   -17.169   -30.909   
2740000000  -14.781   -43.634   -.3800   -99.128   -.3128   -99.818   -15.543   -48.411   
2807250000  -13.115   -57.967   -.4871   -103.62   -.5699   -104.45   -13.454   -65.042   
2874500000  -11.581   -70.212   -.5778   -108.05   -.6223   -107.03   -11.441   -77.087   
2941750000  -9.9571   -81.313   -.7350   -112.47   -.5223   -112.39   -9.6891   -86.84   
3009000000  -8.4162   -92.285   -.7903   -117.12   -.6303   -118.87   -7.9443   -96.415   
3076250000  -7.1338   -103.31   -1.0417   -122.8   -1.184   -122.89   -6.5539   -104.6   
3143500000  -5.8887   -112.86   -1.1275   -128.02   -.9660   -125.88   -5.5458   -112.31   
3210750000  -4.7103   -122.71   -1.4345   -134.35   -.8870   -133.73   -4.3968   -122   
3278000000  -3.6463   -133   -1.5881   -140.31   -1.2543   -142.83   -3.4817   -131.38   
3345250000  -2.9122   -142.62   -2.1259   -147.56   -1.9389   -146.8   -2.8218   -140.9   
3412500000  -2.0538   -152.38   -2.3836   -154.58   -1.8418   -156.26   -2.0103   -150.82   
3479750000  -1.5795   -161.61   -3.1935   -162.18   -2.789   -163.48   -1.4109   -159.97   
3547000000  -.9446   -170.97   -3.5681   -169.94   -3.438   -173.54   -.9356   -168.61   
3614250000  -.7408   -179.18   -4.6613   -177.22   -4.956   -177.36   -.5563   -177.31   
3681500000  -.3088    172.71   -5.4288    175.97   -5.3187    175.92   -.1784    175.15   
3748750000  -.2155    165.29   -6.606    168.93   -6.6776    168.34   -.0994    167.8   
3816000000   .1261    158.09   -7.71    162.33   -7.7784    163.18   -.0219    159.96   
3883250000   .1045    151.32   -8.9788    156.63   -8.6672    153.75    .2003    152.91   
3950500000   .2943    145   -10.308    149.94   -11.104    150.44    .2076    146.56   
4017750000   .2606    138.72   -11.704    145.34   -10.841    148.08    .2421    139.72   
4085000000   .4129    133.41   -13.259    141.07   -13.049    132.77    .3150    133.12   
4152250000   .3719    127.51   -14.665    136.27   -14.959    132.9    .3549    127.24   
4219500000   .4666    122.63   -16.27    131.99   -16.913    129.22    .3820    121.46   
4286750000   .3945    117.21   -17.968    127.84   -18.07    131.29    .4654    116.26   
4354000000   .4294    112.88   -19.847    126   -18.835    123.41    .4835    111.41   
4421250000   .3851    107.91   -21.387    121.27   -21.994    115.69    .5424    106.35   
4488500000   .4201    103.84   -23.648    119.68   -23.66    127.11    .5618    101.92   
4555750000   .3645    99.172   -25.587    117.1   -24.167    116.92    .4834    97.744   
4623000000   .3591    95.219   -27.875    115.27   -27.166    112.15    .4965    93.75   
4690250000   .2848    90.954   -30.253    113.03   -29.999    108.38    .4443    89.96   
4757500000   .2813    87.308   -33.069    112.76   -33.162    113.65    .3563    86.208   
4824750000   .2253    83.015   -36.15    110.28   -35.409    110.89    .2387    81.786   
4892000000   .1857    79.614   -40.242    113.38   -39.574    107.07    .1985    77.96   
4959250000   .1281    75.884   -45.278    114.55   -46.053    112.13    .1350    74.409   
5026500000   .0920    72.341   -54.744    132.25   -54.305    139.42    .0434    70.503   
5093750000   .0258    68.662   -55.9   -110.65   -55.939   -122.43    .0039    66.837   
5161000000  -.0192    65.318   -49.28   -93.624   -48.02   -98.512   -.0537    63.357   
5228250000  -.0961    61.821   -46.145   -88.628   -46.242   -96.787   -.1146    59.88   
5295500000  -.1381    58.477   -44.859   -87.924   -44.255   -91.141   -.1776    56.522   
5362750000  -.1953    55.204   -44.089   -86.366   -44.007   -95.901   -.2205    53.422   
5430000000  -.2901    51.92   -44.129   -88.377   -44.3   -94.855   -.3097    50.22   
5497250000  -.3304    48.704   -45.031   -87.557   -45.295   -93.789   -.3846    47.159   
5564500000  -.4048    45.356   -45.492   -86.888   -46.024   -91.383   -.4675    44.364   
5631750000  -.4486    42.431   -47.152   -82.737   -48.187   -85.935   -.6258    41.186   
5699000000  -.5341    39.223   -50.617   -70.81   -50.523   -82.577   -.6992    38.07   
5766250000  -.6140    36.236   -56.01   -40.796   -56.468   -47.539   -.8526    35.126   
5833500000  -.6572    33.147   -56.686    26.191   -57.961    9.8918   -.9481    31.804   
5900750000  -.7777    30.336   -50.559    51.062   -51.134    48.473   -.9874    28.608   
5968000000  -.8037    27.274   -45.731    60.982   -45.696    57.084   -1.0647    25.814   
6035250000  -.9086    24.245   -42.79    64.866   -43.004    59.775   -1.1914    22.882   
6102500000  -.9619    21.252   -40.047    65.796   -40.982    62.796   -1.2081    20.095   
6169750000  -1.0726    18.486   -38.59    68.382   -38.656    67.004   -1.2399    17.257   
6237000000  -1.1125    15.441   -37.086    66.135   -36.426    65.744   -1.3452    14.659   
6304250000  -1.2296    12.599   -35.218    63.833   -35.058    63.136   -1.4981    11.575   
6371500000  -1.2636    9.7682   -33.276    65.128   -34.247    61.913   -1.5425    9.061   
6438750000  -1.3165    6.7538   -32.386    63.49   -32.789    65.533   -1.6347    6.4462   
6506000000  -1.5098    4.2558   -31.549    62.496   -31.307    62.032   -1.6787    3.2465   
6573250000  -1.5615    1.2373   -30.23    61.153   -30.81    57.824   -1.8022    .7553   
6640500000  -1.6113   -1.3802   -29.376    59.878   -30.29    57.023   -1.9717   -1.7276   
6707750000  -1.721   -4.3739   -28.753    59.505   -29.356    58.256   -2.0469   -4.7379   
6775000000  -1.7611   -6.9846   -28.006    58.005   -28.618    57.147   -2.0282   -7.3691   
6842250000  -1.8831   -10.116   -27.268    58.001   -27.845    53.994   -2.1876   -9.407   
6909500000  -1.9679   -11.982   -26.596    55.529   -27.559    52.169   -2.3501   -12.196   
6976750000  -2.0999   -15.4   -26.174    53.874   -26.954    53.381   -2.36   -14.778   
7044000000  -2.1394   -17.63   -25.671    53.248   -26.213    50.699   -2.5693   -16.562   
7111250000  -2.2783   -20.844   -25.085    51.704   -25.723    48.727   -2.7353   -19.703   
7178500000  -2.3523   -23.071   -24.802    50.311   -25.364    48.089   -2.8718   -22.809   
7245750000  -2.4695   -26.117   -24.237    49.401   -24.966    46.832   -2.9363   -25.15   
7313000000  -2.5607   -28.461   -24.077    47.829   -24.458    46.32   -3.1982   -28.173   
7380250000  -2.6466   -31.369   -23.445    47.554   -23.696    44.469   -3.217   -31.215   
7447500000  -2.761   -33.504   -23.253    45.39   -23.627    41.033   -3.2802   -34.277   
7514750000  -2.8947   -36.74   -22.958    44.572   -23.369    41.593   -3.4071   -36.751   
7582000000  -3.0147   -38.703   -22.726    43.186   -22.892    39.824   -3.5081   -40.037   
7649250000  -3.0901   -41.718   -22.401    41.839   -22.717    39.898   -3.4794   -42.461   
7716500000  -3.2728   -43.75   -22.372    41.484   -22.206    39.029   -3.6726   -44.275   
7783750000  -3.3658   -46.857   -21.872    39.26   -22.052    35.986   -3.7384   -46.879   
7851000000  -3.5359   -49.356   -22.001    38.758   -22.261    37.386   -3.8038   -48.479   
7918250000  -3.6035   -52.237   -21.603    38.574   -21.6    37.285   -4.0862   -50.541   
7985500000  -3.8167   -54.341   -21.629    37.345   -21.574    34.483   -4.3031   -53.212   
8052750000  -3.9049   -57.195   -21.353    36.716   -21.259    33.146   -4.4889   -55.274   
8120000000  -4.1062   -59.562   -21.274    35.781   -21.588    30.394   -4.7919   -57.487   
8187250000  -4.1772   -62.644   -21.109    35.166   -21.706    31.395   -5.141   -60.712   
8254500000  -4.4315   -64.652   -21.074    36.326   -20.962    31.553   -5.3096   -63.733   
8321750000  -4.5979   -67.401   -20.815    34.677   -21.137    24.986   -5.6141   -66.537   
8389000000  -4.7991   -70.506   -20.856    34.328   -21.832    27.543   -5.9828   -70.064   
8456250000  -4.9015   -73.312   -20.587    34.857   -21.142    29.284   -6.124   -73.457   
8523500000  -5.1738   -76.179   -20.469    34.949   -20.949    28.86   -6.3838   -76.442   
8590750000  -5.322   -78.653   -20.096    34.791   -20.687    23.776   -6.6933   -80.453   
8658000000  -5.5895   -81.689   -20.059    34.086   -21.111    24.744   -6.9034   -84.813   
8725250000  -5.7299   -84.758   -19.858    34.262   -20.743    29.64   -7.0719   -87.539   
8792500000  -5.9411   -87.755   -19.417    34.956   -19.552    25.876   -7.323   -91.772   
8859750000  -6.1555   -90.516   -19.094    32.949   -20.386    19.495   -7.4843   -96.13   
8927000000  -6.4656   -94.252   -19.074    32.989   -20.605    26.584   -7.5786   -99.55   
8994250000  -6.6166   -97.285   -18.612    31.885   -19.837    25.231   -7.8765   -102.9   
9061500000  -6.8478   -101.08   -18.267    30.471   -19.326    22.268   -8.0183   -107.78   
9128750000  -7.0443   -104.34   -17.943    28.047   -20.064    18.224   -8.1227   -111.13   
9196000000  -7.3323   -108.44   -17.803    25.856   -20.122    24.245   -8.4115   -114.86   
9263250000  -7.5558   -111.76   -17.611    24.373   -19.029    23.869   -8.5672   -120.06   
9330500000  -7.7078   -116.6   -17.127    21.695   -18.535    15.418   -8.5933   -124.68   
9397750000  -7.8919   -120.1   -17.271    17.298   -19.448    16.247   -8.8278   -128.78   
9465000000  -8.1097   -125.08   -17.078    15.305   -18.446    16.473   -8.9195   -133.5   
9532250000  -8.2801   -129.02   -17.194    11.64   -18.497    12.897   -8.9977   -138.03   
9599500000  -8.3885   -134.17   -16.942    8.9223   -18.27    7.836   -9.0764   -142.79   
9666750000  -8.5261   -138.39   -17.276    4.8354   -18.94    7.6135   -9.1936   -148.87   
9734000000  -8.5433   -143.83   -17.296    2.5172   -18.22    5.9834   -9.1245   -153.19   
9801250000  -8.7217   -148.28   -17.55   -.6729   -18.43    2.2797   -9.1566   -158.14   
9868500000  -8.6644   -153.57   -17.703   -4.9562   -18.661   -1.1824   -9.1773   -164.19   
9935750000  -8.7256   -158.49   -18.169   -6.9145   -18.391   -2.4156   -8.9219   -169.31   
10003000000  -8.5935   -163.88   -18.267   -10.547   -18.81   -8.9676   -8.7709   -174.12   
10070250000  -8.5432   -168.64   -18.753   -12.921   -18.903   -8.3661   -8.6583   -179.75   
10137500000  -8.375   -173.7   -19.007   -15.765   -19.286   -15.272   -8.2261    175.4   
10204750000  -8.2981   -178.37   -19.508   -17.633   -19.553   -17.2   -8.0077    172.63   
10272000000  -8.0481    176.88   -20.011   -20.591   -20.557   -20.569   -7.8166    168.58   
10339250000  -7.9181    172.33   -20.61   -23.284   -20.639   -19.01   -7.4792    164.14   
10406500000  -7.625    167.9   -21.246   -24.469   -20.962   -24.277   -7.2134    161.03   
10473750000  -7.4363    163.78   -21.751   -26.358   -21.725   -28.751   -6.9672    156.95   
10541000000  -7.1152    159.63   -22.599   -29.542   -22.982   -27.68   -6.7492    152.91   
10608250000  -6.8581    155.77   -23.2   -32.011   -22.68   -29.167   -6.3132    149.78   
10675500000  -6.5866    151.65   -24.122   -33.933   -23.64   -35.729   -5.9726    146.28   
10742750000  -6.3121    147.93   -24.913   -36.687   -25.007   -40.917   -5.6831    142.85   
10810000000  -5.9463    144.72   -26.172   -39.511   -26.529   -37.684   -5.2847    140.63   
10877250000  -5.6932    141.02   -27.474   -43.684   -26.678   -43.412   -5.1087    138.4   
10944500000  -5.381    137.78   -29.241   -47.315   -28.904   -52.587   -4.8517    136.05   
11011750000  -5.0644    134.31   -31.359   -57.664   -31.872   -60.45   -4.657    133.07   
11079000000  -4.7186    131.45   -34.557   -75.295   -34.881   -73.878   -4.4114    130.3   
11146250000  -4.4021    128.01   -37.077   -123.23   -36.503   -125.39   -4.2375    127.07   
11213500000  -4.0848    124.6   -33.116   -176.34   -32.176    176.8   -3.9947    123.96   
11280750000  -3.7583    120.82   -27.65    158.49   -28.197    153.62   -3.7384    120.73   
11348000000  -3.4403    116.71   -22.933    145.36   -22.959    149.46   -3.4482    117.56   
11415250000  -3.1867    111.46   -18.496    132.46   -17.984    131.59   -3.1781    113.93   
11482500000  -3.1982    104.03   -13.8    114.48   -13.933    113.55   -3.0335    109.51   
11549750000  -4.6086    95.364   -9.9505    81.068   -10.418    84.357   -3.3141    105   
11617000000  -6.6461    107.1   -9.5059    39.098   -9.499    44.975   -4.1671    105.42   
11684250000  -5.1285    118.21   -11.779    11.924   -11.528    17.216   -3.8005    110.61   
11751500000  -3.8501    117.47   -13.86   -1.1824   -13.538    1.9157   -3.0941    110.29   
11818750000  -2.9731    114.83   -15.527   -10.47   -15.7   -6.0164   -2.6273    107.8   
11886000000  -2.4947    112.17   -16.941   -16.149   -16.662   -10.096   -2.1704    106.23   
11953250000  -2.0827    109.71   -18.225   -20.536   -17.931   -17.155   -1.8106    104.32   
12020500000  -1.6799    107.57   -19.165   -23.993   -19.098   -20.757   -1.5215    102.06   
12087750000  -1.3662    105.13   -20.017   -26.819   -20.143   -22.269   -1.1437    100.01   
12155000000  -1.0336    103.25   -20.599   -29.306   -20.786   -24.667   -.8594    98.895   
12222250000  -.7443    101.25   -21.323   -32.705   -21.488   -26.75   -.6265    97.173   
12289500000  -.4711    99.558   -22.15   -35.454   -22.286   -31.797   -.3824    95.11   
12356750000  -.1550    97.728   -23.031   -35.787   -23.245   -31.694   -.0970    94.081   
12424000000   .1009    95.897   -23.373   -36.508   -23.888   -32.476    .0537    92.517   
12491250000   .3964    94.016   -23.475   -39.209   -24.056   -31.494    .2741    90.441   
12558500000   .6112    92.65   -23.71   -42.936   -23.912   -37.787    .5072    89.611   
12625750000   .8877    90.904   -24.103   -49.555   -24.612   -45.698    .6097    88.415   
12693000000   1.1219    89.813   -24.607   -55.429   -25.622   -49.547    .7437    87.111   
12760250000   1.4216    88.311   -25.324   -61.738   -25.953   -53.259    1.0338    85.045   
12827500000   1.6267    87.082   -25.859   -66.936   -26.261   -61.464    1.2674    84.386   
12894750000   1.9316    85.563   -26.444   -75.065   -27.154   -70.299    1.3916    82.985   
12962000000   2.1614    84.492   -27.653   -85.522   -28.757   -80.147    1.5545    82.116   
13029250000   2.4224    83.524   -28.837   -96.129   -29.842   -82.443    1.7809    80.453   
13096500000   2.6995    82.485   -30.266   -102.53   -30.733   -93.363    1.9462    79.928   
13163750000   2.9359    81.475   -31.034   -108.29   -31.399   -99.198    2.3515    78.582   
13231000000   3.1946    80.267   -30.95   -114.83   -32.067   -105.93    2.4842    78.806   
13298250000   3.4765    80.071   -31.535   -126.53   -31.877   -111.05    2.6864    77.907   
13365500000   3.6796    79.866   -30.889   -135.76   -30.74   -124.69    3.0739    77.849   
13432750000   4.0272    79.68   -29.811   -144.5   -30.133   -139.45    3.3281    78.883   
13500000000   4.2997    79.698   -29.954   -155.63   -30.569   -146.67    3.4871    79.876   

