!
! AVX THIN FILM OPERATION
!
! 0805 Size Low Pass Filter P/N  LP0805A0836AWTR
!
! Network Analyzer HP8720ES.07.64: Feb 23, 2000 Serial No. US39172382
! Hewlett-Packard
! 2 Feb 2003  02:28:13
! Frequency       S11                S21                S12                S22
# HZ  S  DB R  50 
50000000  -31.267   -88.382   -.0296   -3.8713    .0303   -3.8246   -32.234   -72.561   
100000000  -25.604   -97.891   -.0429   -7.3979   -.0423   -7.5504   -25.423   -98.525   
150000000  -22.061   -103.88   -.0462   -11.507   -.0556   -11.08   -22.325   -105.87   
200000000  -19.662   -109.83   -.0536   -14.998   -.0959   -14.875   -19.698   -110.38   
250000000  -17.87   -115.52   -.1182   -18.563   -.1260   -18.739   -17.835   -115.58   
300000000  -16.467   -121.07   -.1591   -22.173   -.1670   -22.42   -16.512   -122.4   
350000000  -15.356   -126.67   -.1737   -26.13   -.2222   -26.189   -15.21   -128.22   
400000000  -14.474   -132.3   -.2292   -29.833   -.2440   -30.038   -14.222   -132.52   
450000000  -13.786   -138.13   -.2550   -33.714   -.2273   -33.996   -13.517   -137.58   
500000000  -13.301   -144.3   -.2778   -37.878   -.2632   -38.445   -13.049   -142.93   
550000000  -12.957   -150.26   -.2943   -42.01   -.3451   -42.339   -12.818   -148.45   
600000000  -12.797   -156.67   -.3053   -46.342   -.2836   -46.209   -12.734   -154.03   
650000000  -12.873   -163.54   -.3034   -50.926   -.2135   -51.295   -12.974   -160.51   
700000000  -13.252   -170.77   -.3100   -55.99   -.2657   -56.516   -13.535   -167.58   
750000000  -14.014   -179.05   -.2762   -61.609   -.2541   -61.695   -14.516   -176.5   
800000000  -15.412    171.48   -.2631   -67.659   -.2380   -67.863   -16.34    173.91   
850000000  -18.015    158.64   -.2026   -74.579   -.2504   -74.508   -19.363    159.15   
900000000  -23.667    134.31   -.2359   -82.43   -.2382   -82.051   -26.142    123.25   
950000000  -26.763    18.614   -.3231   -91.379   -.3236   -91.247   -24.201    10.245   
1000000000  -16.342   -27.068   -.5316   -101.76   -.5550   -101.73   -15.531   -25.962   
1050000000  -10.637   -47.388   -.9716   -113.62   -1.0155   -114.12   -10.32   -45.917   
1100000000  -6.9418   -65.37   -1.7938   -126.58   -2.0699   -127.14   -6.8942   -64.038   
1150000000  -4.4374   -82.198   -2.9684   -139.7   -3.2394   -137.45   -4.5466   -81.4   
1200000000  -2.742   -98.317   -4.5703   -152.6   -4.5085   -152.43   -2.9077   -97.997   
1250000000  -1.7564   -112.54   -6.6523   -164.14   -6.8732   -164.46   -1.8715   -112.49   
1300000000  -1.1714   -124.91   -8.9299   -174.5   -8.8886   -172.89   -1.297   -124.85   
1350000000  -.8195   -135.21   -11.596    176.94   -11.53    175.83   -.8782   -135.35   
1400000000  -.6477   -144.27   -14.445    169.97   -14.631    169.62   -.6555   -144.35   
1450000000  -.4922   -151.96   -17.68    164.05   -17.606    163.71   -.5042   -151.9   
1500000000  -.4333   -158.44   -21.303    159.98   -21.338    157.56   -.4070   -158.56   
1550000000  -.3891   -164.63   -25.774    157.17   -25.985    155.39   -.3507   -164.62   
1600000000  -.3414   -170.08   -31.947    159.24   -32.303    159.31   -.3028   -170.06   
1650000000  -.3332   -174.91   -42.735   -172.21   -42.832   -168.47   -.2388   -174.96   
1700000000  -.2869   -179.53   -39.6   -67.658   -39.027   -71.793   -.2255   -179.78   
1750000000  -.2755    176.28   -33.856   -56.749   -34.09   -58.615   -.2363    176.01   
1800000000  -.2652    172.23   -31.287   -54.989   -30.879   -54.395   -.1737    171.64   
1850000000  -.2264    168.44   -29.973   -56.689   -29.26   -59.391   -.0739    168.22   
1900000000  -.2289    165.03   -29.345   -57.405   -28.909   -62.28    .0104    164.48   
1950000000  -.2125    161.35   -29.221   -59.582   -29.054   -64.51    .0217    161.58   
2000000000  -.1693    158.23   -29.378   -61.456   -29.467   -62.669    .0551    158.75   
2050000000  -.1878    154.99   -29.887   -61.802   -29.441   -63.129    .0602    155.77   
2100000000  -.1523    151.79   -30.595   -64.656   -30.279   -68.161    .0254    153.02   
2150000000  -.1627    149.06   -31.963   -65.804   -31.654   -68.779   -.0394    150.53   
2200000000  -.1568    146.05   -33.262   -68.428   -33.24   -71.958    .0034    147.75   
2250000000  -.1204    143.3   -35.396   -67.485   -36.117   -68.949   -.0941    144.86   
2300000000  -.1426    140.64   -38.383   -67.148   -38.536   -61.732   -.1186    142.13   
2350000000  -.1133    137.79   -43.184   -64.313   -42.675   -65.536   -.1548    139.11   
2400000000  -.1109    135.35   -56.229   -26.803   -56.423   -24.369   -.1332    136.23   
2450000000  -.1041    132.78   -46.409    89.099   -46.491    82.433   -.1401    133.74   
2500000000  -.0997    130.26   -39.233    94.022   -40.134    95.585   -.1788    131.46   
2550000000  -.1284    127.88   -35.696    95.056   -35.309    100.18   -.2251    128.65   
2600000000  -.0924    125.41   -32.769    95.205   -32.103    92.004   -.1454    125.83   
2650000000  -.0920    123.1   -30.792    93.933   -30.821    88.169   -.1505    123.18   
2700000000  -.0980    120.84   -29.084    93.229   -29.465    88.868   -.0917    121   
2750000000  -.1011    118.47   -27.575    91.096   -28.575    89.339   -.1439    118.79   
2800000000  -.1159    116.29   -26.666    90.011   -26.946    94.956   -.1915    116.32   
2850000000  -.1065    114.03   -25.477    89.742   -24.682    89.344   -.1293    113.68   
2900000000  -.1018    111.86   -24.553    87.466   -24.239    81.796   -.0903    111.93   
2950000000  -.1281    109.64   -23.809    86.854   -24.104    81.535   -.1012    109.98   
3000000000  -.1191    107.5   -23.004    85.383   -23.818    82.643   -.1841    107.89   
3050000000  -.1376    105.39   -22.608    83.738   -22.829    86.796   -.1817    105.36   
3100000000  -.1497    103.35   -21.902    83.528   -21.192    82.768   -.1966    103.14   
3150000000  -.17    101.24   -21.416    81.318   -21.006    75.705   -.2200    101.14   
3200000000  -.1725    99.087   -21.076    80.202   -21.126    74.781   -.2779    98.889   
3250000000  -.1850    97.063   -20.64    80.232   -21.144    74.257   -.2427    96.595   
3300000000  -.2021    95.05   -20.45    77.682   -20.833    77.962   -.2208    94.338   
3350000000  -.2188    92.891   -20.146    77.164   -19.878    75.769   -.2501    92.03   
3400000000  -.2556    90.879   -20.012    76.135   -20.164    71.356   -.2845    90.166   
3450000000  -.2649    88.727   -20.026    75.309   -20.354    74.126   -.2887    87.74   
3500000000  -.2845    86.594   -19.874    75.112   -20.162    72.405   -.2571    85.985   
3550000000  -.3285    84.38   -20.385    73.86   -21.045    73.713   -.3209    83.66   
3600000000  -.344    81.804   -21.017    75.013   -21.315    79.206   -.4402    81.163   
3650000000  -.4136    79   -22.503    79.709   -22.452    80.468   -.5721    78.139   
3700000000  -.6202    75.309   -25.785    107.79   -25.8    110.29   -.8619    73.564   
3750000000  -1.5197    70.797   -17.31    162.35   -16.89    160.75   -2.0499    69.12   
3800000000  -2.1098    82.315   -9.6974    119.18   -9.7652    117.47   -2.8434    84.485   
3850000000  -.9562    80.468   -10.81    88.298   -10.83    85.792   -1.2922    82.833   
3900000000  -.6923    77.053   -12.017    79.156   -12.658    75.769   -.9173    78.061   
3950000000  -.6622    74.273   -12.824    75.037   -13.059    78.455   -.7885    74.415   
4000000000  -.6439    71.857   -12.937    72.975   -12.167    72.4   -.7458    72.074   
4050000000  -.6730    69.824   -13.317    71.371   -13.273    63.515   -.8032    70.057   
4100000000  -.6748    67.714   -13.256    70.676   -14.159    67.673   -.8256    67.327   
4150000000  -.6831    65.803   -13.285    69.704   -13.723    68.851   -.8392    64.833   
4200000000  -.7393    63.964   -13.327    68.839   -13.847    68.421   -.8082    63.024   
4250000000  -.7514    61.933   -13.299    68.222   -13.452    70.892   -.8236    61.236   
4300000000  -.8014    60.244   -13.293    67.922   -12.659    68.367   -.9137    59.23   
4350000000  -.8275    58.287   -13.133    67.621   -12.658    62.606   -.8876    57.243   
4400000000  -.8637    56.584   -12.916    66.333   -13.536    61.876   -.8529    55.449   
4450000000  -.8993    54.779   -13.171    65.749   -13.441    70.564   -.8548    53.775   
4500000000  -.9355    52.861   -12.896    66.487   -11.755    69.697   -.9249    52.307   
4550000000  -.9821    51.31   -12.768    65.663   -11.745    60.044   -.9934    50.482   
4600000000  -1.0557    49.52   -12.705    65.374   -12.475    60.742   -1.0499    49.095   
4650000000  -1.0567    47.613   -12.541    64.697   -12.362    60.926   -1.0721    47.525   
4700000000  -1.1172    46.132   -12.515    64.619   -12.746    61.949   -1.1516    45.883   
4750000000  -1.1516    44.094   -12.354    64.553   -12.307    66.34   -1.2771    43.954   
4800000000  -1.1593    42.495   -12.15    64.013   -11.614    63.152   -1.2902    41.951   
4850000000  -1.2554    40.932   -12.266    63.913   -11.693    59.771   -1.333    40.399   
4900000000  -1.2934    39.04   -11.843    63.971   -12.099    58.692   -1.4161    38.621   
4950000000  -1.3322    37.547   -11.867    63.366   -12.311    62.898   -1.4543    36.595   
5000000000  -1.4106    35.656   -11.77    63.252   -11.486    65.716   -1.4922    34.442   
5050000000  -1.4203    34.029   -11.577    63.037   -10.917    60.411   -1.4851    32.94   
5100000000  -1.4746    32.441   -11.567    63.241   -11.241    58.7   -1.5331    31.527   
5150000000  -1.5294    30.547   -11.263    63.203   -11.047    57.783   -1.5657    29.711   
5200000000  -1.5502    29.134   -11.141    62.177   -11.476    56.348   -1.6172    27.971   
5250000000  -1.6271    27.282   -11.165    62.439   -11.474    59.908   -1.5924    26.402   
5300000000  -1.6599    25.65   -10.877    62.552   -10.911    58.284   -1.6461    25.085   
5350000000  -1.6989    24.255   -10.784    61.567   -11.116    55.687   -1.7145    23.941   
5400000000  -1.7829    22.228   -10.629    61.51   -11.129    56.582   -1.7811    22.224   
5450000000  -1.8002    20.753   -10.445    61.201   -11.228    56.694   -1.7842    20.8   
5500000000  -1.8838    19.133   -10.391    60.925   -11.134    58.195   -1.841    19.777   
5550000000  -1.9133    17.332   -10.133    60.627   -10.776    57.244   -1.957    18.582   
5600000000  -1.9561    15.771   -10.026    59.799   -10.869    56.964   -2.1221    16.893   
5650000000  -2.0651    14.064   -9.959    59.712   -10.381    58.734   -2.211    14.932   
5700000000  -2.0865    12.332   -9.7385    59.229   -9.9996    55.996   -2.2557    13.416   
5750000000  -2.142    10.953   -9.6211    58.655   -10.258    55.633   -2.3419    11.88   
5800000000  -2.202    9.0184   -9.4686    58.173   -9.9436    55.371   -2.5228    9.7284   
5850000000  -2.2139    7.6424   -9.2921    57.883   -9.9679    54.27   -2.5345    7.711   
5900000000  -2.3198    6.0493   -9.2421    57.106   -9.8321    56.07   -2.4824    6.4256   
5950000000  -2.3292    4.3657   -9.0619    56.795   -9.4222    54.73   -2.4933    4.8944   
6000000000  -2.4001    2.9567   -8.9765    56.185   -9.3893    52.31   -2.6046    3.6227   
6050000000  -2.453    1.0519   -8.8562    55.467   -9.4188    51.295   -2.7122    1.2662   
6100000000  -2.4747   -.3762   -8.6594    54.91   -9.5917    52.185   -2.6302   -.5493   
6150000000  -2.595   -1.7729   -8.631    54.393   -9.4084    54.425   -2.6321   -.9997   
6200000000  -2.6349   -3.7573   -8.5217    53.556   -8.9283    53.726   -2.8207   -2.1094   
6250000000  -2.6566   -5.1059   -8.4249    53.302   -8.7824    51.041   -2.9652   -3.8054   
6300000000  -2.7519   -6.6632   -8.37    52.895   -8.7669    50.129   -2.9447   -6.2141   
6350000000  -2.7635   -8.4471   -8.1374    51.838   -8.9194    49.912   -2.8778   -7.1837   
6400000000  -2.8194   -9.5993   -8.158    50.786   -9.0138    51.313   -3.0482   -8.1642   
6450000000  -2.8272   -11.419   -8.0002    50.766   -8.5233    51.122   -3.2186   -9.8341   
6500000000  -2.8915   -12.921   -8.0279    50.849   -8.1254    48.724   -3.1703   -11.397   
6550000000  -3.0453   -14.233   -7.9689    50.191   -8.3044    47.23   -3.2237   -13.688   
6600000000  -3.083   -16.208   -7.7569    48.735   -8.4716    46.725   -3.2468   -14.045   
6650000000  -3.1174   -17.453   -7.7754    48.384   -8.5361    47.092   -3.4077   -15.753   
6700000000  -3.2069   -19.083   -7.7577    47.797   -8.3593    47.451   -3.5283   -17.742   
6750000000  -3.2241   -20.595   -7.6722    47.053   -8.1483    46.95   -3.372   -19.543   
6800000000  -3.3518   -21.868   -7.704    47.288   -8.0513    46.594   -3.4243   -19.966   
6850000000  -3.3884   -23.813   -7.4571    46.585   -8.0851    44.39   -3.5703   -20.724   
6900000000  -3.448   -24.931   -7.4694    45.545   -8.2475    43.433   -3.7241   -22.897   
6950000000  -3.5384   -26.452   -7.5024    45.4   -8.2204    44.54   -3.72   -24.706   
7000000000  -3.5704   -28.144   -7.4014    44.942   -7.9286    44.956   -3.6186   -24.982   
7050000000  -3.6367   -29.199   -7.3702    44.935   -7.7961    43.458   -3.8781   -25.757   
7100000000  -3.7379   -31.126   -7.2424    43.992   -7.8413    42.492   -4.1068   -27.127   
7150000000  -3.7769   -32.298   -7.2752    43.456   -7.7443    41.891   -4.1687   -29.925   
7200000000  -3.8868   -33.672   -7.2895    43.249   -7.7034    41.703   -4.1211   -30.943   
7250000000  -3.9169   -35.484   -7.1144    42.461   -7.7253    41.6   -4.2128   -31.38   
7300000000  -3.9846   -36.668   -7.2146    42.159   -7.6161    41.619   -4.5476   -32.947   
7350000000  -4.091   -38.134   -7.1109    42.52   -7.2033    41.215   -4.6108   -36.163   
7400000000  -4.1429   -39.666   -7.0022    41.201   -7.0354    38.522   -4.4909   -37.451   
7450000000  -4.2284   -40.906   -7.0574    40.825   -7.3371    37.444   -4.5525   -37.587   
7500000000  -4.3317   -42.668   -7.0232    40.575   -7.4254    38.252   -4.8444   -38.578   
7550000000  -4.3902   -43.781   -6.9626    40.328   -7.126    37.606   -5.0544   -41.409   
7600000000  -4.5194   -45.184   -6.9832    39.941   -7.0697    36.655   -4.9249   -43.748   
7650000000  -4.595   -46.825   -6.9444    39.062   -7.091    37.293   -4.8279   -44.136   
7700000000  -4.704   -47.797   -6.9957    39.146   -6.9265    37.646   -5.0612   -44.177   
7750000000  -4.7908   -49.565   -6.8316    38.959   -6.7479    35.677   -5.3131   -45.941   
7800000000  -4.8679   -50.78   -6.9    37.726   -6.8803    33.896   -5.3956   -48.643   
7850000000  -5.0335   -52.229   -6.9692    38.079   -7.1673    36.203   -5.2915   -49.422   
7900000000  -5.1029   -53.554   -6.8534    37.928   -6.7536    37.982   -5.3791   -48.892   
7950000000  -5.193   -54.822   -6.8368    37.399   -6.6427    34.812   -5.6819   -50.181   
8000000000  -5.3548   -56.46   -6.9055    37.285   -6.7572    34.751   -5.8628   -52.697   
8050000000  -5.4382   -57.803   -6.8316    37.282   -6.5219    33.929   -5.8143   -54.137   
8100000000  -5.5941   -59.138   -6.8535    36.785   -6.7464    31.73   -5.8991   -54.185   
8150000000  -5.7688   -60.782   -6.8728    36.255   -7.1689    31.939   -6.33   -54.612   
8200000000  -5.8766   -62.106   -6.8567    36.442   -7.2037    33.453   -6.6379   -56.294   
8250000000  -6.0317   -62.888   -6.8584    37.393   -6.6645    33.989   -6.7233   -58.832   
8300000000  -6.1503   -65.132   -6.753    36.284   -6.5284    28.884   -6.7391   -59.698   
8350000000  -6.3229   -66.485   -6.7675    36.484   -7.3153    26.963   -7.203   -60.572   
8400000000  -6.5926   -67.823   -6.827    36.639   -7.6635    31.186   -7.6636   -61.554   
8450000000  -6.6823   -68.982   -6.7142    37.373   -7.073    31.956   -7.738   -64.552   
8500000000  -6.9074   -70.435   -6.7464    37.301   -7.0266    31.098   -7.7556   -65.945   
8550000000  -7.0152   -71.884   -6.6304    37.463   -6.6614    30.788   -7.9669   -65.83   
8600000000  -7.1677   -73.63   -6.4917    37.693   -6.7095    27.267   -8.4364   -68.147   
8650000000  -7.4658   -75.159   -6.4562    37.708   -7.1902    27.534   -8.8075   -71.878   
8700000000  -7.6718   -76.461   -6.3786    38.103   -7.1922    30.568   -8.8683   -72.908   
8750000000  -7.8941   -76.588   -6.3134    38.79   -6.5886    33.496   -8.9187   -71.256   
8800000000  -7.8511   -78.528   -6.1226    38.373   -5.64    30.031   -8.9961   -73.897   
8850000000  -8.129   -81.357   -5.9265    38.959   -6.2184    23.729   -9.359   -79.114   
8900000000  -8.6079   -82.554   -5.8808    38.408   -7.0236    26.933   -9.7577   -80.379   
8950000000  -8.7742   -82.678   -5.7806    39.128   -6.5072    31.413   -9.6305   -78.161   
9000000000  -8.8874   -83.87   -5.5468    39.187   -6.1432    29.843   -9.9336   -78.863   
9050000000  -9.0363   -85.258   -5.4034    38.298   -5.7485    30.401   -10.077   -81.156   
9100000000  -9.1988   -88.407   -5.1441    39.203   -5.6728    24.627   -10.008   -85.748   
9150000000  -9.7407   -90.343   -5.0355    37.752   -6.4399    23.518   -10.437   -86.125   
9200000000  -10.074   -90.119   -4.9147    37.084   -6.5082    29.608   -10.973   -82.277   
9250000000  -10.106   -89.997   -4.7425    37.146   -5.8758    31.792   -11.232   -82.006   
9300000000  -10.001   -91.772   -4.5182    36.204   -5.0734    31.176   -10.828   -85.604   
9350000000  -10.164   -96.887   -4.2598    36.23   -4.93    23.99   -10.639   -91.173   
9400000000  -10.805   -98.267   -4.1377    34.573   -5.7045    23.969   -11.542   -90.6   
9450000000  -10.885   -97.818   -4.019    33.132   -5.3268    29.207   -11.77   -87.417   
9500000000  -10.794   -100.61   -3.8167    33.127   -4.6942    26.698   -11.642   -93.031   
9550000000  -11.141   -102.48   -3.6874    31.635   -4.7725    26.987   -11.514   -94.929   
9600000000  -10.965   -106.15   -3.4997    31.619   -4.0667    24.431   -11.119   -95.666   
9650000000  -11.566   -110.49   -3.3297    29.029   -4.5519    20.446   -12.196   -99.661   
9700000000  -11.937   -110.24   -3.3022    27.507   -4.7635    24.597   -12.826   -99.547   
9750000000  -11.763   -113.01   -3.1032    27.227   -4.1267    24.18   -12.224   -102.9   
9800000000  -12.043   -117.24   -2.9971    25.322   -4.0672    21.433   -12.248   -105.53   
9850000000  -12.151   -121.46   -2.9054    23.714   -3.7812    19.753   -12.721   -107.38   
9900000000  -12.541   -124.36   -2.8878    21.992   -3.9343    18.696   -13.725   -112.68   
9950000000  -12.579   -125.81   -2.7812    20.767   -3.7321    20.845   -13.405   -116.47   
10000000000  -12.559   -132.8   -2.6163    19.45   -3.2187    16.051   -12.792   -124.41   
10050000000  -13.084   -136.53   -2.6864    17.129   -3.5856    14.263   -13.75   -126.57   

