!
! AVX THIN FILM OPERATION
!
! 0805 Size Low Pass Filter P/N  LP0805A0900AWTR
!
! Network Analyzer HP8720ES.07.64: Feb 23, 2000 Serial No. US39172382
! Hewlett-Packard
!  2 Feb 2003  02:33:11
! Frequency       S11                S21                S12                S22
# HZ  S  DB R  50 
50000000  -33.635   -86.413   -.0018   -3.6337   -.0019   -3.4579   -37.539   -32.726   
100000000  -27.747   -96.998   -.0242   -6.8239   -.0273   -6.9777   -27.569   -105.72   
150000000  -24.154   -102.83   -.0716   -10.272   -.0690   -9.9042   -24.164   -104.17   
200000000  -21.717   -108.63   -.0409   -13.708   -.0484   -13.534   -21.98   -109.13   
250000000  -19.888   -114.26   -.0562   -17.011   -.0803   -17.266   -19.994   -113.81   
300000000  -18.492   -119.51   -.1191   -20.3   -.1202   -20.433   -18.558   -120.51   
350000000  -17.346   -125.04   -.1314   -23.997   -.1637   -23.906   -17.16   -126.76   
400000000  -16.441   -130.49   -.1641   -27.35   -.1733   -27.4   -16.116   -130.21   
450000000  -15.715   -136.15   -.1836   -30.847   -.1605   -30.938   -15.409   -134.86   
500000000  -15.159   -142.15   -.1995   -34.611   -.1684   -35.188   -14.882   -140   
550000000  -14.784   -147.74   -.2139   -38.546   -.2450   -38.702   -14.63   -144.62   
600000000  -14.563   -153.95   -.2339   -42.459   -.1969   -42.244   -14.474   -150.07   
650000000  -14.533   -160.57   -.2287   -46.545   -.1415   -46.739   -14.642   -156.03   
700000000  -14.747   -167.5   -.2425   -50.875   -.1778   -51.298   -15.097   -162.67   
750000000  -15.248   -175.21   -.1923   -55.769   -.1940   -55.9   -15.863   -171.18   
800000000  -16.207    176.01   -.2040   -60.934   -.1921   -61.043   -17.266    179.98   
850000000  -17.829    165.11   -.1638   -66.633   -.2023   -66.499   -19.231    166.79   
900000000  -20.749    149.17   -.1771   -72.797   -.1688   -72.401   -22.725    144.37   
950000000  -26.113    110.13   -.1865   -79.803   -.1791   -79.592   -27.044    88.136   
1000000000  -24.318    18.592   -.2779   -87.716   -.3035   -87.606   -22.249    13.079   
1050000000  -16.815   -18.129   -.4598   -96.603   -.4742   -96.621   -15.827   -16.203   
1100000000  -11.871   -38.146   -.8081   -106.56   -.9055   -107.08   -11.538   -34.724   
1150000000  -8.3406   -54.599   -1.3286   -117.42   -1.562   -116.63   -8.3314   -52.034   
1200000000  -5.683   -70.487   -2.1399   -129.07   -2.1295   -128.55   -5.7917   -68.75   
1250000000  -3.8234   -85.905   -3.3668   -140.72   -3.5095   -141.2   -3.9246   -84.514   
1300000000  -2.5546   -100.41   -4.8047   -151.98   -4.8653   -150.42   -2.6648   -98.832   
1350000000  -1.7101   -113.18   -6.6128   -162.13   -6.4911   -162.95   -1.7921   -111.87   
1400000000  -1.2197   -124.8   -8.6616   -171.67   -8.7884   -172.11   -1.2867   -123.61   
1450000000  -.8762   -134.77   -10.859   -179.42   -10.825   -179.76   -.9038   -133.26   
1500000000  -.6806   -143.2   -13.395    173.56   -13.231    171.37   -.6062   -141.9   
1550000000  -.5744   -151.15   -16.081    167.52   -16.136    165.3   -.4873   -149.28   
1600000000  -.4499   -157.85   -19.128    162.99   -19.311    162.26   -.4084   -156.15   
1650000000  -.4256   -163.81   -22.54    159.59   -22.294    159.76   -.2863   -161.92   
1700000000  -.3532   -169.43   -26.669    157.12   -26.453    153.04   -.2652   -167.79   
1750000000  -.3282   -174.43   -32.362    158.48   -32.698    156.98   -.1976   -172.46   
1800000000  -.3177   -179.23   -41.619    176.96   -41.404   -179.16   -.1600   -177.71   
1850000000  -.2668    176.37   -42.839   -76.233   -41.988   -80.132   -.0708    178.46   
1900000000  -.2724    172.44   -36.154   -58.09   -35.425   -62.384    .0033    174.36   
1950000000  -.2519    168.24   -33.191   -56.614   -32.812   -61.345    .0075    170.77   
2000000000  -.2122    164.62   -31.668   -57.22   -31.594   -57.994    .0640    167.59   
2050000000  -.2218    161   -30.924   -57.379   -30.351   -57.827    .0159    164.5   
2100000000  -.1880    157.48   -30.65   -59.172   -30.19   -62.919   -.0133    161.39   
2150000000  -.1792    154.43   -31.029   -60.984   -30.57   -64.532   -.0259    158.61   
2200000000  -.1793    151   -31.405   -62.751   -31.244   -67.598   -.0364    155.51   
2250000000  -.1394    148.02   -32.129   -63.817   -32.892   -65.833   -.1267    152.37   
2300000000  -.1567    145.12   -33.524   -65.099   -33.481   -59.476   -.1811    149.39   
2350000000  -.1277    142.07   -35.016   -65.249   -34.099   -65.731   -.1849    146.17   
2400000000  -.1317    139.38   -37.429   -66.834   -37.15   -71.851   -.1695    142.83   
2450000000  -.1105    136.52   -40.809   -66.272   -41.465   -71.462   -.1898    140.16   
2500000000  -.1117    133.89   -48.133   -58.916   -49.64   -59.003   -.1711    137.71   
2550000000  -.1250    131.26   -54.415    66.622   -54.074    77.68   -.2368    134.71   
2600000000  -.0916    128.58   -42.794    93.943   -42.04    91.707   -.2023    131.61   
2650000000  -.0998    126.11   -37.828    96.768   -37.822    90.496   -.1259    128.88   
2700000000  -.1009    123.67   -34.651    95.761   -34.832    91.62   -.0878    126.55   
2750000000  -.0909    121.2   -32.207    94.861   -33.045    92.436   -.0904    124.09   
2800000000  -.0985    118.93   -30.484    93.694   -30.77    98.185   -.1299    121.9   
2850000000  -.1070    116.47   -28.793    93.72   -27.957    92.797   -.0767    119.16   
2900000000  -.0973    114.22   -27.461    91.453   -27.106    85.498   -.0131    117.31   
2950000000  -.1014    111.91   -26.321    90.492   -26.631    85.123   -.0599    115.27   
3000000000  -.1122    109.59   -25.291    89.195   -26.068    85.693   -.1169    112.98   
3050000000  -.1271    107.41   -24.613    87.601   -24.878    90.132   -.1397    110.59   
3100000000  -.1283    105.23   -23.718    87.159   -22.97    86.276   -.1416    108.39   
3150000000  -.1482    103.03   -23.036    84.841   -22.605    78.952   -.1745    106.33   
3200000000  -.1643    100.81   -22.491    83.436   -22.513    77.621   -.2203    103.85   
3250000000  -.1711    98.726   -21.878    83.54   -22.366    77.279   -.2142    101.4   
3300000000  -.1758    96.497   -21.487    81.057   -21.884    80.685   -.1759    99.321   
3350000000  -.1964    94.466   -20.967    80.092   -20.692    78.55   -.1997    97.093   
3400000000  -.2355    92.379   -20.619    78.891   -20.762    73.923   -.2505    95.187   
3450000000  -.2377    90.22   -20.34    77.778   -20.667    76.499   -.1954    92.755   
3500000000  -.2556    88.263   -19.819    77.392   -20.099    74.479   -.1769    91.366   
3550000000  -.2906    86.228   -19.778    75.553   -20.453    74.875   -.2384    89.231   
3600000000  -.2986    84.067   -19.542    74.973   -19.803    78.746   -.3056    87.388   
3650000000  -.3039    81.907   -19.297    74.472   -19.187    74.564   -.3570    84.987   
3700000000  -.3684    79.897   -19.263    73.174   -19.425    72.556   -.3803    82.645   
3750000000  -.3525    77.785   -19.223    72.867   -19.415    73.191   -.4376    80.74   
3800000000  -.4288    75.545   -19.424    72.478   -19.418    72.911   -.4742    78.703   
3850000000  -.4637    73.198   -19.643    72.187   -19.653    70.196   -.5824    75.782   
3900000000  -.4908    70.86   -20.341    72.83   -21.022    70.546   -.6308    73.15   
3950000000  -.6016    67.926   -21.998    76.778   -22.218    81.225   -.7044    69.653   
4000000000  -.7654    64.126   -24.851    100   -24.086    101.38   -.9209    65.889   
4050000000  -1.6206    59.218   -18.719    160.37   -18.349    152.42   -1.9791    60.631   
4100000000  -2.8728    70.109   -9.5941    127.18   -10.25    122.49   -3.4756    72.367   
4150000000  -1.3042    71.093   -10.015    90.277   -10.526    89.092   -1.5335    75.228   
4200000000  -.9647    67.11   -11.421    78.841   -11.947    78.574   -1.0263    70.608   
4250000000  -.8619    63.995   -12.141    74.678   -12.318    77.363   -.9165    67.227   
4300000000  -.8461    61.589   -12.593    72.783   -11.93    73.065   -.8586    64.449   
4350000000  -.8653    59.262   -12.737    71.367   -12.197    66.319   -.8118    62.054   
4400000000  -.8833    57.178   -12.716    69.232   -13.291    65.11   -.8192    59.962   
4450000000  -.9008    55.151   -13.046    68.516   -13.304    73.273   -.7911    57.858   
4500000000  -.9452    53.042   -12.847    68.665   -11.731    72.061   -.8480    56.129   
4550000000  -.9777    51.342   -12.871    67.624   -11.756    62.22   -.9041    54.476   
4600000000  -1.043    49.41   -12.844    67.106   -12.555    62.666   -.9659    52.905   
4650000000  -1.039    47.414   -12.683    66.647   -12.502    62.751   -.9937    51.067   
4700000000  -1.1112    45.805   -12.749    66.037   -12.907    63.737   -1.0541    49.066   
4750000000  -1.147    43.693   -12.58    66.088   -12.47    67.875   -1.1248    47.482   
4800000000  -1.165    42.086   -12.365    65.112   -11.825    64.497   -1.1871    45.494   
4850000000  -1.244    40.364   -12.519    65.216   -11.883    60.969   -1.2397    43.651   
4900000000  -1.2745    38.353   -12.156    65.439   -12.278    60.066   -1.2967    41.641   
4950000000  -1.3211    36.801   -12.182    64.572   -12.518    64.06   -1.3244    39.739   
5000000000  -1.396    34.902   -12.087    64.597   -11.653    66.845   -1.3593    37.756   
5050000000  -1.4073    33.192   -11.91    64.517   -11.13    61.353   -1.3851    36.091   
5100000000  -1.4703    31.652   -11.879    64.289   -11.447    59.726   -1.4372    34.56   
5150000000  -1.5185    29.592   -11.616    64.333   -11.261    58.835   -1.4471    32.612   
5200000000  -1.5503    28.139   -11.483    63.307   -11.704    57.067   -1.4968    31.079   
5250000000  -1.6483    26.197   -11.492    63.118   -11.701    60.894   -1.492    29.578   
5300000000  -1.6614    24.543   -11.205    63.637   -11.141    59.249   -1.5679    28.115   
5350000000  -1.7108    22.97   -11.146    62.593   -11.356    56.457   -1.6127    26.632   
5400000000  -1.777    20.962   -10.96    62.636   -11.391    57.217   -1.6412    25.135   
5450000000  -1.811    19.446   -10.8    62.141   -11.42    57.214   -1.6708    23.73   
5500000000  -1.8806    17.838   -10.73    61.902   -11.351    59.091   -1.7413    22.522   
5550000000  -1.9319    15.929   -10.454    61.565   -10.984    57.805   -1.8677    21.053   
5600000000  -1.9533    14.355   -10.354    60.587   -11.072    57.38   -1.9868    19.453   
5650000000  -2.0622    12.605   -10.323    60.54   -10.536    59.153   -2.0835    17.722   
5700000000  -2.0712    10.904   -10.066    60.12   -10.211    56.258   -2.1531    16.089   
5750000000  -2.1427    9.381   -9.9746    59.424   -10.449    55.92   -2.239    14.279   
5800000000  -2.2148    7.457   -9.8067    59.001   -10.169    55.738   -2.3777    12.203   
5850000000  -2.2199    6.0658   -9.6143    58.699   -10.136    54.698   -2.3974    10.248   
5900000000  -2.3258    4.3602   -9.5899    57.87   -10    56.247   -2.3676    8.8069   
5950000000  -2.3358    2.5955   -9.3643    57.415   -9.602    54.792   -2.4382    7.4007   
6000000000  -2.4083    1.2126   -9.301    57.041   -9.6004    52.267   -2.4993    5.8145   
6050000000  -2.4763   -.7113   -9.1672    56.235   -9.6045    51.515   -2.5729    3.6461   
6100000000  -2.4876   -2.3058   -8.9743    55.673   -9.7477    52.226   -2.5163    2.1162   
6150000000  -2.5907   -3.6584   -8.9873    54.949   -9.5711    54.522   -2.5354    1.1247   
6200000000  -2.6486   -5.6168   -8.8421    54.325   -9.1022    53.562   -2.6737    .1908   
6250000000  -2.6715   -7.0518   -8.7444    53.959   -8.9657    50.867   -2.8243   -1.5106   
6300000000  -2.7589   -8.6641   -8.6559    53.435   -8.9241    49.995   -2.8356   -3.5568   
6350000000  -2.7647   -10.368   -8.4382    52.528   -9.1076    49.885   -2.8094   -4.547   
6400000000  -2.8211   -11.516   -8.4399    51.416   -9.0801    50.775   -2.8815   -6.048   
6450000000  -2.8561   -13.079   -8.2634    51.768   -8.6994    51.823   -2.9904   -7.1164   
6500000000  -2.9194   -14.978   -8.3477    51.47   -8.3652    48.179   -3.1386   -8.7163   
6550000000  -3.0594   -16.43   -8.273    50.847   -8.4616    46.831   -3.1329   -11.247   
6600000000  -3.0999   -18.355   -8.0569    49.242   -8.6741    46.548   -3.1123   -12.016   
6650000000  -3.1306   -19.672   -8.0955    48.937   -8.6933    46.803   -3.2638   -13.666   
6700000000  -3.235   -21.324   -8.0544    48.356   -8.5088    46.857   -3.3681   -15.496   
6750000000  -3.2456   -22.886   -7.9583    47.697   -8.2986    46.531   -3.2714   -17.077   
6800000000  -3.357   -24.133   -7.9861    47.876   -8.2068    46.027   -3.2992   -17.97   
6850000000  -3.3895   -26.109   -7.7505    47.068   -8.273    43.958   -3.4311   -18.734   
6900000000  -3.4463   -27.326   -7.7446    46.051   -8.4155    43.054   -3.57   -20.967   
6950000000  -3.5525   -28.862   -7.7731    45.582   -8.3343    44.08   -3.5923   -22.321   
7000000000  -3.5917   -30.565   -7.7066    45.435   -8.0666    44.442   -3.5418   -22.985   
7050000000  -3.6522   -31.637   -7.6577    45.393   -7.9725    42.819   -3.7474   -23.827   
7100000000  -3.752   -33.592   -7.5279    44.349   -8.0153    41.712   -3.9263   -25.102   
7150000000  -3.7862   -34.773   -7.5678    43.835   -7.8847    41.148   -4.0324   -27.631   
7200000000  -3.9015   -36.266   -7.5749    43.665   -7.848    41.06   -4.0163   -29.005   
7250000000  -3.9386   -38.013   -7.3785    42.917   -7.8968    40.755   -4.0653   -29.596   
7300000000  -4.0041   -39.262   -7.5119    42.4   -7.7765    40.77   -4.3612   -31.073   
7350000000  -4.1134   -40.761   -7.3879    42.858   -7.3767    40.106   -4.4327   -33.889   
7400000000  -4.1554   -42.281   -7.2725    41.645   -7.2262    37.853   -4.4228   -35.546   
7450000000  -4.2616   -43.548   -7.3625    40.947   -7.519    36.737   -4.409   -36.144   
7500000000  -4.3509   -45.368   -7.2814    40.791   -7.6076    37.204   -4.6461   -36.915   
7550000000  -4.4115   -46.527   -7.2552    40.515   -7.2931    36.476   -4.8463   -39.339   
7600000000  -4.5443   -47.959   -7.2619    40.075   -7.2486    35.78   -4.7842   -41.657   
7650000000  -4.6166   -49.491   -7.2035    39.488   -7.2575    36.47   -4.7054   -42.341   
7700000000  -4.7178   -50.585   -7.2769    39.562   -7.1051    36.628   -4.8611   -42.608   
7750000000  -4.8205   -52.427   -7.1124    39.007   -6.9306    34.478   -5.1079   -43.985   
7800000000  -4.8916   -53.657   -7.1741    37.822   -7.0427    32.8   -5.2   -46.593   
7850000000  -5.0607   -55.139   -7.2543    38.318   -7.2998    35.37   -5.1469   -47.641   
7900000000  -5.1381   -56.56   -7.1647    38.171   -6.9248    36.931   -5.2115   -47.31   
7950000000  -5.2243   -57.799   -7.1314    37.424   -6.848    33.755   -5.4662   -48.277   
8000000000  -5.3842   -59.384   -7.2079    37.448   -6.8962    33.676   -5.7122   -50.53   
8050000000  -5.4622   -60.835   -7.1416    37.397   -6.6707    32.936   -5.7156   -52.384   
8100000000  -5.6296   -62.22   -7.1468    36.902   -6.9316    30.755   -5.7559   -52.82   
8150000000  -5.7838   -63.912   -7.1731    36.491   -7.358    31.024   -6.1291   -53.163   
8200000000  -5.9072   -65.229   -7.1861    36.744   -7.3389    32.596   -6.4744   -54.757   
8250000000  -6.059   -66.135   -7.1555    37.424   -6.8001    32.734   -6.5886   -56.994   
8300000000  -6.1671   -68.335   -7.0711    36.247   -6.7289    27.99   -6.6122   -58.373   
8350000000  -6.3549   -69.771   -7.1132    36.606   -7.5067    25.981   -7.0017   -59.073   
8400000000  -6.6111   -71.246   -7.1575    36.681   -7.8166    30.207   -7.4345   -60.34   
8450000000  -6.7001   -72.463   -7.0267    37.571   -7.2159    30.791   -7.5589   -62.932   
8500000000  -6.9401   -73.784   -7.0909    37.561   -7.1735    30.241   -7.6322   -64.681   
8550000000  -7.0511   -75.585   -6.9871    37.643   -6.8547    29.658   -7.7348   -65.102   
8600000000  -7.2059   -77.375   -6.8287    37.874   -6.9037    25.896   -8.1372   -66.853   
8650000000  -7.4772   -78.967   -6.8042    37.782   -7.3245    26.433   -8.5722   -70.193   
8700000000  -7.6847   -80.261   -6.7389    38.467   -7.3294    29.6   -8.6825   -71.548   
8750000000  -7.9095   -80.778   -6.6599    39.037   -6.7043    32.112   -8.6585   -70.518   
8800000000  -7.8599   -82.874   -6.4935    38.577   -5.8071    27.93   -8.6151   -72.508   
8850000000  -8.1448   -85.615   -6.3177    39.357   -6.3961    22.236   -9.0522   -77.57   
8900000000  -8.6025   -86.966   -6.2381    38.724   -7.1327    25.928   -9.5407   -78.968   
8950000000  -8.757   -87.282   -6.1244    39.372   -6.582    30.214   -9.418   -77.344   
9000000000  -8.8954   -88.831   -5.9026    39.382   -6.2741    28.184   -9.576   -77.955   
9050000000  -9.0327   -90.411   -5.7603    38.61   -5.8604    28.26   -9.708   -79.677   
9100000000  -9.1859   -93.594   -5.5074    39.389   -5.8209    22.897   -9.7416   -84.507   
9150000000  -9.7039   -95.51   -5.3591    37.966   -6.5941    22.721   -10.179   -85.57   
9200000000  -10.026   -95.705   -5.2607    37.399   -6.5856    28.238   -10.547   -81.834   
9250000000  -10.06   -96.063   -5.0812    37.562   -5.9065    29.588   -10.737   -81.091   
9300000000  -9.9609   -98.063   -4.8442    36.532   -5.1275    28.717   -10.469   -84.728   
9350000000  -10.128   -102.97   -4.5516    36.545   -5.0912    22.198   -10.388   -91.163   
9400000000  -10.745   -104.61   -4.4312    34.872   -5.8536    22.624   -11.124   -90.828   
9450000000  -10.803   -104.77   -4.3166    33.492   -5.374    26.794   -11.223   -87.085   
9500000000  -10.717   -107.81   -4.1351    33.381   -4.7459    24.1   -11.245   -92.502   
9550000000  -11.041   -109.7   -3.967    31.771   -4.8331    24.755   -11.202   -95.297   
9600000000  -10.943   -113.52   -3.7842    31.778   -4.2777    21.866   -10.726   -97.252   
9650000000  -11.482   -117.95   -3.6196    29.254   -4.8148    18.163   -11.645   -100.38   
9700000000  -11.743   -118.48   -3.5741    27.64   -4.8364    22.007   -12.318   -99.492   
9750000000  -11.608   -121.45   -3.3974    27.154   -4.2088    21.397   -11.863   -104.18   
9800000000  -11.884   -125.44   -3.2619    25.334   -4.2553    18.936   -11.787   -107.75   
9850000000  -12.006   -129.98   -3.178    23.68   -4.0435    16.604   -12.092   -109.33   
9900000000  -12.3   -133.34   -3.202    21.786   -4.1229    15.461   -13.143   -113.25   
9950000000  -12.249   -135.39   -3.0642    20.207   -3.7872    17.332   -12.949   -118.23   
10000000000  -12.274   -141.62   -2.8984    19.079   -3.4938    12.675   -12.351   -126.93   
10050000000  -12.731   -145.07   -2.9808    16.743   -3.908    11.402   -13.027   -128.63   

