!
! AVX THIN FILM OPERATION
!
! 0805 Size Low Pass Filter P/N  LP0805A2100AWTR
!
! Network Analyzer HP8720ES.07.64: Feb 23, 2000 Serial No. US39172382
! Hewlett-Packard
!  2 Feb 2003  04:23:20
! Frequency       S11                S21                S12                S22
# HZ  S  DB R  50 
50000000  -45.366   -73.798    .0180   -1.8292   -.0017   -1.5724   -37.954    38.989   
100000000  -39.431   -89.665   -.0297   -3.1407    .0046   -3.2835   -37.854   -105.69   
150000000  -35.408   -95.448   -.0495   -4.9136    .0075   -4.7543   -36.61   -99.535   
200000000  -32.824   -100.5   -.0017   -6.497   -.0300   -6.2004   -33.523   -103.8   
250000000  -30.854   -104.7   -.0114   -8.0434   -.0223   -7.8854   -31.57   -108.49   
300000000  -29.285   -108.23   -.0352   -9.4963   -.0392   -9.4688   -29.306   -115   
350000000  -27.834   -112.39   -.0257   -11.08   -.0484   -11.029   -27.36   -122.37   
400000000  -26.642   -116.24   -.0462   -12.666   -.0573   -12.73   -26.045   -119.91   
450000000  -25.594   -119.9   -.0574   -14.203   -.0474   -14.141   -24.98   -122.13   
500000000  -24.611   -124.05   -.0546   -15.731   -.0342   -16.05   -23.862   -125.4   
550000000  -23.766   -127.77   -.0578   -17.442   -.0753   -17.637   -23.101   -128.07   
600000000  -22.949   -131.3   -.0672   -19.009   -.0587   -18.947   -22.392   -130.9   
650000000  -22.173   -135.1   -.0670   -20.503   -.0248   -20.667   -21.929   -133.83   
700000000  -21.513   -138.55   -.0756   -22.102   -.0462   -22.302   -21.391   -137.03   
750000000  -20.881   -142.3   -.0738   -23.806   -.0685   -23.846   -20.972   -140.8   
800000000  -20.293   -146.12   -.0772   -25.606   -.0530   -25.621   -20.825   -145.4   
850000000  -19.737   -149.74   -.0582   -27.294   -.0796   -27.264   -20.337   -150.39   
900000000  -19.231   -153.28   -.0808   -29.003   -.0982   -28.689   -19.675   -155.65   
950000000  -18.679   -157.01   -.0528   -30.716   -.0453   -30.359   -19.097   -160.37   
1000000000  -18.233   -160.77   -.0480   -32.4   -.0436   -32.466   -18.776   -164.18   
1050000000  -17.864   -164.32   -.0688   -34.192   -.1355   -34.161   -18.458   -169.49   
1100000000  -17.442   -167.64   -.0701   -35.854   -.1136   -35.219   -17.708   -174.2   
1150000000  -16.967   -171.95   -.0295   -37.845    .0176   -37.2   -17.01   -178.44   
1200000000  -16.695   -175.89   -.0567   -39.505   -.0324   -39.906   -16.665    178.99   
1250000000  -16.391   -179.64   -.0429   -41.703   -.0915   -41.303   -16.44    175.67   
1300000000  -16.073    176.49   -.0582   -43.429   -.0073   -43.323   -16.111    171.02   
1350000000  -15.87    172.36   -.0521   -45.516   -.0657   -45.733   -15.567    168.01   
1400000000  -15.631    168.61   -.0404   -47.436   -.0792   -47.396   -15.284    166.05   
1450000000  -15.427    164.25   -.0317   -49.462   -.0353   -49.631   -15.354    163.21   
1500000000  -15.292    160.15   -.0441   -51.629   -.0569   -51.991   -15.385    158.95   
1550000000  -15.172    156.09   -.0476   -53.645   -.0816   -54.058   -15.333    154.02   
1600000000  -15.081    151.89   -.0563   -55.809   -.0796   -55.898   -15.107    150.66   
1650000000  -14.992    147.04   -.0363   -58.126    .0401   -58.148   -15.219    146.99   
1700000000  -15.056    142.15   -.0525   -60.511   -.0124   -61.383   -15.532    141.76   
1750000000  -15.122    137.55   -.0475   -62.857   -.1237   -63.04   -15.686    136.32   
1800000000  -15.13    132.32   -.0333   -65.448    .0626   -65.031   -15.585    130.87   
1850000000  -15.365    126.18   -.0361   -67.986    .1066   -68.546   -15.782    126.12   
1900000000  -15.642    120.31   -.0520   -70.521    .0376   -71.555   -16.538    121.95   
1950000000  -16.048    113.69   -.0556   -73.358   -.0253   -74.229   -17.374    114.93   
2000000000  -16.476    106.72   -.0707   -76.149   -.0899   -76.444   -18.209    105.12   
2050000000  -16.993    98.481   -.0906   -78.971   -.0112   -78.988   -19.024    93.922   
2100000000  -17.703    87.99   -.0854   -82.16   -.0391   -82.697   -20.007    78.96   
2150000000  -18.564    75.957   -.1218   -85.235   -.1077   -85.817   -21.006    59.264   
2200000000  -19.399    60.311   -.1536   -88.603   -.1571   -89.15   -20.828    35.09   
2250000000  -20.098    40.829   -.196   -92.265   -.2721   -92.288   -19.613    15.664   
2300000000  -20.059    17.419   -.2567   -95.853   -.2558   -95.696   -18.333   -.8734   
2350000000  -19.067   -7.31   -.2904   -99.862   -.3042   -99.675   -17.07   -16.703   
2400000000  -17.346   -28.801   -.3746   -103.78   -.3278   -103.69   -15.615   -31.381   
2450000000  -15.346   -46.647   -.4697   -108.03   -.3871   -107.99   -14.391   -46.796   
2500000000  -13.279   -61.407   -.5588   -112.3   -.4922   -113.38   -12.699   -60.796   
2550000000  -11.436   -74.421   -.7003   -117.18   -.8408   -117.8   -11.154   -74.118   
2600000000  -9.7819   -85.139   -.8630   -121.95   -.8924   -120.72   -9.6703   -85.056   
2650000000  -8.1595   -95.186   -1.0382   -126.76   -.8051   -126.39   -8.2364   -95.525   
2700000000  -6.7737   -105.37   -1.3465   -132.35   -1.0051   -132.83   -6.8515   -106.53   
2750000000  -5.4918   -115.08   -1.4961   -137.43   -1.2744   -140.61   -5.4869   -116.57   
2800000000  -4.4866   -124.68   -1.8375   -143.78   -2.2354   -146.09   -4.4611   -125.9   
2850000000  -3.6737   -133.42   -2.3595   -149.85   -2.4631   -146.39   -3.5389   -134.3   
2900000000  -2.7628   -141.75   -2.6856   -155.4   -2.1537   -153.99   -2.677   -142.84   
2950000000  -2.1668   -150.53   -3.3754   -162.15   -2.758   -164.22   -2.0023   -151.2   
3000000000  -1.6299   -159.12   -3.871   -168.37   -3.7327   -173.14   -1.4205   -158.99   
3050000000  -1.22   -166.38   -4.6656   -175.38   -5.209   -176.76   -1.0174   -166.54   
3100000000  -.9758   -173.59   -5.643    178.92   -5.4327   -176.86   -.7022   -172.67   
3150000000  -.5931    179.51   -6.3821    173.26   -5.5446    173.28   -.4993   -179.7   
3200000000  -.4404    173.38   -7.5084    166.54   -6.7892    164.1   -.3361    173.62   
3250000000  -.3073    166.87   -8.5575    161.68   -8.1719    156.28   -.1386    167.34   
3300000000  -.1099    161.56   -9.6897    155.93   -10.028    153.19   -.0258    162.1   
3350000000  -.1060    156.36   -10.968    151.05   -10.721    152.05    .0500    156.56   
3400000000   .0161    151.02   -12.205    146.21   -11.827    142.62    .0460    151.26   
3450000000   .0650    146.73   -13.741    141.94   -13.832    139.13    .1457    145.99   
3500000000   .0821    141.94   -15.028    138.55   -14.992    136.08    .2182    141.89   
3550000000   .1705    137.81   -16.581    134.11   -17.063    130.19    .2576    137.61   
3600000000   .1313    133.92   -18.312    131.23   -18.923    132.42    .2203    133.6   
3650000000   .1866    129.57   -19.908    128.19   -19.922    129.46    .1876    129.6   
3700000000   .196    126.14   -21.735    125.58   -21.861    124.31    .1544    125.51   
3750000000   .1565    122.5   -23.691    122.95   -23.964    123.13    .1480    121.99   
3800000000   .2011    118.81   -25.886    121.11   -26.059    121.54    .1113    118.26   
3850000000   .1631    115.81   -28.289    119.73   -28.15    118.3    .0474    114.29   
3900000000   .1457    112.28   -30.979    118.09   -31.417    113.6   -.0001    110.97   
3950000000   .1681    109.18   -34.562    117.89   -35.22    120.7    .0276    107.03   
4000000000   .1230    106.19   -38.83    121.19   -38.458    124.81   -.0191    104   
4050000000   .1367    102.99   -45.748    135.55   -45.597    127.52   -.0545    100.78   
4100000000   .1182    100.26   -52.475   -143.55   -52.36   -145.91   -.0095    97.23   
4150000000   .0773    97.318   -45.038   -100.06   -44.725   -101.54   -.1177    94.318   
4200000000   .0785    94.406   -40.671   -92.024   -41.162   -93.728   -.0741    91.136   
4250000000   .0216    91.794   -38.421   -89.184   -38.728   -87.465   -.0570    88.065   
4300000000   .0140    88.956   -36.883   -88.805   -36.291   -86.679   -.0136    85.287   
4350000000   .0102    86.337   -35.903   -88.551   -35.031   -91.989   -.0345    83.138   
4400000000  -.0374    83.73   -34.984   -89.632   -35.365   -96.216   -.0446    80.195   
4450000000  -.0652    81.017   -34.994   -91.441   -35.581   -87.256   -.0308    77.54   
4500000000  -.0874    78.555   -34.597   -89.982   -33.81   -83.783   -.0804    75.2   
4550000000  -.1381    76.051   -34.532   -91.651   -33.201   -94.075   -.1408    73.295   
4600000000  -.1626    73.552   -34.657   -91.728   -34.185   -96.137   -.1949    70.829   
4650000000  -.1834    71.053   -34.733   -92.622   -34.396   -96.281   -.2242    68.209   
4700000000  -.2322    68.659   -35.21   -93.61   -35.375   -97.235   -.2722    65.7   
4750000000  -.2610    66.353   -35.637   -93.36   -35.753   -91.795   -.3687    63.5   
4800000000  -.2915    63.843   -36.146   -94.835   -35.643   -93.016   -.4548    61.007   
4850000000  -.3404    61.477   -37.013   -94.425   -36.238   -97.565   -.4929    58.38   
4900000000  -.3841    59.176   -37.622   -93.586   -37.532   -99.662   -.5315    55.871   
4950000000  -.4219    56.857   -38.595   -94.43   -39.292   -95.834   -.5493    53.531   
5000000000  -.4768    54.594   -39.806   -94.005   -39.753   -90.088   -.6308    51.088   
5050000000  -.4924    52.403   -41.315   -91.097   -40.449   -92.992   -.6613    48.624   
5100000000  -.5286    50.28   -43.244   -90.784   -42.793   -93.505   -.6750    46.353   
5150000000  -.5869    47.726   -45.576   -85   -45.297   -91.305   -.6952    44.164   
5200000000  -.6399    45.728   -48.879   -78.787   -49.225   -83.6   -.7646    42.112   
5250000000  -.6955    43.395   -55.396   -53.008   -54.345   -54.955   -.7888    39.953   
5300000000  -.7241    41.262   -55.887    8.8275   -55.096    10.438   -.8252    38.059   
5350000000  -.7583    39.05   -49.188    48.347   -49.954    39.258   -.8659    35.935   
5400000000  -.8162    36.731   -45.702    56.378   -46.153    50.964   -.9299    34.033   
5450000000  -.8657    34.829   -42.623    62.816   -43.275    54.316   -.9692    32.099   
5500000000  -.9090    32.66   -40.44    63.045   -41.006    59.299   -1.0544    30.189   
5550000000  -.9402    30.358   -38.451    64.851   -39.112    59.255   -1.0816    28.456   
5600000000  -1.0048    28.282   -36.833    65.631   -37.698    60.065   -1.26    26.452   
5650000000  -1.0713    26.171   -35.687    64.438   -36.071    62.906   -1.3661    24.263   
5700000000  -1.0999    23.993   -34.298    63.876   -34.538    61.026   -1.4312    22.191   
5750000000  -1.1696    22.045   -33.248    63.36   -33.916    60.195   -1.5349    20.123   
5800000000  -1.2136    19.683   -32.241    63.581   -32.84    59.886   -1.7109    17.345   
5850000000  -1.22    17.82   -31.363    62.764   -32.049    59.063   -1.7011    15.081   
5900000000  -1.3131    15.745   -30.67    61.179   -31.396    60.369   -1.6675    12.821   
5950000000  -1.3454    13.608   -29.895    61.309   -30.334    59.131   -1.7042    11.258   
6000000000  -1.3983    11.724   -29.303    60.866   -29.755    56.188   -1.8029    9.2491   
6050000000  -1.4544    9.4482   -28.747    59.921   -29.285    55.098   -1.9151    6.7552   
6100000000  -1.4764    7.6204   -28.023    59.084   -29.062    55.742   -1.8614    4.2709   
6150000000  -1.5743    5.6772   -27.609    58.615   -28.531    58.192   -1.8389    3.2986   
6200000000  -1.6201    3.344   -27.253    57.861   -27.613    57.662   -1.9672    1.8155   
6250000000  -1.6372    1.4694   -26.792    56.176   -27.021    54.466   -2.1155   -.5218   
6300000000  -1.73   -.5328   -26.259    55.151   -26.698    53.164   -2.1338   -3.1105   
6350000000  -1.7433   -2.6889   -25.631    54.525   -26.622    52.381   -2.0494   -4.6458   
6400000000  -1.7676   -4.2778   -25.351    53.248   -26.269    54.194   -2.2025   -6.1592   
6450000000  -1.7965   -6.4339   -24.992    52.817   -25.648    53.804   -2.3959   -7.9829   
6500000000  -1.8572   -8.5075   -24.714    51.897   -24.858    50.006   -2.369   -10.286   
6550000000  -1.9974   -10.138   -24.363    50.9   -24.806    48.149   -2.412   -12.833   
6600000000  -2.0294   -12.527   -23.888    49.366   -24.811    47.532   -2.4179   -13.656   
6650000000  -2.0666   -14.233   -23.704    48.599   -24.684    47.863   -2.5898   -15.732   
6700000000  -2.1712   -16.29   -23.536    47.935   -24.278    47.865   -2.6838   -18.272   
6750000000  -2.1759   -18.207   -23.205    47.075   -23.84    47.129   -2.547   -20.124   
6800000000  -2.2795   -19.848   -23.085    46.667   -23.586    46.329   -2.615   -21.123   
6850000000  -2.3016   -22.192   -22.682    45.746   -23.493    43.863   -2.781   -22.308   
6900000000  -2.3661   -23.783   -22.499    44.157   -23.506    42.836   -2.9411   -24.938   
6950000000  -2.4601   -25.693   -22.4    43.392   -23.23    43.463   -2.9203   -27.21   
7000000000  -2.4897   -27.82   -22.177    42.708   -22.837    43.145   -2.9036   -28.435   
7050000000  -2.5629   -29.239   -22.038    42.192   -22.644    41.288   -3.1315   -29.415   
7100000000  -2.6497   -31.602   -21.795    40.927   -22.581    40.045   -3.3447   -31.553   
7150000000  -2.6902   -33.169   -21.706    40.007   -22.366    39.055   -3.3898   -34.671   
7200000000  -2.7938   -35.027   -21.626    39.626   -22.243    38.55   -3.3358   -36.399   
7250000000  -2.8327   -37.189   -21.355    38.397   -22.188    38.098   -3.4375   -37.44   
7300000000  -2.8827   -38.819   -21.403    37.663   -21.994    37.859   -3.7438   -39.703   
7350000000  -3.0038   -40.692   -21.215    37.822   -21.525    36.584   -3.767   -43.351   
7400000000  -3.0437   -42.531   -21.004    36.127   -21.336    34.119   -3.69   -44.886   
7450000000  -3.1384   -44.279   -21.032    35.167   -21.517    32.953   -3.7103   -45.647   
7500000000  -3.2341   -46.475   -20.942    34.644   -21.538    32.988   -3.9738   -47.626   
7550000000  -3.2916   -48.046   -20.842    34.048   -21.237    31.664   -4.1417   -50.854   
7600000000  -3.4279   -49.893   -20.788    33.172   -21.113    30.657   -4.0015   -53.394   
7650000000  -3.4856   -51.968   -20.735    32.065   -21.049    31.142   -3.9445   -54.274   
7700000000  -3.5847   -53.417   -20.766    32.028   -20.898    30.97   -4.1646   -55.004   
7750000000  -3.6856   -55.69   -20.551    31.278   -20.744    28.431   -4.3907   -57.257   
7800000000  -3.7397   -57.159   -20.619    29.881   -20.806    26.818   -4.3965   -60.249   
7850000000  -3.916   -59.186   -20.703    29.678   -20.985    28.917   -4.3485   -61.199   
7900000000  -3.9994   -61.188   -20.563    29.397   -20.621    29.95   -4.5212   -61.672   
7950000000  -4.0729   -62.78   -20.528    28.418   -20.625    26.987   -4.822   -63.478   
8000000000  -4.2281   -64.829   -20.606    28.202   -20.678    26.461   -4.9603   -66.563   
8050000000  -4.3088   -66.79   -20.516    27.838   -20.469    25.31   -4.9804   -68.666   
8100000000  -4.4652   -68.537   -20.567    27.026   -20.744    23.545   -5.0974   -69.37   
8150000000  -4.6021   -70.624   -20.562    26.413   -21.166    23.796   -5.4659   -71.028   
8200000000  -4.6747   -72.702   -20.574    26.274   -21.162    24.821   -5.8059   -73.908   
8250000000  -4.8468   -74.209   -20.539    27.112   -20.715    24.056   -5.852   -77.392   
8300000000  -4.9916   -76.889   -20.437    25.182   -20.763    19.84   -5.9463   -79.207   
8350000000  -5.0975   -78.606   -20.526    25.015   -21.525    18.449   -6.2575   -80.71   
8400000000  -5.3003   -80.745   -20.588    25.288   -21.793    21.908   -6.5577   -84.187   
8450000000  -5.3918   -82.897   -20.425    25.477   -21.278    21.305   -6.6011   -88.235   
8500000000  -5.5794   -84.952   -20.508    25.248   -21.278    20.656   -6.6114   -90.573   
8550000000  -5.7155   -87.437   -20.377    24.924   -21.056    19.564   -6.8015   -92.315   
8600000000  -5.8476   -89.4   -20.27    24.086   -21.271    16.304   -7.1121   -94.992   
8650000000  -6.0376   -91.692   -20.309    23.888   -21.655    16.815   -7.2178   -99.804   
8700000000  -6.136   -94.309   -20.225    23.725   -21.579    18.984   -7.0689   -102.61   
8750000000  -6.3584   -96.345   -20.236    23.893   -20.961    19.821   -7.1785   -103.76   
8800000000  -6.4702   -99.37   -20.001    22.394   -20.527    14.318   -7.4428   -106.19   
8850000000  -6.6402   -101.53   -19.936    21.204   -21.312    10.952   -7.6057   -110.45   
8900000000  -6.821   -104.42   -20.066    20.157   -21.754    15.248   -7.6055   -113.62   
8950000000  -6.9556   -107.16   -19.884    20.058   -21.174    16.599   -7.6351   -115.69   
9000000000  -7.1001   -109.73   -19.854    18.158   -21.121    14.057   -7.9591   -118.17   
9050000000  -7.2722   -112.85   -19.787    16.536   -20.863    12.684   -8.1097   -122.73   
9100000000  -7.3978   -115.72   -19.671    14.755   -21.355    8.2356   -7.9809   -126.99   
9150000000  -7.5687   -118.54   -19.939    12.855   -21.975    9.9371   -7.8583   -129.01   
9200000000  -7.6909   -122.08   -19.956    11.511   -21.582    13.637   -8.1107   -130.88   
9250000000  -7.7855   -125.01   -20.135    9.6474   -21.132    10.701   -8.3744   -135.46   
9300000000  -7.9089   -128.41   -20.082    7.4432   -21.013    6.394   -8.2301   -140.52   
9350000000  -8.0113   -132.08   -20.19    4.6005   -21.772    2.45   -7.9504   -143.49   
9400000000  -8.0727   -135.15   -20.644    2.6244   -22.205    5.4369   -7.9917   -144.85   
9450000000  -8.1928   -138.95   -20.861    .7141   -21.683    3.9771   -8.264   -148.25   
9500000000  -8.1597   -142.47   -21.192   -2.1313   -22.074   -.1551   -8.1889   -153.48   
9550000000  -8.2903   -146.11   -21.696   -3.8081   -22.347   -1.0107   -7.963   -156.52   
9600000000  -8.2691   -150.16   -22.064   -6.118   -22.929   -5.6964   -7.934   -158.27   
9650000000  -8.2497   -153.64   -22.931   -8.671   -23.919   -4.3739   -8.211   -161.94   
9700000000  -8.2711   -157.85   -23.622   -9.7737   -23.994   -3.8411   -8.156   -167.1   
9750000000  -8.1724   -161.66   -24.492   -11.39   -24.855   -8.5611   -7.9108   -170.78   
9800000000  -8.1515   -165.64   -25.689   -12.273   -26.145   -9.0967   -7.8594   -172.9   
9850000000  -8.0491   -169.91   -27.308   -12.649   -27.758   -10.268   -8.0053   -176.57   
9900000000  -7.9225   -174.12   -29.877   -9.5004   -30.012   -5.6332   -7.9428    177.95   
9950000000  -7.8121   -178.87   -33.68    3.8878   -33.508    5.6909   -7.5563    173.22   
10000000000  -7.6523    176.01   -36.093    58.343   -36.292    58.994   -7.2358    170.39   
10050000000  -7.5441    170.07   -29.381    97.473   -29.034    98.936   -7.1987    166.87   

