! TriQuint Semiconductor

! TQP 9111 1.8 – 2.7 GHz 2 Watt Power Amplifier

! 20-pin 4x4 mm Leadless SMT Package

! The data is for the device in a 50 Ohm system, 2-port file de-embedded to the device leads.

! Device bias: +5V V @ 545 mA Supply Current

! Temperature: 25C

! Date: 06/25/2015

! Lot Code: N/A 

!  Port 1 corresponds to Pin 2,3,4 on the TQP9111 (RF input)
!  Port 2 corresponds to Pin 12,13,14 on the TQP9111 (RF Output 2)

!  Pins 18,20 are loaded as shown on the datasheet for the PCB2600 application circuit

! All data in (dB/Angle) format  

!Agilent Technologies,E5071C,MY46214511,A.10.06
!Date: Thu Jun 25 17:39:57 2015
!Data & Calibration Information:
!Freq	S11:SOLT2(ON)	S21:SOLT2(ON)	S12:SOLT2(ON)	S22:SOLT2(ON)
!PortZ  Port1:50+j0    Port2:50+j0
!Above PortZ is port z conversion or system Z0 setting when saving the data.
!When reading, reference impedance value at option line is always used.
# Hz S dB R 50
10000000	-2.196616e+001	-1.763433e+002	-2.004854e+001	-1.025478e+001	-6.432791e+001	1.699978e+002	-8.332512e-002	1.782670e+002
20000000	-2.241111e+001	-1.607950e+002	-4.442488e+001	-1.241891e+002	-5.472764e+001	2.002446e+001	-6.866152e-002	1.757901e+002
30000000	-2.285318e+001	-1.482198e+002	-4.224457e+001	-1.384265e+002	-6.880100e+001	-1.206927e+002	-1.084585e-001	1.731528e+002
40000000	-2.269855e+001	-1.267228e+002	-3.652506e+001	-1.569875e+002	-6.196164e+001	1.239813e+002	-2.701389e-001	1.704713e+002
50000000	-2.096431e+001	-1.068851e+002	-3.351045e+001	-1.744813e+002	-5.959741e+001	-6.692376e+001	-5.532258e-001	1.665860e+002
60000000	-1.768634e+001	-9.225945e+001	-3.077995e+001	1.520683e+002	-6.387178e+001	-9.356834e+001	-1.152614e+000	1.637707e+002
70000000	-1.371079e+001	-8.574369e+001	-2.986484e+001	9.756152e+001	-5.876009e+001	-1.217268e+002	-2.179895e+000	1.617253e+002
80000000	-9.916560e+000	-8.775204e+001	-2.492181e+001	2.751034e+001	-6.660386e+001	-9.288718e+001	-2.979800e+000	1.644244e+002
90000000	-6.235004e+000	-9.931291e+001	-1.769672e+001	-2.988271e+001	-6.000586e+001	-1.653769e+002	-3.638948e+000	1.685859e+002
100000000	-3.523368e+000	-1.230238e+002	-1.218118e+001	-7.834434e+001	-6.104130e+001	-1.153502e+002	-3.680681e+000	1.734202e+002
110000000	-3.413408e+000	-1.501777e+002	-9.905053e+000	-1.221693e+002	-5.583970e+001	-1.668259e+002	-3.601390e+000	1.770491e+002
120000000	-5.137738e+000	-1.676436e+002	-9.938065e+000	-1.522038e+002	-5.316932e+001	-1.320714e+002	-3.383883e+000	1.796987e+002
130000000	-7.015338e+000	-1.751576e+002	-1.029341e+001	-1.697636e+002	-6.419492e+001	-8.034480e+000	-3.105741e+000	-1.789849e+002
140000000	-8.426559e+000	-1.782111e+002	-1.074112e+001	1.789186e+002	-6.981445e+001	1.298080e+002	-2.940353e+000	-1.787128e+002
150000000	-9.835217e+000	-1.765138e+002	-1.118252e+001	1.740774e+002	-6.910559e+001	-2.029022e+001	-2.750732e+000	-1.780882e+002
160000000	-1.035201e+001	-1.710947e+002	-9.967702e+000	1.781346e+002	-6.259859e+001	1.009785e+002	-2.596337e+000	-1.780342e+002
170000000	-1.046441e+001	-1.747095e+002	-8.463051e+000	1.681549e+002	-5.480659e+001	1.377927e+002	-2.596268e+000	-1.778975e+002
180000000	-1.113885e+001	-1.735844e+002	-8.240592e+000	1.621759e+002	-6.399664e+001	1.407089e+002	-2.484711e+000	-1.777715e+002
190000000	-1.161986e+001	-1.707332e+002	-7.762752e+000	1.575824e+002	-6.104431e+001	1.357822e+002	-2.529110e+000	-1.777439e+002
200000000	-1.201604e+001	-1.679345e+002	-7.321689e+000	1.559559e+002	-6.038944e+001	-1.555908e+002	-2.415220e+000	-1.776632e+002
210000000	-1.212093e+001	-1.662847e+002	-6.562736e+000	1.539987e+002	-5.773753e+001	9.644588e+001	-2.309185e+000	-1.782550e+002
220000000	-1.227266e+001	-1.634440e+002	-5.624881e+000	1.514437e+002	-6.140288e+001	1.129580e+002	-2.268278e+000	-1.778638e+002
230000000	-1.244300e+001	-1.604200e+002	-4.727985e+000	1.486919e+002	-5.345646e+001	8.579910e+001	-2.315627e+000	-1.771209e+002
240000000	-1.256782e+001	-1.584745e+002	-3.667621e+000	1.438323e+002	-6.140301e+001	-1.237143e+002	-2.165338e+000	-1.779240e+002
250000000	-1.272805e+001	-1.541506e+002	-2.867525e+000	1.393813e+002	-5.708635e+001	2.414152e+001	-2.242344e+000	-1.781207e+002
260000000	-1.264574e+001	-1.515280e+002	-2.179513e+000	1.331340e+002	-5.743159e+001	-3.058879e+001	-2.140730e+000	-1.780878e+002
270000000	-1.248657e+001	-1.482795e+002	-1.704688e+000	1.270262e+002	-6.271301e+001	1.268219e+002	-2.168905e+000	-1.780174e+002
280000000	-1.229368e+001	-1.425996e+002	-1.328433e+000	1.218313e+002	-6.132104e+001	1.224620e+002	-2.109403e+000	-1.779333e+002
290000000	-1.187211e+001	-1.416259e+002	-1.247567e+000	1.175085e+002	-5.671450e+001	3.560812e+001	-2.163205e+000	-1.781291e+002
300000000	-1.140605e+001	-1.404367e+002	-1.108913e+000	1.130608e+002	-5.740319e+001	1.375349e+002	-2.198838e+000	-1.779212e+002
310000000	-1.120372e+001	-1.376194e+002	-7.269178e-001	1.098103e+002	-6.902343e+001	-7.605544e+001	-2.137450e+000	-1.777515e+002
320000000	-1.084578e+001	-1.369136e+002	-6.363091e-001	1.072124e+002	-6.005310e+001	1.720516e+002	-2.044510e+000	-1.776590e+002
330000000	-1.038669e+001	-1.352128e+002	-4.126464e-001	1.050362e+002	-6.098534e+001	6.348102e+001	-2.050232e+000	-1.785240e+002
340000000	-1.018593e+001	-1.358883e+002	-3.223490e-001	1.025367e+002	-5.932462e+001	1.234014e+002	-2.167942e+000	-1.780325e+002
350000000	-9.949046e+000	-1.350663e+002	-4.431658e-002	9.990282e+001	-6.171786e+001	4.302059e+001	-2.147545e+000	-1.780164e+002
360000000	-9.495985e+000	-1.340824e+002	1.829435e-001	9.847849e+001	-5.865330e+001	1.567671e+002	-2.056123e+000	-1.775121e+002
370000000	-9.164647e+000	-1.342292e+002	3.796502e-001	9.576211e+001	-5.906732e+001	5.903649e+001	-1.992868e+000	-1.777622e+002
380000000	-8.859025e+000	-1.347560e+002	6.342206e-001	9.408610e+001	-6.331029e+001	1.045861e+002	-2.079277e+000	-1.777511e+002
390000000	-8.541300e+000	-1.351078e+002	8.946621e-001	9.189905e+001	-6.185901e+001	1.770498e+002	-2.052508e+000	-1.776190e+002
400000000	-8.359260e+000	-1.349661e+002	1.107136e+000	9.047323e+001	-6.289754e+001	1.466839e+002	-2.084682e+000	-1.780971e+002
410000000	-8.072589e+000	-1.343222e+002	1.338942e+000	8.947483e+001	-5.978541e+001	-1.734150e+002	-1.992588e+000	-1.782408e+002
420000000	-7.959612e+000	-1.339336e+002	1.564707e+000	8.801865e+001	-6.187024e+001	8.626456e+001	-1.909760e+000	-1.779745e+002
430000000	-7.670109e+000	-1.353908e+002	1.697409e+000	8.553411e+001	-5.777405e+001	-1.621677e+002	-1.997916e+000	-1.776022e+002
440000000	-7.485244e+000	-1.353373e+002	2.029835e+000	8.445347e+001	-6.244760e+001	7.452140e+001	-2.011945e+000	-1.777890e+002
450000000	-7.285076e+000	-1.359926e+002	2.192147e+000	8.210981e+001	-6.126880e+001	7.881682e+001	-1.965157e+000	-1.781532e+002
460000000	-6.806881e+000	-1.358132e+002	2.517645e+000	8.097783e+001	-5.591115e+001	1.746061e+002	-1.949051e+000	-1.776512e+002
470000000	-6.738127e+000	-1.354364e+002	2.684016e+000	7.967597e+001	-6.000662e+001	9.223821e+001	-1.979771e+000	-1.772977e+002
480000000	-6.677741e+000	-1.363083e+002	2.847809e+000	7.805661e+001	-5.962128e+001	1.371085e+002	-1.965608e+000	-1.777736e+002
490000000	-6.547197e+000	-1.362283e+002	3.048227e+000	7.674001e+001	-5.697910e+001	-1.777130e+002	-1.932969e+000	-1.775671e+002
500000000	-6.318611e+000	-1.371997e+002	3.318986e+000	7.488857e+001	-5.463901e+001	1.556255e+002	-1.876736e+000	-1.776585e+002
510000000	-6.093055e+000	-1.379592e+002	3.546702e+000	7.298704e+001	-5.942571e+001	1.058386e+002	-1.951893e+000	-1.776410e+002
520000000	-5.990273e+000	-1.383348e+002	3.811448e+000	7.147954e+001	-5.858091e+001	1.526252e+002	-1.900226e+000	-1.777675e+002
530000000	-5.811134e+000	-1.378732e+002	3.952726e+000	7.049291e+001	-5.671575e+001	1.579017e+002	-1.850861e+000	-1.782595e+002
540000000	-5.673249e+000	-1.397030e+002	4.221670e+000	6.828191e+001	-6.297449e+001	8.922387e+001	-1.968572e+000	-1.773059e+002
550000000	-5.502391e+000	-1.395026e+002	4.367578e+000	6.707812e+001	-5.882975e+001	1.200265e+002	-1.908486e+000	-1.773796e+002
560000000	-5.289221e+000	-1.397278e+002	4.539150e+000	6.585253e+001	-6.181234e+001	1.078858e+002	-1.954540e+000	-1.773754e+002
570000000	-5.263895e+000	-1.400082e+002	4.754596e+000	6.428076e+001	-5.578629e+001	1.722728e+002	-1.823289e+000	-1.778942e+002
580000000	-5.044043e+000	-1.409277e+002	5.061163e+000	6.322313e+001	-5.880818e+001	1.168976e+002	-1.880151e+000	-1.776072e+002
590000000	-4.937219e+000	-1.413761e+002	5.227774e+000	6.137272e+001	-5.347400e+001	1.254294e+002	-1.812484e+000	-1.779154e+002
600000000	-4.880116e+000	-1.421216e+002	5.368147e+000	6.037837e+001	-5.670570e+001	1.299400e+002	-1.831387e+000	-1.782100e+002
610000000	-4.704496e+000	-1.417082e+002	5.470871e+000	5.915863e+001	-6.282534e+001	1.779573e+002	-1.864160e+000	-1.778488e+002
620000000	-4.643080e+000	-1.429416e+002	5.715907e+000	5.680555e+001	-6.659244e+001	1.122335e+002	-1.829488e+000	-1.784486e+002
630000000	-4.519354e+000	-1.434709e+002	5.957626e+000	5.643853e+001	-6.704979e+001	1.747271e+002	-1.845633e+000	-1.779203e+002
640000000	-4.429396e+000	-1.440776e+002	6.090448e+000	5.435497e+001	-5.462472e+001	1.576745e+002	-1.822512e+000	-1.775647e+002
650000000	-4.211986e+000	-1.441848e+002	6.335943e+000	5.287800e+001	-6.342940e+001	1.508503e+002	-1.817790e+000	-1.780699e+002
660000000	-4.216971e+000	-1.447789e+002	6.469507e+000	5.184561e+001	-5.873422e+001	1.027321e+002	-1.755162e+000	-1.781093e+002
670000000	-4.078876e+000	-1.454272e+002	6.691683e+000	5.101790e+001	-5.289105e+001	1.411604e+002	-1.782109e+000	-1.780635e+002
680000000	-3.943734e+000	-1.454064e+002	6.848025e+000	4.946168e+001	-5.486184e+001	1.520562e+002	-1.891168e+000	-1.784070e+002
690000000	-3.904589e+000	-1.455901e+002	7.004163e+000	4.863042e+001	-7.402064e+001	1.619613e+002	-1.874650e+000	-1.781136e+002
700000000	-3.903060e+000	-1.466978e+002	7.097117e+000	4.658562e+001	-5.368249e+001	1.235235e+002	-1.834109e+000	-1.783437e+002
710000000	-3.669333e+000	-1.471808e+002	7.384364e+000	4.586267e+001	-6.153017e+001	1.053074e+002	-1.769780e+000	-1.780927e+002
720000000	-3.650550e+000	-1.472111e+002	7.520558e+000	4.388634e+001	-5.771668e+001	-1.749845e+002	-1.807047e+000	-1.782412e+002
730000000	-3.601212e+000	-1.483654e+002	7.638500e+000	4.292964e+001	-5.808518e+001	1.215757e+002	-1.785448e+000	-1.779867e+002
740000000	-3.477437e+000	-1.490762e+002	7.865689e+000	4.088815e+001	-5.747930e+001	-1.796075e+002	-1.787840e+000	-1.780299e+002
750000000	-3.348166e+000	-1.489999e+002	8.129444e+000	4.026952e+001	-5.576769e+001	1.318895e+002	-1.791965e+000	-1.786309e+002
760000000	-3.292376e+000	-1.499292e+002	8.263474e+000	3.891282e+001	-5.167710e+001	1.550139e+002	-1.861673e+000	-1.785458e+002
770000000	-3.194369e+000	-1.505883e+002	8.460569e+000	3.765025e+001	-6.357861e+001	3.803240e+001	-1.847894e+000	-1.782986e+002
780000000	-3.144752e+000	-1.510494e+002	8.630115e+000	3.596621e+001	-5.726688e+001	7.600283e+001	-1.844678e+000	-1.788117e+002
790000000	-3.043991e+000	-1.515492e+002	8.725638e+000	3.483384e+001	-5.135487e+001	1.591818e+002	-1.814185e+000	-1.791536e+002
800000000	-2.966961e+000	-1.520744e+002	8.930283e+000	3.395769e+001	-5.750718e+001	1.088737e+002	-1.817426e+000	-1.783952e+002
810000000	-3.034592e+000	-1.523600e+002	9.119167e+000	3.236501e+001	-6.287994e+001	6.240922e+001	-1.793032e+000	-1.786257e+002
820000000	-2.872018e+000	-1.526659e+002	9.220533e+000	3.113568e+001	-7.109728e+001	-8.990550e+001	-1.843849e+000	-1.787973e+002
830000000	-2.847738e+000	-1.535919e+002	9.356106e+000	2.987157e+001	-6.416641e+001	1.659520e+002	-1.778483e+000	-1.791859e+002
840000000	-2.738462e+000	-1.543484e+002	9.607395e+000	2.911668e+001	-6.399459e+001	8.767747e+001	-1.824104e+000	-1.788440e+002
850000000	-2.642186e+000	-1.549776e+002	9.754304e+000	2.734398e+001	-6.359737e+001	1.267194e+002	-1.813583e+000	-1.784907e+002
860000000	-2.598548e+000	-1.549130e+002	9.962946e+000	2.640981e+001	-5.926823e+001	1.269207e+002	-1.828147e+000	-1.789624e+002
870000000	-2.624488e+000	-1.556978e+002	9.954506e+000	2.501700e+001	-6.211486e+001	1.184637e+002	-1.816267e+000	-1.788765e+002
880000000	-2.425091e+000	-1.558509e+002	1.011542e+001	2.395863e+001	-6.023012e+001	1.637429e+002	-1.901283e+000	-1.782994e+002
890000000	-2.396796e+000	-1.565715e+002	1.048463e+001	2.226867e+001	-5.806830e+001	1.116125e+002	-1.802742e+000	-1.790285e+002
900000000	-2.458657e+000	-1.566614e+002	1.061582e+001	2.143908e+001	-6.066854e+001	5.811420e+001	-1.853298e+000	-1.787574e+002
910000000	-2.291251e+000	-1.576216e+002	1.075709e+001	2.043867e+001	-5.293946e+001	8.661504e+001	-1.779934e+000	-1.792302e+002
920000000	-2.241108e+000	-1.580804e+002	1.100139e+001	1.864840e+001	-7.108904e+001	4.786920e+001	-1.805146e+000	-1.788088e+002
930000000	-2.241636e+000	-1.589087e+002	1.108988e+001	1.714218e+001	-5.621437e+001	1.269555e+002	-1.896986e+000	-1.786713e+002
940000000	-2.093013e+000	-1.595767e+002	1.132790e+001	1.632988e+001	-6.143383e+001	9.055247e+001	-1.809426e+000	-1.796437e+002
950000000	-2.218283e+000	-1.595903e+002	1.135989e+001	1.488834e+001	-5.726820e+001	1.535007e+002	-1.895677e+000	-1.791155e+002
960000000	-2.088098e+000	-1.601770e+002	1.157886e+001	1.348772e+001	-7.164271e+001	1.091637e+002	-1.906542e+000	-1.793199e+002
970000000	-2.027930e+000	-1.606609e+002	1.178847e+001	1.264729e+001	-5.056960e+001	1.128626e+002	-1.887427e+000	-1.789359e+002
980000000	-2.012873e+000	-1.611609e+002	1.190249e+001	1.111953e+001	-5.837230e+001	9.834814e+001	-1.834397e+000	-1.790300e+002
990000000	-1.942417e+000	-1.616939e+002	1.211515e+001	1.007362e+001	-6.384744e+001	1.118398e+002	-1.905631e+000	-1.788569e+002
1000000000	-1.825187e+000	-1.620080e+002	1.231206e+001	8.903944e+000	-5.949368e+001	1.040017e+002	-1.948412e+000	-1.788659e+002
1010000000	-1.865581e+000	-1.619574e+002	1.237306e+001	8.027345e+000	-5.823946e+001	7.235474e+001	-1.866904e+000	-1.786155e+002
1020000000	-1.782586e+000	-1.629722e+002	1.262602e+001	6.129793e+000	-5.606902e+001	7.623959e+001	-1.917369e+000	-1.790851e+002
1030000000	-1.803196e+000	-1.632119e+002	1.285483e+001	5.180531e+000	-5.517683e+001	7.423202e+001	-1.939441e+000	-1.790912e+002
1040000000	-1.699314e+000	-1.640461e+002	1.298812e+001	4.098463e+000	-6.155128e+001	7.305702e+001	-1.804622e+000	-1.787156e+002
1050000000	-1.643092e+000	-1.644143e+002	1.319029e+001	2.800032e+000	-5.267523e+001	8.301998e+001	-1.903393e+000	-1.795512e+002
1060000000	-1.660772e+000	-1.652617e+002	1.334224e+001	1.703788e+000	-6.869870e+001	6.679480e+001	-1.857693e+000	-1.791844e+002
1070000000	-1.618165e+000	-1.657969e+002	1.348194e+001	-6.304665e-001	-5.294072e+001	1.325904e+002	-1.894448e+000	-1.790198e+002
1080000000	-1.527247e+000	-1.657676e+002	1.367754e+001	-1.138880e+000	-5.760324e+001	1.002314e+002	-1.937553e+000	-1.791848e+002
1090000000	-1.548293e+000	-1.663612e+002	1.384737e+001	-2.217221e+000	-5.710696e+001	9.408222e+001	-1.989128e+000	-1.785723e+002
1100000000	-1.535731e+000	-1.673331e+002	1.408366e+001	-3.963756e+000	-5.078255e+001	1.433013e+002	-1.955260e+000	-1.796945e+002
1110000000	-1.506130e+000	-1.677253e+002	1.421137e+001	-5.612806e+000	-5.175405e+001	8.279918e+001	-1.950690e+000	-1.786679e+002
1120000000	-1.358139e+000	-1.680204e+002	1.444326e+001	-6.189733e+000	-5.180663e+001	9.606902e+001	-1.871751e+000	-1.789129e+002
1130000000	-1.363766e+000	-1.684351e+002	1.458499e+001	-7.512443e+000	-5.209915e+001	1.115947e+002	-1.889790e+000	-1.794158e+002
1140000000	-1.375940e+000	-1.693133e+002	1.478530e+001	-9.033579e+000	-4.854444e+001	1.449801e+002	-1.900130e+000	-1.791112e+002
1150000000	-1.228427e+000	-1.700092e+002	1.501800e+001	-9.783773e+000	-5.596761e+001	9.898892e+001	-1.900237e+000	-1.791424e+002
1160000000	-1.247335e+000	-1.706469e+002	1.524838e+001	-1.243820e+001	-5.134165e+001	1.034642e+002	-1.846255e+000	-1.791357e+002
1170000000	-1.339864e+000	-1.708373e+002	1.527951e+001	-1.367198e+001	-5.685955e+001	1.421770e+002	-1.966262e+000	-1.793819e+002
1180000000	-1.270898e+000	-1.710996e+002	1.562749e+001	-1.487400e+001	-5.294533e+001	9.719256e+001	-1.923704e+000	-1.789891e+002
1190000000	-1.188462e+000	-1.720228e+002	1.590815e+001	-1.631910e+001	-5.111208e+001	1.189905e+002	-1.996097e+000	-1.789022e+002
1200000000	-1.205982e+000	-1.724556e+002	1.599617e+001	-1.744212e+001	-5.307751e+001	1.317808e+002	-1.913262e+000	-1.790593e+002
1210000000	-1.160376e+000	-1.728008e+002	1.615088e+001	-1.912172e+001	-5.713340e+001	1.464958e+002	-1.946459e+000	-1.790132e+002
1220000000	-1.163855e+000	-1.739362e+002	1.639275e+001	-2.043434e+001	-4.800448e+001	1.147562e+002	-1.932736e+000	-1.785975e+002
1230000000	-1.127976e+000	-1.738294e+002	1.664897e+001	-2.146027e+001	-5.440992e+001	1.088177e+002	-1.922871e+000	-1.788787e+002
1240000000	-1.071937e+000	-1.749938e+002	1.683766e+001	-2.344977e+001	-4.953620e+001	8.060661e+001	-1.963166e+000	-1.785696e+002
1250000000	-1.125223e+000	-1.754237e+002	1.708194e+001	-2.514133e+001	-5.507460e+001	1.198867e+002	-2.037575e+000	-1.789496e+002
1260000000	-1.039796e+000	-1.756695e+002	1.724168e+001	-2.617861e+001	-5.454584e+001	1.058791e+002	-2.006222e+000	-1.787827e+002
1270000000	-1.032733e+000	-1.771628e+002	1.741399e+001	-2.822333e+001	-5.838290e+001	1.132255e+002	-1.947313e+000	-1.784574e+002
1280000000	-9.965710e-001	-1.774137e+002	1.764373e+001	-2.953708e+001	-5.562186e+001	1.501253e+002	-2.013681e+000	-1.792296e+002
1290000000	-9.924039e-001	-1.771767e+002	1.791014e+001	-3.130758e+001	-5.109824e+001	9.397070e+001	-2.097232e+000	-1.786552e+002
1300000000	-9.264872e-001	-1.786510e+002	1.816079e+001	-3.272687e+001	-5.485958e+001	6.721074e+001	-2.058133e+000	-1.785817e+002
1310000000	-9.064155e-001	-1.791529e+002	1.838706e+001	-3.409631e+001	-5.120590e+001	1.090604e+002	-2.112428e+000	-1.782386e+002
1320000000	-9.725291e-001	1.798805e+002	1.858101e+001	-3.602032e+001	-5.876313e+001	6.330565e+001	-2.027857e+000	-1.784520e+002
1330000000	-9.177967e-001	1.793397e+002	1.873550e+001	-3.844546e+001	-5.095097e+001	1.195088e+002	-2.064740e+000	-1.783690e+002
1340000000	-8.732009e-001	1.791944e+002	1.908073e+001	-3.995861e+001	-5.168047e+001	9.868095e+001	-2.136514e+000	-1.782095e+002
1350000000	-9.583397e-001	1.781716e+002	1.922332e+001	-4.214738e+001	-5.478176e+001	1.310739e+002	-2.028168e+000	-1.779204e+002
1360000000	-9.083819e-001	1.777446e+002	1.948881e+001	-4.319257e+001	-5.677628e+001	1.037768e+002	-2.046186e+000	-1.780439e+002
1370000000	-9.016000e-001	1.766820e+002	1.973160e+001	-4.490731e+001	-5.423789e+001	9.698291e+001	-2.117891e+000	-1.776053e+002
1380000000	-9.337331e-001	1.764739e+002	1.993928e+001	-4.689183e+001	-5.308515e+001	7.234922e+001	-2.090851e+000	-1.782452e+002
1390000000	-9.619671e-001	1.755930e+002	2.021714e+001	-4.945417e+001	-4.833544e+001	9.130977e+001	-2.059609e+000	-1.776057e+002
1400000000	-9.780135e-001	1.751031e+002	2.046009e+001	-5.094226e+001	-5.403162e+001	1.119813e+002	-2.187177e+000	-1.780284e+002
1410000000	-9.556381e-001	1.748625e+002	2.061583e+001	-5.371251e+001	-5.290542e+001	8.067873e+001	-2.100629e+000	-1.774704e+002
1420000000	-9.478725e-001	1.736654e+002	2.091272e+001	-5.502240e+001	-4.804590e+001	9.410402e+001	-2.074257e+000	-1.775601e+002
1430000000	-1.033303e+000	1.729535e+002	2.113365e+001	-5.775219e+001	-4.814412e+001	7.536350e+001	-2.177070e+000	-1.778924e+002
1440000000	-1.014621e+000	1.721890e+002	2.136259e+001	-5.973989e+001	-5.491040e+001	7.812501e+001	-2.146020e+000	-1.774214e+002
1450000000	-1.112301e+000	1.714964e+002	2.159751e+001	-6.144274e+001	-5.754346e+001	8.975874e+001	-2.161403e+000	-1.773755e+002
1460000000	-1.084066e+000	1.707762e+002	2.187511e+001	-6.456081e+001	-5.365346e+001	1.174499e+002	-2.181326e+000	-1.775586e+002
1470000000	-1.222142e+000	1.705906e+002	2.197511e+001	-6.684167e+001	-5.517506e+001	6.498530e+001	-2.092958e+000	-1.772853e+002
1480000000	-1.147790e+000	1.699964e+002	2.230199e+001	-6.930963e+001	-5.269961e+001	1.202194e+002	-2.003566e+000	-1.772244e+002
1490000000	-1.232853e+000	1.690399e+002	2.247564e+001	-7.169172e+001	-5.066003e+001	8.259273e+001	-2.054913e+000	-1.771601e+002
