!  American Technical Ceramics   Date:  6/18/2004
!  One Norden Lane
!  Huntington Station,  NY.   11746-2102
!  Tel:  (631) 622-4700               Fax:  (631) 622-4748
!  Part Number  600L0R8AT      Mounting Orientation:  Horizontal  
!  Description: Ultra Low ESR Microwave capacitors
!  Application: Coupling, Bypass, Tuning, DC Block
!               Filters, Matching
# GHZ S DB R 50
! Freq   |S11|   S11 Ph  |S21|   S21 Ph  |S12|   S12 Ph  |S22|   S22 Ph
   0.00     0.00    0.00 -999.00   90.00  -999.00  90.00    0.00    0.00
   0.010   -0.01   -0.32  -45.73   89.94  -46.26   90.05   -0.01   -0.41
   0.014   -0.01   -0.48  -43.13   89.92  -43.07   89.45   -0.01   -0.46
   0.019   -0.01   -0.61  -40.84   89.20  -40.82   89.16   -0.01   -0.53
   0.023   -0.01   -0.75  -39.04   89.28  -38.95   89.24   -0.01   -0.64
   0.027   -0.01   -0.88  -37.50   89.37  -37.45   89.29   -0.01   -0.75
   0.032   -0.01   -1.00  -36.25   89.12  -36.21   89.09   -0.01   -0.88
   0.036   -0.01   -1.12  -35.10   88.97  -35.08   88.94   -0.01   -1.04
   0.041    0.00   -1.28  -34.13   88.81  -34.06   88.88   -0.01   -1.06
   0.045    0.00   -1.40  -33.24   88.64  -33.18   88.67   -0.01   -1.20
   0.049   -0.01   -1.51  -32.42   88.65  -32.37   88.21   -0.01   -1.36
   0.054   -0.01   -1.63  -31.68   88.45  -31.65   88.40   -0.01   -1.51
   0.058   -0.01   -1.74  -31.04   88.42  -30.96   88.21   -0.01   -1.64
   0.062   -0.01   -1.86  -30.38   88.15  -30.35   88.29   -0.01   -1.78
   0.067   -0.01   -1.99  -29.81   88.05  -29.75   88.05   -0.01   -1.92
   0.071   -0.01   -2.10  -29.25   88.00  -29.21   88.00   -0.01   -2.05
   0.075   -0.01   -2.23  -28.73   87.80  -28.68   87.82   -0.01   -2.17
   0.080   -0.01   -2.34  -28.25   87.80  -28.20   87.63   -0.01   -2.28
   0.084   -0.01   -2.47  -27.79   87.53  -27.76   87.61   -0.01   -2.41
   0.089   -0.01   -2.60  -27.35   87.48  -27.31   87.40   -0.01   -2.53
   0.093   -0.01   -2.72  -26.93   87.30  -26.88   87.32   -0.01   -2.64
   0.097   -0.01   -2.85  -26.54   87.18  -26.49   87.18   -0.01   -2.76
   0.102   -0.01   -2.98  -26.15   87.07  -26.10   87.10   -0.01   -2.88
   0.106   -0.01   -3.10  -25.78   86.94  -25.74   86.92   -0.01   -3.00
   0.110   -0.01   -3.23  -25.43   86.85  -25.39   86.80   -0.01   -3.13
   0.115   -0.01   -3.36  -25.10   86.72  -25.05   86.68   -0.01   -3.25
   0.119   -0.01   -3.49  -24.77   86.55  -24.73   86.56   -0.01   -3.37
   0.123   -0.02   -3.61  -24.47   86.40  -24.42   86.43   -0.01   -3.49
   0.128   -0.02   -3.74  -24.16   86.23  -24.13   86.27   -0.01   -3.62
   0.132   -0.02   -3.87  -23.87   86.13  -23.83   86.15   -0.01   -3.76
   0.137   -0.02   -3.99  -23.59   86.01  -23.55   86.01   -0.01   -3.89
   0.141   -0.02   -4.11  -23.32   85.86  -23.28   85.88   -0.01   -4.01
   0.145   -0.02   -4.24  -23.05   85.77  -23.02   85.73   -0.01   -4.14
   0.150   -0.03   -4.36  -22.80   85.65  -22.76   85.62   -0.01   -4.27
   0.154   -0.03   -4.48  -22.55   85.51  -22.51   85.49   -0.01   -4.39
   0.158   -0.03   -4.61  -22.31   85.40  -22.27   85.38   -0.01   -4.51
   0.163   -0.03   -4.74  -22.08   85.28  -22.03   85.24   -0.01   -4.63
   0.167   -0.03   -4.86  -21.85   85.16  -21.81   85.14   -0.01   -4.75
   0.171   -0.04   -4.99  -21.63   85.02  -21.58   85.00   -0.01   -4.87
   0.176   -0.04   -5.12  -21.41   84.92  -21.37   84.89   -0.01   -4.98
   0.180   -0.04   -5.25  -21.20   84.75  -21.15   84.77   -0.01   -5.11
   0.185   -0.04   -5.38  -20.99   84.66  -20.95   84.63   -0.01   -5.24
   0.189   -0.04   -5.51  -20.79   84.53  -20.75   84.51   -0.01   -5.36
   0.193   -0.04   -5.64  -20.59   84.40  -20.55   84.36   -0.01   -5.48
   0.198   -0.05   -5.77  -20.40   84.27  -20.36   84.24   -0.01   -5.61
   0.202   -0.05   -5.90  -20.21   84.11  -20.17   84.11   -0.01   -5.74
   0.206   -0.05   -6.02  -20.03   84.00  -19.98   83.97    0.00   -5.87
   0.211   -0.05   -6.15  -19.85   83.87  -19.81   83.87    0.00   -5.99
   0.215   -0.05   -6.27  -19.68   83.76  -19.63   83.75    0.00   -6.11
   0.219   -0.06   -6.40  -19.50   83.63  -19.46   83.62   -0.01   -6.24
   0.224   -0.06   -6.52  -19.33   83.51  -19.29   83.50   -0.01   -6.36
   0.228   -0.06   -6.65  -19.16   83.38  -19.12   83.38   -0.01   -6.49
   0.232   -0.06   -6.77  -19.01   83.27  -18.96   83.26   -0.01   -6.60
   0.237   -0.06   -6.89  -18.85   83.16  -18.80   83.13   -0.02   -6.73
   0.241   -0.07   -7.03  -18.69   83.04  -18.64   83.02   -0.02   -6.85
   0.246   -0.07   -7.14  -18.53   82.93  -18.49   82.90   -0.02   -6.97
   0.250   -0.07   -7.27  -18.39   82.81  -18.34   82.79   -0.02   -7.08
   0.254   -0.07   -7.39  -18.24   82.69  -18.19   82.66   -0.02   -7.20
   0.259   -0.07   -7.52  -18.09   82.55  -18.05   82.52   -0.02   -7.33
   0.263   -0.07   -7.64  -17.94   82.44  -17.90   82.40   -0.03   -7.44
   0.267   -0.08   -7.77  -17.80   82.30  -17.76   82.29   -0.03   -7.56
   0.272   -0.08   -7.89  -17.66   82.18  -17.62   82.16   -0.03   -7.68
   0.276   -0.08   -8.01  -17.53   82.05  -17.49   82.03   -0.03   -7.80
   0.280   -0.08   -8.13  -17.40   81.91  -17.35   81.89   -0.03   -7.93
   0.285   -0.09   -8.26  -17.26   81.78  -17.22   81.76   -0.03   -8.06
   0.289   -0.09   -8.38  -17.13   81.66  -17.09   81.63   -0.04   -8.18
   0.294   -0.09   -8.50  -17.01   81.52  -16.96   81.50   -0.04   -8.31
   0.298   -0.09   -8.62  -16.88   81.40  -16.84   81.38   -0.04   -8.42
   0.302   -0.10   -8.74  -16.76   81.27  -16.71   81.25   -0.04   -8.55
   0.307   -0.10   -8.87  -16.64   81.15  -16.59   81.13   -0.05   -8.67
   0.311   -0.10   -8.99  -16.52   81.03  -16.47   81.01   -0.05   -8.79
   0.315   -0.11   -9.11  -16.40   80.90  -16.35   80.87   -0.05   -8.91
   0.320   -0.11   -9.23  -16.28   80.77  -16.24   80.75   -0.06   -9.03
   0.324   -0.11   -9.36  -16.17   80.65  -16.12   80.61   -0.06   -9.15
   0.328   -0.11   -9.49  -16.05   80.52  -16.01   80.48   -0.06   -9.27
   0.333   -0.12   -9.61  -15.94   80.41  -15.90   80.36   -0.07   -9.38
   0.337   -0.12   -9.74  -15.83   80.26  -15.79   80.23   -0.07   -9.50
   0.342   -0.12   -9.87  -15.72   80.13  -15.68   80.09   -0.07   -9.62
   0.346   -0.13   -9.99  -15.61   80.00  -15.57   79.97   -0.08   -9.75
   0.350   -0.13  -10.13  -15.51   79.87  -15.46   79.85   -0.08   -9.86
   0.355   -0.14  -10.25  -15.40   79.74  -15.36   79.71   -0.08   -9.98
   0.359   -0.14  -10.38  -15.30   79.62  -15.26   79.59   -0.08  -10.11
   0.363   -0.14  -10.51  -15.20   79.49  -15.15   79.46   -0.09  -10.23
   0.368   -0.15  -10.63  -15.10   79.35  -15.05   79.33   -0.09  -10.36
   0.372   -0.15  -10.76  -15.00   79.23  -14.96   79.20   -0.09  -10.48
   0.376   -0.16  -10.88  -14.90   79.11  -14.86   79.08   -0.10  -10.60
   0.381   -0.16  -11.00  -14.80   79.00  -14.76   78.96   -0.10  -10.72
   0.385   -0.16  -11.13  -14.71   78.86  -14.67   78.84   -0.11  -10.85
   0.390   -0.17  -11.25  -14.61   78.75  -14.57   78.71   -0.11  -10.97
   0.394   -0.17  -11.37  -14.52   78.63  -14.48   78.59   -0.11  -11.09
   0.398   -0.17  -11.50  -14.43   78.51  -14.38   78.47   -0.12  -11.21
   0.403   -0.18  -11.62  -14.34   78.39  -14.29   78.35   -0.12  -11.33
   0.407   -0.18  -11.74  -14.25   78.26  -14.20   78.22   -0.13  -11.45
   0.411   -0.18  -11.87  -14.16   78.15  -14.11   78.10   -0.13  -11.57
   0.416   -0.19  -11.99  -14.07   78.01  -14.03   77.99   -0.13  -11.69
   0.420   -0.19  -12.12  -13.98   77.90  -13.94   77.86   -0.14  -11.81
   0.424   -0.19  -12.24  -13.90   77.78  -13.85   77.73   -0.14  -11.93
   0.429   -0.20  -12.36  -13.81   77.65  -13.77   77.62   -0.14  -12.05
   0.433   -0.20  -12.48  -13.73   77.53  -13.69   77.50   -0.15  -12.17
   0.438   -0.20  -12.61  -13.65   77.41  -13.60   77.38   -0.15  -12.29
   0.442   -0.21  -12.73  -13.56   77.29  -13.52   77.26   -0.16  -12.40
   0.446   -0.21  -12.85  -13.48   77.16  -13.44   77.13   -0.16  -12.53
   0.451   -0.22  -12.97  -13.40   77.05  -13.36   77.02   -0.16  -12.64
   0.455   -0.22  -13.09  -13.32   76.93  -13.28   76.90   -0.17  -12.76
   0.459   -0.22  -13.20  -13.24   76.81  -13.20   76.78   -0.17  -12.89
   0.464   -0.23  -13.32  -13.17   76.70  -13.12   76.67   -0.17  -13.00
   0.468   -0.23  -13.43  -13.09   76.58  -13.04   76.54   -0.18  -13.12
   0.472   -0.23  -13.55  -13.01   76.46  -12.97   76.43   -0.18  -13.24
   0.477   -0.24  -13.66  -12.94   76.34  -12.89   76.30   -0.18  -13.35
   0.481   -0.24  -13.78  -12.86   76.22  -12.81   76.17   -0.19  -13.47
   0.486   -0.24  -13.90  -12.79   76.10  -12.74   76.06   -0.19  -13.59
   0.490   -0.25  -14.02  -12.71   75.98  -12.67   75.93   -0.20  -13.70
   0.494   -0.25  -14.14  -12.64   75.85  -12.59   75.80   -0.20  -13.82
   0.499   -0.26  -14.26  -12.57   75.72  -12.52   75.67   -0.21  -13.94
   0.503   -0.26  -14.38  -12.50   75.60  -12.45   75.55   -0.21  -14.05
   0.507   -0.27  -14.49  -12.42   75.47  -12.38   75.42   -0.22  -14.17
   0.512   -0.27  -14.61  -12.36   75.34  -12.31   75.29   -0.22  -14.28
   0.516   -0.28  -14.74  -12.29   75.22  -12.24   75.17   -0.22  -14.40
   0.520   -0.28  -14.85  -12.22   75.08  -12.17   75.05   -0.23  -14.51
   0.525   -0.29  -14.97  -12.15   74.96  -12.11   74.93   -0.23  -14.63
   0.529   -0.29  -15.09  -12.08   74.84  -12.04   74.81   -0.24  -14.74
   0.534   -0.30  -15.21  -12.02   74.72  -11.97   74.68   -0.24  -14.85
   0.538   -0.30  -15.33  -11.95   74.60  -11.91   74.56   -0.25  -14.97
   0.542   -0.31  -15.44  -11.89   74.48  -11.84   74.44   -0.25  -15.09
   0.547   -0.32  -15.56  -11.82   74.36  -11.78   74.32   -0.26  -15.20
   0.551   -0.32  -15.68  -11.76   74.24  -11.71   74.19   -0.26  -15.32
   0.555   -0.32  -15.80  -11.69   74.13  -11.65   74.07   -0.27  -15.44
   0.560   -0.33  -15.92  -11.63   74.00  -11.58   73.95   -0.27  -15.55
   0.564   -0.33  -16.04  -11.56   73.88  -11.52   73.82   -0.28  -15.67
   0.568   -0.34  -16.16  -11.50   73.76  -11.46   73.70   -0.28  -15.79
   0.573   -0.35  -16.28  -11.44   73.63  -11.40   73.58   -0.29  -15.91
   0.577   -0.35  -16.40  -11.38   73.51  -11.34   73.46   -0.30  -16.02
   0.581   -0.36  -16.53  -11.32   73.38  -11.28   73.33   -0.30  -16.14
   0.586   -0.36  -16.65  -11.26   73.26  -11.22   73.21   -0.31  -16.26
   0.590   -0.37  -16.77  -11.20   73.13  -11.16   73.09   -0.31  -16.37
   0.595   -0.37  -16.89  -11.14   73.01  -11.10   72.96   -0.32  -16.49
   0.599   -0.38  -17.01  -11.08   72.89  -11.04   72.84   -0.32  -16.61
   0.603   -0.38  -17.13  -11.03   72.77  -10.98   72.73   -0.33  -16.72
   0.608   -0.39  -17.25  -10.97   72.65  -10.93   72.60   -0.33  -16.84
   0.612   -0.39  -17.37  -10.91   72.54  -10.87   72.49   -0.34  -16.96
   0.616   -0.40  -17.49  -10.86   72.42  -10.81   72.38   -0.34  -17.07
   0.621   -0.41  -17.61  -10.80   72.31  -10.76   72.26   -0.35  -17.19
   0.625   -0.41  -17.72  -10.75   72.20  -10.70   72.14   -0.36  -17.30
   0.629   -0.42  -17.84  -10.69   72.08  -10.65   72.03   -0.36  -17.42
   0.634   -0.42  -17.95  -10.64   71.97  -10.59   71.92   -0.37  -17.53
   0.638   -0.43  -18.07  -10.58   71.85  -10.54   71.80   -0.37  -17.65
   0.643   -0.43  -18.18  -10.53   71.73  -10.48   71.68   -0.38  -17.76
   0.647   -0.44  -18.30  -10.47   71.62  -10.43   71.56   -0.38  -17.88
   0.651   -0.44  -18.41  -10.42   71.50  -10.38   71.44   -0.39  -17.99
   0.656   -0.45  -18.53  -10.37   71.38  -10.33   71.33   -0.39  -18.10
   0.660   -0.45  -18.64  -10.32   71.26  -10.28   71.21   -0.40  -18.22
   0.664   -0.46  -18.75  -10.27   71.15  -10.22   71.09   -0.40  -18.33
   0.669   -0.46  -18.87  -10.22   71.02  -10.17   70.97   -0.41  -18.44
   0.673   -0.47  -18.98  -10.17   70.91  -10.12   70.86   -0.42  -18.55
   0.677   -0.48  -19.10  -10.12   70.79  -10.08   70.75   -0.42  -18.66
   0.682   -0.48  -19.21  -10.07   70.68  -10.03   70.63   -0.43  -18.77
   0.686   -0.49  -19.32  -10.02   70.57   -9.98   70.52   -0.43  -18.88
   0.691   -0.49  -19.44   -9.97   70.45   -9.93   70.40   -0.44  -18.98
   0.695   -0.50  -19.55   -9.92   70.34   -9.88   70.29   -0.45  -19.10
   0.699   -0.51  -19.66   -9.87   70.23   -9.83   70.18   -0.45  -19.20
   0.704   -0.51  -19.77   -9.83   70.12   -9.78   70.06   -0.46  -19.32
   0.708   -0.52  -19.88   -9.78   70.00   -9.73   69.95   -0.46  -19.42
   0.712   -0.52  -19.99   -9.73   69.89   -9.69   69.83   -0.47  -19.53
   0.717   -0.53  -20.10   -9.68   69.78   -9.64   69.72   -0.47  -19.64
   0.721   -0.54  -20.21   -9.63   69.66   -9.59   69.60   -0.48  -19.76
   0.725   -0.54  -20.33   -9.59   69.55   -9.55   69.49   -0.49  -19.86
   0.730   -0.55  -20.44   -9.54   69.43   -9.50   69.37   -0.49  -19.97
   0.734   -0.55  -20.55   -9.50   69.31   -9.45   69.25   -0.50  -20.08
   0.739   -0.56  -20.66   -9.45   69.19   -9.41   69.13   -0.51  -20.19
   0.743   -0.57  -20.77   -9.41   69.06   -9.36   69.01   -0.51  -20.31
   0.747   -0.57  -20.88   -9.36   68.95   -9.32   68.89   -0.52  -20.42
   0.752   -0.58  -21.00   -9.32   68.82   -9.28   68.77   -0.53  -20.52
   0.756   -0.59  -21.12   -9.28   68.71   -9.23   68.66   -0.53  -20.63
   0.760   -0.59  -21.23   -9.23   68.60   -9.19   68.54   -0.54  -20.75
   0.765   -0.60  -21.34   -9.19   68.48   -9.15   68.43   -0.55  -20.85
   0.769   -0.61  -21.46   -9.15   68.36   -9.10   68.31   -0.55  -20.96
   0.773   -0.61  -21.58   -9.11   68.25   -9.06   68.20   -0.56  -21.07
   0.778   -0.62  -21.69   -9.06   68.13   -9.02   68.08   -0.57  -21.19
   0.782   -0.63  -21.80   -9.02   68.02   -8.98   67.97   -0.57  -21.29
   0.787   -0.63  -21.91   -8.98   67.92   -8.93   67.86   -0.58  -21.40
   0.791   -0.64  -22.03   -8.94   67.80   -8.89   67.74   -0.59  -21.51
   0.795   -0.65  -22.14   -8.90   67.69   -8.85   67.63   -0.59  -21.61
   0.800   -0.65  -22.25   -8.86   67.58   -8.81   67.52   -0.60  -21.72
   0.804   -0.66  -22.36   -8.81   67.47   -8.77   67.40   -0.61  -21.84
   0.808   -0.67  -22.47   -8.78   67.35   -8.73   67.30   -0.61  -21.94
   0.813   -0.67  -22.58   -8.73   67.24   -8.69   67.18   -0.62  -22.05
   0.817   -0.68  -22.70   -8.70   67.12   -8.65   67.05   -0.63  -22.17
   0.821   -0.69  -22.80   -8.66   67.01   -8.61   66.95   -0.63  -22.27
   0.826   -0.70  -22.91   -8.62   66.90   -8.58   66.85   -0.64  -22.38
   0.830   -0.70  -23.03   -8.58   66.79   -8.54   66.73   -0.65  -22.48
   0.835   -0.71  -23.14   -8.54   66.67   -8.50   66.62   -0.66  -22.59
   0.839   -0.72  -23.25   -8.50   66.57   -8.46   66.52   -0.66  -22.69
   0.843   -0.72  -23.36   -8.47   66.46   -8.42   66.41   -0.67  -22.80
   0.848   -0.73  -23.47   -8.43   66.35   -8.39   66.30   -0.68  -22.90
   0.852   -0.74  -23.58   -8.39   66.25   -8.35   66.19   -0.68  -23.01
   0.856   -0.74  -23.68   -8.36   66.15   -8.31   66.09   -0.69  -23.11
   0.861   -0.75  -23.79   -8.32   66.04   -8.28   65.98   -0.70  -23.21
   0.865   -0.76  -23.91   -8.28   65.94   -8.24   65.88   -0.70  -23.31
   0.869   -0.76  -24.02   -8.25   65.83   -8.20   65.77   -0.71  -23.42
   0.874   -0.77  -24.12   -8.21   65.73   -8.16   65.66   -0.72  -23.52
   0.878   -0.78  -24.22   -8.17   65.63   -8.13   65.55   -0.72  -23.63
   0.883   -0.79  -24.34   -8.14   65.51   -8.09   65.44   -0.73  -23.73
   0.887   -0.79  -24.44   -8.10   65.40   -8.06   65.34   -0.74  -23.83
   0.891   -0.80  -24.55   -8.06   65.28   -8.02   65.22   -0.75  -23.94
   0.896   -0.81  -24.65   -8.03   65.18   -7.99   65.12   -0.75  -24.04
   0.900   -0.81  -24.76   -7.99   65.06   -7.95   65.01   -0.76  -24.14
   0.904   -0.82  -24.86   -7.96   64.95   -7.92   64.90   -0.76  -24.25
   0.909   -0.83  -24.97   -7.93   64.85   -7.89   64.79   -0.77  -24.35
   0.913   -0.83  -25.07   -7.89   64.74   -7.85   64.69   -0.78  -24.45
   0.917   -0.84  -25.17   -7.86   64.64   -7.82   64.58   -0.79  -24.55
   0.922   -0.85  -25.28   -7.83   64.53   -7.78   64.48   -0.80  -24.65
   0.926   -0.85  -25.39   -7.79   64.43   -7.75   64.37   -0.80  -24.75
   0.930   -0.86  -25.49   -7.76   64.32   -7.72   64.27   -0.81  -24.84
   0.935   -0.87  -25.59   -7.73   64.23   -7.69   64.17   -0.82  -24.94
   0.939   -0.88  -25.71   -7.70   64.12   -7.65   64.06   -0.83  -25.04
   0.944   -0.88  -25.81   -7.66   64.02   -7.62   63.96   -0.83  -25.14
   0.948   -0.89  -25.91   -7.63   63.92   -7.59   63.85   -0.84  -25.25
   0.952   -0.90  -26.02   -7.60   63.81   -7.55   63.74   -0.85  -25.34
   0.957   -0.91  -26.13   -7.56   63.70   -7.52   63.63   -0.85  -25.45
   0.961   -0.91  -26.23   -7.53   63.60   -7.49   63.53   -0.86  -25.54
   0.965   -0.92  -26.33   -7.50   63.49   -7.46   63.42   -0.87  -25.64
   0.970   -0.93  -26.43   -7.47   63.38   -7.43   63.32   -0.88  -25.74
   0.974   -0.94  -26.54   -7.44   63.27   -7.39   63.21   -0.89  -25.84
   0.978   -0.94  -26.64   -7.40   63.16   -7.36   63.10   -0.89  -25.94
   0.983   -0.95  -26.74   -7.37   63.05   -7.33   62.99   -0.90  -26.05
   0.987   -0.96  -26.85   -7.34   62.94   -7.30   62.88   -0.91  -26.15
   0.992   -0.97  -26.95   -7.31   62.83   -7.27   62.78   -0.92  -26.25
   0.996   -0.98  -27.05   -7.29   62.73   -7.24   62.68   -0.92  -26.35
   1.000   -0.98  -27.16   -7.26   62.63   -7.21   62.57   -0.93  -26.45
   1.005   -0.99  -27.26   -7.23   62.53   -7.18   62.47   -0.94  -26.54
   1.009   -1.00  -27.36   -7.20   62.43   -7.16   62.37   -0.95  -26.65
   1.013   -1.01  -27.46   -7.17   62.33   -7.13   62.27   -0.96  -26.74
   1.018   -1.02  -27.57   -7.14   62.23   -7.10   62.17   -0.96  -26.84
   1.022   -1.02  -27.67   -7.11   62.14   -7.07   62.07   -0.97  -26.93
   1.026   -1.03  -27.77   -7.08   62.04   -7.04   61.98   -0.98  -27.03
   1.031   -1.04  -27.88   -7.06   61.95   -7.01   61.88   -0.99  -27.12
   1.035   -1.05  -27.98   -7.03   61.85   -6.98   61.78   -1.00  -27.21
   1.040   -1.06  -28.08   -7.00   61.74   -6.95   61.68   -1.00  -27.31
   1.044   -1.06  -28.19   -6.97   61.65   -6.93   61.57   -1.01  -27.40
   1.048   -1.07  -28.28   -6.94   61.55   -6.90   61.48   -1.02  -27.50
   1.053   -1.08  -28.39   -6.91   61.44   -6.87   61.38   -1.02  -27.59
   1.057   -1.09  -28.49   -6.88   61.34   -6.84   61.27   -1.03  -27.69
   1.061   -1.10  -28.58   -6.85   61.24   -6.81   61.17   -1.04  -27.79
   1.066   -1.10  -28.69   -6.83   61.13   -6.78   61.07   -1.05  -27.88
   1.070   -1.11  -28.79   -6.80   61.03   -6.76   60.96   -1.05  -27.99
   1.074   -1.12  -28.88   -6.77   60.93   -6.73   60.87   -1.06  -28.08
   1.079   -1.13  -28.99   -6.75   60.82   -6.70   60.77   -1.07  -28.17
   1.083   -1.13  -29.08   -6.72   60.72   -6.67   60.66   -1.08  -28.28
   1.088   -1.14  -29.18   -6.69   60.63   -6.65   60.56   -1.09  -28.38
   1.092   -1.15  -29.28   -6.67   60.53   -6.62   60.47   -1.09  -28.47
   1.096   -1.16  -29.39   -6.64   60.43   -6.60   60.37   -1.10  -28.56
   1.101   -1.16  -29.48   -6.61   60.34   -6.57   60.27   -1.11  -28.65
   1.105   -1.17  -29.58   -6.59   60.25   -6.55   60.17   -1.12  -28.75
   1.109   -1.18  -29.68   -6.56   60.14   -6.52   60.07   -1.13  -28.84
   1.114   -1.19  -29.78   -6.54   60.05   -6.50   59.97   -1.14  -28.93
   1.118   -1.19  -29.88   -6.51   59.95   -6.47   59.88   -1.15  -29.01
   1.122   -1.20  -29.97   -6.49   59.85   -6.45   59.78   -1.16  -29.10
   1.127   -1.21  -30.07   -6.46   59.76   -6.42   59.68   -1.16  -29.19
   1.131   -1.22  -30.17   -6.44   59.66   -6.40   59.59   -1.17  -29.28
   1.136   -1.23  -30.27   -6.41   59.55   -6.37   59.49   -1.18  -29.37
   1.140   -1.23  -30.36   -6.39   59.46   -6.35   59.40   -1.19  -29.47
   1.144   -1.24  -30.46   -6.36   59.37   -6.32   59.30   -1.20  -29.55
   1.149   -1.25  -30.55   -6.34   59.26   -6.30   59.20   -1.20  -29.65
   1.153   -1.26  -30.65   -6.31   59.16   -6.27   59.10   -1.21  -29.74
   1.157   -1.27  -30.75   -6.29   59.07   -6.25   59.01   -1.22  -29.83
   1.162   -1.28  -30.84   -6.27   58.97   -6.22   58.91   -1.23  -29.92
   1.166   -1.28  -30.93   -6.24   58.88   -6.20   58.82   -1.24  -30.02
