!  American Technical Ceramics   Date:  10/27/06
!  One Norden Lane
!  Huntington Station,  NY.   11746-2102
!  Tel:  (631) 622-4700               Fax:  (631) 622-4748
!  Part Number  600L3R3		Mounting Orientation:  Horizontal
!  Description: Ultra Low ESR Microwave capacitors
!  Application: Coupling, Bypass, Tuning, DC Block
!               Filters, Matching
# GHZ S DB R 50
! Freq   |S11|   S11 Ph  |S21|   S21 Ph  |S12|   S12 Ph  |S22|   S22 Ph
    0.00    0.00    0.00 -999.00   90.00 -999.00   90.00    0.00    0.00
   0.400   -2.28  -39.84   -3.96   49.39   -3.96   49.41   -2.31  -40.36
   0.465   -2.85  -44.22   -3.22   45.01   -3.23   45.02   -2.90  -44.76
   0.530   -3.44  -48.07   -2.66   41.15   -2.67   41.13   -3.49  -48.64
   0.595   -4.02  -51.42   -2.23   37.75   -2.23   37.73   -4.07  -52.08
   0.660   -4.59  -54.39   -1.89   34.76   -1.89   34.75   -4.65  -55.12
   0.725   -5.15  -57.04   -1.62   32.10   -1.62   32.10   -5.20  -57.85
   0.790   -5.69  -59.40   -1.40   29.73   -1.41   29.75   -5.73  -60.29
   0.855   -6.21  -61.50   -1.22   27.59   -1.23   27.60   -6.25  -62.41
   0.920   -6.71  -63.39   -1.07   25.67   -1.08   25.65   -6.76  -64.34
   0.985   -7.20  -65.08   -0.94   23.94   -0.95   23.91   -7.26  -66.13
   1.050   -7.68  -66.60   -0.84   22.36   -0.84   22.35   -7.74  -67.82
   1.115   -8.13  -68.05   -0.75   20.94   -0.75   20.94   -8.19  -69.42
   1.180   -8.58  -69.36   -0.67   19.60   -0.67   19.62   -8.62  -70.77
   1.245   -9.00  -70.56   -0.60   18.36   -0.61   18.37   -9.05  -71.98
   1.310   -9.42  -71.65   -0.55   17.24   -0.55   17.23   -9.47  -73.10
   1.375   -9.82  -72.66   -0.49   16.19   -0.50   16.17   -9.89  -74.19
   1.440  -10.22  -73.59   -0.45   15.20   -0.45   15.19  -10.30  -75.31
   1.505  -10.61  -74.48   -0.41   14.27   -0.41   14.29  -10.68  -76.48
   1.570  -10.98  -75.29   -0.37   13.42   -0.38   13.44  -11.02  -77.48
   1.635  -11.35  -76.02   -0.35   12.62   -0.35   12.62  -11.36  -78.17
   1.700  -11.69  -76.74   -0.32   11.83   -0.32   11.82  -11.74  -78.74
   1.765  -12.05  -77.44   -0.29   11.10   -0.29   11.08  -12.12  -79.51
   1.830  -12.40  -78.06   -0.27   10.41   -0.27   10.41  -12.49  -80.47
   1.895  -12.74  -78.65   -0.25    9.75   -0.25    9.77  -12.82  -81.46
   1.960  -13.07  -79.24   -0.23    9.12   -0.23    9.15  -13.10  -82.18
   2.025  -13.39  -79.77   -0.21    8.52   -0.22    8.52  -13.40  -82.58
   2.090  -13.71  -80.23   -0.20    7.94   -0.20    7.92  -13.74  -82.90
   2.155  -14.02  -80.70   -0.19    7.38   -0.19    7.36  -14.12  -83.48
   2.220  -14.34  -81.15   -0.18    6.85   -0.18    6.84  -14.45  -84.29
   2.285  -14.65  -81.61   -0.16    6.33   -0.16    6.34  -14.75  -85.22
   2.350  -14.95  -82.02   -0.15    5.83   -0.16    5.84  -14.99  -85.84
   2.415  -15.25  -82.39   -0.14    5.34   -0.15    5.35  -15.27  -86.04
   2.480  -15.54  -82.73   -0.14    4.88   -0.14    4.87  -15.59  -86.19
   2.545  -15.82  -83.04   -0.13    4.43   -0.13    4.42  -15.95  -86.68
   2.610  -16.10  -83.39   -0.12    3.98   -0.12    3.99  -16.28  -87.50
   2.675  -16.39  -83.85   -0.12    3.57   -0.12    3.58  -16.54  -88.31
   2.740  -16.68  -84.25   -0.11    3.18   -0.11    3.19  -16.76  -88.70
   2.805  -16.97  -84.63   -0.10    2.78   -0.11    2.78  -17.01  -88.65
   2.870  -17.26  -84.95   -0.10    2.37   -0.10    2.36  -17.33  -88.69
   2.935  -17.56  -85.21   -0.09    1.97   -0.09    1.96  -17.69  -89.14
   3.000  -17.88  -85.52   -0.09    1.40   -0.09    1.41  -18.06  -90.06
   3.065  -18.14  -85.78   -0.08    1.03   -0.09    1.05  -18.29  -90.93
   3.130  -18.39  -86.09   -0.08    0.68   -0.09    0.68  -18.48  -91.14
   3.195  -18.65  -86.43   -0.08    0.34   -0.09    0.34  -18.69  -90.99
   3.260  -18.92  -86.66   -0.08   -0.01   -0.08    0.00  -19.01  -91.06
   3.325  -19.19  -86.82   -0.07   -0.33   -0.08   -0.33  -19.36  -91.64
   3.390  -19.45  -87.00   -0.07   -0.66   -0.08   -0.66  -19.66  -92.53
   3.455  -19.71  -87.30   -0.07   -0.97   -0.07   -0.96  -19.86  -93.31
   3.520  -19.98  -87.64   -0.07   -1.28   -0.07   -1.28  -20.06  -93.53
   3.585  -20.24  -87.87   -0.07   -1.59   -0.07   -1.59  -20.29  -93.52
   3.650  -20.51  -88.04   -0.06   -1.90   -0.07   -1.90  -20.61  -93.72
   3.715  -20.80  -88.15   -0.06   -2.20   -0.06   -2.21  -20.97  -94.36
   3.780  -21.09  -88.13   -0.06   -2.50   -0.06   -2.49  -21.24  -95.30
   3.845  -21.36  -88.22   -0.06   -2.78   -0.06   -2.78  -21.45  -95.97
   3.910  -21.62  -88.34   -0.05   -3.06   -0.06   -3.06  -21.64  -96.25
   3.975  -21.88  -88.39   -0.05   -3.35   -0.06   -3.35  -21.90  -96.24
   4.040  -22.14  -88.37   -0.05   -3.63   -0.06   -3.63  -22.26  -96.49
   4.105  -22.39  -88.37   -0.05   -3.91   -0.05   -3.91  -22.62  -97.21
   4.170  -22.66  -88.50   -0.05   -4.19   -0.05   -4.18  -22.92  -98.28
   4.235  -22.94  -88.66   -0.05   -4.47   -0.05   -4.46  -23.12  -99.00
   4.300  -23.22  -88.95   -0.05   -4.74   -0.05   -4.73  -23.32  -99.12
   4.365  -23.53  -89.28   -0.05   -4.99   -0.05   -4.99  -23.67  -99.01
   4.430  -23.91  -89.06   -0.04   -5.22   -0.05   -5.22  -24.12  -98.58
   4.495  -24.22  -88.31   -0.04   -5.47   -0.04   -5.48  -24.46  -98.94
   4.560  -24.47  -87.72   -0.04   -5.76   -0.04   -5.75  -24.67  -99.88
   4.625  -24.73  -87.52   -0.03   -6.04   -0.03   -6.03  -24.81 -100.55
   4.690  -24.96  -87.55   -0.03   -6.32   -0.04   -6.31  -24.98 -100.54
   4.755  -25.25  -87.77   -0.04   -6.57   -0.04   -6.57  -25.31 -100.52
   4.820  -25.57  -87.66   -0.04   -6.81   -0.04   -6.81  -25.75 -100.96
   4.885  -25.88  -87.41   -0.04   -7.07   -0.04   -7.06  -26.16 -102.03
   4.950  -26.22  -87.04   -0.04   -7.31   -0.04   -7.31  -26.46 -103.36
   5.015  -26.57  -86.80   -0.03   -7.56   -0.04   -7.55  -26.65 -104.03
   5.080  -26.90  -86.49   -0.04   -7.80   -0.04   -7.79  -26.89 -103.74
   5.145  -27.24  -86.21   -0.04   -8.05   -0.04   -8.04  -27.30 -103.49
   5.210  -27.57  -85.81   -0.04   -8.28   -0.04   -8.28  -27.81 -103.79
   5.275  -27.90  -85.27   -0.04   -8.52   -0.04   -8.51  -28.22 -105.03
   5.340  -28.28  -84.70   -0.04   -8.75   -0.04   -8.75  -28.49 -106.60
   5.405  -28.67  -84.16   -0.03   -8.99   -0.04   -8.98  -28.68 -107.16
   5.470  -29.07  -83.62   -0.03   -9.23   -0.04   -9.22  -28.99 -106.70
   5.535  -29.46  -83.03   -0.04   -9.47   -0.04   -9.45  -29.47 -106.20
   5.600  -29.84  -82.31   -0.04   -9.69   -0.04   -9.70  -30.04 -106.92
   5.665  -30.24  -81.36   -0.04   -9.92   -0.04   -9.91  -30.50 -108.92
   5.730  -30.66  -80.36   -0.04  -10.15   -0.04  -10.14  -30.73 -110.65
   5.795  -31.12  -79.62   -0.04  -10.37   -0.04  -10.35  -30.91 -111.44
   5.860  -31.66  -78.81   -0.04  -10.60   -0.04  -10.58  -31.33 -111.39
   5.925  -32.20  -77.79   -0.04  -10.82   -0.04  -10.81  -32.06 -111.68
   5.990  -32.74  -76.30   -0.04  -11.05   -0.04  -11.03  -32.91 -113.69
   6.055  -33.29  -74.08   -0.04  -11.27   -0.04  -11.26  -33.59 -116.24
   6.120  -33.85  -71.71   -0.04  -11.49   -0.04  -11.48  -34.01 -118.42
   6.185  -34.41  -69.27   -0.04  -11.71   -0.04  -11.70  -34.36 -118.60
   6.250  -35.03  -66.62   -0.04  -11.92   -0.04  -11.92  -35.06 -117.59
   6.315  -35.69  -64.12   -0.04  -12.14   -0.04  -12.14  -36.14 -117.79
   6.380  -36.34  -61.13   -0.04  -12.37   -0.04  -12.36  -37.32 -121.19
   6.445  -36.97  -56.81   -0.04  -12.58   -0.04  -12.58  -38.12 -126.80
   6.510  -37.62  -51.64   -0.04  -12.80   -0.04  -12.79  -38.64 -130.36
   6.575  -38.22  -46.11   -0.04  -13.02   -0.04  -13.01  -39.25 -131.19
   6.640  -38.91  -39.72   -0.04  -13.24   -0.04  -13.22  -40.58 -131.56
   6.705  -39.48  -32.31   -0.04  -13.45   -0.04  -13.44  -42.76 -136.75
   6.770  -39.83  -24.77   -0.04  -13.69   -0.04  -13.66  -44.65 -151.33
   6.835  -39.98  -15.53   -0.04  -13.89   -0.04  -13.88  -45.33 -168.36
   6.900  -39.87   -6.68   -0.04  -14.10   -0.04  -14.09  -45.40 -178.70
   6.965  -39.56    2.53   -0.04  -14.32   -0.04  -14.30  -46.65  173.54
   7.030  -39.10   11.02   -0.04  -14.54   -0.04  -14.52  -48.59  151.27
   7.095  -38.57   17.94   -0.04  -14.77   -0.04  -14.75  -47.20  120.80
   7.160  -37.91   23.72   -0.04  -14.98   -0.04  -14.96  -44.12  107.92
   7.225  -37.20   28.55   -0.04  -15.19   -0.04  -15.18  -42.19  105.98
   7.290  -36.48   32.70   -0.04  -15.41   -0.04  -15.40  -41.32  103.60
   7.355  -35.71   36.69   -0.04  -15.62   -0.04  -15.60  -40.66   96.41
   7.420  -35.01   40.11   -0.04  -15.81   -0.04  -15.80  -39.44   87.43
   7.485  -34.32   42.54   -0.04  -16.02   -0.04  -16.00  -37.76   83.18
   7.550  -33.72   44.06   -0.04  -16.23   -0.04  -16.21  -36.23   82.13
   7.615  -33.28   45.02   -0.04  -16.43   -0.04  -16.42  -35.29   81.40
   7.680  -32.85   46.67   -0.04  -16.67   -0.03  -16.66  -34.83   78.68
   7.745  -32.41   48.91   -0.03  -16.92   -0.03  -16.90  -34.42   73.78
   7.810  -31.96   51.30   -0.04  -17.17   -0.04  -17.16  -33.77   69.80
   7.875  -31.45   53.60   -0.04  -17.42   -0.04  -17.40  -33.01   68.44
   7.940  -30.91   55.37   -0.04  -17.65   -0.05  -17.64  -32.36   69.25
   8.005  -30.38   56.29   -0.05  -17.86   -0.05  -17.84  -31.99   69.97
   8.070  -29.87   57.07   -0.06  -18.08   -0.05  -18.06  -31.73   69.54
   8.135  -29.39   57.86   -0.06  -18.28   -0.06  -18.27  -31.37   67.91
   8.200  -28.96   58.66   -0.06  -18.48   -0.06  -18.47  -30.73   66.65
   8.265  -28.60   59.49   -0.06  -18.70   -0.06  -18.67  -29.97   66.54
   8.330  -28.81   63.28   -0.07  -18.90   -0.07  -18.88  -30.01   60.43
   8.395  -28.35   63.70   -0.07  -19.12   -0.07  -19.11  -29.66   61.18
   8.460  -27.85   63.93   -0.07  -19.33   -0.07  -19.31  -29.30   60.58
   8.525  -27.33   63.84   -0.08  -19.53   -0.08  -19.51  -28.85   59.32
   8.590  -26.90   63.55   -0.08  -19.73   -0.08  -19.71  -28.27   57.77
   8.655  -26.50   63.04   -0.08  -19.95   -0.08  -19.92  -27.77   56.71
   8.720  -26.21   62.51   -0.08  -20.17   -0.08  -20.15  -27.53   56.67
   8.785  -25.93   62.18   -0.09  -20.41   -0.08  -20.39  -27.47   57.19
   8.850  -25.60   62.23   -0.09  -20.63   -0.09  -20.60  -27.37   57.90
   8.915  -25.25   62.11   -0.10  -20.83   -0.10  -20.80  -27.00   59.28
   8.980  -24.89   61.76   -0.10  -21.01   -0.10  -20.98  -26.31   60.18
   9.045  -24.60   61.19   -0.10  -21.18   -0.10  -21.16  -25.54   60.63
   9.110  -24.41   60.62   -0.09  -21.38   -0.09  -21.35  -24.85   60.30
   9.175  -24.24   60.77   -0.08  -21.63   -0.08  -21.62  -24.41   58.40
   9.240  -23.99   61.38   -0.08  -21.93   -0.08  -21.90  -24.10   56.28
   9.305  -23.63   62.12   -0.08  -22.26   -0.07  -22.25  -23.80   55.16
   9.370  -23.22   62.58   -0.08  -22.60   -0.08  -22.59  -23.46   54.40
   9.435  -22.79   62.59   -0.10  -22.93   -0.09  -22.92  -23.08   54.06
   9.500  -22.37   62.25   -0.11  -23.24   -0.11  -23.22  -22.71   53.82
   9.565  -21.98   61.73   -0.12  -23.56   -0.12  -23.54  -22.30   53.25
   9.630  -21.55   61.22   -0.14  -23.90   -0.14  -23.87  -21.86   52.33
   9.695  -21.09   60.65   -0.15  -24.22   -0.15  -24.20  -21.37   51.29
   9.760  -20.60   59.97   -0.17  -24.59   -0.17  -24.57  -20.87   50.07
   9.825  -20.09   58.91   -0.20  -24.98   -0.20  -24.96  -20.36   48.73
   9.890  -19.55   57.46   -0.23  -25.42   -0.23  -25.38  -19.83   47.15
   9.955  -18.95   55.52   -0.28  -25.88   -0.27  -25.86  -19.25   45.01
  10.020  -18.31   52.94   -0.34  -26.37   -0.33  -26.36  -18.64   42.24
  10.085  -17.61   49.46   -0.43  -26.92   -0.42  -26.90  -17.91   38.40
  10.150  -16.88   44.80   -0.55  -27.41   -0.55  -27.41  -17.14   33.39
  10.215  -16.18   38.26   -0.74  -27.77   -0.74  -27.74  -16.41   26.79
  10.280  -15.57   29.21   -1.00  -27.56   -1.00  -27.54  -15.86   17.41
  10.345  -15.32   17.16   -1.27  -26.24   -1.27  -26.23  -15.67    4.81
  10.410  -15.77    3.07   -1.39  -23.74   -1.39  -23.72  -16.17   -9.77
  10.475  -17.10   -9.97   -1.24  -21.30   -1.24  -21.28  -17.57  -23.11
  10.540  -19.12  -19.10   -0.95  -20.14   -0.95  -20.15  -19.74  -32.22
  10.605  -21.50  -23.38   -0.69  -20.09   -0.69  -20.08  -22.36  -35.72
  10.670  -23.93  -22.42   -0.51  -20.50   -0.51  -20.48  -25.07  -33.90
  10.735  -26.15  -16.86   -0.39  -21.07   -0.39  -21.05  -27.47  -26.63
  10.800  -27.98   -6.67   -0.30  -21.64   -0.30  -21.63  -29.18  -13.65
  10.865  -29.05    6.82   -0.25  -22.14   -0.25  -22.15  -29.80    2.02
  10.930  -29.28   20.61   -0.20  -22.64   -0.21  -22.64  -29.52   16.65
  10.995  -28.87   31.58   -0.17  -23.10   -0.18  -23.10  -28.90   27.63
  11.060  -28.24   38.83   -0.15  -23.52   -0.15  -23.52  -28.21   34.63
  11.125  -27.60   43.77   -0.14  -23.91   -0.14  -23.90  -27.48   38.92
  11.190  -26.97   47.51   -0.12  -24.25   -0.12  -24.26  -26.78   41.27
  11.255  -26.40   50.29   -0.11  -24.60   -0.11  -24.60  -26.05   43.10
  11.320  -25.88   52.20   -0.11  -24.91   -0.11  -24.92  -25.44   45.00
  11.385  -25.46   54.36   -0.10  -25.23   -0.10  -25.25  -24.93   46.69
  11.450  -25.09   55.55   -0.10  -25.51   -0.09  -25.50  -24.53   47.67
  11.515  -24.74   56.32   -0.09  -25.77   -0.09  -25.78  -24.25   47.77
  11.580  -24.40   57.00   -0.09  -26.06   -0.08  -26.06  -23.94   47.83
  11.645  -24.08   57.53   -0.08  -26.33   -0.08  -26.34  -23.57   47.77
  11.710  -23.81   58.42   -0.08  -26.59   -0.07  -26.60  -23.19   48.70
  11.775  -23.56   59.18   -0.08  -26.87   -0.08  -26.88  -22.96   49.49
  11.840  -23.31   59.75   -0.08  -27.15   -0.07  -27.15  -22.75   49.91
  11.905  -23.09   60.05   -0.07  -27.40   -0.07  -27.41  -22.56   49.95
  11.970  -22.85   60.29   -0.07  -27.65   -0.08  -27.66  -22.34   49.77
  12.035  -22.64   60.60   -0.08  -27.90   -0.08  -27.91  -22.02   49.53
  12.100  -22.42   60.95   -0.08  -28.12   -0.08  -28.14  -21.78   50.07
  12.165  -22.21   61.41   -0.08  -28.39   -0.08  -28.39  -21.57   50.47
  12.230  -22.04   61.47   -0.08  -28.61   -0.08  -28.61  -21.43   50.73
  12.295  -21.89   61.62   -0.08  -28.82   -0.08  -28.85  -21.30   50.39
  12.360  -21.72   61.64   -0.09  -29.07   -0.08  -29.08  -21.11   49.91
  12.425  -21.52   61.80   -0.09  -29.28   -0.09  -29.29  -20.89   49.79
  12.490  -21.36   61.99   -0.09  -29.50   -0.09  -29.50  -20.71   50.01
  12.555  -21.20   62.34   -0.09  -29.73   -0.09  -29.73  -20.56   50.35
  12.620  -21.06   62.39   -0.09  -29.94   -0.09  -29.96  -20.47   50.39
  12.685  -20.94   62.48   -0.09  -30.16   -0.09  -30.15  -20.38   50.09
  12.750  -20.78   62.41   -0.09  -30.38   -0.09  -30.38  -20.23   49.54
  12.815  -20.63   62.62   -0.10  -30.58   -0.10  -30.59  -20.02   49.45
  12.880  -20.50   62.64   -0.10  -30.80   -0.09  -30.81  -19.87   49.54
  12.945  -20.33   62.73   -0.10  -31.03   -0.10  -31.03  -19.76   49.77
  13.010  -20.19   62.81   -0.10  -31.25   -0.10  -31.29  -19.69   49.76
  13.075  -20.07   62.74   -0.10  -31.48   -0.10  -31.48  -19.62   49.28
  13.140  -19.94   62.52   -0.11  -31.71   -0.10  -31.70  -19.48   48.81
  13.205  -19.78   62.54   -0.11  -31.91   -0.11  -31.92  -19.32   48.70
  13.270  -19.63   62.55   -0.11  -32.12   -0.11  -32.15  -19.19   48.72
  13.335  -19.51   62.47   -0.11  -32.35   -0.11  -32.34  -19.12   48.81
  13.400  -19.38   62.25   -0.12  -32.56   -0.11  -32.56  -19.06   48.86
  13.465  -19.27   61.81   -0.12  -32.78   -0.11  -32.79  -19.03   48.55
  13.530  -19.16   61.52   -0.12  -33.01   -0.12  -33.02  -18.90   48.22
  13.595  -19.07   61.09   -0.13  -33.24   -0.13  -33.24  -18.73   48.15
  13.660  -19.02   60.99   -0.13  -33.43   -0.13  -33.44  -18.58   48.25
  13.725  -18.96   61.16   -0.14  -33.61   -0.14  -33.62  -18.48   48.17
  13.790  -18.87   61.46   -0.14  -33.78   -0.14  -33.78  -18.45   47.84
  13.855  -18.76   61.58   -0.14  -34.00   -0.14  -33.99  -18.38   47.14
  13.920  -18.62   61.48   -0.14  -34.17   -0.14  -34.17  -18.27   46.64
  13.985  -18.50   61.37   -0.15  -34.38   -0.14  -34.38  -18.15   46.38
  14.050  -18.36   61.41   -0.15  -34.55   -0.14  -34.58  -18.07   46.22
  14.115  -18.24   61.36   -0.15  -34.75   -0.14  -34.76  -18.06   46.17
  14.180  -18.10   61.28   -0.14  -34.95   -0.14  -34.95  -18.08   45.82
  14.245  -17.98   60.84   -0.13  -35.18   -0.13  -35.21  -18.05   45.36
  14.310  -17.84   60.41   -0.13  -35.44   -0.13  -35.44  -17.94   45.01
  14.375  -17.75   60.02   -0.13  -35.71   -0.13  -35.70  -17.84   45.13
  14.440  -17.64   59.51   -0.13  -35.99   -0.14  -35.99  -17.78   45.26
  14.505  -17.56   59.41   -0.14  -36.24   -0.14  -36.23  -17.75   45.39
  14.570  -17.49   59.08   -0.16  -36.46   -0.15  -36.46  -17.72   45.12
  14.635  -17.42   58.81   -0.16  -36.68   -0.16  -36.67  -17.65   44.73
  14.700  -17.35   58.53   -0.17  -36.92   -0.17  -36.91  -17.56   44.40
  14.765  -17.25   58.33   -0.17  -37.14   -0.17  -37.11  -17.43   44.20
  14.830  -17.16   58.24   -0.18  -37.37   -0.18  -37.36  -17.36   44.42
  14.895  -17.06   58.12   -0.19  -37.58   -0.18  -37.60  -17.33   44.24
  14.960  -16.96   58.04   -0.20  -37.79   -0.19  -37.82  -17.28   43.83
  15.025  -16.86   57.79   -0.20  -38.05   -0.19  -38.01  -17.22   43.27
  15.090  -16.74   57.56   -0.20  -38.25   -0.20  -38.25  -17.11   42.83
  15.155  -16.63   57.25   -0.21  -38.46   -0.21  -38.43  -16.99   42.65
  15.220  -16.52   56.85   -0.21  -38.69   -0.22  -38.70  -16.89   43.03
  15.285  -16.42   56.54   -0.22  -38.91   -0.22  -38.92  -16.95   42.95
  15.350  -16.32   56.26   -0.23  -39.16   -0.22  -39.17  -16.97   42.27
  15.415  -16.24   55.81   -0.23  -39.42   -0.23  -39.37  -16.90   41.02
  15.480  -16.16   55.50   -0.24  -39.66   -0.24  -39.68  -16.73   40.81
  15.545  -16.05   55.22   -0.25  -39.91   -0.25  -39.89  -16.65   40.95
  15.610  -15.97   55.07   -0.26  -40.15   -0.26  -40.14  -16.61   40.94
  15.675  -15.86   54.82   -0.27  -40.38   -0.27  -40.39  -16.56   40.67
  15.740  -15.75   54.75   -0.28  -40.62   -0.28  -40.63  -16.49   40.33
  15.805  -15.64   54.51   -0.29  -40.86   -0.29  -40.86  -16.41   39.78
  15.870  -15.52   54.05   -0.30  -41.12   -0.30  -41.10  -16.29   39.30
  15.935  -15.39   53.77   -0.31  -41.36   -0.32  -41.34  -16.17   39.23
  16.000  -15.26   53.44   -0.33  -41.63   -0.33  -41.61  -16.11   39.04
  16.065  -15.12   53.09   -0.34  -41.87   -0.34  -41.89  -16.04   38.67
  16.130  -14.98   52.85   -0.36  -42.12   -0.36  -42.10  -15.92   38.27
  16.195  -14.86   52.49   -0.37  -42.36   -0.37  -42.36  -15.79   37.52
  16.260  -14.71   51.94   -0.38  -42.63   -0.39  -42.60  -15.62   36.98
  16.325  -14.55   51.49   -0.40  -42.89   -0.41  -42.91  -15.47   36.43
  16.390  -14.39   50.97   -0.42  -43.19   -0.42  -43.17  -15.36   35.90
  16.455  -14.24   50.45   -0.44  -43.45   -0.44  -43.48  -15.24   35.11
  16.520  -14.08   49.91   -0.46  -43.75   -0.46  -43.73  -15.12   34.09
  16.585  -13.92   49.24   -0.48  -44.05   -0.48  -44.04  -14.95   33.01
  16.650  -13.74   48.50   -0.52  -44.35   -0.51  -44.36  -14.77   32.03
  16.715  -13.56   47.60   -0.55  -44.69   -0.54  -44.69  -14.61   31.16
  16.780  -13.38   46.78   -0.58  -45.01   -0.58  -45.02  -14.46   30.11
  16.845  -13.18   45.84   -0.62  -45.37   -0.61  -45.36  -14.31   28.67
  16.910  -12.99   44.81   -0.66  -45.70   -0.66  -45.72  -14.14   27.10
  16.975  -12.78   43.63   -0.72  -46.06   -0.71  -46.05  -13.94   25.34
  17.040  -12.56   42.23   -0.78  -46.42   -0.78  -46.39  -13.72   23.56
  17.105  -12.33   40.61   -0.86  -46.75   -0.85  -46.75  -13.53   21.75
  17.170  -12.08   38.74   -0.95  -47.07   -0.94  -47.06  -13.34   19.49
  17.235  -11.84   36.59   -1.05  -47.33   -1.04  -47.33  -13.15   16.71
  17.300  -11.63   33.98   -1.17  -47.53   -1.17  -47.53  -12.94   13.21
  17.365  -11.42   30.91   -1.32  -47.62   -1.31  -47.62  -12.75    9.43
  17.430  -11.24   27.32   -1.48  -47.50   -1.48  -47.47  -12.62    5.23
  17.495  -11.14   23.21   -1.67  -47.07   -1.66  -47.04  -12.59    0.36
  17.560  -11.12   18.52   -1.85  -46.23   -1.85  -46.22  -12.67   -5.26
  17.625  -11.24   13.43   -2.00  -44.90   -2.00  -44.90  -12.90  -11.57
