!  American Technical Ceramics  Date:   10/26/00
!  One Norden Lane
!  Huntington Station,  NY.   11746-2102
!  Tel:  (631) 622-4700               Fax:  (631) 622-4748
!  Part Number  600L1R5D       Mounting Orientation:  Horizontal  
!  Description:  Low ESR, High Q Microwave capacitors
!  Application: Coupling, Bypass, Tuning, DC Block
!               Filters, Matching
# GHZ S DB R 50
! Freq   |S11|   S11 Ph  |S21|   S21 Ph  |S12|   S12 Ph  |S22|   S22 Ph
    0.00    0.00    0.00   -999.00 90.00   -999.00 90.00    0.00    0.00
   0.400   -0.55  -20.60   -9.64   69.31   -9.65   69.27   -0.53  -19.33
   0.465   -0.71  -23.66   -8.49   66.29   -8.51   66.17   -0.72  -22.33
   0.530   -0.92  -26.27   -7.54   63.53   -7.56   62.59   -0.92  -25.54
   0.595   -1.15  -29.58   -6.77   60.82   -6.77   60.76   -1.12  -26.62
   0.660   -1.30  -32.21   -6.05   58.07   -6.08   58.42   -1.37  -29.29
   0.725   -1.58  -34.38   -5.47   55.50   -5.47   55.37   -1.56  -32.57
   0.790   -1.77  -37.06   -4.93   52.90   -4.94   52.52   -1.83  -35.42
   0.855   -2.07  -39.66   -4.51   50.84   -4.52   50.51   -2.07  -36.86
   0.920   -2.29  -41.80   -4.07   48.80   -4.13   48.61   -2.30  -38.67
   0.985   -2.56  -44.31   -3.75   46.47   -3.73   46.91   -2.55  -40.12
   1.050   -2.79  -45.77   -3.40   44.44   -3.42   44.55   -2.81  -43.19
   1.115   -3.06  -47.65   -3.12   42.69   -3.16   42.28   -3.07  -45.26
   1.180   -3.34  -50.37   -2.90   40.77   -2.90   40.50   -3.35  -46.30
   1.245   -3.58  -51.72   -2.64   39.40   -2.68   39.35   -3.57  -47.56
   1.310   -3.85  -53.41   -2.47   37.57   -2.48   37.81   -3.85  -49.21
   1.375   -4.10  -54.85   -2.28   35.95   -2.27   36.01   -4.09  -51.10
   1.440   -4.36  -56.54   -2.12   34.38   -2.15   34.19   -4.43  -52.84
   1.505   -4.64  -58.28   -1.96   33.23   -1.98   32.75   -4.62  -53.71
   1.570   -4.92  -59.73   -1.86   31.81   -1.87   31.87   -4.90  -54.47
   1.635   -5.13  -60.83   -1.70   30.36   -1.70   30.66   -5.13  -56.02
   1.700   -5.41  -61.86   -1.60   29.28   -1.61   29.18   -5.39  -57.55
   1.765   -5.64  -63.62   -1.49   27.88   -1.51   27.67   -5.69  -58.73
   1.830   -5.94  -64.95   -1.41   26.95   -1.43   26.64   -5.91  -59.29
   1.895   -6.17  -66.19   -1.32   25.72   -1.34   25.74   -6.15  -60.19
   1.960   -6.39  -66.84   -1.25   24.66   -1.24   24.98   -6.42  -61.23
   2.025   -6.67  -68.06   -1.18   23.61   -1.18   23.58   -6.65  -62.60
   2.090   -6.90  -69.28   -1.10   22.68   -1.12   22.45   -6.89  -63.28
   2.155   -7.15  -70.54   -1.04   21.74   -1.05   21.51   -7.15  -63.84
   2.220   -7.38  -71.22   -0.98   20.87   -1.00   20.94   -7.37  -64.72
   2.285   -7.61  -72.10   -0.94   19.86   -0.95   20.04   -7.60  -65.70
   2.350   -7.81  -72.97   -0.88   18.99   -0.88   19.09   -7.84  -66.50
   2.415   -8.09  -74.19   -0.85   18.33   -0.87   18.00   -8.07  -67.08
   2.480   -8.29  -75.23   -0.81   17.46   -0.82   17.29   -8.30  -67.68
   2.545   -8.50  -75.66   -0.75   16.67   -0.77   16.78   -8.50  -68.44
   2.610   -8.75  -76.41   -0.73   15.94   -0.73   16.09   -8.72  -69.14
   2.675   -8.95  -77.44   -0.69   15.08   -0.71   15.12   -8.96  -70.02
   2.740   -9.17  -78.50   -0.66   14.42   -0.67   14.24   -9.18  -70.38
   2.805   -9.42  -79.30   -0.63   13.72   -0.66   13.59   -9.38  -71.03
   2.870   -9.62  -79.70   -0.61   12.97   -0.62   13.11   -9.62  -71.64
   2.935   -9.83  -80.38   -0.58   12.24   -0.58   12.41   -9.84  -72.29
   3.000   -9.89  -78.90   -0.58   12.32   -0.59   12.24   -9.81  -73.86
   3.065  -10.05  -79.91   -0.56   11.73   -0.58   11.56  -10.03  -74.10
   3.130  -10.26  -80.75   -0.53   11.17   -0.55   11.04  -10.18  -74.40
   3.195  -10.39  -81.08   -0.53   10.60   -0.53   10.76  -10.38  -75.03
   3.260  -10.58  -81.89   -0.50   10.05   -0.50   10.20  -10.54  -75.29
   3.325  -10.76  -82.98   -0.49    9.63   -0.49    9.55  -10.74  -75.42
   3.390  -10.95  -83.86   -0.46    9.07   -0.48    8.92  -10.88  -75.90
   3.455  -11.11  -84.44   -0.44    8.61   -0.45    8.48  -11.06  -76.18
   3.520  -11.29  -84.74   -0.44    8.02   -0.44    8.18  -11.24  -76.72
   3.585  -11.43  -85.69   -0.41    7.62   -0.42    7.62  -11.41  -76.75
   3.650  -11.65  -86.47   -0.41    7.09   -0.42    7.03  -11.55  -77.21
   3.715  -11.80  -87.16   -0.39    6.70   -0.40    6.53  -11.73  -77.45
   3.780  -11.96  -87.44   -0.38    6.15   -0.40    6.12  -11.90  -78.02
   3.845  -12.12  -87.95   -0.36    5.71   -0.37    5.77  -12.06  -78.38
   3.910  -12.28  -88.62   -0.36    5.33   -0.37    5.38  -12.23  -78.62
   3.975  -12.46  -89.40   -0.35    4.86   -0.36    4.78  -12.36  -78.68
   4.040  -12.59  -89.69   -0.34    4.48   -0.35    4.34  -12.56  -79.32
   4.105  -12.73  -90.05   -0.32    4.00   -0.34    3.99  -12.68  -79.81
   4.170  -12.85  -90.29   -0.33    3.65   -0.33    3.72  -12.86  -80.03
   4.235  -13.04  -91.15   -0.31    3.19   -0.31    3.18  -12.98  -80.25
   4.300  -13.19  -91.61   -0.30    2.90   -0.32    2.79  -13.14  -80.52
   4.365  -13.33  -91.97   -0.30    2.39   -0.31    2.23  -13.31  -81.30
   4.430  -13.46  -92.25   -0.28    2.00   -0.30    2.01  -13.46  -81.68
   4.495  -13.60  -92.51   -0.29    1.62   -0.29    1.71  -13.62  -82.07
   4.560  -13.77  -93.29   -0.27    1.31   -0.28    1.32  -13.76  -81.88
   4.625  -13.94  -93.46   -0.27    0.86   -0.28    0.76  -13.88  -82.72
   4.690  -14.04  -93.58   -0.25    0.56   -0.26    0.47  -13.99  -83.09
   4.755  -14.16  -93.63   -0.27    0.09   -0.27    0.08  -14.22  -84.00
   4.820  -14.31  -94.12   -0.25   -0.28   -0.25   -0.16  -14.31  -84.34
   4.885  -14.44  -94.75   -0.25   -0.54   -0.26   -0.58  -14.50  -84.37
   4.950  -14.63  -94.89   -0.24   -0.98   -0.26   -1.01  -14.58  -85.17
   5.015  -14.68  -94.90   -0.23   -1.28   -0.25   -1.39  -14.81  -85.75
   5.080  -14.86  -94.90   -0.23   -1.67   -0.23   -1.58  -14.87  -86.38
   5.145  -14.98  -95.15   -0.23   -1.94   -0.24   -1.94  -15.07  -86.61
   5.210  -15.15  -95.61   -0.22   -2.34   -0.22   -2.33  -15.15  -87.12
   5.275  -15.28  -95.89   -0.22   -2.59   -0.24   -2.70  -15.33  -87.35
   5.340  -15.39  -95.49   -0.22   -3.01   -0.23   -3.12  -15.49  -88.65
   5.405  -15.50  -95.91   -0.21   -3.32   -0.22   -3.32  -15.62  -88.59
   5.470  -15.70  -95.76   -0.21   -3.64   -0.21   -3.60  -15.74  -89.38
   5.535  -15.82  -96.32   -0.20   -3.98   -0.22   -3.98  -15.88  -89.32
   5.600  -15.94  -95.95   -0.20   -4.33   -0.21   -4.39  -16.03  -90.49
   5.665  -16.06  -96.21   -0.20   -4.61   -0.22   -4.66  -16.18  -90.92
   5.730  -16.23  -95.96   -0.20   -4.98   -0.20   -4.99  -16.33  -91.66
   5.795  -16.34  -96.50   -0.18   -5.24   -0.20   -5.22  -16.44  -91.86
   5.860  -16.54  -96.44   -0.19   -5.57   -0.20   -5.57  -16.57  -92.51
   5.925  -16.66  -96.58   -0.19   -5.92   -0.20   -5.96  -16.74  -93.31
   5.990  -16.71  -96.20   -0.18   -6.18   -0.19   -6.30  -16.97  -94.01
   6.055  -16.97  -96.62   -0.19   -6.53   -0.19   -6.45  -17.04  -94.30
   6.120  -17.09  -96.55   -0.18   -6.81   -0.18   -6.82  -17.20  -94.75
   6.185  -17.22  -96.97   -0.17   -7.11   -0.18   -7.12  -17.33  -95.10
   6.250  -17.38  -96.01   -0.18   -7.42   -0.18   -7.48  -17.49  -96.25
   6.315  -17.49  -96.42   -0.17   -7.74   -0.18   -7.78  -17.69  -96.56
   6.380  -17.61  -96.04   -0.17   -7.96   -0.17   -8.04  -17.81  -97.30
   6.445  -17.86  -96.59   -0.17   -8.34   -0.17   -8.26  -17.89  -97.41
   6.510  -17.96  -96.45   -0.16   -8.66   -0.17   -8.68  -18.09  -98.05
   6.575  -18.10  -96.12   -0.16   -8.89   -0.17   -8.96  -18.29  -99.00
   6.640  -18.25  -95.96   -0.16   -9.21   -0.17   -9.23  -18.42  -99.55
   6.705  -18.46  -96.24   -0.16   -9.50   -0.15   -9.48  -18.57  -99.59
   6.770  -18.59  -95.87   -0.16   -9.72   -0.16   -9.78  -18.78 -100.44
   6.835  -18.84  -96.04   -0.16  -10.09   -0.17  -10.04  -18.88 -100.37
   6.900  -18.87  -95.59   -0.15  -10.36   -0.16  -10.45  -19.14 -101.66
   6.965  -19.07  -95.43   -0.15  -10.61   -0.16  -10.65  -19.25 -102.12
   7.030  -19.31  -95.59   -0.15  -10.93   -0.16  -10.87  -19.39 -102.23
   7.095  -19.44  -95.65   -0.14  -11.18   -0.15  -11.22  -19.57 -102.74
   7.160  -19.59  -95.31   -0.15  -11.45   -0.15  -11.51  -19.77 -103.61
   7.225  -19.79  -95.12   -0.15  -11.78   -0.16  -11.77  -19.92 -104.01
   7.290  -19.92  -95.09   -0.14  -12.00   -0.15  -12.07  -20.19 -104.68
   7.355  -20.19  -94.95   -0.15  -12.25   -0.15  -12.29  -20.26 -105.22
   7.420  -20.33  -95.54   -0.14  -12.58   -0.15  -12.52  -20.53 -105.01
   7.485  -20.49  -94.75   -0.13  -12.84   -0.14  -12.88  -20.73 -106.48
   7.550  -20.69  -94.63   -0.14  -13.10   -0.15  -13.15  -20.95 -106.96
   7.615  -20.94  -94.96   -0.13  -13.40   -0.15  -13.35  -21.19 -106.69
   7.680  -21.11  -94.63   -0.13  -13.62   -0.14  -13.67  -21.36 -107.24
   7.745  -21.30  -94.55   -0.13  -13.91   -0.14  -13.91  -21.59 -107.64
   7.810  -21.49  -94.68   -0.13  -14.18   -0.14  -14.16  -21.84 -107.32
   7.875  -21.67  -93.72   -0.13  -14.36   -0.14  -14.46  -22.16 -108.51
   7.940  -21.97  -94.57   -0.12  -14.69   -0.13  -14.68  -22.29 -107.67
   8.005  -22.20  -94.43   -0.12  -14.94   -0.13  -14.94  -22.59 -107.15
   8.070  -22.33  -94.13   -0.12  -15.21   -0.13  -15.26  -22.79 -107.59
   8.135  -22.53  -94.70   -0.12  -15.53   -0.13  -15.54  -23.04 -107.22
   8.200  -22.78  -95.11   -0.12  -15.78   -0.14  -15.85  -23.24 -107.74
   8.265  -23.22  -95.41   -0.13  -16.07   -0.13  -16.06  -23.42 -107.64
   8.330  -27.21  -82.00   -0.13  -16.02   -0.13  -16.02  -27.79 -116.18
   8.395  -27.55  -80.21   -0.13  -16.23   -0.14  -16.28  -28.29 -117.14
   8.460  -27.98  -77.61   -0.13  -16.46   -0.14  -16.57  -28.83 -119.83
   8.525  -28.37  -76.91   -0.13  -16.76   -0.13  -16.78  -29.36 -119.50
   8.590  -28.74  -75.46   -0.13  -17.02   -0.14  -17.03  -30.08 -120.11
   8.655  -29.07  -73.71   -0.13  -17.28   -0.15  -17.25  -30.67 -120.75
   8.720  -29.55  -72.31   -0.13  -17.52   -0.14  -17.50  -31.43 -119.67
   8.785  -29.96  -70.61   -0.13  -17.76   -0.13  -17.82  -31.82 -118.54
   8.850  -30.46  -68.10   -0.12  -17.98   -0.13  -18.07  -32.43 -119.44
   8.915  -30.97  -67.58   -0.12  -18.29   -0.13  -18.29  -32.74 -118.85
   8.980  -31.22  -66.58   -0.12  -18.53   -0.13  -18.53  -33.37 -119.92
   9.045  -31.54  -64.15   -0.12  -18.80   -0.14  -18.79  -33.74 -126.02
   9.110  -32.39  -62.61   -0.13  -19.09   -0.14  -19.07  -34.76 -126.83
   9.175  -33.21  -63.02   -0.13  -19.31   -0.14  -19.34  -35.91 -128.67
   9.240  -33.68  -58.17   -0.13  -19.49   -0.14  -19.52  -37.46 -131.30
   9.305  -34.55  -52.22   -0.13  -19.71   -0.14  -19.67  -39.35 -135.80
   9.370  -35.22  -49.97   -0.13  -19.94   -0.14  -20.00  -41.12 -131.44
   9.435  -35.54  -48.32   -0.12  -20.14   -0.13  -20.22  -42.69 -133.66
   9.500  -36.10  -41.78   -0.12  -20.39   -0.13  -20.44  -45.22 -132.75
   9.565  -36.88  -36.45   -0.12  -20.65   -0.13  -20.64  -50.19 -140.62
   9.630  -37.50  -33.30   -0.12  -20.84   -0.12  -20.89  -54.39 -131.39
   9.695  -38.39  -26.98   -0.11  -21.07   -0.12  -21.13  -61.97  -26.68
   9.760  -38.74  -19.44   -0.10  -21.33   -0.11  -21.35  -53.44   17.57
   9.825  -39.15  -10.51   -0.10  -21.58   -0.10  -21.64  -47.10   23.61
   9.890  -39.51   -4.56   -0.09  -21.85   -0.09  -21.86  -44.65   21.08
   9.955  -39.46    2.05   -0.08  -22.13   -0.09  -22.16  -42.79   22.60
  10.020  -39.30    8.49   -0.08  -22.39   -0.09  -22.46  -41.22   23.70
  10.085  -40.12   15.78   -0.08  -22.70   -0.09  -22.67  -39.66   20.01
  10.150  -40.24   18.97   -0.07  -22.94   -0.09  -22.96  -38.84   20.34
  10.215  -39.71   26.23   -0.08  -23.21   -0.09  -23.22  -37.52   19.70
  10.280  -40.40   35.93   -0.08  -23.49   -0.09  -23.51  -36.88   19.41
  10.345  -39.99   45.06   -0.09  -23.78   -0.10  -23.79  -36.14   15.72
  10.410  -39.19   51.95   -0.10  -24.02   -0.11  -24.06  -35.15   16.43
  10.475  -38.27   60.01   -0.11  -24.28   -0.12  -24.29  -34.75   14.88
  10.540  -37.65   62.49   -0.12  -24.48   -0.13  -24.50  -34.05   12.32
  10.605  -36.99   62.27   -0.13  -24.63   -0.14  -24.69  -33.48   11.25
  10.670  -37.23   68.99   -0.13  -24.80   -0.13  -24.84  -33.39   10.49
  10.735  -36.37   73.62   -0.12  -24.96   -0.13  -25.03  -33.26    9.93
  10.800  -35.51   76.53   -0.12  -25.22   -0.12  -25.23  -32.65   12.40
  10.865  -34.71   77.92   -0.11  -25.46   -0.12  -25.46  -32.46   13.10
  10.930  -34.07   79.63   -0.11  -25.70   -0.12  -25.72  -32.02   11.77
  10.995  -33.59   79.76   -0.11  -25.90   -0.11  -25.94  -31.52   12.82
  11.060  -33.32   81.60   -0.11  -26.16   -0.11  -26.16  -31.15   12.07
  11.125  -32.88   80.73   -0.10  -26.35   -0.11  -26.38  -30.83   12.65
  11.190  -32.52   82.27   -0.10  -26.63   -0.11  -26.66  -30.53   12.19
  11.255  -32.20   83.32   -0.10  -26.85   -0.11  -26.90  -30.19   12.21
  11.320  -31.86   83.24   -0.10  -27.10   -0.11  -27.14  -29.94   12.56
  11.385  -31.59   83.28   -0.10  -27.29   -0.12  -27.33  -29.64   13.19
  11.450  -31.31   84.24   -0.10  -27.56   -0.11  -27.57  -29.34   12.96
  11.515  -31.16   83.87   -0.10  -27.81   -0.11  -27.82  -29.15   12.62
  11.580  -30.92   83.35   -0.10  -27.98   -0.11  -27.99  -29.05   12.82
  11.645  -30.75   83.18   -0.10  -28.26   -0.10  -28.29  -28.68   12.29
  11.710  -30.63   84.21   -0.09  -28.53   -0.10  -28.54  -28.55   12.42
  11.775  -30.41   83.49   -0.09  -28.77   -0.11  -28.84  -28.51   11.84
  11.840  -30.21   83.14   -0.09  -29.05   -0.10  -29.16  -28.28   12.73
  11.905  -30.01   83.24   -0.10  -29.28   -0.10  -29.31  -28.35   13.00
  11.970  -29.88   83.79   -0.10  -29.56   -0.10  -29.58  -27.99   12.98
  12.035  -29.76   82.87   -0.10  -29.79   -0.10  -29.78  -27.98   15.31
  12.100  -29.59   82.32   -0.10  -30.03   -0.11  -30.05  -27.98   16.06
  12.165  -29.32   82.10   -0.10  -30.32   -0.11  -30.38  -27.93   16.28
  12.230  -29.04   81.47   -0.10  -30.58   -0.11  -30.64  -27.56   17.32
  12.295  -28.91   79.35   -0.10  -30.87   -0.10  -30.83  -27.57   19.78
  12.360  -28.53   79.09   -0.10  -31.09   -0.10  -31.13  -27.41   19.55
  12.425  -28.41   78.08   -0.10  -31.41   -0.11  -31.39  -27.21   21.51
  12.490  -28.11   76.51   -0.10  -31.61   -0.11  -31.67  -27.16   21.95
  12.555  -27.93   74.75   -0.11  -31.92   -0.12  -31.90  -26.85   23.92
  12.620  -27.89   73.10   -0.12  -32.19   -0.11  -32.20  -26.66   25.09
  12.685  -27.62   71.59   -0.11  -32.43   -0.12  -32.44  -26.49   26.79
  12.750  -27.25   70.07   -0.12  -32.71   -0.12  -32.79  -26.38   28.07
  12.815  -27.14   68.57   -0.13  -33.01   -0.12  -33.00  -26.09   29.51
  12.880  -26.79   66.77   -0.12  -33.25   -0.11  -33.28  -25.96   30.09
  12.945  -26.62   65.06   -0.13  -33.51   -0.13  -33.54  -25.61   32.15
  13.010  -26.39   62.24   -0.14  -33.90   -0.13  -33.90  -25.42   34.19
  13.075  -26.00   61.00   -0.14  -34.08   -0.15  -34.14  -25.20   35.04
  13.140  -25.73   59.05   -0.14  -34.47   -0.16  -34.53  -24.98   37.12
  13.205  -25.42   56.72   -0.16  -34.72   -0.15  -34.83  -24.41   38.34
  13.270  -24.93   55.01   -0.16  -35.08   -0.17  -35.10  -24.15   39.85
  13.335  -24.69   53.80   -0.17  -35.34   -0.17  -35.38  -23.92   41.43
  13.400  -24.32   50.15   -0.19  -35.75   -0.21  -35.75  -23.56   42.55
  13.465  -23.78   49.12   -0.19  -35.97   -0.19  -35.99  -23.14   43.88
  13.530  -23.48   46.58   -0.20  -36.27   -0.21  -36.27  -22.74   45.77
  13.595  -22.97   43.69   -0.23  -36.67   -0.20  -36.50  -22.41   46.51
  13.660  -22.42   42.00   -0.23  -36.99   -0.24  -37.01  -21.98   47.46
  13.725  -21.95   39.61   -0.24  -37.31   -0.24  -37.33  -21.66   48.63
  13.790  -21.46   36.50   -0.25  -37.65   -0.27  -37.71  -21.12   49.25
  13.855  -20.83   34.24   -0.26  -38.06   -0.25  -38.00  -20.68   50.91
  13.920  -20.32   31.13   -0.26  -38.43   -0.26  -38.54  -20.26   51.74
  13.985  -19.61   27.17   -0.28  -39.17   -0.29  -39.16  -19.74   52.60
  14.050  -19.16   23.86   -0.32  -39.64   -0.31  -39.70  -19.14   53.03
  14.115  -18.73   19.39   -0.37  -40.17   -0.38  -40.26  -18.45   54.01
  14.180  -18.27   16.23   -0.43  -40.69   -0.44  -40.76  -17.74   52.46
  14.245  -17.77   12.24   -0.51  -41.30   -0.51  -41.28  -17.18   51.85
  14.310  -17.23    8.77   -0.60  -41.85   -0.61  -41.91  -16.58   49.40
  14.375  -16.67    4.68   -0.71  -42.40   -0.71  -42.40  -15.87   47.18
  14.440  -16.11   -0.07   -0.85  -42.94   -0.86  -42.93  -15.24   44.12
  14.505  -15.51   -6.10   -1.03  -43.26   -1.03  -43.19  -14.58   40.71
  14.570  -14.87  -12.35   -1.26  -43.44   -1.26  -43.24  -14.15   35.27
  14.635  -14.47  -20.67   -1.51  -43.04   -1.50  -43.06  -13.61   28.99
  14.700  -14.16  -30.01   -1.78  -41.98   -1.77  -41.84  -13.37   21.96
  14.765  -14.25  -40.53   -1.97  -40.05   -1.96  -40.13  -13.32   13.77
  14.830  -14.56  -51.27   -2.03  -37.66   -2.01  -37.60  -13.74    5.36
  14.895  -15.30  -61.27   -1.93  -35.44   -1.91  -35.48  -14.49   -2.88
  14.960  -16.46  -70.56   -1.71  -33.83   -1.70  -33.85  -15.47   -9.17
  15.025  -17.92  -77.93   -1.46  -32.88   -1.46  -33.03  -16.55  -13.62
  15.090  -19.63  -83.00   -1.21  -32.68   -1.21  -32.83  -17.84  -15.96
  15.155  -21.43  -85.36   -0.99  -32.91   -1.00  -32.98  -19.20  -18.20
  15.220  -23.20  -85.70   -0.83  -33.38   -0.83  -33.54  -20.62  -17.76
  15.285  -25.27  -83.17   -0.71  -33.95   -0.72  -34.02  -22.13  -15.30
  15.350  -27.38  -77.88   -0.61  -34.53   -0.62  -34.60  -23.39  -10.30
  15.415  -29.33  -66.56   -0.54  -35.08   -0.54  -35.05  -24.37   -2.12
  15.480  -30.48  -51.01   -0.47  -35.65   -0.48  -35.73  -25.27    6.88
  15.545  -30.80  -34.17   -0.43  -36.24   -0.43  -36.19  -25.65   14.82
  15.610  -30.10  -17.75   -0.39  -36.76   -0.40  -36.85  -25.38   23.84
  15.675  -29.22   -6.34   -0.37  -37.29   -0.38  -37.34  -25.32   31.16
  15.740  -28.03    1.29   -0.35  -37.83   -0.35  -37.97  -25.02   36.47
  15.805  -26.77    7.42   -0.34  -38.22   -0.35  -38.18  -24.39   42.07
  15.870  -25.77   10.78   -0.33  -38.71   -0.33  -38.71  -23.99   46.79
  15.935  -24.88   12.31   -0.33  -39.06   -0.34  -39.19  -23.47   50.13
  16.000  -24.00   13.70   -0.32  -39.49   -0.32  -39.56  -22.73   53.56
  16.065  -23.24   15.01   -0.31  -39.88   -0.32  -39.86  -22.35   56.22
  16.130  -22.59   16.37   -0.32  -40.25   -0.32  -40.24  -21.88   57.03
  16.195  -22.06   16.76   -0.31  -40.54   -0.32  -40.60  -21.33   58.69
  16.260  -21.50   16.80   -0.32  -40.89   -0.32  -40.93  -20.86   59.93
  16.325  -20.99   17.09   -0.31  -41.21   -0.32  -41.31  -20.44   61.00
  16.390  -20.54   17.28   -0.32  -41.53   -0.32  -41.51  -20.09   61.65
  16.455  -20.13   17.38   -0.31  -41.86   -0.32  -41.87  -19.72   61.72
  16.520  -19.76   17.50   -0.31  -42.19   -0.32  -42.26  -19.31   62.38
  16.585  -19.39   16.72   -0.32  -42.49   -0.32  -42.54  -19.01   63.27
  16.650  -19.09   16.73   -0.32  -42.79   -0.33  -42.87  -18.73   63.37
  16.715  -18.73   17.47   -0.32  -43.09   -0.32  -43.05  -18.47   63.40
  16.780  -18.50   16.69   -0.33  -43.35   -0.33  -43.42  -18.20   63.66
  16.845  -18.21   16.85   -0.34  -43.75   -0.35  -43.70  -17.90   63.50
  16.910  -17.94   16.54   -0.34  -43.99   -0.34  -44.01  -17.63   64.05
  16.975  -17.58   16.17   -0.35  -44.30   -0.34  -44.43  -17.44   63.71
  17.040  -17.38   17.03   -0.35  -44.65   -0.35  -44.63  -17.11   63.12
  17.105  -17.14   16.42   -0.35  -44.86   -0.35  -44.87  -16.96   63.72
  17.170  -16.94   15.97   -0.35  -45.13   -0.36  -45.19  -16.75   63.50
  17.235  -16.69   15.93   -0.36  -45.51   -0.37  -45.63  -16.50   63.18
  17.300  -16.49   15.98   -0.36  -45.71   -0.37  -45.74  -16.38   63.02
  17.365  -16.19   15.88   -0.38  -45.96   -0.37  -46.00  -16.21   62.24
  17.430  -16.13   16.38   -0.38  -46.33   -0.40  -46.24  -15.94   61.88
  17.495  -15.91   15.31   -0.39  -46.46   -0.40  -46.62  -15.85   62.24
  17.560  -15.66   15.33   -0.40  -46.82   -0.40  -46.86  -15.66   61.17
  17.625  -15.56   15.16   -0.40  -47.14   -0.41  -47.29  -15.47   60.85
