!  American Technical Ceramics  Date:   10/26/00
!  One Norden Lane
!  Huntington Station,  NY.   11746-2102
!  Tel:  (631) 622-4700               Fax:  (631) 622-4748
!  Part Number  600L4R7C       Mounting Orientation:  Horizontal  
!  Description:  Low ESR, High Q Microwave capacitors
!  Application: Coupling, Bypass, Tuning, DC Block
!               Filters, Matching
# GHZ S DB R 50
! Freq   |S11|   S11 Ph  |S21|   S21 Ph  |S12|   S12 Ph  |S22|   S22 Ph
    0.00    0.00    0.00 -999.00   90.00  -999.00  90.00    0.00    0.00
   0.400   -3.55  -48.56   -2.67   41.02   -2.67   41.01   -3.53  -47.68
   0.465   -4.33  -52.97   -2.12   36.59   -2.13   36.51   -4.33  -52.02
   0.530   -5.13  -56.46   -1.72   32.82   -1.75   32.23   -5.13  -55.89
   0.595   -5.87  -60.10   -1.44   29.72   -1.45   29.58   -5.85  -57.88
   0.660   -6.53  -62.76   -1.20   26.94   -1.22   27.14   -6.58  -60.59
   0.725   -7.23  -64.63   -1.02   24.57   -1.03   24.64   -7.21  -63.24
   0.790   -7.85  -66.93   -0.88   22.32   -0.88   22.22   -7.89  -65.79
   0.855   -8.50  -69.15   -0.77   20.58   -0.77   20.37   -8.49  -66.98
   0.920   -9.08  -70.80   -0.66   18.96   -0.70   18.84   -9.07  -68.38
   0.985   -9.64  -72.46   -0.60   17.42   -0.60   17.55   -9.65  -69.47
   1.050  -10.18  -73.28   -0.53   16.03   -0.54   16.14  -10.19  -71.59
   1.115  -10.72  -74.53   -0.47   14.83   -0.48   14.72  -10.70  -72.66
   1.180  -11.24  -76.37   -0.44   13.64   -0.43   13.50  -11.25  -73.27
   1.245  -11.74  -77.28   -0.38   12.70   -0.39   12.66  -11.69  -74.27
   1.310  -12.20  -78.00   -0.36   11.71   -0.36   11.81  -12.18  -74.98
   1.375  -12.66  -78.78   -0.32   10.78   -0.32   10.82  -12.64  -76.02
   1.440  -13.11  -79.73   -0.30    9.91   -0.31    9.91  -13.14  -76.93
   1.505  -13.59  -80.87   -0.27    9.18   -0.28    9.02  -13.54  -77.18
   1.570  -14.01  -81.57   -0.27    8.47   -0.27    8.45  -13.99  -77.55
   1.635  -14.41  -81.97   -0.24    7.67   -0.24    7.80  -14.40  -78.50
   1.700  -14.83  -82.43   -0.22    7.10   -0.22    7.12  -14.78  -79.10
   1.765  -15.21  -83.48   -0.21    6.38   -0.21    6.32  -15.25  -79.55
   1.830  -15.65  -84.33   -0.20    5.85   -0.21    5.73  -15.61  -79.67
   1.895  -16.03  -84.97   -0.19    5.24   -0.20    5.23  -15.99  -80.13
   1.960  -16.39  -85.02   -0.18    4.72   -0.17    4.78  -16.41  -80.79
   2.025  -16.80  -85.70   -0.17    4.15   -0.17    4.17  -16.77  -81.24
   2.090  -17.16  -86.51   -0.16    3.65   -0.16    3.60  -17.14  -81.42
   2.155  -17.52  -87.11   -0.16    3.17   -0.16    3.07  -17.52  -81.51
   2.220  -17.89  -87.37   -0.15    2.70   -0.15    2.72  -17.87  -82.09
   2.285  -18.22  -87.68   -0.15    2.19   -0.15    2.26  -18.21  -82.46
   2.350  -18.56  -88.00   -0.14    1.75   -0.14    1.81  -18.58  -82.69
   2.415  -18.93  -88.95   -0.14    1.38   -0.14    1.32  -18.89  -82.66
   2.480  -19.22  -89.56   -0.13    0.95   -0.14    0.89  -19.20  -82.88
   2.545  -19.56  -89.52   -0.12    0.53   -0.13    0.57  -19.54  -83.53
   2.610  -19.88  -90.01   -0.12    0.14   -0.13    0.22  -19.86  -84.01
   2.675  -20.20  -90.56   -0.12   -0.27   -0.11   -0.23  -20.16  -84.39
   2.740  -20.52  -91.14   -0.11   -0.66   -0.12   -0.69  -20.49  -84.24
   2.805  -20.85  -91.56   -0.11   -1.04   -0.12   -1.04  -20.77  -84.98
   2.870  -21.14  -91.37   -0.11   -1.40   -0.12   -1.38  -21.06  -85.38
   2.935  -21.41  -91.43   -0.11   -1.78   -0.11   -1.74  -21.40  -85.84
   3.000  -21.89  -93.73   -0.11   -1.94   -0.11   -1.95  -21.70  -83.49
   3.065  -22.18  -94.53   -0.11   -2.28   -0.11   -2.32  -22.02  -83.10
   3.130  -22.51  -95.24   -0.11   -2.60   -0.11   -2.62  -22.30  -82.73
   3.195  -22.73  -95.32   -0.11   -2.92   -0.11   -2.88  -22.65  -83.28
   3.260  -23.08  -96.03   -0.11   -3.24   -0.11   -3.19  -22.93  -82.89
   3.325  -23.39  -97.37   -0.11   -3.51   -0.10   -3.53  -23.25  -82.38
   3.390  -23.70  -98.06   -0.10   -3.82   -0.10   -3.85  -23.50  -82.68
   3.455  -24.04  -98.53   -0.10   -4.14   -0.10   -4.17  -23.85  -82.31
   3.520  -24.38  -98.72   -0.10   -4.45   -0.10   -4.41  -24.16  -82.74
   3.585  -24.64  -99.38   -0.10   -4.74   -0.10   -4.71  -24.46  -82.48
   3.650  -25.01  -99.83   -0.10   -5.03   -0.10   -5.02  -24.73  -82.52
   3.715  -25.32 -100.85   -0.10   -5.30   -0.10   -5.32  -25.05  -82.38
   3.780  -25.62 -100.59   -0.10   -5.61   -0.11   -5.62  -25.38  -83.09
   3.845  -25.97 -100.88   -0.10   -5.88   -0.09   -5.88  -25.67  -83.25
   3.910  -26.29 -101.45   -0.09   -6.14   -0.10   -6.12  -26.00  -83.30
   3.975  -26.62 -101.89   -0.09   -6.43   -0.10   -6.41  -26.32  -83.25
   4.040  -26.91 -101.62   -0.10   -6.66   -0.10   -6.71  -26.70  -83.47
   4.105  -27.21 -101.58   -0.09   -6.96   -0.09   -6.97  -26.95  -83.92
   4.170  -27.47 -101.16   -0.10   -7.22   -0.09   -7.20  -27.37  -84.19
   4.235  -27.84 -101.48   -0.09   -7.50   -0.09   -7.52  -27.68  -84.33
   4.300  -28.15 -101.64   -0.09   -7.75   -0.10   -7.76  -28.01  -84.52
   4.365  -28.45 -101.22   -0.09   -8.03   -0.10   -8.07  -28.41  -85.33
   4.430  -28.77 -100.97   -0.09   -8.29   -0.09   -8.30  -28.75  -86.07
   4.495  -29.09 -100.67   -0.09   -8.54   -0.10   -8.53  -29.18  -86.65
   4.560  -29.57 -100.72   -0.09   -8.79   -0.10   -8.77  -29.55  -86.22
   4.625  -29.95  -99.39   -0.09   -9.04   -0.09   -9.06  -29.88  -87.52
   4.690  -30.13  -97.65   -0.09   -9.31   -0.09   -9.32  -30.11  -88.27
   4.755  -30.37  -97.02   -0.09   -9.59   -0.10   -9.59  -30.63  -90.59
   4.820  -30.73  -96.61   -0.09   -9.86   -0.09   -9.79  -30.98  -91.94
   4.885  -31.09  -96.35   -0.09  -10.09   -0.09  -10.04  -31.43  -92.74
   4.950  -31.55  -94.78   -0.09  -10.33   -0.10  -10.33  -31.82  -94.38
   5.015  -31.77  -92.94   -0.09  -10.58   -0.10  -10.54  -32.31  -96.25
   5.080  -32.13  -90.52   -0.09  -10.82   -0.09  -10.80  -32.67  -98.28
   5.145  -32.43  -89.21   -0.09  -11.05   -0.09  -11.05  -33.23 -100.37
   5.210  -32.78  -87.38   -0.09  -11.31   -0.09  -11.31  -33.60 -102.95
   5.275  -33.15  -84.96   -0.09  -11.55   -0.09  -11.53  -34.16 -104.78
   5.340  -33.43  -82.15   -0.09  -11.81   -0.09  -11.82  -34.63 -108.06
   5.405  -33.53  -79.21   -0.09  -12.06   -0.09  -12.02  -35.06 -110.28
   5.470  -33.91  -76.10   -0.09  -12.27   -0.10  -12.27  -35.64 -114.54
   5.535  -34.21  -73.55   -0.09  -12.50   -0.10  -12.51  -36.04 -116.75
   5.600  -34.29  -69.35   -0.09  -12.76   -0.10  -12.76  -36.63 -121.96
   5.665  -34.48  -66.16   -0.10  -13.00   -0.10  -13.00  -36.93 -126.88
   5.730  -34.73  -62.40   -0.09  -13.25   -0.10  -13.26  -37.46 -131.71
   5.795  -34.73  -59.49   -0.09  -13.46   -0.10  -13.47  -37.67 -137.62
   5.860  -34.88  -54.87   -0.10  -13.72   -0.09  -13.69  -37.83 -144.09
   5.925  -34.96  -51.46   -0.10  -13.97   -0.10  -13.96  -38.24 -150.91
   5.990  -34.75  -47.33   -0.10  -14.18   -0.10  -14.16  -38.47 -158.50
   6.055  -34.92  -43.43   -0.10  -14.41   -0.10  -14.40  -38.34 -165.09
   6.120  -35.04  -38.69   -0.10  -14.65   -0.10  -14.63  -38.60 -170.88
   6.185  -34.83  -35.12   -0.10  -14.88   -0.10  -14.88  -38.09 -177.74
   6.250  -34.48  -30.45   -0.10  -15.12   -0.10  -15.12  -37.76  176.73
   6.315  -34.27  -25.88   -0.10  -15.36   -0.10  -15.36  -37.65  169.63
   6.380  -33.96  -23.75   -0.10  -15.59   -0.10  -15.60  -36.94  165.43
   6.445  -33.65  -20.52   -0.10  -15.87   -0.10  -15.83  -36.57  160.59
   6.510  -33.44  -16.13   -0.10  -16.09   -0.10  -16.06  -36.26  155.15
   6.575  -33.13  -13.94   -0.10  -16.31   -0.10  -16.29  -35.62  151.30
   6.640  -32.67  -11.22   -0.10  -16.54   -0.10  -16.50  -35.18  147.07
   6.705  -32.49   -7.49   -0.10  -16.76   -0.10  -16.75  -34.70  142.81
   6.770  -32.17   -5.80   -0.11  -17.00   -0.11  -16.98  -34.12  139.45
   6.835  -31.60   -4.23   -0.10  -17.23   -0.11  -17.24  -33.89  136.15
   6.900  -31.39   -0.94   -0.11  -17.46   -0.11  -17.44  -33.37  132.76
   6.965  -31.07   -0.14   -0.12  -17.73   -0.11  -17.70  -33.03  131.15
   7.030  -30.70    1.04   -0.11  -17.94   -0.11  -17.94  -32.49  128.59
   7.095  -30.35    4.21   -0.11  -18.18   -0.11  -18.19  -32.18  126.01
   7.160  -30.14    5.02   -0.12  -18.41   -0.11  -18.38  -31.80  123.59
   7.225  -29.74    6.79   -0.11  -18.65   -0.11  -18.61  -31.42  121.14
   7.290  -29.50    8.99   -0.12  -18.84   -0.10  -18.84  -31.02  118.51
   7.355  -29.30    9.74   -0.12  -19.14   -0.13  -19.10  -30.64  117.41
   7.420  -28.91   10.22   -0.11  -19.32   -0.12  -19.30  -30.31  115.21
   7.485  -28.69   13.12   -0.12  -19.55   -0.12  -19.53  -29.95  113.34
   7.550  -28.44   13.86   -0.12  -19.80   -0.12  -19.77  -29.66  110.27
   7.615  -28.10   14.92   -0.12  -20.03   -0.12  -20.00  -29.24  109.14
   7.680  -27.92   17.00   -0.12  -20.26   -0.12  -20.24  -28.96  106.57
   7.745  -27.60   17.13   -0.13  -20.50   -0.13  -20.51  -28.65  104.66
   7.810  -27.33   18.22   -0.12  -20.69   -0.13  -20.69  -28.36  102.40
   7.875  -27.08   20.81   -0.13  -20.89   -0.13  -20.86  -28.02   99.30
   7.940  -26.87   20.72   -0.12  -21.20   -0.13  -21.17  -27.77   97.23
   8.005  -26.60   21.64   -0.13  -21.40   -0.13  -21.43  -27.59   94.91
   8.070  -26.40   23.50   -0.13  -21.68   -0.13  -21.70  -27.34   92.07
   8.135  -26.26   24.10   -0.13  -21.96   -0.14  -21.93  -27.07   89.77
   8.200  -26.03   26.30   -0.14  -22.22   -0.14  -22.21  -26.89   88.16
   8.265  -25.74   28.72   -0.15  -22.54   -0.14  -22.41  -26.61   86.69
   8.330  -21.17   38.97   -0.19  -23.03   -0.18  -23.03  -21.49   83.16
   8.395  -20.93   39.10   -0.19  -23.24   -0.19  -23.28  -21.38   82.53
   8.460  -20.71   39.84   -0.20  -23.48   -0.19  -23.49  -21.10   81.47
   8.525  -20.56   39.38   -0.20  -23.77   -0.19  -23.71  -20.90   80.77
   8.590  -20.33   39.12   -0.21  -24.04   -0.21  -24.00  -20.69   79.63
   8.655  -20.19   39.28   -0.22  -24.33   -0.23  -24.28  -20.42   78.18
   8.720  -19.88   39.59   -0.22  -24.51   -0.23  -24.52  -20.38   76.80
   8.785  -19.70   39.77   -0.23  -24.79   -0.23  -24.77  -20.21   74.86
   8.850  -19.41   39.55   -0.24  -25.07   -0.23  -25.09  -19.98   73.94
   8.915  -19.22   39.18   -0.24  -25.43   -0.25  -25.39  -19.86   72.98
   8.980  -18.99   38.54   -0.27  -25.71   -0.28  -25.71  -19.67   71.30
   9.045  -18.72   38.28   -0.29  -26.09   -0.29  -26.00  -19.41   70.27
   9.110  -18.38   37.86   -0.32  -26.44   -0.32  -26.44  -19.10   67.83
   9.175  -18.10   36.87   -0.36  -26.85   -0.35  -26.80  -18.69   65.14
   9.240  -17.66   34.71   -0.42  -27.19   -0.41  -27.18  -18.32   62.01
   9.305  -17.18   32.48   -0.49  -27.55   -0.50  -27.49  -17.98   57.30
   9.370  -16.79   28.74   -0.61  -27.78   -0.61  -27.81  -17.70   51.20
   9.435  -16.51   23.09   -0.75  -27.73   -0.74  -27.72  -17.57   43.58
   9.500  -16.50   14.92   -0.91  -27.11   -0.90  -27.00  -17.71   34.39
   9.565  -17.00    5.83   -1.00  -25.76   -1.00  -25.71  -18.57   24.29
   9.630  -18.29   -1.44   -0.93  -24.24   -0.92  -24.31  -20.26   15.15
   9.695  -20.08   -4.47   -0.76  -23.46   -0.75  -23.55  -22.38   12.01
   9.760  -21.84   -2.41   -0.58  -23.40   -0.58  -23.45  -24.42   16.72
   9.825  -23.19    4.06   -0.45  -23.69   -0.45  -23.72  -25.69   26.27
   9.890  -24.07   12.03   -0.37  -24.17   -0.36  -24.12  -26.04   35.72
   9.955  -24.26   19.64   -0.30  -24.63   -0.29  -24.65  -26.00   43.51
  10.020  -24.28   26.46   -0.26  -25.07   -0.26  -25.09  -25.57   47.98
  10.085  -24.27   31.21   -0.23  -25.53   -0.23  -25.45  -25.09   50.96
  10.150  -24.05   34.59   -0.20  -25.90   -0.21  -25.86  -24.79   53.13
  10.215  -23.80   37.62   -0.19  -26.29   -0.20  -26.25  -24.32   53.29
  10.280  -23.70   40.90   -0.19  -26.65   -0.18  -26.65  -24.03   53.64
  10.345  -23.53   43.14   -0.19  -27.01   -0.19  -26.98  -23.86   53.01
  10.410  -23.31   45.03   -0.18  -27.28   -0.19  -27.30  -23.53   52.24
  10.475  -23.15   46.95   -0.19  -27.63   -0.20  -27.53  -23.38   52.42
  10.540  -22.96   48.30   -0.20  -27.79   -0.20  -27.85  -23.32   50.38
  10.605  -22.76   48.97   -0.21  -28.00   -0.21  -28.04  -23.11   49.12
  10.670  -22.82   50.22   -0.21  -28.20   -0.19  -28.14  -23.11   49.48
  10.735  -22.72   51.85   -0.19  -28.35   -0.19  -28.39  -23.13   48.86
  10.800  -22.50   52.59   -0.18  -28.69   -0.18  -28.60  -22.81   49.11
  10.865  -22.32   53.96   -0.18  -28.91   -0.19  -28.90  -22.73   48.80
  10.930  -22.18   54.86   -0.17  -29.17   -0.17  -29.14  -22.66   47.30
  10.995  -22.06   55.18   -0.18  -29.39   -0.17  -29.38  -22.40   47.03
  11.060  -22.04   55.83   -0.17  -29.65   -0.16  -29.55  -22.31   46.47
  11.125  -21.94   56.07   -0.17  -29.82   -0.18  -29.80  -22.26   45.32
  11.190  -21.80   56.79   -0.17  -30.11   -0.17  -30.11  -22.08   44.82
  11.255  -21.76   57.78   -0.17  -30.29   -0.17  -30.32  -22.05   43.97
  11.320  -21.73   58.01   -0.17  -30.56   -0.16  -30.55  -21.88   43.34
  11.385  -21.58   58.14   -0.16  -30.76   -0.17  -30.72  -21.78   43.31
  11.450  -21.60   58.84   -0.17  -31.00   -0.16  -30.97  -21.69   42.50
  11.515  -21.51   59.04   -0.17  -31.24   -0.17  -31.22  -21.63   41.26
  11.580  -21.44   59.21   -0.16  -31.41   -0.17  -31.39  -21.58   41.38
  11.645  -21.38   59.47   -0.16  -31.69   -0.15  -31.65  -21.50   40.36
  11.710  -21.38   59.93   -0.16  -31.94   -0.15  -31.88  -21.37   39.81
  11.775  -21.23   59.71   -0.16  -32.20   -0.17  -32.22  -21.44   39.74
  11.840  -21.20   60.03   -0.17  -32.47   -0.17  -32.55  -21.29   38.95
  11.905  -21.08   60.05   -0.16  -32.71   -0.16  -32.70  -21.32   39.09
  11.970  -21.10   60.57   -0.17  -32.94   -0.15  -32.89  -21.11   38.65
  12.035  -21.05   60.08   -0.17  -33.18   -0.16  -33.11  -21.07   39.23
  12.100  -20.97   60.32   -0.17  -33.43   -0.17  -33.40  -21.02   39.10
  12.165  -20.83   60.18   -0.17  -33.70   -0.18  -33.73  -21.00   38.93
  12.230  -20.78   60.50   -0.18  -33.95   -0.18  -34.00  -20.76   38.38
  12.295  -20.65   59.46   -0.17  -34.25   -0.17  -34.14  -20.70   39.51
  12.360  -20.48   59.93   -0.17  -34.41   -0.17  -34.43  -20.63   38.70
  12.425  -20.43   59.36   -0.18  -34.80   -0.19  -34.69  -20.46   39.21
  12.490  -20.25   59.18   -0.18  -34.95   -0.18  -34.99  -20.43   38.77
  12.555  -20.16   58.39   -0.19  -35.24   -0.19  -35.18  -20.23   39.10
  12.620  -20.16   57.83   -0.20  -35.53   -0.18  -35.49  -20.04   39.32
  12.685  -20.01   57.20   -0.20  -35.76   -0.20  -35.69  -19.98   39.64
  12.750  -19.74   56.83   -0.20  -36.03   -0.20  -36.10  -19.88   39.49
  12.815  -19.72   56.41   -0.22  -36.33   -0.21  -36.27  -19.65   39.80
  12.880  -19.53   55.84   -0.20  -36.56   -0.19  -36.56  -19.62   39.42
  12.945  -19.42   54.97   -0.23  -36.79   -0.21  -36.75  -19.36   39.95
  13.010  -19.31   53.82   -0.24  -37.20   -0.23  -37.15  -19.24   40.58
  13.075  -19.10   53.55   -0.24  -37.36   -0.23  -37.39  -19.17   40.11
  13.140  -18.93   52.69   -0.24  -37.78   -0.26  -37.79  -19.00   40.65
  13.205  -18.85   51.65   -0.26  -37.98   -0.24  -38.06  -18.63   40.81
  13.270  -18.55   50.89   -0.27  -38.38   -0.26  -38.28  -18.57   40.95
  13.335  -18.42   50.49   -0.28  -38.56   -0.26  -38.55  -18.38   41.28
  13.400  -18.25   48.92   -0.30  -38.99   -0.31  -38.97  -18.22   41.20
  13.465  -17.96   48.50   -0.29  -39.18   -0.29  -39.14  -17.99   41.17
  13.530  -17.82   47.28   -0.32  -39.45   -0.31  -39.44  -17.73   41.89
  13.595  -17.56   45.73   -0.35  -39.81   -0.31  -39.66  -17.60   41.73
  13.660  -17.24   45.06   -0.35  -40.12   -0.35  -40.11  -17.39   41.62
  13.725  -16.98   43.97   -0.34  -40.40   -0.35  -40.38  -17.20   41.82
  13.790  -16.78   42.21   -0.36  -40.75   -0.39  -40.77  -16.93   41.49
  13.855  -16.39   41.00   -0.37  -41.11   -0.36  -41.07  -16.70   41.93
  13.920  -16.12   39.53   -0.37  -41.43   -0.37  -41.45  -16.51   41.94
  13.985  -15.73   36.71   -0.39  -42.11   -0.39  -42.07  -16.29   41.98
  14.050  -15.52   35.34   -0.41  -42.46   -0.42  -42.50  -16.01   41.85
  14.115  -15.36   32.55   -0.48  -42.97   -0.46  -43.03  -15.63   42.67
  14.180  -15.14   31.14   -0.51  -43.40   -0.51  -43.40  -15.27   41.27
  14.245  -14.89   29.30   -0.57  -43.91   -0.55  -43.80  -15.01   41.08
  14.310  -14.62   28.00   -0.61  -44.34   -0.62  -44.36  -14.74   39.38
  14.375  -14.32   26.19   -0.68  -44.82   -0.68  -44.78  -14.36   38.27
  14.440  -14.01   24.66   -0.74  -45.29   -0.74  -45.31  -14.04   36.94
  14.505  -13.69   22.09   -0.83  -45.77   -0.82  -45.70  -13.72   35.70
  14.570  -13.20   20.33   -0.92  -46.33   -0.93  -46.18  -13.50   33.40
  14.635  -12.94   17.60   -1.03  -46.77   -1.03  -46.76  -13.13   31.25
  14.700  -12.54   14.46   -1.17  -47.28   -1.19  -47.14  -12.85   28.67
  14.765  -12.23   11.14   -1.33  -47.54   -1.34  -47.58  -12.47   25.85
  14.830  -11.85    7.49   -1.55  -47.83   -1.53  -47.49  -12.29   22.49
  14.895  -11.49    3.64   -1.76  -47.77   -1.76  -47.59  -12.06   17.78
  14.960  -11.23   -1.02   -2.01  -47.21   -2.00  -47.07  -11.88   13.22
  15.025  -11.05   -6.39   -2.26  -46.23   -2.27  -46.24  -11.77    7.50
  15.090  -10.91  -12.30   -2.49  -44.58   -2.47  -44.54  -11.79    1.80
  15.155  -10.97  -18.38   -2.62  -42.48   -2.60  -42.41  -12.03   -5.50
  15.220  -11.16  -24.93   -2.65  -40.10   -2.62  -40.12  -12.51  -13.03
  15.285  -11.64  -30.55   -2.55  -37.93   -2.55  -37.78  -13.24  -20.37
  15.350  -12.26  -36.47   -2.36  -35.92   -2.35  -36.00  -14.18  -26.39
  15.415  -13.00  -41.02   -2.11  -34.65   -2.10  -34.69  -15.37  -31.90
  15.480  -13.84  -44.17   -1.83  -33.98   -1.82  -34.04  -16.82  -36.56
  15.545  -14.73  -46.42   -1.57  -33.87   -1.56  -33.85  -18.41  -40.47
  15.610  -15.74  -47.11   -1.35  -34.09   -1.35  -34.06  -20.16  -41.68
  15.675  -16.76  -46.56   -1.17  -34.56   -1.18  -34.52  -22.25  -41.41
  15.740  -17.67  -45.33   -1.02  -35.07   -1.02  -35.14  -24.39  -38.61
  15.805  -18.44  -41.79   -0.91  -35.64   -0.90  -35.58  -26.86  -30.25
  15.870  -19.19  -37.80   -0.81  -36.34   -0.81  -36.25  -29.51  -15.62
  15.935  -19.70  -34.11   -0.73  -36.88   -0.73  -36.89  -30.84    5.60
  16.000  -20.03  -28.87   -0.67  -37.51   -0.67  -37.50  -30.19   31.55
  16.065  -20.20  -23.63   -0.61  -38.08   -0.62  -37.98  -28.77   48.52
  16.130  -20.28  -18.58   -0.58  -38.59   -0.57  -38.53  -27.17   56.39
  16.195  -20.27  -14.35   -0.54  -39.14   -0.55  -39.08  -25.59   62.01
  16.260  -20.13  -10.54   -0.51  -39.59   -0.52  -39.54  -24.33   65.51
  16.325  -19.86   -7.26   -0.49  -40.03   -0.49  -40.06  -23.31   67.60
  16.390  -19.62   -4.21   -0.47  -40.49   -0.47  -40.45  -22.45   68.73
  16.455  -19.37   -1.50   -0.45  -40.96   -0.45  -40.87  -21.68   69.25
  16.520  -19.11    0.64   -0.45  -41.37   -0.45  -41.39  -20.95   69.78
  16.585  -18.83    2.01   -0.44  -41.78   -0.43  -41.78  -20.36   70.77
  16.650  -18.58    3.59   -0.43  -42.17   -0.43  -42.14  -19.88   70.60
  16.715  -18.28    5.87   -0.42  -42.54   -0.41  -42.41  -19.41   70.44
  16.780  -18.09    6.41   -0.42  -42.84   -0.40  -42.87  -19.01   70.56
  16.845  -17.83    7.49   -0.41  -43.31   -0.41  -43.17  -18.57   70.16
  16.910  -17.60    8.26   -0.41  -43.59   -0.41  -43.62  -18.19   70.59
  16.975  -17.27    8.63   -0.41  -43.93   -0.40  -44.02  -17.95   70.21
  17.040  -17.10   10.31   -0.41  -44.36   -0.40  -44.26  -17.55   69.22
  17.105  -16.88   10.55   -0.40  -44.61   -0.39  -44.57  -17.32   69.71
  17.170  -16.70   10.63   -0.40  -44.90   -0.40  -44.91  -17.11   69.44
  17.235  -16.45   11.20   -0.40  -45.29   -0.40  -45.41  -16.78   68.71
  17.300  -16.27   11.95   -0.39  -45.54   -0.40  -45.50  -16.60   68.80
  17.365  -16.01   12.10   -0.40  -45.81   -0.39  -45.80  -16.45   68.04
  17.430  -15.95   13.21   -0.40  -46.19   -0.42  -46.09  -16.13   67.42
  17.495  -15.78   12.67   -0.41  -46.34   -0.41  -46.42  -16.03   67.96
  17.560  -15.54   13.02   -0.40  -46.67   -0.41  -46.66  -15.87   66.84
  17.625  -15.47   13.52   -0.41  -47.00   -0.40  -47.07  -15.61   66.32
