!  American Technical Ceramics   Date:  10/27/06
!  One Norden Lane
!  Huntington Station,  NY.   11746-2102
!  Tel:  (631) 622-4700               Fax:  (631) 622-4748
!  Part Number  600L270		Mounting Orientation:  Horizontal
!  Description: Ultra Low ESR Microwave capacitors
!  Application: Coupling, Bypass, Tuning, DC Block
!               Filters, Matching
# GHZ S DB R 50
! Freq   |S11|   S11 Ph  |S21|   S21 Ph  |S12|   S12 Ph  |S22|   S22 Ph
    0.00    0.00    0.00 -999.00   90.00 -999.00   90.00    0.00    0.00
   0.400  -16.89  -81.85   -0.11    7.43   -0.11    7.44  -16.83  -81.11
   0.445  -17.83  -82.82   -0.09    6.45   -0.09    6.46  -17.93  -82.52
   0.490  -18.74  -83.56   -0.07    5.66   -0.08    5.67  -18.68  -83.20
   0.535  -19.56  -84.18   -0.06    4.96   -0.07    4.97  -19.62  -83.46
   0.580  -20.34  -84.70   -0.05    4.35   -0.06    4.36  -20.35  -84.64
   0.625  -21.06  -85.41   -0.05    3.81   -0.05    3.82  -21.10  -84.44
   0.670  -21.76  -85.80   -0.04    3.33   -0.04    3.34  -21.84  -85.78
   0.715  -22.45  -86.16   -0.04    2.90   -0.04    2.90  -22.42  -85.36
   0.760  -23.08  -86.39   -0.03    2.48   -0.04    2.50  -23.24  -85.99
   0.805  -23.70  -86.67   -0.03    2.12   -0.03    2.13  -23.73  -86.60
   0.850  -24.29  -87.17   -0.03    1.77   -0.03    1.78  -24.48  -86.55
   0.895  -24.89  -87.34   -0.02    1.45   -0.03    1.46  -24.96  -87.73
   0.940  -25.50  -87.53   -0.02    1.15   -0.03    1.16  -25.58  -86.65
   0.985  -26.07  -87.69   -0.02    0.86   -0.02    0.87  -26.25  -88.05
   1.030  -26.65  -87.89   -0.02    0.59   -0.02    0.60  -26.72  -87.45
   1.075  -27.19  -88.21   -0.02    0.32   -0.02    0.34  -27.47  -88.43
   1.120  -27.80  -88.17   -0.01    0.08   -0.02    0.09  -27.82  -88.53
   1.165  -28.37  -88.32   -0.01   -0.16   -0.02   -0.15  -28.65  -87.85
   1.210  -28.94  -88.17   -0.01   -0.39   -0.02   -0.39  -29.10  -89.41
   1.255  -29.52  -88.52   -0.01   -0.62   -0.02   -0.61  -29.76  -88.04
   1.300  -30.10  -88.56   -0.01   -0.84   -0.02   -0.82  -30.37  -90.11
   1.345  -30.76  -88.53   -0.01   -1.04   -0.02   -1.03  -30.81  -88.19
   1.390  -31.36  -88.33   -0.01   -1.25   -0.02   -1.24  -31.78  -89.30
   1.435  -32.03  -88.27   -0.01   -1.45   -0.02   -1.44  -32.10  -89.31
   1.480  -32.67  -88.31   -0.01   -1.65   -0.02   -1.64  -33.06  -88.51
   1.525  -33.38  -88.02   -0.01   -1.85   -0.02   -1.82  -33.41  -90.38
   1.570  -34.10  -87.45   -0.01   -2.02   -0.02   -2.01  -34.25  -87.48
   1.615  -34.85  -86.95   -0.01   -2.21   -0.01   -2.19  -35.17  -91.00
   1.660  -35.60  -86.34   -0.01   -2.39   -0.02   -2.37  -35.71  -88.09
   1.705  -36.33  -86.05   -0.01   -2.57   -0.02   -2.56  -37.19  -89.68
   1.750  -37.23  -86.21   -0.01   -2.75   -0.02   -2.72  -37.48  -89.05
   1.795  -38.33  -85.30   -0.01   -2.91   -0.02   -2.89  -39.36  -84.78
   1.840  -39.38  -83.73   -0.01   -3.08   -0.02   -3.07  -39.95  -89.89
   1.885  -40.56  -81.99   -0.01   -3.25   -0.01   -3.24  -41.33  -80.04
   1.930  -41.78  -79.84   -0.01   -3.42   -0.01   -3.41  -43.29  -88.51
   1.975  -43.25  -76.31   -0.01   -3.59   -0.01   -3.57  -43.59  -76.83
   2.020  -44.68  -72.85   -0.01   -3.75   -0.01   -3.74  -48.34  -73.09
   2.065  -46.56  -67.01   -0.01   -3.91   -0.01   -3.90  -47.59  -75.15
   2.110  -48.59  -59.42   -0.01   -4.07   -0.01   -4.06  -51.57  -34.27
   2.155  -50.97  -43.82   -0.01   -4.24   -0.01   -4.23  -56.55  -50.06
   2.200  -52.68  -21.58   -0.01   -4.39   -0.02   -4.39  -50.73    3.75
   2.245  -53.06    5.44   -0.01   -4.55   -0.02   -4.54  -52.06   57.51
   2.290  -51.47   29.76   -0.01   -4.71   -0.02   -4.70  -49.79   32.57
   2.335  -49.61   45.92   -0.01   -4.87   -0.02   -4.86  -45.35   61.99
   2.380  -47.34   55.53   -0.01   -5.03   -0.02   -5.02  -46.68   59.47
   2.425  -45.73   61.31   -0.01   -5.19   -0.02   -5.17  -42.06   58.74
   2.470  -44.47   64.89   -0.02   -5.34   -0.02   -5.33  -42.62   70.63
   2.515  -43.22   68.32   -0.02   -5.49   -0.02   -5.48  -40.80   57.25
   2.560  -42.20   70.97   -0.02   -5.65   -0.02   -5.64  -39.65   70.97
   2.605  -41.42   73.61   -0.02   -5.80   -0.02   -5.78  -39.84   60.44
   2.650  -40.70   77.31   -0.02   -5.95   -0.02   -5.94  -37.64   66.40
   2.695  -39.83   80.31   -0.02   -6.09   -0.02   -6.08  -38.41   65.88
   2.740  -38.86   82.96   -0.02   -6.25   -0.02   -6.24  -36.56   61.82
   2.785  -38.13   84.42   -0.02   -6.41   -0.02   -6.39  -36.72   66.85
   2.830  -37.43   86.11   -0.02   -6.56   -0.02   -6.55  -35.82   57.59
   2.875  -36.84   88.44   -0.02   -6.72   -0.02   -6.69  -35.26   64.58
   2.920  -36.18   90.83   -0.02   -6.87   -0.03   -6.85  -35.75   57.10
   2.965  -35.39   93.17   -0.02   -7.04   -0.03   -7.01  -34.17   60.19
   3.010  -37.48   75.61   -0.02   -7.17   -0.02   -7.13  -36.71   79.96
   3.055  -36.87   76.35   -0.02   -7.32   -0.03   -7.30  -35.81   75.98
   3.100  -36.27   76.15   -0.02   -7.48   -0.03   -7.46  -35.35   80.20
   3.145  -35.66   77.00   -0.02   -7.65   -0.03   -7.62  -35.17   75.99
   3.190  -35.01   76.51   -0.03   -7.82   -0.03   -7.79  -34.11   77.88
   3.235  -34.43   76.11   -0.03   -7.99   -0.03   -7.97  -34.08   76.28
   3.280  -33.84   75.64   -0.03   -8.16   -0.04   -8.13  -33.07   75.09
   3.325  -33.25   74.82   -0.04   -8.34   -0.04   -8.31  -32.86   76.50
   3.370  -32.62   74.08   -0.04   -8.53   -0.05   -8.50  -32.03   72.07
   3.415  -31.94   73.16   -0.05   -8.73   -0.05   -8.70  -31.41   72.50
   3.460  -31.18   71.40   -0.06   -8.95   -0.07   -8.92  -30.99   68.18
   3.505  -30.29   68.47   -0.08   -9.18   -0.08   -9.15  -29.99   66.72
   3.550  -29.36   63.50   -0.11   -9.42   -0.12   -9.39  -29.52   61.18
   3.595  -28.41   55.42   -0.17   -9.59   -0.17   -9.56  -28.42   52.50
   3.640  -27.92   41.60   -0.24   -9.49   -0.25   -9.46  -28.40   38.94
   3.685  -28.87   24.55   -0.28   -8.92   -0.28   -8.88  -29.43   20.51
   3.730  -31.53   14.00   -0.22   -8.49   -0.23   -8.45  -32.91   12.57
   3.775  -34.58   17.15   -0.15   -8.50   -0.16   -8.46  -36.38   16.05
   3.820  -36.39   30.09   -0.11   -8.69   -0.11   -8.65  -37.97   39.68
   3.865  -36.74   43.80   -0.08   -8.91   -0.09   -8.88  -38.47   54.92
   3.910  -36.31   53.76   -0.07   -9.14   -0.07   -9.10  -36.64   64.75
   3.955  -35.59   59.55   -0.06   -9.35   -0.06   -9.32  -36.00   73.65
   4.000  -34.99   63.65   -0.05   -9.55   -0.06   -9.51  -35.08   72.13
   4.045  -34.36   66.28   -0.05   -9.74   -0.05   -9.70  -34.22   76.96
   4.090  -33.83   67.99   -0.05   -9.91   -0.05   -9.88  -33.97   75.60
   4.135  -33.33   69.12   -0.04  -10.09   -0.05  -10.06  -32.95   76.76
   4.180  -32.89   70.08   -0.04  -10.26   -0.05  -10.23  -32.97   77.82
   4.225  -32.45   70.71   -0.04  -10.43   -0.04  -10.40  -32.27   75.81
   4.270  -32.04   71.05   -0.04  -10.60   -0.04  -10.58  -32.05   78.41
   4.315  -31.67   71.47   -0.04  -10.76   -0.04  -10.74  -31.70   75.46
   4.360  -31.33   71.60   -0.04  -10.94   -0.05  -10.90  -31.16   77.58
   4.405  -31.00   71.84   -0.04  -11.11   -0.05  -11.07  -31.19   75.97
   4.450  -30.67   72.13   -0.05  -11.26   -0.05  -11.23  -30.52   76.04
   4.495  -30.30   72.39   -0.05  -11.42   -0.05  -11.39  -30.49   76.59
   4.540  -29.85   72.35   -0.05  -11.56   -0.05  -11.53  -29.87   74.20
   4.585  -29.43   71.49   -0.05  -11.70   -0.05  -11.68  -29.71   75.25
   4.630  -29.12   70.10   -0.04  -11.90   -0.04  -11.87  -29.61   72.07
   4.675  -28.98   69.14   -0.04  -12.13   -0.05  -12.10  -29.25   73.91
   4.720  -28.76   69.11   -0.05  -12.31   -0.05  -12.29  -29.19   73.10
   4.765  -28.47   69.11   -0.06  -12.49   -0.06  -12.46  -28.59   72.82
   4.810  -28.16   68.96   -0.06  -12.66   -0.06  -12.64  -28.51   73.03
   4.855  -27.82   68.49   -0.07  -12.84   -0.07  -12.81  -28.02   70.95
   4.900  -27.50   67.97   -0.07  -13.03   -0.07  -13.01  -27.73   71.98
   4.945  -27.14   67.33   -0.08  -13.22   -0.08  -13.19  -27.46   69.79
   4.990  -26.81   66.67   -0.08  -13.43   -0.08  -13.41  -26.97   69.99
   5.035  -26.42   65.87   -0.09  -13.64   -0.09  -13.61  -26.78   68.47
   5.080  -26.03   64.82   -0.10  -13.87   -0.10  -13.84  -26.19   67.16
   5.125  -25.62   63.70   -0.11  -14.10   -0.12  -14.07  -25.97   66.53
   5.170  -25.18   62.30   -0.13  -14.33   -0.13  -14.31  -25.42   63.85
   5.215  -24.71   60.65   -0.15  -14.59   -0.15  -14.57  -25.00   63.11
   5.260  -24.20   58.63   -0.18  -14.86   -0.18  -14.83  -24.54   59.67
   5.305  -23.66   56.07   -0.21  -15.14   -0.21  -15.11  -23.92   57.57
   5.350  -23.09   52.90   -0.26  -15.40   -0.26  -15.38  -23.50   53.58
   5.395  -22.49   48.69   -0.32  -15.65   -0.32  -15.62  -22.79   49.13
   5.440  -21.90   43.41   -0.40  -15.82   -0.40  -15.79  -22.35   43.65
   5.485  -21.37   36.62   -0.50  -15.83   -0.50  -15.80  -21.74   35.89
   5.530  -21.01   27.99   -0.61  -15.57   -0.61  -15.53  -21.47   27.38
   5.575  -20.93   17.80   -0.71  -14.92   -0.71  -14.89  -21.39   15.99
   5.620  -21.31    6.74   -0.75  -13.98   -0.74  -13.94  -21.80    5.04
   5.665  -22.19   -3.88   -0.71  -13.04   -0.71  -13.02  -22.75   -7.31
   5.710  -23.51  -12.74   -0.61  -12.42   -0.61  -12.38  -24.05  -16.04
   5.755  -25.13  -19.11   -0.51  -12.16   -0.51  -12.12  -25.87  -24.42
   5.800  -26.92  -22.55   -0.41  -12.16   -0.41  -12.12  -27.53  -28.14
   5.845  -28.76  -23.20   -0.33  -12.31   -0.34  -12.28  -29.83  -30.52
   5.890  -30.57  -21.09   -0.28  -12.53   -0.28  -12.50  -31.46  -30.79
   5.935  -32.23  -16.26   -0.23  -12.78   -0.23  -12.74  -33.76  -24.63
   5.980  -33.61   -8.87   -0.20  -13.03   -0.20  -13.00  -35.53  -22.35
   6.025  -34.61    0.29   -0.17  -13.29   -0.17  -13.24  -36.77   -8.08
   6.070  -35.23    9.74   -0.15  -13.53   -0.15  -13.49  -38.51    1.48
   6.115  -35.42   19.09   -0.13  -13.77   -0.13  -13.72  -38.37   13.57
   6.160  -35.31   27.45   -0.12  -13.99   -0.12  -13.95  -38.71   31.11
   6.205  -34.96   34.63   -0.11  -14.21   -0.11  -14.16  -38.14   34.04
   6.250  -34.56   40.28   -0.10  -14.41   -0.10  -14.36  -36.88   46.87
   6.295  -34.08   44.83   -0.09  -14.62   -0.09  -14.56  -36.96   49.85
   6.340  -33.60   48.26   -0.09  -14.80   -0.09  -14.76  -35.41   52.87
   6.385  -33.08   51.16   -0.08  -14.99   -0.08  -14.95  -35.30   58.85
   6.430  -32.68   53.35   -0.08  -15.16   -0.08  -15.12  -34.50   56.61
   6.475  -32.25   55.29   -0.07  -15.35   -0.07  -15.30  -33.87   62.50
   6.520  -31.87   56.60   -0.07  -15.52   -0.07  -15.48  -33.74   60.53
   6.565  -31.51   58.00   -0.07  -15.69   -0.07  -15.65  -32.77   63.26
   6.610  -31.12   59.05   -0.07  -15.86   -0.07  -15.81  -32.88   64.19
   6.655  -30.83   59.96   -0.07  -16.03   -0.06  -15.98  -32.04   62.90
   6.700  -30.49   60.73   -0.06  -16.19   -0.06  -16.14  -31.90   66.75
   6.745  -30.20   61.21   -0.06  -16.35   -0.06  -16.30  -31.54   63.24
   6.790  -29.90   61.99   -0.06  -16.51   -0.06  -16.47  -30.97   66.98
   6.835  -29.64   62.22   -0.06  -16.67   -0.06  -16.62  -31.09   64.71
   6.880  -29.38   62.75   -0.06  -16.83   -0.06  -16.78  -30.36   65.58
   6.925  -29.12   63.00   -0.06  -16.98   -0.06  -16.94  -30.46   66.19
   6.970  -28.89   63.26   -0.06  -17.13   -0.06  -17.09  -29.89   64.61
   7.015  -28.65   63.45   -0.06  -17.29   -0.06  -17.25  -29.75   66.82
   7.060  -28.41   63.65   -0.07  -17.45   -0.06  -17.39  -29.51   64.05
   7.105  -28.18   63.82   -0.06  -17.59   -0.06  -17.55  -29.08   66.02
   7.150  -27.96   63.89   -0.07  -17.74   -0.06  -17.69  -29.16   64.32
   7.195  -27.76   64.00   -0.07  -17.88   -0.06  -17.84  -28.59   64.32
   7.240  -27.56   63.94   -0.07  -18.03   -0.06  -17.98  -28.67   64.59
   7.285  -27.34   63.98   -0.07  -18.18   -0.07  -18.13  -28.23   62.68
   7.330  -27.14   64.08   -0.07  -18.33   -0.07  -18.30  -28.12   64.22
   7.375  -26.94   63.99   -0.07  -18.48   -0.07  -18.44  -27.96   61.45
   7.420  -26.72   63.81   -0.07  -18.63   -0.07  -18.59  -27.58   62.57
   7.465  -26.50   63.54   -0.08  -18.78   -0.08  -18.74  -27.67   60.81
   7.510  -26.28   63.19   -0.08  -18.93   -0.08  -18.88  -27.20   60.62
   7.555  -26.09   62.75   -0.09  -19.06   -0.09  -19.02  -27.28   60.77
   7.600  -25.91   62.16   -0.09  -19.19   -0.09  -19.14  -26.88   58.58
   7.645  -25.74   61.35   -0.10  -19.33   -0.10  -19.28  -26.77   59.68
   7.690  -25.59   60.66   -0.10  -19.45   -0.10  -19.40  -26.67   56.92
   7.735  -25.47   59.85   -0.11  -19.56   -0.11  -19.53  -26.38   57.35
   7.780  -25.38   58.80   -0.12  -19.66   -0.11  -19.61  -26.56   55.28
   7.825  -25.34   57.85   -0.12  -19.75   -0.12  -19.71  -26.22   54.20
   7.870  -25.33   57.12   -0.13  -19.82   -0.12  -19.77  -26.49   54.45
   7.915  -25.38   56.69   -0.12  -19.89   -0.12  -19.84  -26.35   52.60
   7.960  -25.43   56.43   -0.12  -19.97   -0.11  -19.93  -26.43   54.48
   8.005  -25.48   56.46   -0.11  -20.07   -0.11  -20.02  -26.46   52.78
   8.050  -25.51   56.87   -0.10  -20.19   -0.10  -20.15  -26.20   54.78
   8.095  -25.52   57.58   -0.10  -20.33   -0.09  -20.28  -26.39   54.62
   8.140  -25.48   58.55   -0.09  -20.50   -0.09  -20.45  -26.02   54.80
   8.185  -25.41   59.39   -0.09  -20.66   -0.09  -20.62  -26.15   56.13
   8.230  -25.25   60.17   -0.09  -20.83   -0.08  -20.77  -25.86   54.96
   8.275  -25.10   60.78   -0.09  -20.97   -0.09  -20.93  -25.72   57.13
   8.320  -25.05   65.14   -0.09  -21.12   -0.09  -21.07  -25.64   50.14
   8.365  -24.91   65.28   -0.09  -21.27   -0.09  -21.22  -25.20   51.65
   8.410  -24.75   65.17   -0.10  -21.41   -0.09  -21.36  -25.30   51.50
   8.455  -24.59   65.16   -0.10  -21.56   -0.09  -21.51  -24.77   51.04
   8.500  -24.44   64.99   -0.10  -21.71   -0.09  -21.67  -24.79   52.33
   8.545  -24.31   64.86   -0.10  -21.87   -0.10  -21.82  -24.48   50.33
   8.590  -24.19   64.67   -0.10  -22.03   -0.10  -21.99  -24.23   52.06
   8.635  -24.07   64.69   -0.11  -22.19   -0.10  -22.14  -24.16   50.16
   8.680  -23.94   64.76   -0.11  -22.35   -0.11  -22.29  -23.74   50.60
   8.725  -23.81   64.97   -0.12  -22.48   -0.12  -22.43  -23.86   49.73
   8.770  -23.62   65.15   -0.13  -22.62   -0.12  -22.57  -23.49   48.60
   8.815  -23.43   65.25   -0.13  -22.76   -0.12  -22.72  -23.57   49.26
   8.860  -23.20   65.15   -0.14  -22.91   -0.13  -22.86  -23.43   47.36
   8.905  -22.97   64.99   -0.14  -23.06   -0.14  -23.01  -23.31   48.77
   8.950  -22.71   64.53   -0.15  -23.18   -0.15  -23.14  -23.37   47.55
   8.995  -22.47   63.96   -0.16  -23.32   -0.16  -23.28  -23.03   48.43
   9.040  -22.24   63.10   -0.17  -23.44   -0.16  -23.38  -23.10   48.74
   9.085  -22.01   62.02   -0.18  -23.55   -0.17  -23.50  -22.67   48.22
   9.130  -21.81   60.81   -0.18  -23.68   -0.17  -23.63  -22.55   49.41
   9.175  -21.62   59.53   -0.19  -23.80   -0.18  -23.75  -22.29   47.41
   9.220  -21.49   58.19   -0.19  -23.94   -0.19  -23.89  -22.02   48.01
   9.265  -21.35   56.83   -0.20  -24.07   -0.19  -24.02  -21.98   46.12
   9.310  -21.22   55.54   -0.21  -24.20   -0.20  -24.17  -21.62   45.93
   9.355  -21.11   54.18   -0.22  -24.33   -0.21  -24.30  -21.67   45.46
   9.400  -20.99   52.69   -0.23  -24.49   -0.23  -24.43  -21.32   43.81
   9.445  -20.90   50.94   -0.24  -24.64   -0.24  -24.59  -21.22   43.87
   9.490  -20.81   49.26   -0.26  -24.77   -0.25  -24.71  -21.01   41.34
   9.535  -20.77   47.46   -0.28  -24.89   -0.27  -24.86  -20.78   41.05
   9.580  -20.72   45.45   -0.31  -24.99   -0.30  -24.94  -20.78   38.42
   9.625  -20.72   43.27   -0.33  -25.04   -0.33  -25.01  -20.50   36.63
   9.670  -20.76   40.88   -0.36  -25.08   -0.35  -25.04  -20.60   34.46
   9.715  -20.88   38.53   -0.38  -25.05   -0.38  -25.00  -20.49   31.52
   9.760  -21.10   36.15   -0.41  -24.98   -0.40  -24.92  -20.71   29.92
   9.805  -21.36   33.84   -0.42  -24.84   -0.42  -24.79  -20.90   26.24
   9.850  -21.73   32.08   -0.43  -24.69   -0.42  -24.64  -21.17   25.38
   9.895  -22.16   30.86   -0.42  -24.52   -0.42  -24.47  -21.69   22.88
   9.940  -22.64   30.38   -0.41  -24.40   -0.40  -24.35  -21.98   22.75
   9.985  -23.13   30.63   -0.39  -24.30   -0.38  -24.26  -22.67   22.77
  10.030  -23.54   31.73   -0.36  -24.25   -0.35  -24.21  -22.89   23.10
  10.075  -23.95   33.42   -0.33  -24.26   -0.33  -24.22  -23.40   25.98
  10.120  -24.23   35.55   -0.30  -24.33   -0.30  -24.29  -23.63   26.51
  10.165  -24.44   37.90   -0.28  -24.42   -0.27  -24.38  -23.75   30.31
  10.210  -24.56   40.28   -0.25  -24.53   -0.25  -24.50  -24.01   31.60
  10.255  -24.57   42.69   -0.24  -24.67   -0.23  -24.63  -23.80   34.21
  10.300  -24.56   44.84   -0.22  -24.83   -0.21  -24.77  -24.02   36.83
  10.345  -24.46   46.73   -0.20  -24.97   -0.20  -24.92  -23.79   37.29
  10.390  -24.36   48.39   -0.19  -25.13   -0.18  -25.08  -23.75   40.47
  10.435  -24.20   49.90   -0.18  -25.28   -0.17  -25.23  -23.69   40.35
  10.480  -24.05   51.26   -0.17  -25.44   -0.16  -25.39  -23.40   42.79
  10.525  -23.90   52.09   -0.16  -25.59   -0.15  -25.57  -23.52   43.26
  10.570  -23.72   53.00   -0.15  -25.76   -0.15  -25.73  -23.15   43.91
  10.615  -23.54   53.62   -0.14  -25.92   -0.14  -25.90  -23.18   45.64
  10.660  -23.38   53.92   -0.14  -26.09   -0.13  -26.06  -22.94   45.14
  10.705  -23.27   54.13   -0.13  -26.25   -0.13  -26.22  -22.84   47.11
  10.750  -23.13   54.50   -0.13  -26.41   -0.13  -26.39  -22.82   46.43
  10.795  -22.99   54.83   -0.13  -26.57   -0.12  -26.54  -22.49   47.93
  10.840  -22.87   55.15   -0.12  -26.73   -0.12  -26.69  -22.55   48.26
  10.885  -22.78   55.07   -0.12  -26.87   -0.12  -26.86  -22.23   48.19
  10.930  -22.66   55.17   -0.12  -27.03   -0.12  -27.00  -22.27   49.39
  10.975  -22.52   55.36   -0.12  -27.17   -0.11  -27.14  -22.06   48.33
  11.020  -22.43   55.54   -0.12  -27.32   -0.11  -27.29  -21.89   49.82
  11.065  -22.36   55.75   -0.11  -27.46   -0.11  -27.43  -21.94   48.64
  11.110  -22.29   55.87   -0.11  -27.58   -0.11  -27.56  -21.68   49.42
  11.155  -22.17   55.86   -0.11  -27.74   -0.11  -27.72  -21.79   49.72
  11.200  -22.08   56.16   -0.11  -27.89   -0.10  -27.86  -21.52   49.36
  11.245  -22.01   56.37   -0.11  -28.02   -0.10  -28.01  -21.55   50.39
  11.290  -21.92   56.23   -0.10  -28.17   -0.10  -28.16  -21.47   49.26
  11.335  -21.77   56.30   -0.10  -28.33   -0.10  -28.29  -21.30   50.54
  11.380  -21.67   56.37   -0.10  -28.46   -0.09  -28.44  -21.31   49.78
  11.425  -21.59   56.51   -0.10  -28.62   -0.10  -28.61  -21.07   50.33
  11.470  -21.51   56.27   -0.10  -28.76   -0.09  -28.74  -21.19   50.35
  11.515  -21.43   56.19   -0.10  -28.91   -0.09  -28.87  -20.95   49.68
  11.560  -21.32   56.16   -0.10  -29.07   -0.10  -29.05  -20.94   50.86
  11.605  -21.24   56.34   -0.10  -29.24   -0.10  -29.20  -20.88   49.80
  11.650  -21.17   55.96   -0.10  -29.38   -0.09  -29.36  -20.74   50.53
  11.695  -21.07   55.76   -0.10  -29.53   -0.09  -29.51  -20.80   49.67
  11.740  -20.98   55.76   -0.10  -29.68   -0.10  -29.66  -20.54   49.77
  11.785  -20.91   55.61   -0.10  -29.83   -0.10  -29.80  -20.65   49.98
  11.830  -20.86   55.34   -0.11  -29.97   -0.10  -29.95  -20.53   49.25
  11.875  -20.80   55.09   -0.11  -30.12   -0.11  -30.10  -20.52   49.71
  11.920  -20.76   55.02   -0.11  -30.25   -0.11  -30.22  -20.49   48.84
  11.965  -20.68   54.88   -0.12  -30.37   -0.12  -30.34  -20.40   49.56
  12.010  -20.67   54.79   -0.12  -30.50   -0.12  -30.47  -20.47   49.17
  12.055  -20.63   54.55   -0.12  -30.62   -0.12  -30.59  -20.34   49.12
  12.100  -20.60   54.50   -0.12  -30.72   -0.12  -30.73  -20.40   49.50
  12.145  -20.53   54.49   -0.12  -30.86   -0.12  -30.84  -20.27   48.89
  12.190  -20.53   54.51   -0.12  -31.00   -0.12  -30.98  -20.29   50.02
  12.235  -20.48   54.62   -0.12  -31.12   -0.12  -31.09  -20.30   48.92
  12.280  -20.44   54.60   -0.12  -31.25   -0.12  -31.21  -20.13   49.82
  12.325  -20.41   54.75   -0.12  -31.39   -0.12  -31.37  -20.21   49.50
