!  American Technical Ceramics   Date:  10/27/06
!  One Norden Lane
!  Huntington Station,  NY.   11746-2102
!  Tel:  (631) 622-4700               Fax:  (631) 622-4748
!  Part Number  600L120  Mounting Orientation:  Horizontal
!  Description: Ultra Low ESR Microwave capacitors
!  Application: Coupling, Bypass, Tuning, DC Block
!               Filters, Matching
# GHZ S DB R 50
! Freq   |S11|   S11 Ph  |S21|   S21 Ph  |S12|   S12 Ph  |S22|   S22 Ph
    0.00    0.00    0.00 -999.00   90.00 -999.00   90.00    0.00    0.00
   0.400  -10.11  -72.11   -0.49   17.47   -0.48   17.42  -10.03  -71.02
   0.445  -10.96  -74.00   -0.40   15.60   -0.38   15.61  -11.04  -73.75
   0.490  -11.77  -75.57   -0.33   14.06   -0.33   14.04  -11.62  -74.87
   0.535  -12.52  -76.97   -0.28   12.70   -0.26   12.68  -12.60  -75.88
   0.580  -13.22  -78.08   -0.24   11.55   -0.23   11.56  -13.10  -78.04
   0.625  -13.87  -79.15   -0.21   10.53   -0.20   10.48  -13.88  -77.47
   0.670  -14.49  -80.01   -0.18    9.63   -0.17    9.65  -14.50  -80.31
   0.715  -15.09  -80.86   -0.16    8.83   -0.15    8.78  -14.96  -79.24
   0.760  -15.64  -81.55   -0.14    8.09   -0.13    8.09  -15.78  -81.36
   0.805  -16.19  -82.18   -0.12    7.43   -0.12    7.41  -16.00  -81.48
   0.850  -16.69  -82.85   -0.11    6.81   -0.10    6.79  -16.86  -81.64
   0.895  -17.20  -83.35   -0.10    6.25   -0.10    6.26  -17.06  -83.65
   0.940  -17.69  -83.93   -0.09    5.74   -0.08    5.71  -17.73  -81.79
   0.985  -18.16  -84.26   -0.08    5.26   -0.08    5.26  -18.19  -85.26
   1.030  -18.62  -84.75   -0.08    4.83   -0.07    4.78  -18.46  -82.90
   1.075  -19.06  -85.12   -0.07    4.39   -0.06    4.38  -19.31  -85.49
   1.120  -19.51  -85.56   -0.06    4.00   -0.06    3.97  -19.21  -85.05
   1.165  -19.94  -85.90   -0.06    3.61   -0.05    3.58  -20.21  -84.49
   1.210  -20.37  -86.14   -0.05    3.25   -0.05    3.25  -20.16  -87.45
   1.255  -20.79  -86.44   -0.05    2.92   -0.04    2.86  -20.83  -83.95
   1.300  -21.19  -86.74   -0.05    2.58   -0.04    2.58  -21.27  -88.90
   1.345  -21.61  -87.04   -0.04    2.28   -0.04    2.24  -21.32  -85.03
   1.390  -22.02  -87.33   -0.04    1.96   -0.03    1.94  -22.37  -88.09
   1.435  -22.43  -87.43   -0.04    1.67   -0.03    1.66  -21.98  -87.62
   1.480  -22.83  -87.82   -0.04    1.38   -0.03    1.36  -23.17  -85.87
   1.525  -23.23  -87.83   -0.03    1.12   -0.03    1.11  -22.91  -90.55
   1.570  -23.66  -88.12   -0.04    0.88   -0.03    0.82  -23.54  -85.00
   1.615  -24.03  -88.00   -0.03    0.61   -0.02    0.60  -24.14  -91.85
   1.660  -24.42  -88.26   -0.03    0.38   -0.03    0.32  -23.93  -86.67
   1.705  -24.78  -88.49   -0.03    0.12   -0.02    0.10  -25.36  -90.14
   1.750  -25.21  -88.85   -0.03   -0.11   -0.02   -0.13  -24.56  -90.39
   1.795  -25.64  -89.07   -0.03   -0.34   -0.02   -0.38  -26.09  -86.35
   1.840  -26.07  -88.91   -0.02   -0.57   -0.02   -0.57  -25.72  -93.84
   1.885  -26.48  -89.03   -0.02   -0.77   -0.02   -0.83  -26.32  -84.84
   1.930  -26.88  -89.08   -0.02   -1.00   -0.02   -1.01  -27.25  -94.52
   1.975  -27.33  -89.13   -0.02   -1.19   -0.02   -1.24  -26.56  -87.43
   2.020  -27.77  -89.24   -0.02   -1.43   -0.01   -1.44  -28.64  -90.29
   2.065  -28.20  -89.00   -0.02   -1.63   -0.02   -1.64  -27.31  -92.33
   2.110  -28.67  -89.31   -0.02   -1.82   -0.01   -1.86  -29.20  -84.73
   2.155  -29.09  -89.09   -0.02   -2.02   -0.01   -2.03  -28.78  -96.80
   2.200  -29.61  -89.37   -0.02   -2.20   -0.01   -2.24  -29.16  -83.38
   2.245  -30.03  -89.17   -0.02   -2.40   -0.01   -2.42  -30.79  -96.28
   2.290  -30.58  -89.27   -0.02   -2.59   -0.02   -2.63  -29.37  -87.57
   2.335  -31.08  -89.60   -0.02   -2.79   -0.01   -2.80  -32.41  -88.36
   2.380  -31.63  -89.49   -0.02   -2.97   -0.01   -2.98  -30.37  -94.15
   2.425  -32.21  -89.85   -0.02   -3.15   -0.01   -3.18  -32.57  -79.71
   2.470  -32.81  -89.59   -0.02   -3.33   -0.01   -3.34  -32.40  -99.33
   2.515  -33.49  -89.52   -0.02   -3.49   -0.01   -3.55  -32.21  -79.78
   2.560  -34.03  -89.54   -0.02   -3.68   -0.01   -3.70  -35.16  -96.24
   2.605  -34.67  -89.30   -0.02   -3.84   -0.02   -3.87  -32.53  -86.56
   2.650  -35.34  -90.79   -0.02   -4.02   -0.01   -4.04  -36.88  -81.34
   2.695  -36.15  -91.31   -0.02   -4.19   -0.01   -4.21  -34.02  -94.79
   2.740  -37.04  -92.90   -0.02   -4.36   -0.01   -4.39  -36.34  -69.70
   2.785  -37.88  -93.52   -0.02   -4.54   -0.01   -4.57  -36.97  -99.76
   2.830  -38.96  -95.10   -0.02   -4.71   -0.01   -4.75  -35.60  -71.05
   2.875  -39.84  -98.09   -0.02   -4.88   -0.01   -4.91  -41.47  -86.98
   2.920  -41.01 -101.96   -0.02   -5.06   -0.02   -5.09  -36.18  -78.33
   2.965  -41.97 -109.47   -0.02   -5.23   -0.02   -5.25  -41.53  -48.54
   3.010  -38.64  -84.53   -0.03   -5.39   -0.02   -5.40  -37.73 -110.15
   3.055  -39.42  -85.07   -0.03   -5.52   -0.02   -5.57  -41.39  -67.00
   3.100  -40.20  -86.68   -0.03   -5.66   -0.02   -5.71  -42.53 -126.53
   3.145  -41.55  -86.72   -0.02   -5.82   -0.02   -5.86  -40.11  -72.94
   3.190  -42.87  -87.23   -0.02   -5.99   -0.02   -6.02  -53.71 -121.65
   3.235  -44.39  -82.04   -0.02   -6.15   -0.02   -6.18  -40.77  -91.50
   3.280  -45.98  -81.41   -0.02   -6.31   -0.02   -6.32  -50.87  -14.14
   3.325  -47.68  -76.60   -0.03   -6.46   -0.02   -6.50  -44.57 -121.33
   3.370  -49.96  -70.48   -0.03   -6.59   -0.02   -6.64  -45.44  -28.06
   3.415  -52.16  -62.75   -0.03   -6.75   -0.02   -6.78  -50.16 -179.61
   3.460  -55.65  -36.54   -0.02   -6.90   -0.02   -6.95  -45.83  -52.52
   3.505  -56.98   -4.53   -0.02   -7.07   -0.02   -7.10  -47.63   91.44
   3.550  -54.41   25.87   -0.03   -7.21   -0.02   -7.24  -50.04 -104.20
   3.595  -51.78   43.20   -0.03   -7.36   -0.02   -7.40  -44.74   56.66
   3.640  -49.84   50.07   -0.03   -7.52   -0.02   -7.56  -49.13  153.95
   3.685  -47.40   57.40   -0.03   -7.66   -0.02   -7.70  -44.89   37.21
   3.730  -46.27   61.73   -0.03   -7.81   -0.02   -7.86  -43.22  111.14
   3.775  -44.43   62.16   -0.03   -7.96   -0.03   -8.01  -50.48   39.59
   3.820  -43.50   65.53   -0.03   -8.11   -0.03   -8.14  -40.28   89.77
   3.865  -42.30   65.03   -0.03   -8.26   -0.02   -8.29  -48.25  105.59
   3.910  -41.29   66.77   -0.03   -8.39   -0.03   -8.43  -39.17   73.47
   3.955  -40.70   67.01   -0.03   -8.54   -0.03   -8.58  -40.91  111.86
   4.000  -39.72   68.19   -0.03   -8.68   -0.02   -8.74  -39.89   66.29
   4.045  -39.25   68.62   -0.03   -8.83   -0.03   -8.90  -37.29   98.43
   4.090  -38.38   68.77   -0.03   -9.00   -0.03   -9.04  -41.00   75.00
   4.135  -37.85   69.57   -0.03   -9.14   -0.02   -9.19  -35.43   85.13
   4.180  -37.25   69.73   -0.03   -9.32   -0.03   -9.36  -39.26   92.38
   4.225  -36.67   70.11   -0.03   -9.46   -0.03   -9.50  -35.24   73.39
   4.270  -36.16   70.24   -0.03   -9.61   -0.03   -9.66  -36.25   95.93
   4.315  -35.52   70.31   -0.03   -9.77   -0.03   -9.83  -35.85   68.90
   4.360  -35.07   70.85   -0.04   -9.93   -0.03   -9.98  -33.87   89.20
   4.405  -34.59   70.08   -0.03  -10.10   -0.03  -10.15  -36.33   75.51
   4.450  -34.10   70.95   -0.04  -10.26   -0.04  -10.30  -32.66   80.23
   4.495  -33.65   70.95   -0.04  -10.43   -0.04  -10.46  -34.95   86.12
   4.540  -32.89   71.64   -0.05  -10.54   -0.04  -10.59  -32.07   72.27
   4.585  -32.26   69.89   -0.04  -10.69   -0.04  -10.77  -32.56   85.91
   4.630  -31.82   67.22   -0.04  -10.90   -0.03  -10.96  -32.51   66.90
   4.675  -31.65   67.20   -0.04  -11.11   -0.04  -11.18  -31.07   81.27
   4.720  -31.15   67.01   -0.05  -11.32   -0.05  -11.37  -32.48   72.71
   4.765  -30.61   66.99   -0.06  -11.50   -0.06  -11.55  -29.78   74.47
   4.810  -30.05   65.73   -0.07  -11.71   -0.06  -11.77  -31.09   78.10
   4.855  -29.41   64.71   -0.08  -11.92   -0.07  -11.98  -29.01   67.33
   4.900  -28.77   62.97   -0.09  -12.16   -0.09  -12.23  -28.95   76.32
   4.945  -28.04   60.58   -0.10  -12.43   -0.10  -12.48  -28.36   63.33
   4.990  -27.24   57.62   -0.13  -12.72   -0.13  -12.78  -26.88   68.34
   5.035  -26.35   52.72   -0.18  -13.02   -0.17  -13.07  -27.02   58.13
   5.080  -25.39   45.99   -0.25  -13.26   -0.24  -13.31  -24.98   53.28
   5.125  -24.55   35.00   -0.36  -13.31   -0.35  -13.38  -25.18   42.31
   5.170  -24.20   19.62   -0.47  -12.80   -0.47  -12.84  -23.90   25.18
   5.215  -25.08    1.30   -0.50  -11.73   -0.50  -11.80  -25.74    8.80
   5.260  -27.27  -13.47   -0.40  -10.97   -0.40  -11.05  -26.93  -10.28
   5.305  -30.31  -20.53   -0.29  -10.83   -0.29  -10.89  -31.16   -9.92
   5.350  -33.42  -19.60   -0.21  -11.04   -0.20  -11.10  -33.45  -23.95
   5.395  -36.29   -9.62   -0.16  -11.32   -0.15  -11.38  -35.89    6.42
   5.440  -38.18    5.79   -0.13  -11.60   -0.12  -11.67  -41.93    2.23
   5.485  -38.65   23.50   -0.10  -11.86   -0.10  -11.93  -37.05   23.77
   5.530  -38.29   38.30   -0.09  -12.11   -0.09  -12.19  -39.47   65.68
   5.575  -37.45   46.98   -0.08  -12.34   -0.08  -12.40  -38.43   38.31
   5.620  -36.55   54.95   -0.07  -12.56   -0.08  -12.61  -35.36   70.65
   5.665  -35.79   58.74   -0.07  -12.77   -0.07  -12.83  -38.73   63.56
   5.710  -35.01   62.58   -0.07  -12.94   -0.07  -13.00  -33.79   65.75
   5.755  -34.36   65.21   -0.07  -13.11   -0.07  -13.19  -35.87   82.75
   5.800  -33.68   67.21   -0.07  -13.28   -0.07  -13.34  -33.75   63.89
   5.845  -33.04   69.26   -0.07  -13.42   -0.07  -13.51  -33.03   83.68
   5.890  -32.43   69.94   -0.07  -13.58   -0.07  -13.65  -33.94   68.50
   5.935  -31.78   70.42   -0.07  -13.72   -0.07  -13.78  -31.21   78.53
   5.980  -31.27   70.08   -0.07  -13.86   -0.07  -13.93  -33.11   77.42
   6.025  -30.79   69.34   -0.06  -13.99   -0.06  -14.06  -30.49   71.66
   6.070  -30.47   68.81   -0.06  -14.14   -0.06  -14.22  -31.54   81.62
   6.115  -30.18   67.84   -0.05  -14.28   -0.06  -14.36  -30.58   67.19
   6.160  -29.89   67.74   -0.05  -14.44   -0.06  -14.52  -29.93   79.83
   6.205  -29.71   67.09   -0.05  -14.62   -0.05  -14.66  -30.95   68.81
   6.250  -29.47   67.01   -0.05  -14.75   -0.05  -14.82  -29.00   74.38
   6.295  -29.32   66.75   -0.05  -14.92   -0.05  -14.98  -30.64   74.22
   6.340  -29.08   66.66   -0.05  -15.06   -0.05  -15.12  -28.78   69.29
   6.385  -28.93   66.89   -0.05  -15.20   -0.05  -15.33  -29.56   77.67
   6.430  -28.71   66.89   -0.05  -15.37   -0.05  -15.43  -28.99   66.77
   6.475  -28.53   67.09   -0.05  -15.52   -0.05  -15.61  -28.35   76.86
   6.520  -28.33   67.22   -0.05  -15.69   -0.05  -15.75  -29.34   68.81
   6.565  -28.07   67.22   -0.05  -15.81   -0.06  -15.89  -27.63   72.77
   6.610  -27.90   67.38   -0.05  -15.96   -0.05  -16.04  -28.80   73.43
   6.655  -27.65   67.29   -0.05  -16.10   -0.06  -16.18  -27.39   68.98
   6.700  -27.47   67.44   -0.06  -16.25   -0.06  -16.34  -27.90   75.81
   6.745  -27.25   67.26   -0.05  -16.42   -0.06  -16.45  -27.50   67.01
   6.790  -27.01   67.24   -0.06  -16.53   -0.06  -16.64  -26.84   74.61
   6.835  -26.85   67.21   -0.06  -16.70   -0.06  -16.76  -27.59   68.60
   6.880  -26.63   66.95   -0.06  -16.83   -0.06  -16.90  -26.25   70.82
   6.925  -26.48   67.10   -0.06  -16.97   -0.06  -17.08  -27.22   71.90
   6.970  -26.23   66.76   -0.06  -17.12   -0.07  -17.19  -26.05   67.07
   7.015  -26.05   66.79   -0.06  -17.25   -0.06  -17.36  -26.36   73.46
   7.060  -25.87   66.55   -0.06  -17.42   -0.06  -17.51  -26.18   65.79
   7.105  -25.67   66.48   -0.06  -17.56   -0.07  -17.67  -25.57   71.64
   7.150  -25.50   66.25   -0.07  -17.73   -0.06  -17.80  -26.19   66.98
   7.195  -25.29   66.01   -0.07  -17.88   -0.07  -17.98  -25.01   68.41
   7.240  -25.12   66.01   -0.07  -18.02   -0.07  -18.12  -25.77   69.70
   7.285  -24.95   65.69   -0.07  -18.18   -0.07  -18.25  -24.84   65.26
   7.330  -24.76   65.68   -0.07  -18.31   -0.08  -18.45  -24.99   70.27
   7.375  -24.59   65.48   -0.08  -18.49   -0.08  -18.54  -24.79   63.75
   7.420  -24.40   65.37   -0.08  -18.64   -0.08  -18.72  -24.23   68.65
   7.465  -24.23   65.37   -0.08  -18.79   -0.08  -18.87  -24.82   64.71
   7.510  -24.02   65.04   -0.08  -18.92   -0.09  -19.01  -23.77   65.25
   7.555  -23.80   64.88   -0.08  -19.05   -0.08  -19.17  -24.35   66.64
   7.600  -23.63   64.35   -0.08  -19.23   -0.09  -19.33  -23.51   62.45
   7.645  -23.45   64.15   -0.08  -19.40   -0.09  -19.50  -23.58   67.08
   7.690  -23.31   63.81   -0.08  -19.60   -0.09  -19.66  -23.49   61.03
   7.735  -23.09   63.52   -0.08  -19.78   -0.09  -19.89  -22.82   64.69
   7.780  -22.94   63.33   -0.09  -19.96   -0.09  -20.03  -23.30   61.59
   7.825  -22.76   63.07   -0.09  -20.16   -0.10  -20.25  -22.38   61.34
   7.870  -22.58   63.10   -0.10  -20.37   -0.10  -20.49  -22.90   62.60
   7.915  -22.36   62.81   -0.11  -20.59   -0.12  -20.65  -22.22   58.40
   7.960  -22.11   62.55   -0.12  -20.79   -0.12  -20.88  -22.21   62.38
   8.005  -21.89   62.19   -0.13  -20.98   -0.14  -21.05  -22.15   57.45
   8.050  -21.66   61.66   -0.14  -21.16   -0.15  -21.25  -21.54   60.40
   8.095  -21.43   61.25   -0.16  -21.35   -0.16  -21.45  -21.89   57.83
   8.140  -21.19   60.46   -0.17  -21.55   -0.17  -21.65  -21.01   57.23
   8.185  -20.92   59.99   -0.18  -21.74   -0.19  -21.87  -21.30   58.31
   8.230  -20.68   59.24   -0.19  -21.98   -0.20  -22.06  -20.66   54.35
   8.275  -20.38   58.32   -0.21  -22.21   -0.22  -22.31  -20.50   56.93
   8.320  -20.24   59.54   -0.24  -22.42   -0.24  -22.49  -20.58   48.34
   8.365  -19.92   58.06   -0.26  -22.65   -0.27  -22.74  -19.75   50.22
   8.410  -19.62   56.60   -0.29  -22.85   -0.30  -22.96  -20.09   47.42
   8.455  -19.29   54.59   -0.33  -23.08   -0.34  -23.18  -19.12   44.91
   8.500  -18.94   52.39   -0.37  -23.32   -0.38  -23.45  -19.31   45.05
   8.545  -18.63   49.64   -0.42  -23.55   -0.43  -23.62  -18.64   39.20
   8.590  -18.30   46.38   -0.49  -23.75   -0.50  -23.86  -18.37   39.79
   8.635  -18.03   42.53   -0.57  -23.87   -0.57  -23.95  -18.19   32.80
   8.680  -17.81   37.97   -0.66  -23.87   -0.67  -23.97  -17.59   31.06
   8.725  -17.66   32.80   -0.76  -23.71   -0.77  -23.85  -17.81   24.23
   8.770  -17.68   26.77   -0.87  -23.31   -0.88  -23.37  -17.28   18.61
   8.815  -17.86   20.30   -0.95  -22.61   -0.96  -22.73  -17.85   12.51
   8.860  -18.32   13.60   -0.99  -21.71   -1.00  -21.79  -17.85    4.04
   8.905  -19.02    7.38   -0.98  -20.74   -1.00  -20.82  -18.85   -0.29
   8.950  -20.01    2.26   -0.92  -19.90   -0.92  -19.99  -19.59   -9.24
   8.995  -21.19   -1.18   -0.82  -19.33   -0.83  -19.42  -20.81   -9.13
   9.040  -22.48   -2.38   -0.71  -19.00   -0.72  -19.12  -22.41  -15.53
   9.085  -23.76   -1.79   -0.60  -18.93   -0.61  -19.02  -23.20  -11.26
   9.130  -24.89    1.29   -0.50  -18.99   -0.52  -19.14  -25.43  -10.14
   9.175  -25.92    5.22   -0.43  -19.20   -0.44  -19.29  -25.33   -6.80
   9.220  -26.71   10.55   -0.36  -19.49   -0.37  -19.57  -27.00    5.35
   9.265  -27.33   16.85   -0.32  -19.77   -0.32  -19.88  -27.25    1.80
   9.310  -27.64   23.11   -0.28  -20.06   -0.29  -20.15  -27.05   16.66
   9.355  -27.65   29.61   -0.25  -20.30   -0.25  -20.44  -28.49   16.93
   9.400  -27.58   34.54   -0.22  -20.60   -0.23  -20.71  -26.88   23.85
   9.445  -27.34   39.00   -0.20  -20.87   -0.21  -20.96  -28.10   34.57
   9.490  -27.16   42.79   -0.18  -21.12   -0.19  -21.22  -27.01   29.24
   9.535  -26.82   45.70   -0.17  -21.36   -0.18  -21.47  -26.57   42.40
   9.580  -26.56   48.52   -0.16  -21.57   -0.17  -21.67  -27.03   37.32
   9.625  -26.29   50.68   -0.16  -21.78   -0.16  -21.89  -25.52   44.22
   9.670  -25.98   52.69   -0.14  -21.99   -0.15  -22.12  -26.44   46.23
   9.715  -25.70   54.47   -0.14  -22.21   -0.15  -22.29  -25.00   43.76
   9.760  -25.37   55.69   -0.13  -22.42   -0.14  -22.51  -25.30   51.40
   9.805  -25.10   57.11   -0.13  -22.61   -0.13  -22.72  -24.96   44.65
   9.850  -24.81   57.81   -0.12  -22.82   -0.13  -22.91  -24.28   52.36
   9.895  -24.49   58.72   -0.12  -22.99   -0.13  -23.09  -24.94   48.19
   9.940  -24.25   58.93   -0.12  -23.17   -0.13  -23.28  -23.53   50.44
   9.985  -23.95   59.26   -0.11  -23.35   -0.12  -23.45  -24.38   53.61
  10.030  -23.76   59.61   -0.11  -23.52   -0.12  -23.61  -23.37   48.88
  10.075  -23.51   59.47   -0.11  -23.72   -0.12  -23.81  -23.46   55.96
  10.120  -23.31   59.94   -0.11  -23.89   -0.12  -23.96  -23.43   49.25
  10.165  -23.13   59.70   -0.11  -24.07   -0.12  -24.14  -22.62   55.08
  10.210  -22.91   59.88   -0.11  -24.21   -0.11  -24.32  -23.35   52.57
  10.255  -22.77   59.74   -0.11  -24.40   -0.12  -24.49  -22.18   52.48
  10.300  -22.57   59.63   -0.11  -24.56   -0.12  -24.66  -22.80   55.85
  10.345  -22.44   59.65   -0.11  -24.73   -0.12  -24.82  -22.09   50.75
  10.390  -22.26   59.25   -0.11  -24.91   -0.13  -25.01  -22.04   56.65
  10.435  -22.09   59.25   -0.12  -25.07   -0.12  -25.14  -22.16   50.99
  10.480  -21.97   58.85   -0.12  -25.24   -0.13  -25.31  -21.36   55.05
  10.525  -21.82   58.66   -0.12  -25.36   -0.13  -25.43  -22.05   53.52
  10.570  -21.69   58.38   -0.13  -25.51   -0.13  -25.55  -21.05   52.24
  10.615  -21.54   57.97   -0.13  -25.67   -0.13  -25.75  -21.54   55.33
  10.660  -21.43   57.54   -0.14  -25.83   -0.14  -25.87  -21.02   50.21
  10.705  -21.32   56.97   -0.14  -26.00   -0.15  -26.02  -20.89   55.06
  10.750  -21.22   56.41   -0.15  -26.11   -0.15  -26.16  -21.13   50.02
  10.795  -21.16   55.41   -0.16  -26.25   -0.16  -26.30  -20.39   52.78
  10.840  -21.09   54.89   -0.16  -26.35   -0.17  -26.38  -21.05   51.47
  10.885  -21.07   54.34   -0.17  -26.46   -0.17  -26.53  -20.20   49.57
  10.930  -21.04   53.69   -0.18  -26.59   -0.18  -26.67  -20.64   52.46
  10.975  -21.05   53.13   -0.19  -26.70   -0.19  -26.69  -20.28   47.23
  11.020  -21.03   52.19   -0.19  -26.79   -0.20  -26.84  -20.15   51.27
  11.065  -21.10   51.91   -0.20  -26.81   -0.21  -26.88  -20.50   46.24
  11.110  -21.18   51.33   -0.21  -26.85   -0.21  -26.89  -19.92   47.94
  11.155  -21.26   51.24   -0.21  -26.87   -0.21  -26.97  -20.74   46.85
  11.200  -21.44   51.41   -0.21  -26.89   -0.21  -26.95  -20.12   44.68
  11.245  -21.54   52.07   -0.19  -26.96   -0.20  -26.99  -20.71   48.07
  11.290  -21.60   53.16   -0.18  -27.00   -0.18  -27.06  -20.61   43.64
  11.335  -21.62   54.05   -0.17  -27.09   -0.18  -27.17  -20.54   49.05
  11.380  -21.58   55.02   -0.16  -27.19   -0.16  -27.22  -21.00   45.57
  11.425  -21.54   55.97   -0.15  -27.32   -0.15  -27.40  -20.32   48.47
  11.470  -21.44   56.79   -0.13  -27.47   -0.14  -27.53  -21.06   49.47
  11.515  -21.33   57.47   -0.12  -27.62   -0.13  -27.65  -20.38   47.60
  11.560  -21.23   57.71   -0.11  -27.80   -0.12  -27.87  -20.72   52.17
  11.605  -21.12   58.36   -0.11  -27.94   -0.12  -27.98  -20.57   47.78
  11.650  -21.00   58.89   -0.11  -28.14   -0.11  -28.16  -20.26   52.55
  11.695  -20.89   59.07   -0.10  -28.28   -0.10  -28.37  -20.76   49.61
  11.740  -20.81   59.26   -0.10  -28.44   -0.11  -28.49  -19.94   51.16
  11.785  -20.70   59.40   -0.09  -28.60   -0.10  -28.66  -20.57   52.49
  11.830  -20.59   59.66   -0.10  -28.77   -0.10  -28.81  -19.96   49.39
  11.875  -20.52   59.82   -0.09  -28.94   -0.10  -28.99  -20.12   54.07
  11.920  -20.41   59.93   -0.09  -29.09   -0.09  -29.12  -20.13   49.48
  11.965  -20.34   59.89   -0.10  -29.25   -0.10  -29.33  -19.69   53.43
  12.010  -20.21   59.97   -0.09  -29.38   -0.10  -29.46  -20.23   51.10
  12.055  -20.15   60.09   -0.09  -29.56   -0.10  -29.58  -19.46   51.55
  12.100  -20.06   59.91   -0.09  -29.72   -0.10  -29.80  -20.04   53.61
  12.145  -20.00   59.93   -0.09  -29.88   -0.10  -29.90  -19.52   50.04
  12.190  -19.92   59.85   -0.10  -30.06   -0.10  -30.11  -19.60   54.42
  12.235  -19.84   60.02   -0.10  -30.17   -0.10  -30.20  -19.70   50.15
  12.280  -19.79   60.15   -0.10  -30.30   -0.11  -30.35  -19.21   53.41
  12.325  -19.70   60.00   -0.10  -30.44   -0.10  -30.51  -19.75   51.66
