!  American Technical Ceramics   Date:  10/27/06
!  One Norden Lane
!  Huntington Station,  NY.   11746-2102
!  Tel:  (631) 622-4700               Fax:  (631) 622-4748
!  Part Number  600L2R7		Mounting Orientation:  Horizontal
!  Description: Ultra Low ESR Microwave capacitors
!  Application: Coupling, Bypass, Tuning, DC Block
!               Filters, Matching
# GHZ S DB R 50
! Freq   |S11|   S11 Ph  |S21|   S21 Ph  |S12|   S12 Ph  |S22|   S22 Ph
    0.00    0.00    0.00 -999.00   90.00 -999.00   90.00    0.00    0.00
   0.400   -1.68  -34.66   -5.05   54.70   -5.10   54.66   -1.73  -34.56
   0.465   -2.13  -38.86   -4.20   50.55   -4.24   50.56   -2.20  -38.77
   0.530   -2.60  -42.65   -3.53   46.80   -3.57   46.88   -2.66  -42.60
   0.595   -3.09  -46.06   -3.01   43.38   -3.06   43.49   -3.13  -46.01
   0.660   -3.56  -49.15   -2.58   40.32   -2.64   40.40   -3.61  -49.04
   0.725   -4.03  -51.90   -2.23   37.55   -2.29   37.58   -4.08  -51.76
   0.790   -4.51  -54.38   -1.95   35.05   -2.00   35.07   -4.56  -54.24
   0.855   -4.96  -56.65   -1.71   32.79   -1.75   32.84   -5.04  -56.61
   0.920   -5.40  -58.71   -1.51   30.75   -1.55   30.85   -5.48  -58.84
   0.985   -5.84  -60.59   -1.34   28.86   -1.39   28.99   -5.89  -60.78
   1.050   -6.26  -62.27   -1.20   27.12   -1.25   27.22   -6.31  -62.47
   1.115   -6.68  -63.87   -1.08   25.55   -1.13   25.61   -6.72  -63.96
   1.180   -7.08  -65.31   -0.97   24.09   -1.01   24.14   -7.16  -65.38
   1.245   -7.46  -66.66   -0.88   22.72   -0.91   22.80   -7.58  -66.95
   1.310   -7.85  -67.88   -0.79   21.48   -0.83   21.60   -7.95  -68.54
   1.375   -8.22  -69.02   -0.72   20.30   -0.77   20.44   -8.29  -69.77
   1.440   -8.57  -70.12   -0.66   19.19   -0.71   19.31   -8.63  -70.74
   1.505   -8.92  -71.08   -0.60   18.17   -0.65   18.25   -8.99  -71.64
   1.570   -9.27  -71.91   -0.56   17.18   -0.60   17.28   -9.38  -72.56
   1.635   -9.61  -72.85   -0.51   16.29   -0.55   16.41   -9.76  -73.84
   1.700   -9.93  -73.67   -0.47   15.42   -0.51   15.58  -10.07  -75.08
   1.765  -10.25  -74.45   -0.44   14.59   -0.48   14.76  -10.35  -76.00
   1.830  -10.57  -75.18   -0.40   13.83   -0.45   13.96  -10.64  -76.59
   1.895  -10.88  -75.83   -0.37   13.09   -0.41   13.19  -10.97  -77.02
   1.960  -11.19  -76.48   -0.35   12.38   -0.38   12.49  -11.34  -77.71
   2.025  -11.49  -77.08   -0.32   11.71   -0.35   11.83  -11.68  -78.82
   2.090  -11.79  -77.64   -0.30   11.05   -0.33   11.19  -11.95  -79.90
   2.155  -12.08  -78.24   -0.28   10.44   -0.32   10.58  -12.17  -80.70
   2.220  -12.36  -78.75   -0.26    9.83   -0.30    9.95  -12.42  -80.93
   2.285  -12.65  -79.23   -0.24    9.26   -0.28    9.34  -12.74  -81.15
   2.350  -12.93  -79.65   -0.23    8.69   -0.26    8.78  -13.09  -81.69
   2.415  -13.22  -80.14   -0.21    8.15   -0.25    8.26  -13.43  -82.78
   2.480  -13.49  -80.62   -0.20    7.63   -0.24    7.77  -13.65  -83.87
   2.545  -13.77  -80.98   -0.19    7.12   -0.23    7.27  -13.82  -84.37
   2.610  -14.04  -81.34   -0.18    6.63   -0.22    6.77  -14.06  -84.45
   2.675  -14.28  -81.68   -0.17    6.18   -0.21    6.28  -14.36  -84.58
   2.740  -14.56  -82.02   -0.16    5.69   -0.19    5.82  -14.72  -85.18
   2.805  -14.84  -82.37   -0.15    5.22   -0.18    5.36  -15.05  -86.15
   2.870  -15.09  -82.74   -0.14    4.76   -0.18    4.93  -15.26  -87.23
   2.935  -15.34  -83.08   -0.14    4.32   -0.18    4.49  -15.41  -87.58
   3.000  -15.70  -84.02   -0.14    3.59   -0.18    3.75  -15.75  -86.90
   3.065  -15.93  -84.56   -0.13    3.22   -0.17    3.35  -16.06  -86.90
   3.130  -16.17  -84.91   -0.12    2.82   -0.16    2.98  -16.40  -87.37
   3.195  -16.45  -85.19   -0.12    2.42   -0.15    2.61  -16.72  -88.44
   3.260  -16.69  -85.63   -0.12    2.06   -0.15    2.25  -16.86  -89.61
   3.325  -16.91  -85.87   -0.11    1.69   -0.15    1.89  -16.96  -89.49
   3.390  -17.13  -86.27   -0.11    1.35   -0.14    1.53  -17.17  -89.21
   3.455  -17.35  -86.44   -0.10    0.99   -0.13    1.18  -17.46  -88.92
   3.520  -17.61  -86.75   -0.10    0.65   -0.13    0.85  -17.84  -89.52
   3.585  -17.82  -87.16   -0.10    0.31   -0.12    0.53  -18.10  -90.92
   3.650  -18.08  -87.32   -0.09   -0.02   -0.12    0.20  -18.19  -91.98
   3.715  -18.34  -87.69   -0.09   -0.34   -0.12   -0.12  -18.29  -92.02
   3.780  -18.52  -88.00   -0.09   -0.64   -0.12   -0.44  -18.46  -91.52
   3.845  -18.75  -88.08   -0.09   -0.94   -0.11   -0.74  -18.83  -91.43
   3.910  -18.98  -88.36   -0.08   -1.25   -0.11   -1.03  -19.22  -92.28
   3.975  -19.21  -88.25   -0.08   -1.55   -0.10   -1.32  -19.51  -93.67
   4.040  -19.48  -88.79   -0.07   -1.84   -0.10   -1.61  -19.58  -94.98
   4.105  -19.64  -89.04   -0.07   -2.15   -0.10   -1.91  -19.64  -94.58
   4.170  -19.83  -89.23   -0.07   -2.44   -0.09   -2.22  -19.86  -93.71
   4.235  -20.11  -89.77   -0.07   -2.71   -0.09   -2.50  -20.29  -93.60
   4.300  -20.36  -90.19   -0.07   -2.98   -0.09   -2.75  -20.70  -94.46
   4.365  -20.62  -89.80   -0.06   -3.26   -0.08   -3.01  -20.90  -95.89
   4.430  -20.90  -89.82   -0.06   -3.54   -0.08   -3.30  -20.97  -96.59
   4.495  -21.12  -90.21   -0.05   -3.84   -0.07   -3.58  -20.98  -96.18
   4.560  -21.32  -90.27   -0.05   -4.11   -0.07   -3.87  -21.19  -95.07
   4.625  -21.56  -89.97   -0.05   -4.38   -0.06   -4.15  -21.64  -94.45
   4.690  -21.71  -89.87   -0.04   -4.70   -0.06   -4.44  -21.97  -95.77
   4.755  -21.94  -90.14   -0.05   -4.96   -0.06   -4.70  -22.17  -98.16
   4.820  -22.21  -90.59   -0.05   -5.20   -0.06   -4.95  -22.18  -99.18
   4.885  -22.42  -90.78   -0.05   -5.49   -0.06   -5.22  -22.23  -98.32
   4.950  -22.70  -90.79   -0.04   -5.73   -0.06   -5.48  -22.56  -96.99
   5.015  -22.91  -91.23   -0.04   -5.99   -0.06   -5.74  -23.02  -96.94
   5.080  -23.12  -90.97   -0.04   -6.25   -0.05   -5.98  -23.50  -98.59
   5.145  -23.41  -91.02   -0.04   -6.49   -0.05   -6.22  -23.61 -100.79
   5.210  -23.67  -91.29   -0.04   -6.74   -0.05   -6.46  -23.56 -101.26
   5.275  -23.93  -91.52   -0.04   -7.00   -0.05   -6.73  -23.68 -100.07
   5.340  -24.18  -91.96   -0.04   -7.25   -0.05   -6.96  -23.99  -99.08
   5.405  -24.42  -92.14   -0.05   -7.48   -0.05   -7.21  -24.59  -98.64
   5.470  -24.72  -92.66   -0.05   -7.71   -0.05   -7.41  -25.12 -101.61
   5.535  -25.07  -92.81   -0.05   -7.91   -0.06   -7.61  -25.22 -103.83
   5.600  -25.60  -92.53   -0.05   -8.10   -0.05   -7.81  -25.32 -103.44
   5.665  -25.97  -92.59   -0.04   -8.33   -0.05   -8.03  -25.41 -101.79
   5.730  -26.23  -91.27   -0.03   -8.56   -0.04   -8.27  -25.81  -98.91
   5.795  -26.48  -90.78   -0.03   -8.81   -0.03   -8.51  -26.51  -98.79
   5.860  -26.73  -90.62   -0.03   -9.07   -0.03   -8.74  -26.98 -102.25
   5.925  -27.03  -90.51   -0.03   -9.30   -0.03   -8.98  -26.99 -104.07
   5.990  -27.38  -90.18   -0.03   -9.54   -0.03   -9.23  -26.89 -104.06
   6.055  -27.83  -90.05   -0.03   -9.79   -0.02   -9.47  -27.15 -101.38
   6.120  -28.19  -89.97   -0.02  -10.03   -0.02   -9.71  -27.73  -99.14
   6.185  -28.37  -89.58   -0.02  -10.25   -0.02   -9.92  -28.50  -99.35
   6.250  -28.71  -88.95   -0.02  -10.49   -0.02  -10.17  -29.06 -102.57
   6.315  -29.08  -88.54   -0.02  -10.71   -0.02  -10.39  -29.02 -105.45
   6.380  -29.55  -88.81   -0.03  -10.96   -0.02  -10.64  -28.85 -105.24
   6.445  -29.97  -89.15   -0.03  -11.18   -0.02  -10.85  -28.99 -101.94
   6.510  -30.55  -88.50   -0.02  -11.39   -0.02  -11.07  -29.95  -98.88
   6.575  -30.94  -89.02   -0.03  -11.61   -0.02  -11.27  -31.07 -101.38
   6.640  -31.40  -88.10   -0.03  -11.83   -0.01  -11.50  -31.62 -105.45
   6.705  -32.05  -86.79   -0.03  -12.04   -0.01  -11.71  -31.78 -108.69
   6.770  -32.52  -85.92   -0.03  -12.26   -0.01  -11.93  -31.39 -107.49
   6.835  -33.33  -85.10   -0.03  -12.50   -0.01  -12.14  -31.93 -100.98
   6.900  -34.02  -85.13   -0.03  -12.71   -0.01  -12.36  -33.40  -98.72
   6.965  -34.34  -84.94   -0.03  -12.93   -0.01  -12.58  -34.63 -102.06
   7.030  -35.24  -83.27   -0.03  -13.14   -0.01  -12.79  -35.78 -106.58
   7.095  -36.15  -81.04   -0.03  -13.33   -0.01  -13.00  -35.74 -112.25
   7.160  -36.99  -79.74   -0.03  -13.56   -0.01  -13.20  -35.32 -108.12
   7.225  -38.20  -75.66   -0.03  -13.78   -0.01  -13.40  -36.16  -96.79
   7.290  -39.62  -71.44   -0.03  -13.98    0.00  -13.61  -38.79  -89.49
   7.355  -40.72  -70.09   -0.03  -14.18   -0.01  -13.83  -41.63  -96.35
   7.420  -41.84  -63.04   -0.03  -14.40    0.00  -14.03  -43.01 -105.92
   7.485  -42.84  -50.78   -0.03  -14.59    0.00  -14.25  -43.74 -115.15
   7.550  -43.42  -40.96   -0.03  -14.79   -0.01  -14.44  -43.12 -104.12
   7.615  -44.43  -22.48   -0.03  -15.02   -0.01  -14.66  -44.68  -68.35
   7.680  -44.63   -5.73   -0.03  -15.22   -0.01  -14.85  -47.46  -12.59
   7.745  -44.88    4.84   -0.03  -15.44   -0.01  -15.06  -48.40   28.16
   7.810  -43.63   15.10   -0.02  -15.64   -0.01  -15.25  -46.72   50.23
   7.875  -41.89   24.81   -0.02  -15.84   -0.01  -15.48  -46.17   57.05
   7.940  -41.50   29.68   -0.01  -16.07   -0.01  -15.70  -44.99   33.08
   8.005  -40.58   34.53   -0.01  -16.34   -0.01  -15.97  -39.71   24.72
   8.070  -39.72   45.96   -0.01  -16.62   -0.01  -16.25  -37.19   31.83
   8.135  -38.81   58.39   -0.03  -16.86   -0.01  -16.48  -37.37   43.53
   8.200  -37.45   60.17   -0.03  -17.06   -0.01  -16.66  -37.74   51.21
   8.265  -36.19   60.10   -0.04  -17.21   -0.01  -16.84  -37.83   53.81
   8.330  -36.06   70.66   -0.04  -17.41   -0.01  -17.01  -36.83   28.12
   8.395  -35.09   70.37   -0.04  -17.61   -0.01  -17.21  -35.02   27.57
   8.460  -34.33   70.25   -0.04  -17.81    0.00  -17.42  -33.18   33.78
   8.525  -33.82   71.70   -0.05  -18.01   -0.01  -17.61  -32.49   41.94
   8.590  -33.61   71.66   -0.05  -18.17   -0.01  -17.79  -32.73   45.46
   8.655  -32.81   71.64   -0.05  -18.31   -0.01  -17.93  -32.77   41.50
   8.720  -32.18   71.81   -0.05  -18.50    0.00  -18.13  -32.25   37.49
   8.785  -31.43   71.78   -0.04  -18.71    0.00  -18.31  -31.44   37.37
   8.850  -30.58   72.11   -0.04  -18.90   -0.01  -18.55  -30.43   39.97
   8.915  -30.25   72.77   -0.04  -19.15   -0.01  -18.78  -29.95   47.69
   8.980  -29.82   72.63   -0.04  -19.36   -0.01  -19.01  -30.21   52.23
   9.045  -29.40   71.77   -0.04  -19.59   -0.01  -19.21  -30.23   48.94
   9.110  -28.87   70.30   -0.05  -19.79    0.00  -19.42  -29.43   47.18
   9.175  -28.17   69.44   -0.06  -19.97   -0.01  -19.57  -28.76   46.26
   9.240  -27.83   68.64   -0.06  -20.13   -0.01  -19.76  -27.82   46.61
   9.305  -27.52   68.25   -0.06  -20.33   -0.01  -19.94  -27.34   52.17
   9.370  -27.37   68.54   -0.05  -20.52    0.00  -20.16  -27.81   54.31
   9.435  -27.16   66.95   -0.05  -20.69    0.00  -20.32  -27.73   51.34
   9.500  -26.69   65.82   -0.05  -20.89    0.00  -20.54  -27.08   50.43
   9.565  -26.38   66.67   -0.05  -21.10    0.00  -20.74  -26.53   50.19
   9.630  -26.05   66.24   -0.05  -21.30   -0.01  -20.96  -25.75   50.54
   9.695  -25.68   66.48   -0.05  -21.54   -0.01  -21.18  -25.31   54.24
   9.760  -25.51   67.11   -0.05  -21.77   -0.01  -21.42  -25.54   55.34
   9.825  -25.24   65.56   -0.05  -21.97   -0.01  -21.64  -25.45   52.25
   9.890  -24.86   65.02   -0.05  -22.19   -0.01  -21.85  -24.99   51.01
   9.955  -24.47   64.45   -0.05  -22.41   -0.01  -22.07  -24.50   50.14
  10.020  -24.15   63.81   -0.05  -22.62   -0.01  -22.32  -23.92   51.00
  10.085  -23.98   63.67   -0.05  -22.88   -0.01  -22.63  -23.73   54.03
  10.150  -23.81   63.16   -0.05  -23.15   -0.01  -22.87  -23.84   54.06
  10.215  -23.68   62.51   -0.06  -23.40    0.00  -23.15  -23.69   52.91
  10.280  -23.42   62.12   -0.06  -23.64   -0.01  -23.36  -23.40   51.18
  10.345  -23.08   62.01   -0.07  -23.88   -0.01  -23.63  -22.79   50.27
  10.410  -22.87   62.59   -0.07  -24.13   -0.02  -23.87  -22.34   52.46
  10.475  -22.59   62.81   -0.08  -24.38   -0.02  -24.12  -22.24   53.89
  10.540  -22.30   62.50   -0.08  -24.66   -0.06  -24.60  -22.15   53.80
  10.605  -21.98   62.44   -0.09  -24.90   -0.06  -24.88  -21.94   52.53
  10.670  -21.64   62.00   -0.09  -25.21   -0.07  -25.17  -21.51   50.90
  10.735  -21.27   61.31   -0.10  -25.52   -0.07  -25.48  -20.93   50.20
  10.800  -20.91   60.91   -0.11  -25.84   -0.09  -25.82  -20.42   50.74
  10.865  -20.50   60.18   -0.13  -26.19   -0.10  -26.16  -20.17   50.86
  10.930  -20.09   59.05   -0.15  -26.53   -0.13  -26.51  -19.94   49.45
  10.995  -19.70   58.12   -0.17  -26.89   -0.14  -26.86  -19.63   47.35
  11.060  -19.21   56.20   -0.21  -27.29   -0.18  -27.26  -19.15   44.44
  11.125  -18.64   54.25   -0.25  -27.69   -0.22  -27.66  -18.47   42.06
  11.190  -18.16   51.95   -0.31  -28.17   -0.29  -28.16  -17.96   40.51
  11.255  -17.54   48.07   -0.40  -28.64   -0.38  -28.61  -17.54   36.79
  11.320  -16.88   42.99   -0.54  -29.03   -0.52  -29.04  -17.07   30.46
  11.385  -16.35   35.82   -0.74  -29.04   -0.71  -29.05  -16.65   21.66
  11.450  -16.02   25.11   -0.98  -28.26   -0.95  -28.26  -16.45    9.95
  11.515  -16.35   12.41   -1.12  -26.32   -1.09  -26.31  -16.99   -3.19
  11.580  -17.71    0.34   -1.03  -24.16   -1.00  -24.12  -18.87  -15.09
  11.645  -19.73   -7.20   -0.78  -23.05   -0.75  -23.03  -21.74  -23.44
  11.710  -22.05   -7.93   -0.55  -22.96   -0.52  -22.97  -24.82  -24.13
  11.775  -24.19   -3.26   -0.39  -23.38   -0.36  -23.41  -27.52  -14.83
  11.840  -25.62    5.49   -0.28  -23.96   -0.25  -23.95  -28.85    2.68
  11.905  -26.35   16.09   -0.21  -24.48   -0.18  -24.48  -28.59   22.43
  11.970  -26.58   25.96   -0.17  -24.99   -0.14  -24.99  -28.11   37.35
  12.035  -26.35   33.34   -0.14  -25.45   -0.11  -25.46  -27.60   45.35
  12.100  -25.92   38.84   -0.12  -25.88   -0.09  -25.89  -26.92   47.87
  12.165  -25.62   44.33   -0.10  -26.23   -0.07  -26.27  -26.18   48.87
  12.230  -25.16   47.08   -0.09  -26.59   -0.06  -26.60  -25.23   49.82
  12.295  -24.72   49.00   -0.08  -26.89   -0.05  -26.92  -24.44   51.59
  12.360  -24.39   51.45   -0.08  -27.23   -0.04  -27.24  -24.01   53.98
  12.425  -24.00   52.63   -0.07  -27.52   -0.04  -27.54  -23.78   55.53
  12.490  -23.74   53.97   -0.07  -27.79   -0.03  -27.83  -23.76   55.08
  12.555  -23.49   55.29   -0.06  -28.07   -0.03  -28.10  -23.43   52.76
  12.620  -23.23   56.01   -0.06  -28.33   -0.03  -28.32  -22.91   52.53
  12.685  -23.06   56.57   -0.06  -28.56   -0.02  -28.60  -22.54   53.50
  12.750  -22.81   57.23   -0.05  -28.82   -0.02  -28.87  -22.26   54.27
  12.815  -22.61   58.23   -0.05  -29.07   -0.02  -29.13  -22.25   55.74
  12.880  -22.46   58.66   -0.05  -29.31   -0.02  -29.37  -22.35   54.24
  12.945  -22.25   59.17   -0.05  -29.57   -0.01  -29.62  -22.06   52.16
  13.010  -22.09   60.39   -0.05  -29.80   -0.01  -29.84  -21.65   52.55
  13.075  -22.00   60.15   -0.05  -30.04   -0.02  -30.09  -21.49   52.66
  13.140  -21.75   60.28   -0.05  -30.28   -0.02  -30.34  -21.30   53.07
  13.205  -21.53   61.36   -0.05  -30.53   -0.01  -30.59  -21.28   54.34
  13.270  -21.46   61.38   -0.05  -30.73   -0.02  -30.83  -21.53   52.78
  13.335  -21.28   61.67   -0.05  -30.99   -0.02  -31.02  -21.21   50.57
  13.400  -21.12   61.99   -0.06  -31.21   -0.02  -31.23  -20.88   51.31
  13.465  -21.02   61.68   -0.06  -31.41   -0.02  -31.47  -20.83   51.54
  13.530  -20.85   61.87   -0.05  -31.64   -0.02  -31.75  -20.65   51.85
  13.595  -20.74   62.07   -0.06  -31.87   -0.02  -31.93  -20.75   53.15
  13.660  -20.63   61.85   -0.06  -32.09   -0.02  -32.19  -20.87   51.03
  13.725  -20.53   62.27   -0.06  -32.34   -0.02  -32.38  -20.51   49.54
  13.790  -20.49   62.74   -0.07  -32.53   -0.03  -32.61  -20.32   50.13
  13.855  -20.46   62.45   -0.07  -32.75   -0.03  -32.86  -20.15   49.73
  13.920  -20.27   62.77   -0.07  -32.92   -0.03  -33.06  -20.03   50.55
  13.985  -20.08   63.32   -0.07  -33.15   -0.03  -33.26  -20.19   50.75
  14.050  -20.00   63.31   -0.07  -33.36   -0.03  -33.47  -20.19   48.79
  14.115  -19.90   63.41   -0.08  -33.60   -0.04  -33.72  -19.86   48.08
  14.180  -19.82   63.63   -0.09  -33.80   -0.05  -33.92  -19.64   48.02
  14.245  -19.77   63.66   -0.09  -33.99   -0.06  -34.10  -19.39   47.80
  14.310  -19.59   64.21   -0.10  -34.14   -0.05  -34.23  -19.34   48.38
  14.375  -19.44   64.46   -0.10  -34.32   -0.05  -34.38  -19.46   46.70
  14.440  -19.26   64.54   -0.10  -34.49   -0.04  -34.58  -19.34   44.69
  14.505  -19.12   64.80   -0.10  -34.69   -0.04  -34.82  -19.27   44.17
  14.570  -19.05   64.25   -0.09  -34.91   -0.04  -35.03  -19.17   42.70
  14.635  -18.92   64.23   -0.09  -35.08   -0.04  -35.27  -18.94   43.64
  14.700  -18.84   63.95   -0.09  -35.30   -0.04  -35.48  -19.13   44.58
  14.765  -18.71   63.69   -0.09  -35.52   -0.04  -35.73  -19.23   42.69
  14.830  -18.57   63.79   -0.09  -35.75   -0.04  -35.89  -19.03   41.84
  14.895  -18.57   64.03   -0.10  -35.96   -0.05  -36.13  -18.99   41.22
  14.960  -18.44   63.77   -0.10  -36.16   -0.05  -36.35  -18.76   40.37
  15.025  -18.38   63.81   -0.10  -36.37   -0.05  -36.59  -18.63   41.59
  15.090  -18.30   63.57   -0.11  -36.61   -0.05  -36.80  -18.84   41.61
  15.155  -18.15   63.45   -0.11  -36.80   -0.05  -37.06  -18.75   39.93
  15.220  -18.03   63.82   -0.11  -36.98   -0.04  -37.23  -18.67   39.92
  15.285  -17.97   63.51   -0.11  -37.18   -0.06  -37.50  -18.66   38.79
  15.350  -17.89   63.00   -0.11  -37.40   -0.06  -37.71  -18.33   38.12
  15.415  -17.80   63.40   -0.11  -37.66   -0.07  -37.96  -18.24   39.93
  15.480  -17.76   62.62   -0.12  -37.87   -0.07  -38.15  -18.42   39.59
  15.545  -17.60   62.19   -0.13  -38.09   -0.07  -38.38  -18.34   38.06
  15.610  -17.48   62.74   -0.13  -38.29   -0.08  -38.57  -18.30   37.95
  15.675  -17.47   62.16   -0.14  -38.49   -0.08  -38.82  -18.17   36.59
  15.740  -17.38   62.25   -0.14  -38.70   -0.09  -39.01  -17.90   36.98
  15.805  -17.31   62.25   -0.15  -38.92   -0.09  -39.28  -17.89   38.29
  15.870  -17.24   61.63   -0.15  -39.19   -0.11  -39.50  -17.97   37.37
  15.935  -17.06   61.60   -0.16  -39.40   -0.11  -39.69  -17.86   37.00
  16.000  -17.00   61.74   -0.17  -39.59   -0.12  -39.84  -17.83   36.40
  16.065  -16.89   61.48   -0.18  -39.77   -0.12  -40.04  -17.57   35.60
  16.130  -16.82   61.56   -0.18  -39.97   -0.13  -40.22  -17.34   36.55
  16.195  -16.77   61.44   -0.19  -40.15   -0.13  -40.44  -17.37   36.74
  16.260  -16.63   61.14   -0.20  -40.35   -0.14  -40.67  -17.27   36.29
  16.325  -16.54   61.04   -0.20  -40.53   -0.14  -40.81  -17.22   35.78
  16.390  -16.42   60.91   -0.21  -40.72   -0.15  -41.01  -17.09   34.44
  16.455  -16.28   60.83   -0.21  -40.90   -0.15  -41.20  -16.77   34.26
  16.520  -16.26   60.78   -0.21  -41.09   -0.16  -41.44  -16.68   35.05
  16.585  -16.16   60.30   -0.22  -41.28   -0.16  -41.65  -16.66   34.82
  16.650  -16.02   59.86   -0.22  -41.49   -0.17  -41.85  -16.51   34.60
  16.715  -15.94   59.66   -0.23  -41.70   -0.17  -42.04  -16.54   33.94
  16.780  -15.84   59.68   -0.24  -41.91   -0.17  -42.24  -16.33   32.38
  16.845  -15.71   59.45   -0.24  -42.12   -0.18  -42.43  -15.99   32.76
  16.910  -15.65   59.49   -0.25  -42.30   -0.19  -42.66  -15.97   33.25
  16.975  -15.52   59.29   -0.25  -42.51   -0.20  -42.91  -15.90   32.49
  17.040  -15.41   58.93   -0.26  -42.70   -0.19  -43.08  -15.76   32.86
  17.105  -15.32   58.64   -0.26  -42.91   -0.20  -43.27  -15.84   32.02
  17.170  -15.16   58.37   -0.27  -43.08   -0.21  -43.44  -15.54   30.52
  17.235  -15.02   58.39   -0.27  -43.30   -0.22  -43.66  -15.27   31.80
  17.300  -14.97   57.84   -0.28  -43.47   -0.22  -43.86  -15.24   31.73
  17.365  -14.83   57.25   -0.28  -43.65   -0.22  -44.11  -15.04   31.12
  17.430  -14.64   56.68   -0.28  -43.91   -0.22  -44.28  -14.99   31.47
  17.495  -14.58   56.19   -0.28  -44.13   -0.23  -44.50  -14.98   29.53
  17.560  -14.43   55.89   -0.29  -44.36   -0.23  -44.74  -14.61   28.82
  17.625  -14.31   55.26   -0.29  -44.61   -0.23  -45.00  -14.50   29.67
