!  American Technical Ceramics  Date:   10/26/00
!  One Norden Lane
!  Huntington Station,  NY.   11746-2102
!  Tel:  (631) 622-4700               Fax:  (631) 622-4748
!  Part Number  600L6R8D       Mounting Orientation:  Horizontal  
!  Description:  Low ESR, High Q Microwave capacitors
!  Application: Coupling, Bypass, Tuning, DC Block
!               Filters, Matching
# GHZ S DB R 50
! Freq   |S11|   S11 Ph  |S21|   S21 Ph  |S12|   S12 Ph  |S22|   S22 Ph
    0.00    0.00    0.00 -999.00   90.00 -999.00   90.00    0.00    0.00
   0.400   -5.80  -59.38   -1.41   30.29   -1.41   30.34   -5.75  -58.01
   0.445   -6.50  -62.24   -1.17   27.44   -1.19   27.21   -6.49  -60.98
   0.490   -7.19  -64.86   -1.00   25.11   -0.99   25.23   -7.16  -62.57
   0.535   -7.82  -66.66   -0.85   22.99   -0.86   22.78   -7.80  -65.39
   0.580   -8.45  -68.85   -0.74   21.22   -0.74   21.29   -8.43  -66.36
   0.625   -9.04  -70.09   -0.64   19.56   -0.65   19.46   -9.01  -68.52
   0.670   -9.58  -72.02   -0.57   18.17   -0.57   18.20   -9.58  -69.16
   0.715  -10.14  -73.00   -0.50   16.83   -0.50   16.78  -10.10  -70.77
   0.760  -10.64  -74.46   -0.45   15.67   -0.45   15.62  -10.64  -71.61
   0.805  -11.13  -75.33   -0.40   14.58   -0.40   14.64  -11.13  -72.89
   0.850  -11.64  -76.68   -0.36   13.62   -0.37   13.57  -11.61  -73.42
   0.895  -12.11  -77.30   -0.33   12.72   -0.33   12.78  -12.05  -74.29
   0.940  -12.53  -78.23   -0.30   11.88   -0.30   11.80  -12.53  -75.26
   0.985  -12.99  -79.28   -0.28   11.12   -0.27   11.17  -12.96  -75.54
   1.030  -13.42  -79.67   -0.26   10.38   -0.26   10.31  -13.38  -76.54
   1.075  -13.83  -80.72   -0.24    9.74   -0.24    9.74  -13.79  -76.68
   1.120  -14.24  -81.12   -0.21    9.09   -0.21    9.10  -14.18  -77.54
   1.165  -14.63  -82.14   -0.20    8.48   -0.20    8.46  -14.60  -77.67
   1.210  -15.03  -82.39   -0.19    7.92   -0.18    7.95  -14.98  -78.38
   1.255  -15.41  -83.27   -0.17    7.36   -0.17    7.31  -15.34  -78.68
   1.300  -15.77  -83.61   -0.17    6.85   -0.16    6.90  -15.71  -79.05
   1.345  -16.13  -84.32   -0.15    6.38   -0.15    6.37  -16.08  -79.20
   1.390  -16.51  -84.68   -0.15    5.95   -0.14    5.97  -16.40  -79.69
   1.435  -16.83  -85.25   -0.14    5.48   -0.13    5.46  -16.79  -80.06
   1.480  -17.21  -85.96   -0.13    5.09   -0.12    5.09  -17.10  -79.89
   1.525  -17.54  -86.01   -0.12    4.63   -0.12    4.61  -17.46  -80.52
   1.570  -17.88  -86.85   -0.12    4.29   -0.11    4.29  -17.79  -80.40
   1.615  -18.21  -86.92   -0.11    3.86   -0.11    3.89  -18.13  -81.02
   1.660  -18.56  -87.87   -0.11    3.53   -0.11    3.49  -18.45  -80.66
   1.705  -18.84  -87.84   -0.10    3.20   -0.10    3.22  -18.76  -81.03
   1.750  -19.19  -88.66   -0.10    2.83   -0.09    2.82  -19.10  -81.05
   1.795  -19.53  -88.68   -0.09    2.51   -0.08    2.52  -19.45  -81.44
   1.840  -19.84  -89.53   -0.09    2.19   -0.09    2.16  -19.72  -81.26
   1.885  -20.15  -89.70   -0.09    1.85   -0.08    1.89  -20.02  -81.49
   1.930  -20.44  -89.91   -0.09    1.53   -0.08    1.54  -20.38  -81.51
   1.975  -20.79  -90.29   -0.08    1.26   -0.08    1.27  -20.69  -81.59
   2.020  -21.07  -90.75   -0.08    0.95   -0.07    0.95  -20.99  -81.76
   2.065  -21.40  -91.40   -0.08    0.69   -0.08    0.69  -21.26  -81.50
   2.110  -21.64  -91.36   -0.08    0.37   -0.08    0.41  -21.57  -81.66
   2.155  -22.00  -91.80   -0.08    0.14   -0.08    0.10  -21.88  -81.67
   2.200  -22.26  -91.86   -0.08   -0.14   -0.08   -0.09  -22.18  -81.83
   2.245  -22.56  -92.73   -0.08   -0.40   -0.07   -0.40  -22.42  -81.70
   2.290  -22.83  -92.63   -0.07   -0.63   -0.07   -0.62  -22.73  -81.64
   2.335  -23.13  -93.07   -0.07   -0.90   -0.07   -0.89  -23.02  -81.62
   2.380  -23.43  -93.25   -0.07   -1.13   -0.07   -1.12  -23.33  -81.89
   2.425  -23.69  -93.79   -0.07   -1.38   -0.06   -1.37  -23.52  -81.96
   2.470  -23.95  -93.98   -0.07   -1.61   -0.07   -1.61  -23.81  -81.87
   2.515  -24.23  -94.26   -0.07   -1.84   -0.06   -1.83  -24.09  -81.92
   2.560  -24.56  -94.54   -0.07   -2.09   -0.06   -2.07  -24.40  -81.99
   2.605  -24.76  -94.96   -0.06   -2.29   -0.05   -2.26  -24.61  -82.36
   2.650  -25.06  -95.69   -0.06   -2.52   -0.06   -2.51  -24.86  -82.26
   2.695  -25.30  -95.56   -0.06   -2.75   -0.06   -2.72  -25.15  -82.35
   2.740  -25.61  -96.04   -0.06   -2.95   -0.05   -2.99  -25.40  -82.48
   2.785  -25.81  -96.13   -0.06   -3.20   -0.06   -3.17  -25.67  -83.01
   2.830  -26.06  -96.64   -0.06   -3.43   -0.05   -3.40  -25.88  -83.05
   2.875  -26.32  -96.59   -0.06   -3.63   -0.06   -3.61  -26.15  -82.97
   2.920  -26.56  -96.80   -0.06   -3.85   -0.06   -3.82  -26.38  -83.25
   2.965  -26.72  -96.81   -0.06   -4.02   -0.06   -4.03  -26.61  -83.80
   3.010  -27.47 -103.48   -0.06   -4.15   -0.06   -4.12  -27.09  -77.02
   3.055  -27.83 -104.49   -0.06   -4.36   -0.05   -4.34  -27.34  -76.12
   3.100  -28.17 -105.09   -0.06   -4.55   -0.06   -4.51  -27.68  -75.38
   3.145  -28.46 -106.19   -0.06   -4.75   -0.06   -4.73  -27.97  -74.72
   3.190  -28.66 -106.44   -0.06   -4.93   -0.06   -4.90  -28.23  -75.04
   3.235  -29.06 -107.15   -0.06   -5.11   -0.05   -5.09  -28.53  -74.16
   3.280  -29.40 -107.82   -0.06   -5.31   -0.05   -5.28  -28.80  -73.30
   3.325  -29.70 -109.24   -0.06   -5.49   -0.05   -5.44  -29.13  -72.76
   3.370  -29.98 -110.03   -0.06   -5.68   -0.05   -5.66  -29.42  -73.17
   3.415  -30.30 -110.52   -0.05   -5.88   -0.05   -5.84  -29.71  -72.47
   3.460  -30.75 -111.35   -0.05   -6.05   -0.05   -6.02  -30.03  -71.63
   3.505  -31.09 -112.12   -0.06   -6.25   -0.05   -6.23  -30.35  -70.81
   3.550  -31.38 -113.02   -0.06   -6.45   -0.05   -6.43  -30.71  -70.91
   3.595  -31.66 -112.98   -0.06   -6.63   -0.05   -6.59  -31.05  -70.95
   3.640  -32.09 -113.68   -0.06   -6.80   -0.05   -6.78  -31.32  -69.77
   3.685  -32.51 -115.18   -0.05   -6.97   -0.05   -6.94  -31.76  -68.73
   3.730  -32.91 -116.15   -0.05   -7.18   -0.05   -7.12  -32.10  -67.96
   3.775  -33.16 -116.12   -0.06   -7.35   -0.05   -7.31  -32.43  -68.38
   3.820  -33.60 -116.36   -0.05   -7.51   -0.05   -7.48  -32.76  -67.62
   3.865  -34.11 -116.97   -0.06   -7.69   -0.05   -7.65  -33.08  -66.57
   3.910  -34.49 -118.40   -0.06   -7.87   -0.05   -7.83  -33.48  -65.91
   3.955  -34.80 -119.58   -0.06   -8.05   -0.05   -8.00  -33.87  -65.89
   4.000  -35.18 -118.70   -0.06   -8.22   -0.05   -8.16  -34.22  -65.81
   4.045  -35.82 -119.78   -0.06   -8.41   -0.05   -8.37  -34.60  -64.49
   4.090  -36.29 -119.99   -0.06   -8.57   -0.05   -8.52  -35.04  -64.09
   4.135  -36.53 -121.68   -0.06   -8.73   -0.06   -8.71  -35.43  -63.71
   4.180  -37.07 -121.42   -0.06   -8.90   -0.05   -8.85  -35.96  -63.23
   4.225  -37.70 -120.20   -0.06   -9.07   -0.05   -9.04  -36.39  -61.79
   4.270  -38.25 -122.01   -0.06   -9.24   -0.05   -9.19  -36.87  -62.13
   4.315  -38.89 -123.20   -0.06   -9.42   -0.05   -9.37  -37.47  -60.31
   4.360  -39.44 -121.37   -0.06   -9.58   -0.05   -9.53  -37.92  -59.44
   4.405  -39.92 -120.44   -0.06   -9.73   -0.05   -9.70  -38.64  -59.00
   4.450  -41.04 -120.80   -0.06   -9.90   -0.05   -9.87  -39.22  -58.88
   4.495  -41.52 -119.59   -0.06  -10.07   -0.06  -10.03  -40.00  -57.10
   4.540  -42.35 -120.34   -0.06  -10.24   -0.06  -10.20  -40.39  -54.89
   4.585  -43.42 -116.96   -0.06  -10.39   -0.06  -10.37  -41.46  -54.78
   4.630  -44.39 -115.97   -0.06  -10.57   -0.06  -10.52  -42.56  -53.57
   4.675  -45.58 -114.75   -0.06  -10.74   -0.05  -10.71  -43.38  -51.05
   4.720  -46.48 -111.80   -0.06  -10.90   -0.06  -10.87  -44.26  -48.96
   4.765  -48.13 -107.10   -0.06  -11.04   -0.06  -10.99  -45.90  -46.39
   4.810  -50.48 -100.88   -0.06  -11.22   -0.05  -11.14  -47.50  -39.91
   4.855  -52.78  -86.00   -0.07  -11.41   -0.06  -11.33  -48.51  -39.42
   4.900  -54.37  -80.81   -0.06  -11.57   -0.06  -11.48  -50.34  -29.39
   4.945  -56.09  -44.64   -0.06  -11.72   -0.06  -11.67  -51.92  -16.35
   4.990  -53.24  -26.08   -0.07  -11.89   -0.06  -11.85  -55.08   12.75
   5.035  -51.70   -7.81   -0.07  -12.04   -0.06  -11.99  -55.75   34.41
   5.080  -50.14    4.81   -0.07  -12.21   -0.06  -12.16  -54.98   53.48
   5.125  -48.32   11.55   -0.07  -12.39   -0.06  -12.33  -51.91   68.91
   5.170  -46.80   14.15   -0.07  -12.55   -0.07  -12.48  -49.26   83.81
   5.215  -45.30   20.14   -0.07  -12.70   -0.06  -12.65  -48.17   91.55
   5.260  -43.98   22.06   -0.07  -12.89   -0.06  -12.81  -46.45   96.13
   5.305  -43.20   25.38   -0.07  -13.03   -0.07  -12.94  -44.95   92.18
   5.350  -41.99   26.74   -0.07  -13.19   -0.07  -13.11  -43.75   96.45
   5.395  -41.16   25.83   -0.07  -13.36   -0.06  -13.30  -42.45  100.30
   5.440  -40.32   26.49   -0.07  -13.51   -0.06  -13.44  -41.79  100.88
   5.485  -39.55   28.68   -0.07  -13.66   -0.07  -13.60  -40.73  100.40
   5.530  -38.56   29.79   -0.07  -13.82   -0.07  -13.79  -39.67  100.86
   5.575  -37.97   29.91   -0.07  -13.97   -0.06  -13.93  -38.82  102.02
   5.620  -37.30   29.20   -0.07  -14.14   -0.07  -14.11  -38.22  102.72
   5.665  -36.74   29.84   -0.07  -14.31   -0.07  -14.26  -37.60  102.11
   5.710  -36.01   31.27   -0.07  -14.48   -0.07  -14.43  -36.98  101.25
   5.755  -35.40   30.84   -0.07  -14.65   -0.07  -14.56  -36.32  101.48
   5.800  -34.92   29.78   -0.07  -14.80   -0.07  -14.75  -35.97  101.61
   5.845  -34.31   29.32   -0.07  -15.01   -0.06  -14.95  -35.49  101.93
   5.890  -33.80   28.99   -0.07  -15.18   -0.06  -15.11  -34.87  101.14
   5.935  -33.46   28.51   -0.07  -15.38   -0.06  -15.29  -34.51  101.59
   5.980  -33.25   28.56   -0.08  -15.53   -0.07  -15.47  -34.10  102.32
   6.025  -32.88   28.36   -0.08  -15.73   -0.07  -15.68  -33.55  102.29
   6.070  -32.48   30.75   -0.08  -15.90   -0.08  -15.85  -33.03  101.72
   6.115  -31.96   31.79   -0.08  -16.09   -0.08  -16.00  -32.57  101.21
   6.160  -31.59   31.62   -0.09  -16.26   -0.08  -16.16  -32.18  101.12
   6.205  -31.25   31.35   -0.09  -16.43   -0.08  -16.35  -31.78  101.54
   6.250  -30.68   32.13   -0.09  -16.61   -0.08  -16.51  -31.25  100.64
   6.295  -30.18   32.61   -0.09  -16.77   -0.09  -16.72  -30.98   99.51
   6.340  -29.88   32.45   -0.09  -16.95   -0.09  -16.87  -30.57   99.77
   6.385  -29.55   32.52   -0.10  -17.16   -0.09  -17.08  -30.15   99.22
   6.430  -29.11   32.21   -0.10  -17.32   -0.09  -17.28  -29.79   98.88
   6.475  -28.66   33.46   -0.10  -17.53   -0.10  -17.45  -29.40   97.60
   6.520  -28.31   33.20   -0.10  -17.73   -0.10  -17.65  -29.04   97.23
   6.565  -28.01   33.25   -0.11  -17.91   -0.11  -17.84  -28.68   96.84
   6.610  -27.57   32.57   -0.11  -18.13   -0.11  -18.04  -28.27   96.17
   6.655  -27.08   33.27   -0.12  -18.33   -0.11  -18.24  -27.86   94.46
   6.700  -26.71   33.53   -0.13  -18.53   -0.12  -18.46  -27.49   93.53
   6.745  -26.32   33.52   -0.13  -18.78   -0.13  -18.67  -27.05   92.21
   6.790  -25.83   32.75   -0.14  -18.97   -0.13  -18.92  -26.72   91.19
   6.835  -25.41   32.46   -0.15  -19.22   -0.15  -19.14  -26.26   89.64
   6.880  -24.89   33.28   -0.16  -19.46   -0.16  -19.34  -25.89   87.03
   6.925  -24.47   32.13   -0.17  -19.72   -0.17  -19.64  -25.44   85.97
   6.970  -24.00   31.56   -0.20  -19.98   -0.18  -19.87  -25.01   83.76
   7.015  -23.42   30.32   -0.21  -20.25   -0.21  -20.19  -24.57   81.58
   7.060  -22.80   30.23   -0.25  -20.57   -0.23  -20.48  -24.05   78.00
   7.105  -22.21   28.49   -0.27  -20.90   -0.27  -20.82  -23.56   74.86
   7.150  -21.59   26.50   -0.33  -21.23   -0.32  -21.12  -23.05   70.55
   7.195  -20.85   23.22   -0.39  -21.53   -0.38  -21.45  -22.49   65.32
   7.240  -20.12   19.47   -0.48  -21.81   -0.48  -21.69  -21.95   58.21
   7.285  -19.42   14.28   -0.60  -21.81   -0.58  -21.70  -21.54   50.18
   7.330  -18.92    6.49   -0.73  -21.57   -0.72  -21.45  -21.28   39.75
   7.375  -18.57   -2.24   -0.86  -20.75   -0.83  -20.61  -21.43   26.52
   7.420  -18.76  -12.81   -0.89  -19.62   -0.89  -19.55  -22.11   12.74
   7.465  -19.52  -21.56   -0.85  -18.47   -0.83  -18.34  -23.47   -1.01
   7.510  -20.65  -29.32   -0.72  -17.76   -0.71  -17.70  -25.49  -13.05
   7.555  -21.99  -33.33   -0.59  -17.54   -0.58  -17.48  -28.06  -22.73
   7.600  -23.35  -35.04   -0.48  -17.62   -0.47  -17.54  -30.97  -28.69
   7.645  -24.73  -33.34   -0.39  -17.88   -0.39  -17.81  -34.85  -30.24
   7.690  -25.83  -30.76   -0.33  -18.17   -0.32  -18.11  -39.95  -26.62
   7.735  -26.74  -26.84   -0.28  -18.49   -0.28  -18.43  -46.76   -3.10
   7.780  -27.34  -21.85   -0.25  -18.81   -0.25  -18.74  -47.19   66.75
   7.825  -27.89  -16.35   -0.22  -19.15   -0.22  -19.06  -41.25   89.73
   7.870  -28.08  -10.21   -0.21  -19.39   -0.20  -19.27  -38.11   96.71
   7.915  -28.25   -6.78   -0.19  -19.65   -0.19  -19.59  -36.03   99.33
   7.960  -28.21   -1.55   -0.18  -19.94   -0.18  -19.84  -34.55   96.44
   8.005  -28.07    2.31   -0.17  -20.16   -0.17  -20.10  -33.44   95.95
   8.050  -27.95    6.25   -0.17  -20.40   -0.16  -20.28  -32.38   94.56
   8.095  -27.90    8.91   -0.16  -20.63   -0.16  -20.56  -31.76   93.28
   8.140  -27.70   11.88   -0.15  -20.86   -0.15  -20.77  -31.03   92.24
   8.185  -27.51   14.41   -0.16  -21.07   -0.14  -20.98  -30.42   90.86
   8.230  -27.29   17.27   -0.15  -21.29   -0.15  -21.21  -29.96   90.96
   8.275  -27.06   20.14   -0.16  -21.49   -0.14  -21.39  -29.50   90.26
   8.320  -26.78   22.07   -0.16  -21.67   -0.15  -21.59  -29.05   89.20
   8.365  -22.44   35.30   -0.18  -22.11   -0.17  -21.99  -22.83   83.59
   8.410  -22.31   35.71   -0.17  -22.28   -0.17  -22.23  -22.63   83.80
   8.455  -22.13   36.91   -0.17  -22.50   -0.16  -22.42  -22.46   82.89
   8.500  -21.98   37.01   -0.17  -22.68   -0.16  -22.55  -22.33   82.64
   8.545  -21.87   37.89   -0.18  -22.86   -0.16  -22.75  -22.11   81.70
   8.590  -21.71   38.10   -0.17  -23.04   -0.17  -22.95  -21.99   81.59
   8.635  -21.53   38.48   -0.17  -23.25   -0.17  -23.18  -21.83   81.04
   8.680  -21.38   39.07   -0.18  -23.40   -0.16  -23.31  -21.70   80.54
   8.725  -21.23   39.30   -0.17  -23.59   -0.17  -23.49  -21.60   80.16
   8.770  -21.14   39.53   -0.18  -23.77   -0.17  -23.62  -21.46   79.49
   8.815  -21.00   39.49   -0.18  -23.90   -0.18  -23.83  -21.40   78.95
   8.860  -20.84   40.10   -0.18  -24.07   -0.17  -23.97  -21.28   78.12
   8.905  -20.77   40.24   -0.18  -24.22   -0.17  -24.10  -21.20   77.87
   8.950  -20.71   40.68   -0.18  -24.41   -0.17  -24.25  -21.18   77.25
   8.995  -20.69   40.08   -0.18  -24.55   -0.18  -24.44  -21.12   77.64
   9.040  -20.58   40.57   -0.19  -24.74   -0.18  -24.63  -20.99   77.39
   9.085  -20.47   41.12   -0.18  -24.90   -0.18  -24.78  -20.84   77.38
   9.130  -20.37   42.02   -0.19  -25.05   -0.19  -25.00  -20.74   76.44
   9.175  -20.35   42.46   -0.20  -25.22   -0.19  -25.14  -20.62   75.90
   9.220  -20.18   42.68   -0.20  -25.37   -0.19  -25.25  -20.43   75.44
   9.265  -20.01   42.87   -0.21  -25.46   -0.19  -25.34  -20.26   75.09
   9.310  -19.86   43.17   -0.20  -25.62   -0.20  -25.51  -20.16   74.34
   9.355  -19.77   43.35   -0.20  -25.76   -0.20  -25.64  -20.10   73.29
   9.400  -19.73   42.83   -0.20  -25.91   -0.19  -25.77  -19.99   72.48
   9.445  -19.60   43.14   -0.21  -26.04   -0.19  -25.94  -19.92   71.68
   9.490  -19.51   42.99   -0.20  -26.21   -0.19  -26.08  -19.80   71.57
   9.535  -19.37   43.47   -0.20  -26.37   -0.19  -26.31  -19.74   70.40
   9.580  -19.32   43.22   -0.20  -26.58   -0.19  -26.42  -19.59   69.94
   9.625  -19.23   43.48   -0.20  -26.70   -0.19  -26.58  -19.54   69.14
   9.670  -19.18   43.37   -0.19  -26.85   -0.19  -26.75  -19.48   68.86
   9.715  -19.08   43.59   -0.20  -27.05   -0.19  -26.96  -19.42   67.60
   9.760  -18.98   43.43   -0.19  -27.23   -0.18  -27.09  -19.28   66.72
   9.805  -18.85   43.35   -0.19  -27.44   -0.18  -27.34  -19.11   66.01
   9.850  -18.75   43.28   -0.18  -27.69   -0.18  -27.57  -19.04   65.25
   9.895  -18.74   42.98   -0.19  -27.93   -0.19  -27.76  -18.95   64.45
   9.940  -18.64   42.91   -0.20  -28.14   -0.19  -28.06  -18.96   63.27
   9.985  -18.64   42.30   -0.21  -28.44   -0.21  -28.23  -18.76   62.85
  10.030  -18.50   42.47   -0.22  -28.60   -0.22  -28.53  -18.74   61.42
  10.075  -18.48   42.17   -0.23  -28.83   -0.22  -28.68  -18.64   61.04
  10.120  -18.40   42.43   -0.24  -29.01   -0.23  -28.91  -18.60   59.60
  10.165  -18.31   41.70   -0.25  -29.24   -0.25  -29.12  -18.47   59.36
  10.210  -18.18   41.57   -0.27  -29.46   -0.26  -29.38  -18.31   58.34
  10.255  -18.05   41.20   -0.28  -29.69   -0.27  -29.58  -18.22   57.38
  10.300  -18.02   40.76   -0.30  -29.91   -0.29  -29.80  -18.10   56.41
  10.345  -17.90   40.25   -0.31  -30.14   -0.31  -30.05  -17.97   55.21
  10.390  -17.79   39.27   -0.34  -30.39   -0.33  -30.25  -17.77   54.00
  10.435  -17.62   38.84   -0.36  -30.60   -0.36  -30.54  -17.67   52.59
  10.480  -17.61   37.94   -0.40  -30.85   -0.38  -30.66  -17.45   51.79
  10.525  -17.52   37.32   -0.42  -31.04   -0.42  -31.00  -17.38   49.73
  10.570  -17.41   35.93   -0.45  -31.30   -0.45  -31.12  -17.15   48.61
  10.615  -17.22   35.30   -0.49  -31.44   -0.50  -31.39  -16.96   46.40
  10.660  -17.09   33.69   -0.53  -31.72   -0.53  -31.58  -16.74   45.27
  10.705  -16.95   32.21   -0.59  -31.92   -0.58  -31.85  -16.51   43.12
  10.750  -16.70   29.97   -0.63  -32.07   -0.63  -31.97  -16.37   40.76
  10.795  -16.56   27.08   -0.70  -32.24   -0.70  -32.08  -16.07   38.45
  10.840  -16.44   24.62   -0.77  -32.36   -0.77  -32.23  -15.84   35.46
  10.885  -16.44   20.98   -0.86  -32.34   -0.85  -32.13  -15.65   32.84
  10.930  -16.38   17.41   -0.94  -32.26   -0.94  -32.14  -15.55   28.80
  10.975  -16.41   12.97   -1.04  -32.05   -1.03  -31.85  -15.34   25.25
  11.020  -16.52    8.93   -1.12  -31.64   -1.12  -31.53  -15.27   20.97
  11.065  -16.79    3.78   -1.20  -31.14   -1.18  -30.96  -15.25   16.90
  11.110  -17.10   -1.32   -1.25  -30.41   -1.25  -30.28  -15.40   11.81
  11.155  -17.53   -6.86   -1.27  -29.66   -1.26  -29.54  -15.56    7.24
  11.200  -18.17  -11.83   -1.26  -28.84   -1.25  -28.69  -15.77    2.93
  11.245  -18.99  -16.65   -1.22  -28.10   -1.21  -28.00  -16.21   -1.56
  11.290  -19.95  -21.65   -1.15  -27.46   -1.14  -27.29  -16.67   -5.13
  11.335  -20.96  -25.20   -1.06  -27.00   -1.06  -26.91  -17.22   -8.98
  11.380  -22.17  -28.27   -0.97  -26.69   -0.96  -26.53  -17.77  -11.07
  11.425  -23.55  -30.27   -0.88  -26.57   -0.87  -26.44  -18.43  -12.95
  11.470  -25.01  -32.35   -0.79  -26.55   -0.77  -26.45  -19.04  -14.43
  11.515  -26.46  -32.34   -0.71  -26.65   -0.70  -26.50  -19.68  -15.58
  11.560  -27.99  -30.74   -0.63  -26.76   -0.62  -26.63  -20.21  -15.30
  11.605  -29.81  -27.22   -0.57  -26.94   -0.56  -26.84  -20.79  -15.11
  11.650  -31.69  -22.50   -0.52  -27.20   -0.51  -27.09  -21.35  -14.93
  11.695  -33.58  -14.94   -0.47  -27.46   -0.45  -27.33  -21.71  -14.34
  11.740  -34.97   -1.67   -0.43  -27.69   -0.43  -27.59  -22.15  -13.50
  11.785  -35.63   13.53   -0.40  -28.01   -0.39  -27.85  -22.53  -11.23
  11.830  -35.84   27.73   -0.36  -28.24   -0.36  -28.14  -22.91  -10.51
  11.875  -35.37   42.41   -0.33  -28.49   -0.33  -28.35  -23.23   -9.21
  11.920  -34.33   51.19   -0.32  -28.79   -0.31  -28.67  -23.40   -7.45
  11.965  -33.56   58.36   -0.30  -29.02   -0.28  -28.87  -23.53   -5.52
  12.010  -32.80   62.85   -0.28  -29.27   -0.27  -29.15  -23.90   -3.75
  12.055  -32.15   65.68   -0.27  -29.52   -0.26  -29.38  -24.05   -2.24
  12.100  -31.38   68.49   -0.26  -29.77   -0.25  -29.63  -24.20   -0.79
  12.145  -30.59   70.50   -0.24  -30.00   -0.23  -29.85  -24.29    1.02
  12.190  -30.15   72.18   -0.23  -30.25   -0.22  -30.04  -24.34    2.61
  12.235  -29.69   73.85   -0.23  -30.48   -0.22  -30.35  -24.46    3.56
  12.280  -29.13   74.00   -0.22  -30.72   -0.22  -30.52  -24.47    5.70
  12.325  -28.69   74.31   -0.21  -30.94   -0.21  -30.76  -24.48    6.71
