!  American Technical Ceramics   Date:  10/27/06
!  One Norden Lane
!  Huntington Station,  NY.   11746-2102
!  Tel:  (631) 622-4700               Fax:  (631) 622-4748
!  Part Number  600L8R2
!  Description: Ultra Low ESR Microwave capacitors
!  Application: Coupling, Bypass, Tuning, DC Block
!               Filters, Matching
# GHZ S DB R 50
! Freq   |S11|   S11 Ph  |S21|   S21 Ph  |S12|   S12 Ph  |S22|   S22 Ph
    0.00    0.00    0.00 -999.00   90.00 -999.00   90.00    0.00    0.00
   0.400   -7.25  -64.34   -0.98   25.02   -0.96   24.89   -7.16  -63.36
   0.445   -8.01  -66.74   -0.81   22.58   -0.77   22.66   -8.07  -66.82
   0.490   -8.75  -68.77   -0.68   20.56   -0.67   20.52   -8.58  -68.27
   0.535   -9.43  -70.61   -0.58   18.76   -0.54   18.72   -9.51  -69.84
   0.580  -10.08  -72.08   -0.50   17.22   -0.49   17.27   -9.93  -72.35
   0.625  -10.68  -73.46   -0.44   15.86   -0.41   15.75  -10.69  -72.02
   0.670  -11.25  -74.59   -0.38   14.64   -0.36   14.72  -11.24  -75.31
   0.715  -11.82  -75.71   -0.34   13.58   -0.32   13.48  -11.67  -74.34
   0.760  -12.33  -76.63   -0.31   12.59   -0.27   12.60  -12.46  -76.89
   0.805  -12.84  -77.46   -0.27   11.70   -0.26   11.68  -12.62  -77.06
   0.850  -13.31  -78.30   -0.25   10.87   -0.21   10.84  -13.48  -77.42
   0.895  -13.79  -78.95   -0.22   10.13   -0.21   10.17  -13.61  -79.69
   0.940  -14.23  -79.72   -0.21    9.45   -0.18    9.39  -14.26  -77.87
   0.985  -14.67  -80.15   -0.19    8.81   -0.16    8.85  -14.67  -81.65
   1.030  -15.10  -80.77   -0.18    8.25   -0.15    8.17  -14.89  -79.26
   1.075  -15.50  -81.19   -0.16    7.67   -0.13    7.67  -15.72  -82.11
   1.120  -15.90  -81.75   -0.15    7.17   -0.13    7.12  -15.58  -81.67
   1.165  -16.29  -82.20   -0.14    6.66   -0.11    6.61  -16.55  -81.30
   1.210  -16.67  -82.53   -0.13    6.20   -0.11    6.21  -16.43  -84.35
   1.255  -17.05  -82.89   -0.12    5.77   -0.09    5.67  -17.08  -80.86
   1.300  -17.40  -83.25   -0.11    5.34   -0.09    5.35  -17.47  -85.97
   1.345  -17.77  -83.61   -0.11    4.96   -0.09    4.88  -17.47  -82.08
   1.390  -18.13  -83.98   -0.10    4.55   -0.07    4.53  -18.50  -85.47
   1.435  -18.48  -84.09   -0.09    4.18   -0.08    4.16  -18.01  -84.91
   1.480  -18.83  -84.54   -0.09    3.82   -0.06    3.77  -19.19  -83.21
   1.525  -19.16  -84.56   -0.09    3.50   -0.07    3.49  -18.86  -87.79
   1.570  -19.53  -84.96   -0.09    3.21   -0.06    3.10  -19.45  -82.82
   1.615  -19.83  -84.81   -0.08    2.87   -0.05    2.85  -19.93  -89.07
   1.660  -20.16  -85.23   -0.07    2.60   -0.06    2.50  -19.71  -84.35
   1.705  -20.46  -85.40   -0.07    2.28   -0.04    2.24  -20.97  -87.66
   1.750  -20.81  -85.63   -0.07    1.99   -0.05    1.95  -20.22  -87.80
   1.795  -21.14  -85.90   -0.07    1.72   -0.04    1.64  -21.54  -84.59
   1.840  -21.47  -85.81   -0.06    1.44   -0.04    1.43  -21.15  -91.10
   1.885  -21.79  -86.01   -0.06    1.20   -0.04    1.10  -21.66  -83.49
   1.930  -22.11  -86.09   -0.06    0.93   -0.04    0.91  -22.41  -91.96
   1.975  -22.44  -86.19   -0.06    0.70   -0.04    0.61  -21.79  -85.92
   2.020  -22.76  -86.32   -0.06    0.43   -0.03    0.38  -23.48  -88.73
   2.065  -23.06  -86.15   -0.05    0.18   -0.04    0.16  -22.33  -90.28
   2.110  -23.43  -86.54   -0.05   -0.05   -0.03   -0.11  -23.89  -84.44
   2.155  -23.70  -86.36   -0.05   -0.28   -0.03   -0.29  -23.44  -94.05
   2.200  -24.08  -86.71   -0.05   -0.48   -0.03   -0.56  -23.75  -83.56
   2.245  -24.35  -86.45   -0.05   -0.71   -0.03   -0.74  -24.92  -93.83
   2.290  -24.73  -86.64   -0.05   -0.92   -0.03   -0.99  -23.81  -87.08
   2.335  -25.06  -86.96   -0.05   -1.16   -0.02   -1.19  -26.04  -88.58
   2.380  -25.40  -86.81   -0.04   -1.38   -0.03   -1.40  -24.48  -92.58
   2.425  -25.76  -86.92   -0.05   -1.57   -0.02   -1.64  -26.11  -82.77
   2.470  -26.11  -86.69   -0.05   -1.77   -0.03   -1.79  -25.84  -96.60
   2.515  -26.51  -86.73   -0.05   -1.96   -0.02   -2.06  -25.77  -82.93
   2.560  -26.79  -86.97   -0.04   -2.17   -0.02   -2.21  -27.57  -94.91
   2.605  -27.14  -86.68   -0.04   -2.35   -0.03   -2.40  -25.82  -88.13
   2.650  -27.49  -87.39   -0.04   -2.56   -0.02   -2.60  -28.58  -86.92
   2.695  -27.93  -87.42   -0.04   -2.75   -0.03   -2.79  -26.69  -94.40
   2.740  -28.35  -88.14   -0.04   -2.95   -0.02   -3.00  -28.38  -80.29
   2.785  -28.68  -88.05   -0.04   -3.14   -0.02   -3.18  -28.36  -98.33
   2.830  -29.16  -88.15   -0.04   -3.32   -0.02   -3.41  -27.84  -81.11
   2.875  -29.51  -89.04   -0.04   -3.51   -0.02   -3.56  -30.52  -93.63
   2.920  -29.97  -89.64   -0.05   -3.70   -0.03   -3.77  -27.99  -86.80
   2.965  -30.32  -91.52   -0.05   -3.90   -0.02   -3.95  -31.37  -79.52
   3.010  -29.59  -85.97   -0.05   -4.11   -0.03   -4.15  -28.93 -100.12
   3.055  -29.94  -86.17   -0.05   -4.24   -0.02   -4.35  -30.69  -79.68
   3.100  -30.23  -87.21   -0.05   -4.41   -0.03   -4.49  -31.14 -104.25
   3.145  -30.70  -86.93   -0.04   -4.57   -0.03   -4.67  -29.85  -82.54
   3.190  -31.07  -87.90   -0.04   -4.77   -0.02   -4.83  -33.50  -96.92
   3.235  -31.61  -86.23   -0.04   -4.94   -0.03   -5.02  -29.95  -91.64
   3.280  -31.99  -86.76   -0.05   -5.11   -0.02   -5.17  -34.09  -80.72
   3.325  -32.35  -86.23   -0.05   -5.27   -0.03   -5.34  -31.33 -102.21
   3.370  -32.83  -86.00   -0.05   -5.40   -0.03   -5.51  -32.75  -75.52
   3.415  -33.16  -85.92   -0.05   -5.57   -0.03   -5.64  -33.90 -107.35
   3.460  -33.80  -84.82   -0.04   -5.73   -0.02   -5.84  -31.91  -82.19
   3.505  -34.12  -85.05   -0.04   -5.89   -0.03   -5.99  -37.36  -97.47
   3.550  -34.64  -84.34   -0.04   -6.07   -0.03   -6.14  -32.23  -95.40
   3.595  -35.18  -83.72   -0.05   -6.22   -0.02   -6.32  -37.55  -75.49
   3.640  -35.60  -83.53   -0.05   -6.38   -0.03   -6.47  -34.21 -108.38
   3.685  -36.31  -81.76   -0.05   -6.52   -0.03   -6.63  -35.58  -70.83
   3.730  -36.76  -82.56   -0.05   -6.68   -0.03   -6.79  -37.81 -116.26
   3.775  -37.45  -78.82   -0.04   -6.83   -0.03   -6.95  -34.57  -83.50
   3.820  -38.01  -79.72   -0.05   -7.00   -0.03   -7.07  -42.79 -101.95
   3.865  -38.57  -76.66   -0.05   -7.16   -0.03   -7.24  -35.33 -100.45
   3.910  -39.44  -74.74   -0.05   -7.28   -0.03   -7.40  -42.54  -64.23
   3.955  -39.83  -74.41   -0.05   -7.43   -0.03   -7.53  -37.76 -121.53
   4.000  -41.03  -69.85   -0.05   -7.56   -0.03   -7.70  -39.40  -66.05
   4.045  -41.21  -69.98   -0.05   -7.72   -0.03   -7.84  -43.70 -143.01
   4.090  -42.31  -63.81   -0.04   -7.89   -0.03   -7.99  -38.54  -83.66
   4.135  -43.23  -61.28   -0.04   -8.04   -0.03   -8.14  -66.89  145.51
   4.180  -43.95  -57.02   -0.05   -8.22   -0.03   -8.32  -40.01 -109.43
   4.225  -44.90  -51.41   -0.05   -8.35   -0.03   -8.45  -46.52  -12.21
   4.270  -45.58  -45.93   -0.05   -8.49   -0.03   -8.60  -43.29 -146.96
   4.315  -46.22  -32.70   -0.05   -8.62   -0.03   -8.78  -43.08  -40.12
   4.360  -47.54  -27.17   -0.05   -8.78   -0.04   -8.89  -47.13  142.55
   4.405  -46.96  -18.84   -0.05   -8.94   -0.03   -9.06  -43.57  -73.96
   4.450  -48.16   -5.74   -0.05   -9.08   -0.04   -9.20  -44.95   74.61
   4.495  -47.78    3.62   -0.05   -9.24   -0.04   -9.32  -47.21 -126.79
   4.540  -46.56   26.88   -0.05   -9.32   -0.03   -9.44  -42.14   33.92
   4.585  -45.31   29.13   -0.05   -9.46   -0.03   -9.61  -47.06  145.60
   4.630  -43.44   27.92   -0.04   -9.63   -0.03   -9.77  -43.09   -3.53
   4.675  -43.86   29.80   -0.05   -9.80   -0.03   -9.94  -42.49  100.42
   4.720  -43.23   34.41   -0.05   -9.96   -0.04  -10.09  -50.65  -33.82
   4.765  -42.77   42.89   -0.05  -10.10   -0.04  -10.21  -39.62   70.92
   4.810  -42.09   42.67   -0.06  -10.24   -0.04  -10.36  -51.22  144.11
   4.855  -41.15   47.15   -0.06  -10.36   -0.04  -10.50  -39.23   46.20
   4.900  -40.59   49.34   -0.06  -10.50   -0.04  -10.65  -41.27  110.64
   4.945  -39.99   50.18   -0.05  -10.65   -0.04  -10.79  -41.82   32.97
   4.990  -39.43   53.81   -0.05  -10.80   -0.04  -10.94  -37.41   89.25
   5.035  -39.02   52.18   -0.05  -10.96   -0.04  -11.08  -46.44   52.34
   5.080  -38.29   55.98   -0.06  -11.09   -0.04  -11.22  -36.07   69.72
   5.125  -38.05   55.48   -0.06  -11.25   -0.04  -11.39  -42.62   99.18
   5.170  -37.46   57.31   -0.06  -11.38   -0.05  -11.51  -36.36   54.44
   5.215  -37.12   58.30   -0.06  -11.51   -0.05  -11.67  -37.27   97.42
   5.260  -36.66   58.21   -0.06  -11.66   -0.05  -11.82  -38.75   47.85
   5.305  -36.18   60.47   -0.06  -11.80   -0.05  -11.95  -34.56   83.15
   5.350  -35.94   59.94   -0.06  -11.96   -0.05  -12.10  -40.67   66.64
   5.395  -35.41   61.56   -0.06  -12.10   -0.05  -12.25  -33.69   69.54
   5.440  -35.15   61.89   -0.06  -12.24   -0.05  -12.39  -38.02   90.83
   5.485  -34.78   61.94   -0.06  -12.37   -0.05  -12.53  -34.28   56.81
   5.530  -34.42   64.10   -0.06  -12.52   -0.06  -12.69  -34.28   90.21
   5.575  -34.17   62.93   -0.06  -12.67   -0.06  -12.82  -36.21   55.81
   5.620  -33.70   65.71   -0.07  -12.82   -0.06  -12.96  -32.37   80.06
   5.665  -33.49   64.60   -0.07  -12.98   -0.06  -13.13  -37.23   72.40
   5.710  -33.10   66.32   -0.07  -13.10   -0.06  -13.25  -31.86   67.85
   5.755  -32.77   67.14   -0.08  -13.23   -0.07  -13.40  -34.74   88.70
   5.800  -32.36   67.54   -0.08  -13.36   -0.07  -13.52  -32.62   61.12
   5.845  -31.97   68.98   -0.08  -13.48   -0.07  -13.66  -32.00   86.09
   5.890  -31.57   68.58   -0.08  -13.61   -0.07  -13.77  -33.75   63.06
   5.935  -31.03   68.91   -0.08  -13.72   -0.08  -13.89  -30.30   77.54
   5.980  -30.69   68.56   -0.08  -13.87   -0.07  -14.04  -33.47   75.15
   6.025  -30.29   67.71   -0.08  -13.99   -0.07  -14.14  -29.83   67.39
   6.070  -30.03   67.32   -0.08  -14.12   -0.07  -14.32  -31.63   81.99
   6.115  -29.78   65.95   -0.07  -14.27   -0.07  -14.45  -30.27   60.59
   6.160  -29.44   66.46   -0.07  -14.42   -0.07  -14.61  -29.60   79.14
   6.205  -29.32   65.46   -0.07  -14.61   -0.07  -14.75  -31.12   61.98
   6.250  -29.02   65.42   -0.07  -14.75   -0.07  -14.92  -28.46   71.31
   6.295  -28.93   65.10   -0.08  -14.92   -0.07  -15.09  -31.02   70.12
   6.340  -28.56   64.98   -0.07  -15.05   -0.07  -15.22  -28.23   63.48
   6.385  -28.44   65.51   -0.08  -15.19   -0.07  -15.44  -29.55   75.50
   6.430  -28.13   65.28   -0.08  -15.39   -0.08  -15.55  -28.59   59.36
   6.475  -27.89   65.19   -0.08  -15.55   -0.08  -15.74  -27.90   73.72
   6.520  -27.65   65.33   -0.09  -15.75   -0.08  -15.92  -29.18   61.05
   6.565  -27.26   65.13   -0.09  -15.88   -0.09  -16.06  -26.87   67.30
   6.610  -27.08   65.39   -0.10  -16.06   -0.09  -16.25  -28.59   67.09
   6.655  -26.69   64.76   -0.10  -16.22   -0.10  -16.41  -26.48   61.18
   6.700  -26.41   64.78   -0.10  -16.39   -0.11  -16.62  -27.32   69.79
   6.745  -26.06   64.25   -0.11  -16.62   -0.11  -16.74  -26.53   57.05
   6.790  -25.68   63.81   -0.11  -16.78   -0.12  -17.00  -25.79   66.98
   6.835  -25.41   63.25   -0.13  -17.00   -0.12  -17.16  -26.58   57.27
   6.880  -24.97   62.10   -0.14  -17.18   -0.14  -17.35  -24.80   60.43
   6.925  -24.66   61.71   -0.16  -17.39   -0.15  -17.62  -25.99   58.97
   6.970  -24.16   59.93   -0.17  -17.61   -0.18  -17.76  -24.20   52.88
   7.015  -23.75   58.43   -0.19  -17.79   -0.19  -18.03  -24.71   57.64
   7.060  -23.30   55.91   -0.22  -18.04   -0.23  -18.23  -23.97   46.13
   7.105  -22.83   53.04   -0.27  -18.22   -0.28  -18.43  -23.45   49.89
   7.150  -22.44   48.88   -0.33  -18.36   -0.32  -18.54  -23.68   38.10
   7.195  -22.08   43.50   -0.39  -18.35   -0.40  -18.56  -22.64   37.10
   7.240  -22.00   37.11   -0.46  -18.09   -0.46  -18.34  -23.78   27.02
   7.285  -22.22   29.53   -0.50  -17.67   -0.51  -17.83  -23.14   19.15
   7.330  -22.91   22.94   -0.51  -17.07   -0.51  -17.35  -25.24   13.73
   7.375  -23.99   17.73   -0.46  -16.65   -0.47  -16.80  -25.51    4.30
   7.420  -25.24   16.26   -0.39  -16.42   -0.40  -16.60  -28.20   13.43
   7.465  -26.54   17.84   -0.33  -16.40   -0.33  -16.60  -29.70    2.58
   7.510  -27.43   21.78   -0.27  -16.49   -0.28  -16.69  -29.66   24.64
   7.555  -28.05   27.77   -0.23  -16.63   -0.23  -16.87  -32.75   27.36
   7.600  -28.30   32.27   -0.20  -16.87   -0.21  -17.09  -29.73   34.02
   7.645  -28.37   37.97   -0.17  -17.09   -0.18  -17.31  -31.23   54.07
   7.690  -28.38   41.51   -0.15  -17.36   -0.15  -17.52  -30.11   39.38
   7.735  -28.09   45.19   -0.13  -17.58   -0.14  -17.81  -28.68   58.05
   7.780  -27.96   48.14   -0.12  -17.79   -0.13  -17.99  -30.07   49.75
   7.825  -27.71   50.40   -0.12  -18.03   -0.12  -18.23  -27.48   55.19
   7.870  -27.53   53.25   -0.11  -18.24   -0.12  -18.49  -29.27   60.05
   7.915  -27.25   54.79   -0.11  -18.45   -0.12  -18.66  -27.28   50.98
   7.960  -26.85   56.36   -0.11  -18.66   -0.12  -18.88  -27.58   64.34
   8.005  -26.63   57.83   -0.11  -18.84   -0.12  -19.03  -27.59   52.04
   8.050  -26.36   58.57   -0.11  -19.00   -0.12  -19.20  -26.32   62.70
   8.095  -26.09   59.78   -0.12  -19.15   -0.12  -19.36  -27.69   57.32
   8.140  -25.86   59.59   -0.11  -19.30   -0.13  -19.53  -25.60   58.11
   8.185  -25.55   60.84   -0.11  -19.44   -0.12  -19.69  -26.82   64.12
   8.230  -25.43   61.29   -0.11  -19.61   -0.13  -19.82  -25.55   55.24
   8.275  -25.11   61.41   -0.11  -19.77   -0.12  -19.99  -25.52   65.51
   8.320  -25.18   65.43   -0.11  -19.92   -0.12  -20.11  -26.14   48.63
   8.365  -24.90   64.91   -0.11  -20.06   -0.13  -20.27  -24.56   57.31
   8.410  -24.74   65.73   -0.12  -20.17   -0.12  -20.41  -26.12   53.98
   8.455  -24.58   65.31   -0.11  -20.31   -0.13  -20.55  -24.19   52.04
   8.500  -24.30   65.54   -0.11  -20.45   -0.12  -20.71  -25.36   58.76
   8.545  -24.19   65.23   -0.11  -20.62   -0.12  -20.83  -24.36   48.47
   8.590  -23.92   64.95   -0.10  -20.78   -0.12  -21.02  -24.16   58.88
   8.635  -23.88   64.88   -0.11  -20.94   -0.12  -21.14  -24.73   49.19
   8.680  -23.77   64.64   -0.11  -21.09   -0.12  -21.33  -23.32   55.43
   8.725  -23.60   65.00   -0.11  -21.26   -0.12  -21.52  -24.71   53.24
   8.770  -23.58   65.01   -0.10  -21.44   -0.13  -21.66  -23.06   49.99
   8.815  -23.36   65.45   -0.11  -21.62   -0.12  -21.88  -23.99   56.63
   8.860  -23.32   66.36   -0.12  -21.80   -0.14  -22.01  -23.38   47.46
   8.905  -23.02   66.51   -0.12  -21.95   -0.15  -22.19  -23.16   56.52
   8.950  -22.81   67.30   -0.14  -22.08   -0.14  -22.28  -23.90   48.34
   8.995  -22.54   67.11   -0.14  -22.21   -0.16  -22.46  -22.55   53.82
   9.040  -22.19   67.18   -0.15  -22.27   -0.16  -22.54  -23.85   54.65
   9.085  -22.00   66.46   -0.15  -22.39   -0.17  -22.60  -22.45   51.44
   9.130  -21.66   65.28   -0.14  -22.46   -0.16  -22.76  -22.97   58.43
   9.175  -21.61   64.43   -0.14  -22.61   -0.16  -22.80  -22.41   49.77
   9.220  -21.44   63.11   -0.13  -22.78   -0.15  -23.02  -21.86   57.61
   9.265  -21.41   62.90   -0.14  -22.94   -0.15  -23.17  -22.63   51.19
   9.310  -21.38   62.02   -0.14  -23.11   -0.16  -23.33  -21.38   53.67
   9.355  -21.24   61.93   -0.13  -23.23   -0.14  -23.50  -22.38   54.50
   9.400  -21.25   61.51   -0.14  -23.41   -0.16  -23.68  -21.18   50.65
   9.445  -21.10   61.35   -0.13  -23.60   -0.16  -23.83  -21.65   57.57
   9.490  -21.10   61.66   -0.14  -23.78   -0.15  -23.98  -21.44   49.36
   9.535  -20.96   61.15   -0.14  -23.95   -0.16  -24.20  -20.79   55.70
   9.580  -20.87   61.56   -0.15  -24.08   -0.16  -24.28  -21.47   51.12
   9.625  -20.78   61.51   -0.15  -24.24   -0.17  -24.47  -20.32   52.96
   9.670  -20.61   61.73   -0.15  -24.38   -0.17  -24.66  -21.16   54.24
   9.715  -20.52   61.87   -0.15  -24.56   -0.18  -24.76  -20.21   49.71
   9.760  -20.32   61.47   -0.15  -24.75   -0.17  -24.97  -20.40   55.18
   9.805  -20.19   61.93   -0.16  -24.93   -0.18  -25.13  -20.33   48.72
   9.850  -20.03   61.42   -0.17  -25.10   -0.19  -25.31  -19.75   53.88
   9.895  -19.84   61.57   -0.17  -25.25   -0.18  -25.46  -20.43   49.88
   9.940  -19.73   60.90   -0.18  -25.41   -0.20  -25.66  -19.28   50.46
   9.985  -19.49   60.68   -0.18  -25.58   -0.20  -25.80  -20.03   52.81
  10.030  -19.40   60.51   -0.18  -25.77   -0.20  -25.96  -19.24   47.95
  10.075  -19.19   59.83   -0.19  -25.98   -0.21  -26.19  -19.34   53.39
  10.120  -19.06   59.80   -0.20  -26.16   -0.22  -26.32  -19.35   47.09
  10.165  -18.91   59.00   -0.21  -26.36   -0.23  -26.54  -18.63   51.54
  10.210  -18.71   58.89   -0.22  -26.51   -0.23  -26.74  -19.29   48.76
  10.255  -18.62   58.27   -0.22  -26.73   -0.25  -26.94  -18.27   48.20
  10.300  -18.40   57.70   -0.23  -26.93   -0.25  -27.15  -18.82   50.47
  10.345  -18.30   57.42   -0.24  -27.15   -0.26  -27.32  -18.17   45.66
  10.390  -18.09   56.61   -0.25  -27.37   -0.28  -27.59  -18.13   50.20
  10.435  -17.94   56.31   -0.27  -27.57   -0.28  -27.72  -18.18   44.66
  10.480  -17.79   55.45   -0.29  -27.80   -0.31  -27.97  -17.47   47.79
  10.525  -17.58   54.96   -0.30  -27.94   -0.30  -28.08  -18.01   45.73
  10.570  -17.42   54.28   -0.32  -28.17   -0.33  -28.23  -17.10   44.38
  10.615  -17.21   53.47   -0.34  -28.42   -0.34  -28.56  -17.49   46.12
  10.660  -17.05   52.63   -0.36  -28.65   -0.37  -28.71  -16.94   41.32
  10.705  -16.85   51.61   -0.39  -28.92   -0.40  -28.97  -16.80   44.75
  10.750  -16.65   50.78   -0.42  -29.11   -0.41  -29.19  -16.86   39.75
  10.795  -16.48   49.35   -0.45  -29.34   -0.46  -29.44  -16.20   41.45
  10.840  -16.24   48.20   -0.48  -29.55   -0.48  -29.64  -16.59   39.12
  10.885  -16.06   46.82   -0.53  -29.79   -0.53  -29.87  -15.78   37.07
  10.930  -15.83   45.23   -0.57  -30.04   -0.58  -30.17  -16.03   37.90
  10.975  -15.65   43.60   -0.62  -30.24   -0.63  -30.23  -15.55   32.92
  11.020  -15.41   41.41   -0.68  -30.47   -0.69  -30.56  -15.37   34.41
  11.065  -15.21   39.57   -0.76  -30.58   -0.76  -30.67  -15.33   28.96
  11.110  -15.00   37.06   -0.84  -30.68   -0.85  -30.73  -14.78   28.78
  11.155  -14.79   34.31   -0.93  -30.76   -0.92  -30.92  -15.08   24.86
  11.200  -14.64   31.05   -1.02  -30.69   -1.03  -30.73  -14.44   21.26
  11.245  -14.50   27.45   -1.13  -30.54   -1.13  -30.60  -14.69   19.01
  11.290  -14.43   23.71   -1.24  -30.12   -1.23  -30.21  -14.37   12.86
  11.335  -14.45   19.25   -1.34  -29.57   -1.36  -29.67  -14.52   10.95
  11.380  -14.53   14.66   -1.42  -28.78   -1.41  -28.84  -14.63    3.49
  11.425  -14.75    9.80   -1.48  -27.85   -1.48  -27.92  -14.70    0.98
  11.470  -15.07    5.08   -1.48  -26.82   -1.49  -26.97  -15.36   -5.80
  11.515  -15.54    0.40   -1.45  -25.79   -1.45  -25.82  -15.51   -9.44
  11.560  -16.12   -4.06   -1.37  -24.93   -1.38  -25.04  -16.59  -14.27
  11.605  -16.85   -7.66   -1.27  -24.20   -1.28  -24.29  -16.86  -18.83
  11.650  -17.68  -10.48   -1.16  -23.77   -1.17  -23.76  -18.17  -19.76
  11.695  -18.56  -12.64   -1.04  -23.48   -1.04  -23.60  -18.82  -25.58
  11.740  -19.50  -14.11   -0.93  -23.36   -0.93  -23.41  -19.91  -22.08
  11.785  -20.44  -14.24   -0.81  -23.41   -0.82  -23.50  -21.19  -27.56
  11.830  -21.40  -13.40   -0.72  -23.54   -0.72  -23.63  -21.51  -22.23
  11.875  -22.36  -11.75   -0.64  -23.78   -0.66  -23.82  -23.64  -21.85
  11.920  -23.22   -9.19   -0.57  -24.00   -0.57  -24.08  -23.36  -21.02
  11.965  -24.00   -5.95   -0.51  -24.27   -0.52  -24.36  -25.15  -10.58
  12.010  -24.63   -1.38   -0.46  -24.55   -0.47  -24.67  -25.45  -15.84
  12.055  -25.24    3.24   -0.42  -24.85   -0.42  -24.89  -25.57    0.12
  12.100  -25.64    8.08   -0.38  -25.18   -0.39  -25.28  -27.47   -1.81
  12.145  -25.92   12.83   -0.34  -25.47   -0.35  -25.53  -25.83    5.62
  12.190  -26.02   17.76   -0.32  -25.79   -0.33  -25.83  -27.57   17.32
  12.235  -26.11   22.91   -0.30  -26.02   -0.30  -26.10  -26.48   11.39
  12.280  -26.10   27.39   -0.28  -26.27   -0.29  -26.32  -26.34   28.23
  12.325  -25.92   31.08   -0.26  -26.54   -0.27  -26.65  -27.12   21.15
  12.370  -25.78   34.20   -0.24  -26.77   -0.25  -26.83  -25.28   30.64
