!  American Technical Ceramics  Date:   10/26/00
!  One Norden Lane
!  Huntington Station,  NY.   11746-2102
!  Tel:  (631) 622-4700               Fax:  (631) 622-4748
!  Part Number  600L0R6B       Mounting Orientation:  Horizontal  
!  Description:  Low ESR, High Q Microwave capacitors
!  Application: Coupling, Bypass, Tuning, DC Block
!               Filters, Matching
# GHZ S DB R 50
! Freq   |S11|   S11 Ph  |S21|   S21 Ph  |S12|   S12 Ph  |S22|   S22 Ph
   0.00    0.00    0.00 -999.00   90.00  -999.00  90.00    0.00    0.00
   0.400   -0.11   -9.40  -16.84   80.35  -16.85   80.30   -0.10   -8.62
   0.499   -0.20  -11.97  -15.00   78.01  -14.99   78.25   -0.18   -9.98
   0.598   -0.26  -14.06  -13.50   75.97  -13.49   75.95   -0.23  -12.21
   0.697   -0.33  -16.31  -12.25   73.70  -12.24   73.39   -0.33  -14.90
   0.796   -0.33  -18.15  -11.12   71.14  -11.13   70.40   -0.48  -17.90
   0.895   -0.57  -20.05  -10.23   69.59  -10.18   69.35   -0.42  -18.63
   0.994   -0.66  -23.46   -9.45   67.25   -9.40   67.96   -0.62  -18.80
   1.093   -0.76  -24.90   -8.71   65.63   -8.76   65.03   -0.82  -22.07
   1.192   -0.87  -27.29   -8.08   63.06   -8.07   62.17   -0.93  -25.21
   1.291   -0.92  -28.74   -7.43   61.10   -7.44   60.75   -1.02  -27.21
   1.390   -1.11  -30.72   -6.91   59.66   -6.87   59.88   -1.02  -27.61
   1.489   -1.28  -32.99   -6.47   58.06   -6.45   58.20   -1.23  -28.49
   1.588   -1.41  -34.73   -6.05   56.19   -6.10   55.54   -1.50  -31.37
   1.687   -1.59  -36.37   -5.66   54.17   -5.65   53.12   -1.59  -34.19
   1.786   -1.66  -38.35   -5.27   51.98   -5.22   52.16   -1.72  -35.41
   1.885   -1.83  -40.07   -4.89   50.58   -4.88   50.97   -1.81  -36.31
   1.984   -1.99  -42.23   -4.61   48.99   -4.59   49.19   -2.04  -37.44
   2.083   -2.17  -43.67   -4.32   47.35   -4.38   46.64   -2.27  -40.25
   2.182   -2.36  -45.15   -4.08   45.54   -4.08   45.01   -2.41  -42.14
   2.281   -2.52  -46.70   -3.81   43.76   -3.79   44.01   -2.54  -43.29
   2.380   -2.71  -48.72   -3.61   42.34   -3.58   42.75   -2.73  -43.90
   2.479   -2.89  -50.46   -3.39   40.90   -3.42   40.68   -2.94  -45.67
   2.578   -3.08  -52.01   -3.22   39.39   -3.22   38.81   -3.15  -47.50
   2.677   -3.25  -52.91   -3.02   37.76   -3.03   37.68   -3.33  -49.22
   2.776   -3.44  -54.46   -2.84   36.38   -2.81   36.70   -3.46  -50.11
   2.875   -3.66  -56.12   -2.68   34.92   -2.69   35.28   -3.70  -51.04
   2.974   -3.92  -58.43   -2.54   33.60   -2.56   32.90   -3.93  -52.65
   3.073   -3.87  -56.09   -2.56   33.54   -2.54   33.12   -3.93  -54.72
   3.172   -4.02  -57.09   -2.43   32.22   -2.42   32.43   -4.07  -55.71
   3.271   -4.18  -58.40   -2.29   31.15   -2.31   31.54   -4.19  -56.37
   3.370   -4.36  -60.04   -2.19   30.23   -2.22   30.28   -4.35  -57.00
   3.469   -4.54  -61.81   -2.10   29.32   -2.13   28.59   -4.52  -57.76
   3.568   -4.67  -62.88   -2.04   28.28   -2.02   27.87   -4.71  -58.48
   3.667   -4.83  -63.80   -1.96   26.95   -1.97   27.29   -4.87  -59.35
   3.766   -4.98  -65.03   -1.85   25.96   -1.85   26.31   -4.99  -60.09
   3.865   -5.15  -66.52   -1.77   25.05   -1.82   24.99   -5.14  -60.92
   3.964   -5.30  -67.89   -1.70   24.33   -1.73   23.80   -5.29  -61.33
   4.063   -5.45  -68.81   -1.67   23.54   -1.66   23.22   -5.48  -61.88
   4.162   -5.59  -69.57   -1.64   22.42   -1.60   22.69   -5.64  -62.82
   4.261   -5.75  -70.77   -1.54   21.23   -1.55   21.59   -5.78  -63.95
   4.360   -5.89  -71.97   -1.47   20.53   -1.48   20.33   -5.93  -64.93
   4.459   -6.07  -73.12   -1.41   19.77   -1.45   19.54   -6.02  -65.22
   4.558   -6.17  -73.85   -1.37   19.27   -1.36   19.11   -6.23  -65.50
   4.657   -6.33  -74.16   -1.37   18.33   -1.34   18.53   -6.42  -66.68
   4.756   -6.49  -75.18   -1.30   17.20   -1.31   17.28   -6.60  -68.08
   4.855   -6.64  -75.94   -1.25   16.44   -1.23   16.19   -6.70  -69.11
   4.954   -6.85  -76.91   -1.19   15.65   -1.20   15.65   -6.76  -69.42
   5.053   -6.93  -77.58   -1.14   15.24   -1.16   15.29   -6.97  -69.42
   5.152   -7.04  -77.36   -1.15   14.49   -1.13   14.58   -7.20  -71.15
   5.251   -7.20  -77.98   -1.11   13.50   -1.13   13.36   -7.38  -72.57
   5.350   -7.36  -78.46   -1.08   12.78   -1.05   12.46   -7.43  -73.92
   5.449   -7.62  -79.46   -1.02   12.03   -1.02   12.15   -7.50  -73.85
   5.548   -7.67  -79.85   -0.99   11.50   -0.99   11.70   -7.70  -74.48
   5.647   -7.74  -79.72   -0.96   10.80   -0.97   10.88   -7.93  -75.93
   5.746   -7.92  -79.79   -0.95   10.04   -0.95    9.85   -8.08  -77.90
   5.845   -8.13  -80.82   -0.90    9.23   -0.92    9.15   -8.12  -78.38
   5.944   -8.32  -81.05   -0.89    8.71   -0.86    8.85   -8.19  -78.87
   6.043   -8.40  -82.08   -0.84    7.95   -0.85    8.38   -8.40  -79.26
   6.142   -8.43  -81.28   -0.81    7.52   -0.82    7.34   -8.64  -81.38
   6.241   -8.73  -81.89   -0.81    6.61   -0.81    6.60   -8.71  -82.48
   6.340   -8.87  -82.90   -0.77    6.05   -0.78    6.06   -8.81  -82.77
   6.439   -9.06  -83.76   -0.76    5.42   -0.75    5.72   -8.94  -82.77
   6.538   -9.16  -84.03   -0.73    4.82   -0.72    5.03   -9.12  -83.99
   6.637   -9.24  -84.34   -0.70    4.20   -0.70    4.22   -9.31  -85.00
   6.736   -9.47  -84.56   -0.70    3.62   -0.69    3.51   -9.46  -86.28
   6.835   -9.70  -86.60   -0.67    2.82   -0.67    3.21   -9.50  -85.31
   6.934   -9.77  -86.89   -0.65    2.44   -0.67    2.57   -9.77  -85.97
   7.033  -10.00  -87.54   -0.64    1.75   -0.60    2.06   -9.80  -86.37
   7.132  -10.05  -88.03   -0.60    1.27   -0.62    1.27  -10.09  -87.29
   7.231  -10.26  -88.93   -0.60    0.60   -0.59    0.69  -10.15  -87.41
   7.330  -10.46  -90.37   -0.58    0.02   -0.57    0.24  -10.30  -87.00
   7.429  -10.63  -91.66   -0.56   -0.57   -0.54   -0.07  -10.45  -86.61
   7.528  -10.76  -91.59   -0.55   -0.97   -0.53   -0.92  -10.66  -87.83
   7.627  -10.93  -92.91   -0.53   -1.67   -0.52   -1.46  -10.80  -87.64
   7.726  -11.01  -93.32   -0.50   -2.04   -0.52   -2.13  -11.10  -88.33
   7.825  -11.37  -94.90   -0.52   -2.68   -0.47   -2.38  -11.05  -87.41
   7.924  -11.44  -96.11   -0.47   -3.24   -0.47   -2.83  -11.39  -87.32
   8.023  -11.68  -96.35   -0.48   -3.72   -0.43   -3.62  -11.46  -88.20
   8.122  -11.75  -97.50   -0.44   -4.31   -0.47   -4.18  -11.82  -88.47
   8.221  -11.96  -97.93   -0.44   -4.68   -0.44   -4.60  -11.99  -88.70
   8.320  -12.18  -98.74   -0.43   -5.14   -0.43   -4.94  -12.22  -88.71
   8.419  -12.73  -98.17   -0.43   -4.43   -0.39   -4.30  -12.60  -86.80
   8.518  -12.88  -98.82   -0.39   -5.02   -0.39   -4.87  -12.92  -87.46
   8.617  -13.13  -99.07   -0.38   -5.51   -0.38   -5.47  -13.11  -87.81
   8.716  -13.23  -99.56   -0.35   -6.19   -0.38   -6.00  -13.46  -88.68
   8.815  -13.58  -99.91   -0.35   -6.67   -0.33   -6.46  -13.54  -89.11
   8.914  -13.80 -100.79   -0.36   -7.25   -0.35   -7.09  -13.85  -89.65
   9.013  -14.12 -100.80   -0.35   -7.72   -0.34   -7.87  -14.14  -90.58
   9.112  -14.23 -101.14   -0.33   -8.21   -0.35   -8.15  -14.47  -91.32
   9.211  -14.56 -101.01   -0.32   -8.72   -0.32   -8.62  -14.77  -91.58
   9.310  -14.76 -101.66   -0.31   -9.19   -0.29   -9.10  -14.96  -91.88
   9.409  -15.13 -101.72   -0.30   -9.67   -0.29   -9.77  -15.21  -92.22
   9.508  -15.28 -101.46   -0.28  -10.20   -0.28  -10.31  -15.39  -93.02
   9.607  -15.56 -101.03   -0.26  -10.70   -0.27  -10.75  -15.77  -93.54
   9.706  -15.77 -101.00   -0.25  -11.24   -0.25  -11.19  -15.89  -94.07
   9.805  -16.02 -101.65   -0.23  -11.82   -0.23  -11.70  -16.07  -93.79
   9.904  -16.22 -101.42   -0.22  -12.30   -0.23  -12.34  -16.18  -94.40
  10.003  -16.44 -101.60   -0.23  -12.80   -0.24  -12.97  -16.39  -95.30
  10.102  -16.61 -101.81   -0.21  -13.29   -0.22  -13.39  -16.59  -95.75
  10.201  -16.77 -102.72   -0.21  -13.82   -0.22  -13.78  -16.80  -96.22
  10.300  -17.04 -103.65   -0.21  -14.40   -0.21  -14.30  -16.97  -95.88
  10.399  -17.26 -104.24   -0.20  -14.81   -0.21  -14.88  -17.12  -96.19
  10.498  -17.53 -104.46   -0.20  -15.22   -0.22  -15.38  -17.32  -96.31
  10.597  -17.52 -105.20   -0.20  -15.65   -0.21  -15.59  -17.49  -96.84
  10.696  -17.82 -106.32   -0.20  -16.12   -0.21  -16.08  -17.66  -96.57
  10.795  -17.99 -108.96   -0.20  -16.68   -0.20  -16.63  -17.85  -95.74
  10.894  -18.27 -109.79   -0.19  -17.11   -0.20  -17.16  -18.04  -95.48
  10.993  -18.42 -110.85   -0.20  -17.49   -0.19  -17.49  -18.20  -95.08
  11.092  -18.66 -111.39   -0.19  -17.93   -0.21  -17.88  -18.36  -94.93
  11.191  -18.90 -113.24   -0.19  -18.34   -0.19  -18.31  -18.43  -93.53
  11.290  -19.14 -114.96   -0.19  -18.80   -0.18  -18.79  -18.53  -92.77
  11.389  -19.23 -116.23   -0.18  -19.19   -0.18  -19.21  -18.66  -92.54
  11.488  -19.47 -116.43   -0.17  -19.58   -0.18  -19.55  -18.77  -92.39
  11.587  -19.55 -118.16   -0.17  -19.97   -0.16  -19.93  -18.85  -91.69
  11.686  -19.67 -119.05   -0.15  -20.43   -0.16  -20.38  -18.96  -91.24
  11.785  -19.70 -121.42   -0.17  -20.86   -0.16  -20.94  -19.09  -90.79
  11.884  -19.77 -121.96   -0.16  -21.39   -0.16  -21.30  -19.33  -91.42
  11.983  -19.98 -123.50   -0.16  -21.76   -0.16  -21.69  -19.42  -90.66
  12.082  -20.06 -125.11   -0.15  -22.22   -0.15  -22.09  -19.60  -89.89
  12.181  -20.23 -126.67   -0.14  -22.54   -0.15  -22.59  -19.72  -88.77
  12.280  -20.32 -128.41   -0.15  -23.01   -0.15  -23.00  -19.87  -88.67
  12.379  -20.52 -129.23   -0.16  -23.42   -0.16  -23.37  -20.05  -88.16
  12.478  -20.67 -129.77   -0.17  -23.84   -0.17  -23.71  -20.12  -89.33
  12.577  -20.94 -131.39   -0.16  -24.18   -0.15  -24.12  -20.28  -87.21
  12.676  -21.00 -132.40   -0.16  -24.62   -0.15  -24.54  -20.45  -88.09
  12.775  -21.33 -134.11   -0.16  -24.91   -0.16  -24.93  -20.71  -86.45
  12.874  -21.40 -133.88   -0.17  -25.28   -0.17  -25.25  -20.80  -88.35
  12.973  -21.71 -135.46   -0.18  -25.71   -0.17  -25.69  -21.02  -87.14
  13.072  -21.73 -135.73   -0.17  -26.15   -0.16  -26.09  -21.06  -88.07
  13.171  -22.10 -138.23   -0.16  -26.49   -0.15  -26.39  -21.38  -86.12
  13.270  -22.18 -137.92   -0.17  -26.88   -0.17  -26.83  -21.50  -87.50
  13.369  -22.61 -139.40   -0.17  -27.17   -0.17  -27.23  -21.83  -87.51
  13.468  -22.70 -138.70   -0.18  -27.55   -0.18  -27.50  -21.94  -88.58
  13.567  -23.01 -140.53   -0.18  -27.93   -0.15  -27.83  -22.42  -87.68
  13.666  -23.36 -140.17   -0.18  -28.30   -0.17  -28.36  -22.60  -88.24
  13.765  -23.56 -141.66   -0.16  -28.63   -0.18  -28.55  -22.98  -87.67
  13.864  -23.82 -141.34   -0.17  -28.89   -0.17  -28.88  -23.32  -87.21
  13.963  -24.11 -142.37   -0.17  -29.23   -0.15  -29.23  -23.87  -87.45
  14.062  -24.75 -143.23   -0.16  -29.67   -0.13  -29.71  -24.26  -87.40
  14.161  -25.32 -144.61   -0.14  -30.13   -0.16  -30.07  -24.60  -87.95
  14.260  -26.27 -145.92   -0.11  -30.56   -0.12  -30.45  -25.25  -86.55
  14.359  -27.12 -143.89   -0.12  -31.07   -0.13  -30.98  -26.11  -88.55
  14.458  -28.08 -139.20   -0.14  -31.52   -0.14  -31.41  -27.20  -89.21
  14.557  -28.44 -134.50   -0.16  -31.92   -0.15  -31.90  -28.16  -91.64
  14.656  -29.46 -131.92   -0.18  -32.38   -0.17  -32.24  -29.70  -89.00
  14.755  -30.03 -129.22   -0.19  -32.77   -0.18  -32.60  -31.36  -90.44
  14.854  -31.14 -123.20   -0.20  -33.12   -0.20  -32.96  -33.53  -90.92
  14.953  -31.82 -118.23   -0.22  -33.43   -0.21  -33.41  -36.40  -93.40
  15.052  -32.98 -108.27   -0.23  -33.68   -0.24  -33.61  -41.85  -92.33
  15.151  -34.63 -100.77   -0.24  -33.94   -0.23  -33.86  -48.92  -95.69
  15.250  -35.81  -77.15   -0.23  -34.18   -0.23  -34.02  -51.76   64.87
  15.349  -35.29  -58.58   -0.21  -34.52   -0.22  -34.39  -43.00   91.84
  15.448  -33.52  -38.73   -0.21  -34.90   -0.21  -34.85  -38.02   88.62
  15.547  -32.07  -28.62   -0.21  -35.33   -0.21  -35.29  -35.53   93.93
  15.646  -30.58  -17.59   -0.20  -35.81   -0.20  -35.70  -32.63   90.43
  15.745  -28.75  -13.86   -0.21  -36.23   -0.19  -36.16  -30.79   95.02
  15.844  -27.61   -7.99   -0.20  -36.72   -0.20  -36.62  -29.10   92.68
  15.943  -26.35   -6.07   -0.21  -37.09   -0.22  -37.05  -28.04   92.33
  16.042  -25.34   -2.32   -0.22  -37.51   -0.23  -37.38  -26.66   90.37
  16.141  -24.33   -0.90   -0.23  -37.91   -0.22  -37.80  -25.92   89.07
  16.240  -23.89    0.41   -0.24  -38.37   -0.23  -38.26  -24.98   89.05
  16.339  -23.07    2.45   -0.24  -38.72   -0.25  -38.63  -24.38   85.65
  16.438  -22.70    3.75   -0.25  -39.12   -0.24  -39.04  -23.74   85.84
  16.537  -21.93    5.80   -0.25  -39.58   -0.25  -39.45  -23.21   81.89
  16.636  -21.74    6.76   -0.27  -39.96   -0.26  -39.85  -22.74   81.41
  16.735  -21.15    8.78   -0.28  -40.47   -0.27  -40.42  -22.20   77.84
  16.834  -21.01    9.81   -0.28  -40.85   -0.29  -40.77  -21.84   76.77
  16.933  -20.47   12.10   -0.29  -41.27   -0.29  -41.08  -21.28   74.57
  17.032  -20.31   13.05   -0.29  -41.80   -0.30  -41.48  -21.06   72.73
  17.131  -19.89   14.43   -0.31  -42.06   -0.31  -42.01  -20.59   70.62
  17.230  -19.65   15.24   -0.32  -42.56   -0.31  -42.47  -20.28   68.01
  17.329  -19.27   17.75   -0.33  -42.89   -0.33  -42.72  -19.78   66.36
  17.428  -19.11   19.18   -0.34  -43.42   -0.36  -43.23  -19.53   63.52
  17.527  -18.74   20.45   -0.35  -43.76   -0.36  -43.60  -19.08   63.13
  17.626  -18.46   21.17   -0.36  -44.27   -0.37  -44.23  -18.71   59.59
  17.725  -18.10   21.45   -0.38  -44.57   -0.37  -44.52  -18.41   58.87
  17.824  -17.83   22.52   -0.39  -45.15   -0.39  -44.84  -18.07   56.56
  17.923  -17.66   22.84   -0.39  -45.47   -0.40  -45.28  -17.77   55.51
  18.022  -17.38   23.77   -0.40  -45.92   -0.40  -45.63  -17.49   53.59
  18.121  -17.13   22.79   -0.42  -46.29   -0.42  -46.27  -17.28   53.44
  18.220  -16.75   23.52   -0.44  -46.73   -0.43  -46.62  -16.94   52.12
  18.319  -16.46   23.13   -0.44  -47.22   -0.43  -47.01  -16.71   51.18
  18.418  -16.09   23.25   -0.44  -47.72   -0.45  -47.39  -16.35   50.00
  18.517  -15.78   22.52   -0.45  -48.23   -0.46  -48.07  -16.16   49.43
  18.616  -15.43   21.61   -0.47  -48.67   -0.49  -48.59  -15.92   48.20
  18.715  -15.17   21.08   -0.50  -49.15   -0.51  -49.10  -15.65   47.51
  18.814  -14.91   20.18   -0.52  -49.65   -0.51  -49.50  -15.36   46.27
  18.913  -14.59   18.96   -0.54  -50.21   -0.56  -50.04  -15.18   45.93
  19.012  -14.17   18.25   -0.57  -50.70   -0.58  -50.72  -14.93   44.53
  19.111  -13.94   17.26   -0.61  -51.28   -0.62  -51.28  -14.76   43.39
  19.210  -13.66   16.30   -0.65  -51.87   -0.66  -51.79  -14.39   41.10
  19.309  -13.40   15.83   -0.70  -52.43   -0.69  -52.21  -14.19   40.20
  19.408  -13.01   14.42   -0.75  -53.13   -0.76  -52.92  -13.87   38.52
  19.507  -12.64   13.24   -0.80  -53.63   -0.83  -53.70  -13.79   35.75
  19.606  -12.45   12.61   -0.90  -54.29   -0.92  -54.20  -13.41   33.50
  19.705  -12.04   10.75   -0.99  -54.79   -1.01  -54.79  -13.27   29.81
  19.804  -11.91    9.61   -1.12  -55.40   -1.10  -55.11  -12.91   27.19
  19.903  -11.43    6.87   -1.22  -55.88   -1.25  -55.77  -12.81   22.50
  20.002  -11.26    5.24   -1.40  -56.28   -1.43  -56.33  -12.64   17.91
  20.101  -10.94    1.98   -1.58  -56.58   -1.59  -56.50  -12.31   12.24
  20.200  -10.92   -1.16   -1.82  -56.46   -1.79  -56.30  -12.13    7.06
  20.299  -10.65   -5.40   -2.05  -56.15   -2.03  -56.00  -11.91    0.14
  20.398  -10.66  -10.43   -2.29  -55.17   -2.29  -54.95  -12.04   -7.37
  20.497  -10.71  -15.41   -2.50  -53.60   -2.54  -53.57  -12.09  -15.73
  20.596  -11.12  -21.92   -2.63  -51.52   -2.62  -51.45  -12.26  -24.20
  20.695  -11.76  -27.96   -2.62  -49.13   -2.57  -49.12  -12.56  -31.63
  20.794  -12.55  -34.87   -2.46  -47.12   -2.43  -47.00  -13.23  -40.03
  20.893  -13.59  -40.10   -2.22  -45.47   -2.25  -45.35  -14.13  -46.28
  20.992  -14.82  -44.93   -1.96  -44.69   -1.99  -44.42  -15.06  -52.20
  21.091  -16.39  -48.48   -1.69  -44.44   -1.71  -44.26  -16.11  -55.97
  21.190  -18.07  -51.95   -1.48  -44.60   -1.45  -44.54  -16.96  -57.55
  21.289  -19.71  -53.78   -1.26  -45.07   -1.27  -44.92  -18.22  -58.53
  21.388  -21.49  -54.42   -1.13  -45.64   -1.15  -45.50  -19.15  -57.17
  21.487  -23.25  -55.23   -0.99  -46.39   -1.02  -46.18  -20.31  -56.14
  21.586  -25.63  -54.49   -0.89  -47.02   -0.88  -46.92  -20.81  -51.94
  21.685  -28.03  -52.57   -0.81  -47.70   -0.80  -47.53  -21.69  -47.20
  21.784  -30.56  -44.62   -0.75  -48.41   -0.75  -48.28  -22.19  -40.57
  21.883  -32.63  -34.70   -0.70  -49.14   -0.73  -48.94  -22.66  -35.06
  21.982  -34.37  -22.69   -0.68  -49.78   -0.68  -49.54  -22.61  -28.20
  22.081  -35.24   -0.55   -0.65  -50.40   -0.65  -50.20  -22.77  -22.25
  22.180  -35.06   19.89   -0.60  -50.78   -0.61  -50.73  -22.31  -18.84
  22.279  -33.84   31.27   -0.59  -51.20   -0.57  -51.10  -22.58  -13.75
  22.378  -31.65   34.60   -0.53  -51.72   -0.56  -51.52  -22.46  -11.50
  22.477  -30.42   40.36   -0.52  -52.21   -0.51  -52.21  -22.76   -6.12
  22.576  -28.74   34.35   -0.49  -52.87   -0.49  -52.78  -22.57   -1.62
  22.675  -27.82   34.26   -0.46  -53.30   -0.46  -53.21  -22.98    3.63
  22.774  -26.88   29.97   -0.44  -53.87   -0.45  -53.77  -22.65    6.65
  22.873  -26.22   27.45   -0.42  -54.32   -0.42  -54.29  -23.01   12.35
  22.972  -25.27   25.00   -0.42  -54.93   -0.41  -54.74  -22.61   16.63
  23.071  -24.76   21.88   -0.40  -55.46   -0.38  -55.24  -22.79   20.30
  23.170  -24.13   20.34   -0.37  -55.98   -0.39  -55.75  -22.30   24.27
  23.269  -23.54   16.52   -0.37  -56.49   -0.37  -56.36  -22.34   26.96
  23.368  -23.13   16.19   -0.37  -56.99   -0.36  -56.88  -22.04   30.87
  23.467  -22.55   13.49   -0.36  -57.50   -0.37  -57.46  -22.06   32.22
  23.566  -22.40   13.64   -0.36  -58.08   -0.37  -57.92  -21.74   35.76
  23.665  -21.79   12.75   -0.37  -58.60   -0.36  -58.36  -21.42   34.89
  23.764  -21.82   12.90   -0.37  -59.11   -0.36  -58.97  -21.24   38.27
  23.863  -21.06   12.66   -0.38  -59.51   -0.37  -59.43  -20.89   36.98
  23.962  -21.03   13.92   -0.38  -60.08   -0.37  -60.03  -20.74   39.13
  24.061  -20.60   15.49   -0.39  -60.58   -0.38  -60.40  -20.24   37.69
  24.160  -20.51   15.29   -0.38  -61.07   -0.36  -60.90  -20.05   38.07
  24.259  -19.85   17.58   -0.38  -61.58   -0.37  -61.40  -19.37   37.31
  24.358  -19.71   16.93   -0.40  -62.08   -0.40  -61.92  -19.50   36.94
  24.457  -19.19   18.96   -0.41  -62.70   -0.42  -62.47  -19.06   36.15
  24.556  -19.06   19.40   -0.42  -63.14   -0.40  -63.02  -18.93   34.91
  24.655  -18.69   20.33   -0.45  -63.61   -0.43  -63.43  -18.43   35.91
  24.754  -18.25   20.74   -0.46  -64.02   -0.47  -63.95  -18.28   35.05
  24.853  -18.07   21.58   -0.49  -64.53   -0.50  -64.45  -17.97   35.37
  24.952  -17.40   21.13   -0.49  -64.98   -0.50  -64.75  -17.60   34.42
  25.051  -17.12   20.69   -0.51  -65.37   -0.50  -65.42  -17.15   35.16
  25.150  -16.68   19.19   -0.53  -65.80   -0.52  -65.85  -16.87   34.47
  25.249  -16.33   19.54   -0.54  -66.28   -0.55  -65.52  -16.48   35.20
  25.348  -15.93   17.09   -0.56  -66.69   -0.55  -66.78  -16.13   34.89
  25.447  -15.69   16.05   -0.59  -67.26   -0.56  -66.63  -15.83   35.86
  25.546  -15.30   15.12   -0.60  -67.75   -0.60  -67.53  -15.50   35.22
  25.645  -15.11   13.98   -0.61  -68.03   -0.62  -68.13  -15.05   36.09
  25.744  -14.63   11.66   -0.65  -68.53   -0.66  -68.53  -14.87   36.90
  25.843  -14.34   11.03   -0.66  -68.88   -0.68  -68.55  -14.58   37.97
  25.942  -13.93    8.93   -0.69  -69.25   -0.68  -68.93  -14.27   38.59
  26.041  -13.68    7.99   -0.69  -69.85   -0.67  -69.78  -13.79   39.76
  26.140  -13.27    6.68   -0.72  -69.92   -0.73  -70.17  -13.47   39.81
  26.239  -12.92    5.00   -0.76  -70.55   -0.73  -70.59  -13.10   40.82
  26.338  -12.41    3.63   -0.78  -70.94   -0.76  -70.46  -12.84   40.55
  26.437  -12.17    2.68   -0.80  -71.42   -0.80  -71.02  -12.58   40.94
  26.536  -11.81    0.08   -0.77  -71.66   -0.80  -71.79  -12.14   40.56
  26.635  -11.56   -1.10   -0.80  -72.16   -0.82  -72.35  -12.03   40.82
