!  American Technical Ceramics   Date:  4/27/2005
!  One Norden Lane
!  Huntington Station,  NY.   11746-2102
!  Tel:  (631) 622-4700               Fax:  (631) 622-4748
!  Part Number  600L1R1BT      Mounting Orientation:  Horizontal  
!  Description: Ultra Low ESR Microwave capacitors
!  Application: Coupling, Bypass, Tuning, DC Block
!               Filters, Matching
# GHZ S DB R 50
! Freq   |S11|   S11 Ph  |S21|   S21 Ph  |S12|   S12 Ph  |S22|   S22 Ph
    0.00    0.00    0.00 -999.00   90.00  -999.00  90.00    0.00    0.00
   0.010   -0.01   -0.35  -42.87   89.45  -42.77   89.78   -0.01   -0.48
   0.014   -0.01   -0.59  -39.77   89.04  -39.79   89.41   -0.01   -0.60
   0.019   -0.01   -0.82  -37.53   89.27  -37.50   89.03   -0.01   -0.75
   0.023   -0.01   -1.03  -35.71   89.21  -35.70   89.22   -0.01   -0.93
   0.027   -0.01   -1.23  -34.19   88.88  -34.16   88.89   -0.01   -1.10
   0.032   -0.01   -1.42  -32.92   88.65  -32.91   88.65   -0.01   -1.28
   0.036   -0.01   -1.59  -31.81   88.44  -31.79   88.46   -0.01   -1.51
   0.041    0.00   -1.80  -30.81   88.32  -30.80   88.31   -0.01   -1.57
   0.045    0.00   -1.98  -29.93   88.14  -29.91   88.13   -0.01   -1.77
   0.049   -0.01   -2.14  -29.15   87.89  -29.10   88.02   -0.01   -1.98
   0.054   -0.01   -2.31  -28.38   87.66  -28.37   87.81   -0.01   -2.18
   0.058   -0.01   -2.47  -27.71   87.48  -27.69   87.59   -0.01   -2.37
   0.062   -0.01   -2.64  -27.09   87.32  -27.06   87.39   -0.01   -2.57
   0.067   -0.01   -2.81  -26.50   87.28  -26.47   87.29   -0.01   -2.76
   0.071   -0.01   -2.99  -25.95   87.13  -25.93   87.04   -0.01   -2.94
   0.075   -0.01   -3.17  -25.44   86.83  -25.40   86.86   -0.01   -3.12
   0.080   -0.01   -3.34  -24.94   86.70  -24.92   86.63   -0.01   -3.30
   0.084   -0.01   -3.53  -24.49   86.54  -24.46   86.52   -0.01   -3.47
   0.089   -0.01   -3.71  -24.04   86.35  -24.02   86.33   -0.01   -3.65
   0.093   -0.01   -3.90  -23.63   86.16  -23.60   86.19   -0.01   -3.83
   0.097   -0.01   -4.08  -23.23   85.96  -23.20   85.97   -0.01   -4.00
   0.102   -0.02   -4.27  -22.85   85.78  -22.83   85.77   -0.01   -4.18
   0.106   -0.02   -4.46  -22.48   85.58  -22.46   85.60   -0.01   -4.35
   0.110   -0.02   -4.63  -22.13   85.41  -22.11   85.43   -0.01   -4.54
   0.115   -0.02   -4.82  -21.80   85.21  -21.78   85.20   -0.01   -4.71
   0.119   -0.03   -5.01  -21.47   85.03  -21.46   85.01   -0.01   -4.89
   0.123   -0.03   -5.19  -21.17   84.85  -21.14   84.81   -0.01   -5.07
   0.128   -0.03   -5.36  -20.87   84.66  -20.85   84.64   -0.01   -5.25
   0.132   -0.04   -5.54  -20.58   84.48  -20.56   84.45    0.00   -5.44
   0.137   -0.04   -5.72  -20.30   84.29  -20.28   84.30    0.00   -5.63
   0.141   -0.04   -5.89  -20.03   84.10  -20.01   84.10   -0.01   -5.81
   0.145   -0.05   -6.07  -19.77   83.93  -19.74   83.93   -0.01   -5.99
   0.150   -0.05   -6.25  -19.52   83.74  -19.49   83.73   -0.01   -6.17
   0.154   -0.05   -6.43  -19.27   83.57  -19.24   83.54   -0.02   -6.34
   0.158   -0.05   -6.61  -19.03   83.37  -19.00   83.36   -0.02   -6.53
   0.163   -0.06   -6.79  -18.79   83.20  -18.77   83.18   -0.03   -6.70
   0.167   -0.06   -6.98  -18.57   83.03  -18.54   83.00   -0.03   -6.88
   0.171   -0.06   -7.16  -18.35   82.87  -18.32   82.83   -0.03   -7.05
   0.176   -0.07   -7.34  -18.13   82.66  -18.11   82.66   -0.04   -7.23
   0.180   -0.07   -7.53  -17.92   82.49  -17.90   82.47   -0.04   -7.41
   0.185   -0.08   -7.72  -17.72   82.30  -17.69   82.29   -0.05   -7.59
   0.189   -0.08   -7.90  -17.52   82.12  -17.49   82.10   -0.05   -7.76
   0.193   -0.08   -8.08  -17.33   81.94  -17.30   81.93   -0.05   -7.94
   0.198   -0.09   -8.27  -17.14   81.76  -17.11   81.75   -0.06   -8.12
   0.202   -0.09   -8.45  -16.95   81.56  -16.92   81.56   -0.06   -8.31
   0.206   -0.10   -8.62  -16.77   81.40  -16.74   81.37   -0.06   -8.48
   0.211   -0.10   -8.80  -16.59   81.23  -16.57   81.22   -0.07   -8.66
   0.215   -0.11   -8.97  -16.42   81.06  -16.39   81.04   -0.07   -8.83
   0.219   -0.11   -9.15  -16.25   80.88  -16.22   80.86   -0.08   -9.01
   0.224   -0.11   -9.33  -16.08   80.69  -16.05   80.68   -0.08   -9.20
   0.228   -0.12   -9.51  -15.92   80.53  -15.89   80.51   -0.08   -9.37
   0.232   -0.12   -9.69  -15.76   80.37  -15.73   80.35   -0.09   -9.54
   0.237   -0.12   -9.86  -15.60   80.18  -15.57   80.17   -0.09   -9.72
   0.241   -0.13  -10.05  -15.44   80.01  -15.41   79.98   -0.10   -9.90
   0.246   -0.13  -10.22  -15.29   79.84  -15.27   79.83   -0.10  -10.07
   0.250   -0.13  -10.40  -15.14   79.68  -15.12   79.67   -0.11  -10.24
   0.254   -0.14  -10.58  -15.00   79.50  -14.97   79.48   -0.11  -10.41
   0.259   -0.14  -10.75  -14.85   79.30  -14.83   79.29   -0.11  -10.58
   0.263   -0.15  -10.93  -14.71   79.13  -14.69   79.11   -0.12  -10.75
   0.267   -0.15  -11.11  -14.57   78.96  -14.55   78.94   -0.12  -10.93
   0.272   -0.16  -11.28  -14.44   78.78  -14.41   78.76   -0.12  -11.10
   0.276   -0.16  -11.45  -14.30   78.59  -14.28   78.58   -0.13  -11.27
   0.280   -0.17  -11.62  -14.17   78.41  -14.15   78.40   -0.13  -11.44
   0.285   -0.17  -11.80  -14.04   78.23  -14.02   78.21   -0.14  -11.62
   0.289   -0.18  -11.97  -13.92   78.06  -13.89   78.04   -0.14  -11.80
   0.294   -0.18  -12.15  -13.79   77.87  -13.77   77.86   -0.15  -11.98
   0.298   -0.19  -12.32  -13.67   77.70  -13.64   77.68   -0.15  -12.14
   0.302   -0.20  -12.49  -13.55   77.52  -13.52   77.50   -0.16  -12.32
   0.307   -0.20  -12.66  -13.43   77.33  -13.40   77.32   -0.17  -12.49
   0.311   -0.21  -12.84  -13.31   77.17  -13.28   77.15   -0.17  -12.66
   0.315   -0.21  -13.01  -13.20   76.99  -13.17   76.97   -0.18  -12.83
   0.320   -0.22  -13.18  -13.08   76.80  -13.06   76.78   -0.18  -13.00
   0.324   -0.22  -13.36  -12.97   76.62  -12.94   76.60   -0.19  -13.17
   0.328   -0.23  -13.54  -12.86   76.45  -12.83   76.42   -0.20  -13.35
   0.333   -0.24  -13.71  -12.75   76.27  -12.72   76.25   -0.20  -13.51
   0.337   -0.24  -13.89  -12.64   76.08  -12.62   76.06   -0.21  -13.68
   0.342   -0.25  -14.06  -12.54   75.90  -12.51   75.88   -0.22  -13.85
   0.346   -0.26  -14.25  -12.43   75.72  -12.41   75.70   -0.22  -14.02
   0.350   -0.27  -14.42  -12.33   75.54  -12.31   75.53   -0.23  -14.19
   0.355   -0.27  -14.60  -12.23   75.37  -12.20   75.34   -0.23  -14.36
   0.359   -0.28  -14.77  -12.13   75.19  -12.10   75.17   -0.24  -14.54
   0.363   -0.29  -14.94  -12.03   75.01  -12.01   75.00   -0.25  -14.71
   0.368   -0.29  -15.11  -11.93   74.83  -11.91   74.82   -0.26  -14.88
   0.372   -0.30  -15.29  -11.84   74.66  -11.81   74.64   -0.26  -15.06
   0.376   -0.31  -15.46  -11.74   74.49  -11.72   74.47   -0.27  -15.23
   0.381   -0.32  -15.63  -11.65   74.32  -11.63   74.30   -0.28  -15.40
   0.385   -0.32  -15.80  -11.56   74.15  -11.53   74.13   -0.29  -15.57
   0.390   -0.33  -15.98  -11.47   73.98  -11.44   73.96   -0.29  -15.74
   0.394   -0.34  -16.15  -11.38   73.81  -11.35   73.78   -0.30  -15.91
   0.398   -0.34  -16.32  -11.29   73.65  -11.26   73.62   -0.31  -16.08
   0.403   -0.35  -16.49  -11.20   73.47  -11.18   73.44   -0.32  -16.25
   0.407   -0.36  -16.66  -11.12   73.30  -11.09   73.28   -0.32  -16.41
   0.411   -0.37  -16.83  -11.03   73.13  -11.01   73.11   -0.33  -16.58
   0.416   -0.37  -17.00  -10.95   72.96  -10.92   72.93   -0.34  -16.75
   0.420   -0.38  -17.17  -10.86   72.79  -10.84   72.76   -0.35  -16.92
   0.424   -0.39  -17.34  -10.78   72.62  -10.76   72.59   -0.35  -17.08
   0.429   -0.39  -17.51  -10.70   72.46  -10.68   72.43   -0.36  -17.25
   0.433   -0.40  -17.68  -10.62   72.29  -10.60   72.26   -0.37  -17.41
   0.438   -0.41  -17.85  -10.54   72.12  -10.52   72.10   -0.38  -17.58
   0.442   -0.42  -18.01  -10.46   71.96  -10.44   71.93   -0.38  -17.74
   0.446   -0.42  -18.17  -10.39   71.79  -10.36   71.77   -0.39  -17.91
   0.451   -0.43  -18.34  -10.31   71.63  -10.28   71.61   -0.40  -18.07
   0.455   -0.44  -18.50  -10.23   71.47  -10.21   71.44   -0.41  -18.23
   0.459   -0.45  -18.66  -10.16   71.30  -10.13   71.28   -0.41  -18.40
   0.464   -0.46  -18.82  -10.08   71.14  -10.06   71.12   -0.42  -18.56
   0.468   -0.46  -18.98  -10.01   70.98   -9.98   70.95   -0.43  -18.72
   0.472   -0.47  -19.14   -9.94   70.82   -9.91   70.79   -0.44  -18.88
   0.477   -0.48  -19.30   -9.87   70.65   -9.84   70.62   -0.45  -19.05
   0.481   -0.49  -19.47   -9.79   70.48   -9.77   70.44   -0.45  -19.21
   0.486   -0.49  -19.62   -9.72   70.31   -9.70   70.28   -0.46  -19.36
   0.490   -0.50  -19.79   -9.65   70.14   -9.63   70.11   -0.47  -19.52
   0.494   -0.51  -19.95   -9.59   69.98   -9.56   69.94   -0.48  -19.68
   0.499   -0.52  -20.11   -9.52   69.80   -9.49   69.76   -0.49  -19.84
   0.503   -0.53  -20.27   -9.45   69.63   -9.43   69.60   -0.50  -20.00
   0.507   -0.54  -20.43   -9.39   69.46   -9.36   69.43   -0.51  -20.16
   0.512   -0.55  -20.59   -9.32   69.29   -9.30   69.27   -0.52  -20.31
   0.516   -0.56  -20.75   -9.26   69.13   -9.23   69.10   -0.52  -20.47
   0.520   -0.57  -20.91   -9.19   68.96   -9.17   68.93   -0.53  -20.63
   0.525   -0.58  -21.07   -9.13   68.79   -9.10   68.77   -0.54  -20.79
   0.529   -0.59  -21.23   -9.07   68.62   -9.04   68.60   -0.55  -20.94
   0.534   -0.60  -21.39   -9.00   68.46   -8.98   68.44   -0.56  -21.10
   0.538   -0.61  -21.55   -8.94   68.30   -8.92   68.27   -0.57  -21.26
   0.542   -0.62  -21.71   -8.88   68.13   -8.86   68.11   -0.58  -21.42
   0.547   -0.63  -21.87   -8.82   67.97   -8.80   67.94   -0.59  -21.57
   0.551   -0.64  -22.03   -8.76   67.81   -8.74   67.77   -0.60  -21.73
   0.555   -0.65  -22.19   -8.70   67.65   -8.68   67.61   -0.61  -21.89
   0.560   -0.66  -22.35   -8.64   67.48   -8.62   67.45   -0.62  -22.05
   0.564   -0.67  -22.51   -8.58   67.32   -8.56   67.28   -0.63  -22.20
   0.568   -0.68  -22.67   -8.53   67.15   -8.50   67.11   -0.64  -22.36
   0.573   -0.69  -22.83   -8.47   66.98   -8.45   66.95   -0.65  -22.52
   0.577   -0.70  -22.99   -8.41   66.82   -8.39   66.79   -0.66  -22.67
   0.581   -0.71  -23.15   -8.36   66.65   -8.33   66.62   -0.67  -22.83
   0.586   -0.72  -23.31   -8.30   66.49   -8.28   66.46   -0.68  -22.99
   0.590   -0.73  -23.47   -8.25   66.33   -8.23   66.30   -0.69  -23.14
   0.595   -0.74  -23.63   -8.20   66.16   -8.17   66.14   -0.70  -23.31
   0.599   -0.75  -23.79   -8.14   66.01   -8.12   65.98   -0.71  -23.46
   0.603   -0.76  -23.95   -8.09   65.85   -8.07   65.82   -0.72  -23.61
   0.608   -0.77  -24.10   -8.04   65.70   -8.02   65.67   -0.74  -23.77
   0.612   -0.78  -24.26   -7.99   65.54   -7.96   65.51   -0.75  -23.92
   0.616   -0.79  -24.41   -7.94   65.39   -7.91   65.36   -0.76  -24.08
   0.621   -0.80  -24.57   -7.89   65.24   -7.86   65.21   -0.77  -24.23
   0.625   -0.81  -24.72   -7.84   65.09   -7.81   65.06   -0.78  -24.38
   0.629   -0.82  -24.87   -7.79   64.93   -7.76   64.90   -0.79  -24.54
   0.634   -0.83  -25.02   -7.74   64.79   -7.71   64.75   -0.80  -24.68
   0.638   -0.84  -25.17   -7.69   64.63   -7.66   64.60   -0.81  -24.84
   0.643   -0.85  -25.33   -7.64   64.48   -7.61   64.44   -0.82  -24.99
   0.647   -0.86  -25.48   -7.59   64.33   -7.57   64.29   -0.83  -25.14
   0.651   -0.87  -25.63   -7.54   64.18   -7.52   64.14   -0.84  -25.29
   0.656   -0.88  -25.78   -7.49   64.02   -7.47   63.98   -0.85  -25.44
   0.660   -0.89  -25.93   -7.45   63.87   -7.42   63.84   -0.86  -25.58
   0.664   -0.90  -26.08   -7.40   63.71   -7.38   63.68   -0.87  -25.73
   0.669   -0.92  -26.22   -7.36   63.56   -7.33   63.53   -0.88  -25.87
   0.673   -0.93  -26.37   -7.31   63.41   -7.29   63.38   -0.89  -26.02
   0.677   -0.94  -26.52   -7.27   63.26   -7.24   63.23   -0.90  -26.16
   0.682   -0.95  -26.66   -7.22   63.12   -7.20   63.08   -0.92  -26.30
   0.686   -0.96  -26.81   -7.18   62.97   -7.15   62.93   -0.93  -26.45
   0.691   -0.97  -26.95   -7.14   62.82   -7.11   62.79   -0.94  -26.59
   0.695   -0.98  -27.10   -7.09   62.67   -7.07   62.64   -0.95  -26.74
   0.699   -0.99  -27.25   -7.05   62.52   -7.02   62.49   -0.96  -26.88
   0.704   -1.00  -27.38   -7.01   62.38   -6.98   62.34   -0.97  -27.02
   0.708   -1.01  -27.53   -6.96   62.23   -6.94   62.19   -0.98  -27.16
   0.712   -1.03  -27.67   -6.92   62.08   -6.90   62.05   -0.99  -27.30
   0.717   -1.04  -27.81   -6.88   61.94   -6.85   61.89   -1.00  -27.45
   0.721   -1.05  -27.95   -6.84   61.78   -6.81   61.74   -1.01  -27.59
   0.725   -1.06  -28.10   -6.79   61.63   -6.77   61.59   -1.03  -27.73
   0.730   -1.07  -28.24   -6.75   61.48   -6.73   61.45   -1.04  -27.87
   0.734   -1.08  -28.38   -6.71   61.33   -6.69   61.29   -1.05  -28.01
   0.739   -1.10  -28.52   -6.67   61.18   -6.65   61.14   -1.06  -28.15
   0.743   -1.11  -28.66   -6.63   61.02   -6.61   60.99   -1.07  -28.29
   0.747   -1.12  -28.80   -6.60   60.88   -6.57   60.84   -1.09  -28.43
   0.752   -1.13  -28.95   -6.56   60.72   -6.53   60.69   -1.10  -28.57
   0.756   -1.14  -29.09   -6.52   60.58   -6.50   60.55   -1.11  -28.71
   0.760   -1.15  -29.24   -6.48   60.42   -6.46   60.40   -1.12  -28.85
   0.765   -1.17  -29.38   -6.45   60.28   -6.42   60.25   -1.13  -28.99
   0.769   -1.18  -29.52   -6.41   60.13   -6.38   60.10   -1.15  -29.14
   0.773   -1.19  -29.67   -6.37   59.99   -6.35   59.96   -1.16  -29.27
   0.778   -1.20  -29.81   -6.34   59.84   -6.31   59.82   -1.17  -29.41
   0.782   -1.22  -29.95   -6.30   59.71   -6.27   59.67   -1.18  -29.55
   0.787   -1.23  -30.09   -6.26   59.56   -6.24   59.53   -1.20  -29.69
   0.791   -1.24  -30.23   -6.23   59.43   -6.20   59.39   -1.21  -29.82
   0.795   -1.25  -30.37   -6.19   59.28   -6.17   59.24   -1.22  -29.96
   0.800   -1.27  -30.51   -6.16   59.14   -6.13   59.10   -1.23  -30.10
   0.804   -1.28  -30.65   -6.12   59.00   -6.10   58.96   -1.25  -30.24
   0.808   -1.29  -30.79   -6.09   58.86   -6.06   58.83   -1.26  -30.37
   0.813   -1.30  -30.93   -6.05   58.72   -6.03   58.68   -1.27  -30.51
   0.817   -1.32  -31.07   -6.02   58.57   -6.00   58.53   -1.28  -30.65
   0.821   -1.33  -31.21   -5.99   58.44   -5.96   58.40   -1.30  -30.78
   0.826   -1.34  -31.34   -5.95   58.30   -5.93   58.27   -1.31  -30.92
   0.830   -1.35  -31.48   -5.92   58.17   -5.90   58.13   -1.32  -31.05
   0.835   -1.37  -31.62   -5.89   58.02   -5.86   58.00   -1.33  -31.18
   0.839   -1.38  -31.75   -5.86   57.89   -5.83   57.86   -1.35  -31.32
   0.843   -1.39  -31.89   -5.82   57.76   -5.80   57.73   -1.36  -31.45
   0.848   -1.40  -32.03   -5.79   57.62   -5.77   57.59   -1.37  -31.58
   0.852   -1.41  -32.17   -5.76   57.49   -5.74   57.46   -1.38  -31.71
   0.856   -1.43  -32.29   -5.73   57.36   -5.70   57.33   -1.40  -31.84
   0.861   -1.44  -32.43   -5.70   57.23   -5.67   57.20   -1.41  -31.97
   0.865   -1.45  -32.57   -5.67   57.10   -5.64   57.07   -1.42  -32.09
   0.869   -1.46  -32.70   -5.63   56.97   -5.61   56.93   -1.43  -32.22
   0.874   -1.48  -32.83   -5.60   56.83   -5.58   56.80   -1.44  -32.35
   0.878   -1.49  -32.96   -5.57   56.70   -5.55   56.67   -1.46  -32.48
   0.883   -1.50  -33.09   -5.54   56.57   -5.52   56.53   -1.47  -32.61
   0.887   -1.51  -33.22   -5.51   56.44   -5.49   56.40   -1.48  -32.73
   0.891   -1.53  -33.35   -5.48   56.30   -5.46   56.27   -1.49  -32.86
   0.896   -1.54  -33.47   -5.45   56.17   -5.43   56.14   -1.51  -32.98
   0.900   -1.55  -33.60   -5.42   56.03   -5.40   56.01   -1.52  -33.11
   0.904   -1.56  -33.73   -5.39   55.90   -5.37   55.87   -1.53  -33.23
   0.909   -1.57  -33.85   -5.36   55.77   -5.34   55.74   -1.54  -33.36
   0.913   -1.59  -33.98   -5.33   55.64   -5.31   55.62   -1.56  -33.48
   0.917   -1.60  -34.11   -5.31   55.51   -5.29   55.49   -1.57  -33.60
   0.922   -1.61  -34.23   -5.28   55.38   -5.26   55.36   -1.58  -33.73
   0.926   -1.62  -34.35   -5.25   55.26   -5.23   55.23   -1.60  -33.85
   0.930   -1.64  -34.49   -5.22   55.13   -5.20   55.10   -1.61  -33.97
   0.935   -1.65  -34.61   -5.20   55.01   -5.17   54.98   -1.62  -34.09
   0.939   -1.66  -34.74   -5.17   54.88   -5.15   54.85   -1.64  -34.21
   0.944   -1.68  -34.86   -5.14   54.74   -5.12   54.72   -1.65  -34.34
   0.948   -1.69  -34.99   -5.11   54.62   -5.09   54.59   -1.66  -34.46
   0.952   -1.70  -35.11   -5.09   54.50   -5.07   54.46   -1.67  -34.57
   0.957   -1.72  -35.23   -5.06   54.36   -5.04   54.33   -1.69  -34.70
   0.961   -1.73  -35.36   -5.03   54.23   -5.01   54.20   -1.70  -34.82
   0.965   -1.74  -35.48   -5.01   54.11   -4.99   54.07   -1.71  -34.94
   0.970   -1.76  -35.60   -4.98   53.97   -4.96   53.95   -1.73  -35.05
   0.974   -1.77  -35.72   -4.96   53.84   -4.94   53.81   -1.74  -35.18
   0.978   -1.78  -35.85   -4.93   53.72   -4.91   53.68   -1.75  -35.29
   0.983   -1.80  -35.97   -4.91   53.59   -4.89   53.56   -1.77  -35.42
   0.987   -1.81  -36.09   -4.88   53.46   -4.86   53.43   -1.78  -35.53
   0.992   -1.82  -36.21   -4.86   53.34   -4.84   53.32   -1.79  -35.65
   0.996   -1.84  -36.33   -4.83   53.21   -4.81   53.19   -1.81  -35.77
   1.000   -1.85  -36.45   -4.81   53.09   -4.79   53.07   -1.82  -35.89
   1.005   -1.86  -36.58   -4.79   52.97   -4.77   52.95   -1.83  -36.01
   1.009   -1.88  -36.69   -4.76   52.85   -4.74   52.83   -1.85  -36.13
   1.013   -1.89  -36.82   -4.74   52.73   -4.72   52.71   -1.86  -36.25
   1.018   -1.90  -36.94   -4.72   52.62   -4.69   52.59   -1.88  -36.36
   1.022   -1.92  -37.06   -4.69   52.50   -4.67   52.47   -1.89  -36.48
   1.026   -1.93  -37.18   -4.67   52.38   -4.65   52.36   -1.90  -36.59
   1.031   -1.95  -37.30   -4.65   52.26   -4.63   52.24   -1.92  -36.71
   1.035   -1.96  -37.43   -4.62   52.14   -4.60   52.11   -1.93  -36.82
   1.040   -1.97  -37.55   -4.60   52.02   -4.58   52.00   -1.94  -36.93
   1.044   -1.98  -37.67   -4.58   51.91   -4.56   51.88   -1.96  -37.04
   1.048   -2.00  -37.78   -4.56   51.80   -4.53   51.77   -1.97  -37.16
   1.053   -2.01  -37.90   -4.53   51.67   -4.51   51.65   -1.98  -37.27
   1.057   -2.02  -38.01   -4.51   51.55   -4.49   51.53   -2.00  -37.38
   1.061   -2.04  -38.13   -4.49   51.43   -4.47   51.41   -2.01  -37.50
   1.066   -2.05  -38.24   -4.47   51.32   -4.44   51.29   -2.02  -37.61
   1.070   -2.06  -38.36   -4.44   51.20   -4.42   51.18   -2.03  -37.72
   1.074   -2.08  -38.48   -4.42   51.09   -4.40   51.07   -2.05  -37.83
   1.079   -2.09  -38.59   -4.40   50.97   -4.38   50.95   -2.06  -37.95
   1.083   -2.10  -38.71   -4.38   50.85   -4.36   50.83   -2.07  -38.06
   1.088   -2.12  -38.81   -4.36   50.75   -4.34   50.72   -2.09  -38.18
   1.092   -2.13  -38.93   -4.34   50.63   -4.32   50.62   -2.10  -38.28
   1.096   -2.14  -39.05   -4.32   50.52   -4.30   50.50   -2.12  -38.39
   1.101   -2.15  -39.16   -4.30   50.40   -4.27   50.39   -2.13  -38.49
   1.105   -2.17  -39.27   -4.28   50.30   -4.25   50.28   -2.14  -38.60
   1.109   -2.18  -39.38   -4.26   50.18   -4.24   50.16   -2.16  -38.71
   1.114   -2.19  -39.49   -4.24   50.07   -4.22   50.05   -2.17  -38.81
   1.118   -2.21  -39.60   -4.21   49.95   -4.20   49.94   -2.18  -38.91
   1.122   -2.22  -39.71   -4.20   49.84   -4.18   49.83   -2.20  -39.01
   1.127   -2.23  -39.82   -4.18   49.73   -4.16   49.71   -2.21  -39.11
   1.131   -2.25  -39.93   -4.16   49.61   -4.14   49.60   -2.22  -39.22
   1.136   -2.26  -40.04   -4.14   49.50   -4.12   49.49   -2.24  -39.32
   1.140   -2.27  -40.14   -4.12   49.39   -4.10   49.38   -2.25  -39.43
   1.144   -2.29  -40.25   -4.10   49.29   -4.08   49.26   -2.26  -39.53
   1.149   -2.30  -40.35   -4.08   49.17   -4.06   49.15   -2.28  -39.64
   1.153   -2.31  -40.46   -4.06   49.05   -4.04   49.04   -2.29  -39.74
   1.157   -2.33  -40.57   -4.04   48.95   -4.02   48.94   -2.30  -39.84
   1.162   -2.34  -40.67   -4.02   48.83   -4.00   48.83   -2.32  -39.95
   1.166   -2.36  -40.78   -4.01   48.72   -3.99   48.72   -2.33  -40.06
