!  American Technical Ceramics   Date:  4/27/2005
!  One Norden Lane
!  Huntington Station,  NY.   11746-2102
!  Tel:  (631) 622-4700               Fax:  (631) 622-4748
!  Part Number  600L0R9AT      Mounting Orientation:  Horizontal  
!  Description: Ultra Low ESR Microwave capacitors
!  Application: Coupling, Bypass, Tuning, DC Block
!               Filters, Matching
# GHZ S DB R 50
! Freq   |S11|   S11 Ph  |S21|   S21 Ph  |S12|   S12 Ph  |S22|   S22 Ph
    0.00    0.00    0.00 -999.00   90.00  -999.00  90.00    0.00    0.00
   0.010   -0.01   -0.35  -45.16   89.16  -45.27   88.54   -0.01   -0.45
   0.014   -0.01   -0.53  -42.13   89.31  -42.10   89.47   -0.01   -0.49
   0.019   -0.01   -0.68  -39.74   89.46  -39.70   89.48   -0.01   -0.59
   0.023   -0.01   -0.84  -37.93   89.40  -37.90   89.18   -0.01   -0.72
   0.027   -0.01   -0.98  -36.43   89.19  -36.37   88.94   -0.01   -0.84
   0.032   -0.01   -1.12  -35.15   88.95  -35.11   89.14   -0.01   -0.99
   0.036   -0.01   -1.25  -34.01   88.82  -33.97   88.82   -0.01   -1.17
   0.041    0.00   -1.43  -33.03   88.72  -33.00   88.68   -0.01   -1.19
   0.045    0.00   -1.56  -32.15   88.49  -32.10   88.56   -0.01   -1.36
   0.049   -0.01   -1.70  -31.36   88.59  -31.31   88.48   -0.01   -1.53
   0.054   -0.01   -1.82  -30.61   88.07  -30.53   88.29   -0.01   -1.70
   0.058   -0.01   -1.95  -29.93   88.12  -29.89   88.14   -0.01   -1.85
   0.062   -0.01   -2.09  -29.29   87.87  -29.24   87.94   -0.01   -2.01
   0.067   -0.01   -2.23  -28.70   87.84  -28.65   87.88   -0.01   -2.15
   0.071   -0.01   -2.36  -28.17   87.64  -28.11   87.62   -0.01   -2.30
   0.075   -0.01   -2.50  -27.65   87.62  -27.61   87.63   -0.01   -2.44
   0.080   -0.01   -2.63  -27.15   87.46  -27.11   87.41   -0.01   -2.58
   0.084   -0.01   -2.77  -26.70   87.28  -26.65   87.29   -0.01   -2.72
   0.089   -0.01   -2.92  -26.26   87.09  -26.22   87.14   -0.01   -2.85
   0.093   -0.01   -3.06  -25.84   87.07  -25.78   86.96   -0.01   -2.98
   0.097   -0.01   -3.20  -25.44   86.85  -25.40   86.86   -0.01   -3.11
   0.102   -0.01   -3.35  -25.06   86.73  -25.01   86.64   -0.01   -3.26
   0.106   -0.01   -3.49  -24.69   86.55  -24.66   86.55   -0.01   -3.39
   0.110   -0.01   -3.64  -24.34   86.42  -24.30   86.42   -0.01   -3.53
   0.115   -0.02   -3.78  -24.01   86.27  -23.96   86.23   -0.01   -3.67
   0.119   -0.02   -3.92  -23.68   86.11  -23.64   86.11   -0.01   -3.81
   0.123   -0.02   -4.06  -23.37   85.97  -23.33   85.93   -0.01   -3.95
   0.128   -0.02   -4.20  -23.08   85.83  -23.03   85.79   -0.01   -4.10
   0.132   -0.02   -4.34  -22.79   85.69  -22.74   85.63   -0.01   -4.25
   0.137   -0.03   -4.48  -22.50   85.54  -22.46   85.51   -0.01   -4.39
   0.141   -0.03   -4.62  -22.24   85.37  -22.19   85.36   -0.01   -4.54
   0.145   -0.03   -4.76  -21.97   85.22  -21.93   85.22   -0.01   -4.68
   0.150   -0.03   -4.90  -21.71   85.10  -21.67   85.06   -0.01   -4.82
   0.154   -0.03   -5.04  -21.47   84.95  -21.43   84.93   -0.01   -4.96
   0.158   -0.04   -5.17  -21.22   84.83  -21.18   84.81   -0.01   -5.10
   0.163   -0.04   -5.32  -20.99   84.65  -20.95   84.67   -0.01   -5.24
   0.167   -0.04   -5.47  -20.76   84.55  -20.72   84.53   -0.01   -5.37
   0.171   -0.04   -5.61  -20.54   84.41  -20.50   84.38   -0.01   -5.51
   0.176   -0.05   -5.76  -20.33   84.28  -20.28   84.23   -0.01   -5.64
   0.180   -0.05   -5.90  -20.11   84.11  -20.07   84.11    0.00   -5.78
   0.185   -0.05   -6.05  -19.91   83.98  -19.86   83.96    0.00   -5.92
   0.189   -0.05   -6.19  -19.71   83.84  -19.66   83.82    0.00   -6.06
   0.193   -0.05   -6.34  -19.51   83.68  -19.47   83.65   -0.01   -6.20
   0.198   -0.06   -6.48  -19.32   83.54  -19.27   83.52   -0.01   -6.34
   0.202   -0.06   -6.63  -19.13   83.40  -19.09   83.36   -0.01   -6.49
   0.206   -0.06   -6.77  -18.95   83.26  -18.90   83.24   -0.01   -6.63
   0.211   -0.06   -6.90  -18.77   83.12  -18.73   83.12   -0.02   -6.77
   0.215   -0.07   -7.05  -18.60   82.98  -18.55   82.97   -0.02   -6.91
   0.219   -0.07   -7.19  -18.42   82.84  -18.38   82.83   -0.02   -7.05
   0.224   -0.07   -7.33  -18.25   82.71  -18.21   82.69   -0.02   -7.20
   0.228   -0.07   -7.47  -18.09   82.57  -18.04   82.56   -0.03   -7.33
   0.232   -0.08   -7.61  -17.93   82.46  -17.88   82.41   -0.03   -7.47
   0.237   -0.08   -7.74  -17.77   82.31  -17.72   82.28   -0.03   -7.61
   0.241   -0.08   -7.89  -17.61   82.17  -17.57   82.14   -0.03   -7.75
   0.246   -0.08   -8.02  -17.46   82.06  -17.41   82.02   -0.04   -7.88
   0.250   -0.08   -8.16  -17.31   81.93  -17.26   81.89   -0.04   -8.01
   0.254   -0.09   -8.30  -17.16   81.77  -17.12   81.75   -0.04   -8.14
   0.259   -0.09   -8.44  -17.01   81.63  -16.97   81.60   -0.04   -8.28
   0.263   -0.09   -8.58  -16.87   81.50  -16.82   81.46   -0.05   -8.41
   0.267   -0.10   -8.72  -16.73   81.34  -16.68   81.33   -0.05   -8.55
   0.272   -0.10   -8.86  -16.59   81.20  -16.55   81.18   -0.05   -8.69
   0.276   -0.10   -8.99  -16.46   81.07  -16.41   81.04   -0.05   -8.83
   0.280   -0.10   -9.13  -16.32   80.91  -16.28   80.89   -0.05   -8.96
   0.285   -0.11   -9.27  -16.19   80.77  -16.15   80.74   -0.06   -9.11
   0.289   -0.11   -9.41  -16.06   80.62  -16.02   80.59   -0.06   -9.24
   0.294   -0.11   -9.55  -15.94   80.47  -15.89   80.45   -0.06   -9.39
   0.298   -0.12   -9.68  -15.81   80.34  -15.77   80.32   -0.06   -9.52
   0.302   -0.12   -9.82  -15.69   80.20  -15.64   80.17   -0.07   -9.66
   0.307   -0.12   -9.96  -15.57   80.05  -15.52   80.02   -0.07   -9.80
   0.311   -0.13  -10.09  -15.45   79.92  -15.40   79.89   -0.08   -9.93
   0.315   -0.13  -10.23  -15.33   79.78  -15.28   79.75   -0.08  -10.07
   0.320   -0.14  -10.36  -15.22   79.64  -15.17   79.60   -0.08  -10.20
   0.324   -0.14  -10.51  -15.10   79.49  -15.05   79.45   -0.09  -10.34
   0.328   -0.14  -10.65  -14.99   79.35  -14.94   79.32   -0.09  -10.47
   0.333   -0.15  -10.79  -14.88   79.21  -14.83   79.17   -0.09  -10.60
   0.337   -0.15  -10.93  -14.77   79.06  -14.72   79.02   -0.10  -10.74
   0.342   -0.16  -11.07  -14.66   78.91  -14.61   78.87   -0.10  -10.87
   0.346   -0.16  -11.22  -14.55   78.77  -14.51   78.73   -0.11  -11.01
   0.350   -0.16  -11.36  -14.45   78.63  -14.40   78.59   -0.11  -11.15
   0.355   -0.17  -11.50  -14.34   78.48  -14.30   78.45   -0.12  -11.28
   0.359   -0.17  -11.64  -14.24   78.34  -14.20   78.30   -0.12  -11.42
   0.363   -0.18  -11.78  -14.14   78.19  -14.09   78.16   -0.12  -11.56
   0.368   -0.18  -11.92  -14.04   78.05  -14.00   78.01   -0.13  -11.70
   0.372   -0.19  -12.06  -13.94   77.90  -13.90   77.87   -0.13  -11.84
   0.376   -0.19  -12.20  -13.84   77.78  -13.80   77.74   -0.14  -11.98
   0.381   -0.20  -12.33  -13.75   77.64  -13.70   77.60   -0.14  -12.11
   0.385   -0.20  -12.47  -13.66   77.50  -13.61   77.46   -0.15  -12.25
   0.390   -0.21  -12.61  -13.56   77.37  -13.52   77.32   -0.15  -12.39
   0.394   -0.21  -12.75  -13.47   77.22  -13.42   77.19   -0.16  -12.53
   0.398   -0.22  -12.88  -13.38   77.10  -13.33   77.05   -0.16  -12.66
   0.403   -0.22  -13.02  -13.29   76.96  -13.24   76.91   -0.17  -12.80
   0.407   -0.22  -13.16  -13.20   76.83  -13.15   76.78   -0.17  -12.93
   0.411   -0.23  -13.30  -13.11   76.69  -13.06   76.64   -0.18  -13.07
   0.416   -0.23  -13.44  -13.02   76.55  -12.98   76.51   -0.18  -13.20
   0.420   -0.24  -13.58  -12.94   76.42  -12.89   76.37   -0.19  -13.34
   0.424   -0.24  -13.72  -12.85   76.28  -12.81   76.23   -0.19  -13.47
   0.429   -0.25  -13.85  -12.77   76.14  -12.72   76.10   -0.20  -13.60
   0.433   -0.25  -13.99  -12.68   76.01  -12.64   75.96   -0.20  -13.74
   0.438   -0.26  -14.12  -12.60   75.87  -12.56   75.83   -0.21  -13.87
   0.442   -0.26  -14.26  -12.52   75.74  -12.48   75.69   -0.21  -14.00
   0.446   -0.27  -14.39  -12.44   75.61  -12.40   75.56   -0.21  -14.14
   0.451   -0.27  -14.52  -12.36   75.48  -12.32   75.43   -0.22  -14.27
   0.455   -0.27  -14.65  -12.28   75.35  -12.24   75.30   -0.22  -14.40
   0.459   -0.28  -14.78  -12.21   75.21  -12.16   75.17   -0.23  -14.54
   0.464   -0.28  -14.91  -12.13   75.08  -12.08   75.04   -0.23  -14.67
   0.468   -0.29  -15.04  -12.05   74.94  -12.01   74.90   -0.24  -14.80
   0.472   -0.29  -15.17  -11.98   74.82  -11.93   74.77   -0.24  -14.93
   0.477   -0.30  -15.30  -11.90   74.68  -11.85   74.63   -0.25  -15.06
   0.481   -0.30  -15.43  -11.83   74.54  -11.78   74.49   -0.25  -15.20
   0.486   -0.31  -15.56  -11.75   74.41  -11.71   74.35   -0.26  -15.32
   0.490   -0.31  -15.69  -11.68   74.27  -11.63   74.22   -0.26  -15.45
   0.494   -0.32  -15.82  -11.61   74.13  -11.56   74.07   -0.27  -15.58
   0.499   -0.32  -15.95  -11.54   73.99  -11.49   73.93   -0.27  -15.71
   0.503   -0.33  -16.09  -11.47   73.85  -11.42   73.79   -0.28  -15.84
   0.507   -0.34  -16.22  -11.40   73.70  -11.35   73.65   -0.29  -15.97
   0.512   -0.34  -16.35  -11.33   73.57  -11.28   73.52   -0.29  -16.10
   0.516   -0.35  -16.48  -11.26   73.43  -11.22   73.37   -0.30  -16.23
   0.520   -0.36  -16.61  -11.19   73.29  -11.15   73.24   -0.30  -16.36
   0.525   -0.36  -16.75  -11.13   73.15  -11.08   73.10   -0.31  -16.48
   0.529   -0.37  -16.88  -11.06   73.01  -11.02   72.97   -0.31  -16.61
   0.534   -0.38  -17.01  -11.00   72.88  -10.95   72.83   -0.32  -16.74
   0.538   -0.38  -17.15  -10.93   72.74  -10.89   72.69   -0.33  -16.87
   0.542   -0.39  -17.27  -10.87   72.61  -10.82   72.56   -0.33  -17.00
   0.547   -0.39  -17.40  -10.80   72.48  -10.76   72.42   -0.34  -17.13
   0.551   -0.40  -17.54  -10.74   72.35  -10.69   72.28   -0.35  -17.26
   0.555   -0.41  -17.67  -10.68   72.21  -10.63   72.15   -0.35  -17.39
   0.560   -0.41  -17.80  -10.61   72.07  -10.57   72.01   -0.36  -17.52
   0.564   -0.42  -17.93  -10.55   71.94  -10.51   71.87   -0.37  -17.65
   0.568   -0.43  -18.06  -10.49   71.81  -10.45   71.74   -0.37  -17.79
   0.573   -0.43  -18.20  -10.43   71.66  -10.39   71.60   -0.38  -17.92
   0.577   -0.44  -18.33  -10.37   71.53  -10.33   71.47   -0.39  -18.05
   0.581   -0.45  -18.46  -10.31   71.39  -10.27   71.32   -0.39  -18.18
   0.586   -0.45  -18.60  -10.25   71.25  -10.21   71.19   -0.40  -18.31
   0.590   -0.46  -18.73  -10.19   71.11  -10.15   71.05   -0.41  -18.44
   0.595   -0.47  -18.86  -10.14   70.97  -10.09   70.92   -0.41  -18.58
   0.599   -0.47  -19.00  -10.08   70.84  -10.04   70.79   -0.42  -18.70
   0.603   -0.48  -19.13  -10.02   70.71   -9.98   70.66   -0.43  -18.84
   0.608   -0.49  -19.26   -9.97   70.58   -9.92   70.52   -0.43  -18.96
   0.612   -0.49  -19.39   -9.91   70.45   -9.87   70.40   -0.44  -19.09
   0.616   -0.50  -19.52   -9.86   70.33   -9.81   70.27   -0.45  -19.22
   0.621   -0.51  -19.65   -9.80   70.20   -9.76   70.14   -0.46  -19.35
   0.625   -0.51  -19.78   -9.75   70.08   -9.70   70.01   -0.46  -19.47
   0.629   -0.52  -19.91   -9.70   69.95   -9.65   69.89   -0.47  -19.60
   0.634   -0.53  -20.03   -9.64   69.83   -9.60   69.76   -0.48  -19.73
   0.638   -0.53  -20.16   -9.59   69.70   -9.54   69.63   -0.48  -19.86
   0.643   -0.54  -20.29   -9.54   69.57   -9.49   69.50   -0.49  -19.99
   0.647   -0.55  -20.41   -9.48   69.44   -9.44   69.37   -0.50  -20.11
   0.651   -0.55  -20.54   -9.43   69.31   -9.39   69.24   -0.50  -20.24
   0.656   -0.56  -20.67   -9.38   69.18   -9.34   69.11   -0.51  -20.37
   0.660   -0.57  -20.79   -9.33   69.05   -9.29   68.98   -0.52  -20.49
   0.664   -0.57  -20.91   -9.28   68.92   -9.24   68.86   -0.52  -20.62
   0.669   -0.58  -21.04   -9.23   68.79   -9.19   68.73   -0.53  -20.74
   0.673   -0.59  -21.17   -9.19   68.66   -9.14   68.60   -0.54  -20.86
   0.677   -0.60  -21.29   -9.14   68.53   -9.09   68.47   -0.55  -20.98
   0.682   -0.60  -21.41   -9.09   68.41   -9.04   68.35   -0.55  -21.10
   0.686   -0.61  -21.54   -9.04   68.29   -9.00   68.22   -0.56  -21.22
   0.691   -0.62  -21.66   -8.99   68.16   -8.95   68.10   -0.57  -21.34
   0.695   -0.63  -21.78   -8.95   68.03   -8.90   67.97   -0.57  -21.47
   0.699   -0.63  -21.91   -8.90   67.91   -8.85   67.84   -0.58  -21.59
   0.704   -0.64  -22.02   -8.85   67.79   -8.81   67.72   -0.59  -21.71
   0.708   -0.65  -22.14   -8.81   67.66   -8.76   67.59   -0.59  -21.83
   0.712   -0.65  -22.27   -8.76   67.54   -8.71   67.46   -0.60  -21.95
   0.717   -0.66  -22.39   -8.71   67.41   -8.67   67.34   -0.61  -22.07
   0.721   -0.67  -22.51   -8.67   67.28   -8.62   67.21   -0.62  -22.19
   0.725   -0.68  -22.63   -8.62   67.15   -8.58   67.08   -0.63  -22.31
   0.730   -0.68  -22.75   -8.58   67.02   -8.53   66.95   -0.63  -22.43
   0.734   -0.69  -22.87   -8.53   66.89   -8.49   66.82   -0.64  -22.55
   0.739   -0.70  -22.99   -8.49   66.76   -8.45   66.69   -0.65  -22.67
   0.743   -0.71  -23.11   -8.45   66.63   -8.40   66.55   -0.66  -22.79
   0.747   -0.72  -23.24   -8.40   66.50   -8.36   66.43   -0.67  -22.91
   0.752   -0.72  -23.37   -8.36   66.36   -8.32   66.30   -0.68  -23.03
   0.756   -0.73  -23.49   -8.32   66.23   -8.28   66.17   -0.68  -23.15
   0.760   -0.74  -23.61   -8.28   66.11   -8.24   66.05   -0.69  -23.27
   0.765   -0.75  -23.74   -8.24   65.99   -8.19   65.92   -0.70  -23.40
   0.769   -0.76  -23.86   -8.20   65.86   -8.15   65.79   -0.71  -23.52
   0.773   -0.77  -23.99   -8.16   65.73   -8.11   65.67   -0.72  -23.63
   0.778   -0.77  -24.10   -8.12   65.61   -8.07   65.54   -0.73  -23.76
   0.782   -0.78  -24.23   -8.07   65.49   -8.03   65.42   -0.73  -23.87
   0.787   -0.79  -24.35   -8.03   65.37   -7.99   65.30   -0.74  -23.99
   0.791   -0.80  -24.48   -7.99   65.24   -7.95   65.17   -0.75  -24.11
   0.795   -0.81  -24.59   -7.95   65.12   -7.91   65.05   -0.76  -24.23
   0.800   -0.82  -24.72   -7.92   65.00   -7.87   64.92   -0.77  -24.35
   0.804   -0.82  -24.84   -7.88   64.88   -7.83   64.80   -0.78  -24.47
   0.808   -0.83  -24.96   -7.84   64.75   -7.80   64.68   -0.79  -24.59
   0.813   -0.84  -25.08   -7.80   64.63   -7.76   64.55   -0.79  -24.71
   0.817   -0.85  -25.20   -7.76   64.50   -7.72   64.42   -0.80  -24.83
   0.821   -0.86  -25.32   -7.72   64.38   -7.68   64.30   -0.81  -24.95
   0.826   -0.87  -25.43   -7.69   64.26   -7.65   64.19   -0.82  -25.07
   0.830   -0.87  -25.56   -7.65   64.14   -7.61   64.07   -0.83  -25.18
   0.835   -0.88  -25.68   -7.62   64.02   -7.57   63.95   -0.84  -25.30
   0.839   -0.89  -25.79   -7.58   63.90   -7.54   63.83   -0.85  -25.41
   0.843   -0.90  -25.91   -7.54   63.78   -7.50   63.71   -0.85  -25.53
   0.848   -0.91  -26.04   -7.51   63.66   -7.46   63.60   -0.86  -25.64
   0.852   -0.92  -26.15   -7.47   63.56   -7.43   63.48   -0.87  -25.76
   0.856   -0.93  -26.27   -7.44   63.44   -7.39   63.38   -0.88  -25.87
   0.861   -0.94  -26.39   -7.40   63.33   -7.36   63.26   -0.89  -25.98
   0.865   -0.94  -26.50   -7.37   63.22   -7.32   63.14   -0.90  -26.09
   0.869   -0.95  -26.62   -7.33   63.10   -7.29   63.02   -0.90  -26.21
   0.874   -0.96  -26.74   -7.30   62.98   -7.25   62.90   -0.91  -26.32
   0.878   -0.97  -26.85   -7.26   62.88   -7.22   62.79   -0.92  -26.43
   0.883   -0.98  -26.96   -7.23   62.76   -7.18   62.67   -0.93  -26.55
   0.887   -0.98  -27.08   -7.19   62.63   -7.15   62.55   -0.94  -26.66
   0.891   -0.99  -27.20   -7.16   62.51   -7.11   62.43   -0.95  -26.77
   0.896   -1.00  -27.30   -7.12   62.39   -7.08   62.31   -0.95  -26.88
   0.900   -1.01  -27.42   -7.09   62.27   -7.05   62.20   -0.96  -27.00
   0.904   -1.02  -27.53   -7.06   62.15   -7.01   62.08   -0.97  -27.11
   0.909   -1.03  -27.64   -7.03   62.04   -6.98   61.96   -0.98  -27.22
   0.913   -1.04  -27.75   -7.00   61.92   -6.95   61.85   -0.99  -27.33
   0.917   -1.05  -27.87   -6.96   61.81   -6.92   61.73   -1.00  -27.44
   0.922   -1.05  -27.98   -6.93   61.70   -6.89   61.62   -1.01  -27.56
   0.926   -1.06  -28.09   -6.90   61.59   -6.85   61.50   -1.02  -27.67
   0.930   -1.07  -28.21   -6.87   61.47   -6.82   61.38   -1.03  -27.78
   0.935   -1.08  -28.31   -6.84   61.37   -6.79   61.28   -1.04  -27.89
   0.939   -1.09  -28.43   -6.81   61.26   -6.76   61.16   -1.05  -28.00
   0.944   -1.10  -28.55   -6.77   61.14   -6.73   61.04   -1.06  -28.11
   0.948   -1.11  -28.66   -6.74   61.02   -6.70   60.93   -1.06  -28.22
   0.952   -1.12  -28.77   -6.71   60.92   -6.66   60.81   -1.07  -28.32
   0.957   -1.13  -28.88   -6.68   60.80   -6.63   60.69   -1.08  -28.44
   0.961   -1.14  -28.99   -6.65   60.68   -6.60   60.58   -1.09  -28.55
   0.965   -1.14  -29.10   -6.62   60.56   -6.57   60.46   -1.10  -28.66
   0.970   -1.15  -29.21   -6.59   60.44   -6.54   60.35   -1.11  -28.77
   0.974   -1.16  -29.32   -6.56   60.32   -6.51   60.23   -1.12  -28.88
   0.978   -1.17  -29.43   -6.53   60.21   -6.48   60.11   -1.13  -28.99
   0.983   -1.18  -29.54   -6.50   60.09   -6.45   59.99   -1.14  -29.10
   0.987   -1.19  -29.65   -6.47   59.97   -6.43   59.88   -1.15  -29.21
   0.992   -1.20  -29.76   -6.45   59.85   -6.40   59.77   -1.16  -29.32
   0.996   -1.21  -29.87   -6.42   59.75   -6.37   59.66   -1.17  -29.43
   1.000   -1.22  -29.98   -6.39   59.64   -6.34   59.55   -1.18  -29.54
   1.005   -1.23  -30.09   -6.36   59.53   -6.31   59.44   -1.19  -29.65
   1.009   -1.24  -30.20   -6.34   59.42   -6.29   59.32   -1.20  -29.76
   1.013   -1.25  -30.31   -6.31   59.31   -6.26   59.22   -1.21  -29.87
   1.018   -1.26  -30.42   -6.28   59.22   -6.23   59.11   -1.22  -29.97
   1.022   -1.27  -30.53   -6.25   59.12   -6.21   59.01   -1.23  -30.07
   1.026   -1.28  -30.64   -6.23   59.00   -6.18   58.90   -1.23  -30.18
   1.031   -1.29  -30.75   -6.20   58.90   -6.15   58.79   -1.24  -30.28
   1.035   -1.30  -30.86   -6.17   58.80   -6.12   58.68   -1.25  -30.37
   1.040   -1.31  -30.97   -6.14   58.68   -6.10   58.58   -1.26  -30.48
   1.044   -1.32  -31.08   -6.12   58.57   -6.07   58.47   -1.27  -30.58
   1.048   -1.33  -31.18   -6.09   58.47   -6.04   58.36   -1.28  -30.68
   1.053   -1.34  -31.29   -6.06   58.36   -6.02   58.25   -1.29  -30.78
   1.057   -1.35  -31.39   -6.04   58.25   -5.99   58.14   -1.30  -30.89
   1.061   -1.35  -31.50   -6.01   58.13   -5.97   58.04   -1.31  -31.00
   1.066   -1.36  -31.61   -5.99   58.02   -5.94   57.92   -1.32  -31.10
   1.070   -1.37  -31.71   -5.96   57.91   -5.91   57.82   -1.33  -31.21
   1.074   -1.38  -31.82   -5.93   57.81   -5.89   57.72   -1.34  -31.31
   1.079   -1.39  -31.92   -5.91   57.70   -5.86   57.60   -1.35  -31.42
   1.083   -1.40  -32.03   -5.88   57.59   -5.84   57.49   -1.36  -31.53
   1.088   -1.41  -32.13   -5.86   57.50   -5.81   57.39   -1.37  -31.63
   1.092   -1.42  -32.23   -5.84   57.39   -5.79   57.29   -1.38  -31.73
   1.096   -1.43  -32.34   -5.81   57.29   -5.76   57.18   -1.39  -31.83
   1.101   -1.44  -32.44   -5.79   57.19   -5.74   57.08   -1.40  -31.93
   1.105   -1.45  -32.54   -5.76   57.09   -5.71   56.97   -1.41  -32.03
   1.109   -1.45  -32.66   -5.74   56.98   -5.69   56.86   -1.42  -32.13
   1.114   -1.46  -32.76   -5.71   56.88   -5.67   56.76   -1.43  -32.22
   1.118   -1.47  -32.86   -5.69   56.77   -5.64   56.66   -1.44  -32.32
   1.122   -1.48  -32.96   -5.67   56.67   -5.62   56.56   -1.45  -32.42
   1.127   -1.49  -33.07   -5.64   56.56   -5.60   56.45   -1.46  -32.52
   1.131   -1.50  -33.17   -5.62   56.46   -5.57   56.34   -1.47  -32.62
   1.136   -1.51  -33.27   -5.60   56.35   -5.55   56.24   -1.48  -32.71
   1.140   -1.52  -33.37   -5.57   56.25   -5.53   56.14   -1.49  -32.82
   1.144   -1.53  -33.47   -5.55   56.15   -5.50   56.04   -1.50  -32.91
   1.149   -1.54  -33.57   -5.53   56.04   -5.48   55.93   -1.51  -33.02
   1.153   -1.55  -33.67   -5.50   55.92   -5.46   55.82   -1.52  -33.12
   1.157   -1.56  -33.77   -5.48   55.82   -5.43   55.72   -1.53  -33.21
   1.162   -1.57  -33.87   -5.46   55.72   -5.41   55.62   -1.54  -33.32
   1.166   -1.58  -33.96   -5.44   55.61   -5.39   55.52   -1.55  -33.42
