!  American Technical Ceramics  Date:   10/26/00
!  One Norden Lane
!  Huntington Station,  NY.   11746-2102
!  Tel:  (631) 622-4700               Fax:  (631) 622-4748
!  Part Number  600L1R8B       Mounting Orientation:  Horizontal  
!  Description:  Low ESR, High Q Microwave capacitors
!  Application: Coupling, Bypass, Tuning, DC Block
!               Filters, Matching
# GHZ S DB R 50
! Freq   |S11|   S11 Ph  |S21|   S21 Ph  |S12|   S12 Ph  |S22|   S22 Ph
    0.00    0.00    0.00   -999.00 90.00   -999.00 90.00    0.00    0.00
   0.400   -0.78  -24.29   -8.19   65.67   -8.19   65.53   -0.76  -23.03
   0.465   -1.01  -27.78   -7.11   62.19   -7.11   61.99   -1.01  -26.45
   0.530   -1.29  -30.78   -6.21   58.97   -6.22   58.03   -1.29  -30.02
   0.595   -1.59  -34.38   -5.50   55.96   -5.51   55.92   -1.56  -31.44
   0.660   -1.81  -37.22   -4.85   52.99   -4.88   53.32   -1.87  -34.31
   0.725   -2.17  -39.58   -4.33   50.26   -4.33   50.17   -2.13  -37.69
   0.790   -2.42  -42.41   -3.86   47.48   -3.88   47.15   -2.48  -40.72
   0.855   -2.79  -45.14   -3.50   45.31   -3.50   44.95   -2.79  -42.36
   0.920   -3.08  -47.36   -3.13   43.15   -3.17   42.93   -3.08  -44.23
   0.985   -3.41  -49.89   -2.85   40.83   -2.84   41.20   -3.39  -45.76
   1.050   -3.70  -51.39   -2.57   38.76   -2.59   38.88   -3.72  -48.75
   1.115   -4.03  -53.30   -2.33   36.98   -2.36   36.65   -4.03  -50.78
   1.180   -4.36  -55.96   -2.16   35.06   -2.16   34.79   -4.37  -51.88
   1.245   -4.66  -57.36   -1.94   33.68   -1.97   33.61   -4.64  -53.18
   1.310   -4.98  -58.97   -1.81   31.90   -1.82   32.14   -4.97  -54.72
   1.375   -5.29  -60.36   -1.65   30.34   -1.65   30.41   -5.26  -56.51
   1.440   -5.59  -61.99   -1.53   28.83   -1.56   28.67   -5.64  -58.16
   1.505   -5.92  -63.67   -1.41   27.67   -1.42   27.28   -5.88  -59.02
   1.570   -6.24  -65.04   -1.33   26.35   -1.34   26.39   -6.21  -59.76
   1.635   -6.50  -66.08   -1.21   24.99   -1.21   25.24   -6.49  -61.22
   1.700   -6.82  -67.04   -1.13   23.93   -1.14   23.89   -6.78  -62.57
   1.765   -7.08  -68.68   -1.06   22.65   -1.06   22.48   -7.12  -63.69
   1.830   -7.42  -69.95   -0.99   21.77   -1.01   21.50   -7.38  -64.19
   1.895   -7.69  -71.10   -0.93   20.63   -0.94   20.62   -7.66  -65.07
   1.960   -7.95  -71.75   -0.87   19.62   -0.87   19.89   -7.97  -66.06
   2.025   -8.27  -72.80   -0.82   18.67   -0.82   18.64   -8.23  -67.22
   2.090   -8.53  -74.01   -0.76   17.79   -0.78   17.60   -8.51  -67.86
   2.155   -8.80  -75.15   -0.73   16.92   -0.73   16.72   -8.80  -68.31
   2.220   -9.08  -75.78   -0.68   16.11   -0.70   16.16   -9.06  -69.19
   2.285   -9.34  -76.55   -0.66   15.19   -0.66   15.33   -9.31  -70.01
   2.350   -9.58  -77.35   -0.61   14.40   -0.61   14.48   -9.58  -70.68
   2.415   -9.89  -78.52   -0.59   13.77   -0.60   13.52   -9.85  -71.16
   2.480  -10.11  -79.46   -0.56   12.99   -0.57   12.84  -10.09  -71.71
   2.545  -10.35  -79.82   -0.52   12.25   -0.53   12.34  -10.34  -72.45
   2.610  -10.61  -80.52   -0.50   11.59   -0.50   11.71  -10.59  -73.06
   2.675  -10.86  -81.42   -0.48   10.81   -0.49   10.85  -10.86  -73.85
   2.740  -11.09  -82.44   -0.45   10.20   -0.46   10.04  -11.10  -74.08
   2.805  -11.37  -83.18   -0.43    9.54   -0.45    9.43  -11.33  -74.76
   2.870  -11.60  -83.50   -0.42    8.86   -0.43    8.96  -11.58  -75.36
   2.935  -11.84  -84.07   -0.40    8.20   -0.40    8.32  -11.85  -75.89
   3.000  -11.95  -83.02   -0.39    8.16   -0.41    8.11  -11.87  -77.09
   3.065  -12.15  -83.94   -0.39    7.64   -0.40    7.51  -12.10  -77.28
   3.130  -12.38  -84.71   -0.37    7.12   -0.39    7.02  -12.27  -77.50
   3.195  -12.54  -85.01   -0.36    6.61   -0.36    6.71  -12.52  -78.07
   3.260  -12.76  -85.87   -0.34    6.09   -0.35    6.19  -12.72  -78.26
   3.325  -12.98  -86.93   -0.34    5.67   -0.34    5.62  -12.93  -78.35
   3.390  -13.21  -87.81   -0.32    5.17   -0.33    5.04  -13.10  -78.72
   3.455  -13.40  -88.35   -0.30    4.70   -0.31    4.60  -13.34  -78.91
   3.520  -13.62  -88.60   -0.30    4.16   -0.31    4.29  -13.55  -79.51
   3.585  -13.80  -89.50   -0.29    3.76   -0.29    3.77  -13.74  -79.44
   3.650  -14.05  -90.20   -0.28    3.27   -0.29    3.26  -13.92  -79.72
   3.715  -14.23  -90.92   -0.27    2.92   -0.28    2.78  -14.14  -79.96
   3.780  -14.43  -91.09   -0.27    2.41   -0.28    2.39  -14.33  -80.62
   3.845  -14.62  -91.56   -0.25    1.99   -0.26    2.03  -14.52  -80.94
   3.910  -14.83  -92.25   -0.25    1.62   -0.26    1.67  -14.73  -81.09
   3.975  -15.04  -92.97   -0.24    1.19   -0.25    1.15  -14.90  -81.15
   4.040  -15.21  -93.18   -0.24    0.83   -0.25    0.73  -15.14  -81.73
   4.105  -15.39  -93.49   -0.23    0.37   -0.23    0.36  -15.29  -82.24
   4.170  -15.54  -93.65   -0.23    0.04   -0.23    0.09  -15.53  -82.47
   4.235  -15.77  -94.45   -0.22   -0.42   -0.22   -0.39  -15.70  -82.64
   4.300  -15.96  -94.86   -0.21   -0.70   -0.22   -0.78  -15.88  -82.87
   4.365  -16.14  -95.08   -0.21   -1.16   -0.22   -1.28  -16.10  -83.61
   4.430  -16.31  -95.31   -0.20   -1.53   -0.21   -1.55  -16.29  -84.04
   4.495  -16.49  -95.53   -0.21   -1.88   -0.21   -1.84  -16.49  -84.46
   4.560  -16.71  -96.20   -0.19   -2.22   -0.20   -2.19  -16.68  -84.19
   4.625  -16.93  -96.25   -0.20   -2.62   -0.20   -2.68  -16.83  -85.03
   4.690  -17.06  -96.24   -0.18   -2.94   -0.19   -3.01  -16.99  -85.42
   4.755  -17.20  -96.12   -0.19   -3.38   -0.20   -3.38  -17.26  -86.44
   4.820  -17.41  -96.65   -0.18   -3.74   -0.18   -3.60  -17.40  -86.85
   4.885  -17.58  -97.17   -0.18   -4.00   -0.19   -4.02  -17.64  -86.93
   4.950  -17.83  -97.11   -0.18   -4.39   -0.19   -4.41  -17.77  -87.77
   5.015  -17.92  -97.01   -0.17   -4.71   -0.18   -4.77  -18.05  -88.40
   5.080  -18.15  -96.82   -0.17   -5.10   -0.17   -4.99  -18.17  -89.18
   5.145  -18.31  -96.91   -0.17   -5.35   -0.17   -5.35  -18.42  -89.48
   5.210  -18.55  -97.18   -0.16   -5.73   -0.16   -5.71  -18.56  -90.08
   5.275  -18.73  -97.28   -0.16   -6.01   -0.17   -6.03  -18.79  -90.40
   5.340  -18.89  -96.70   -0.17   -6.39   -0.17   -6.45  -19.01  -91.82
   5.405  -19.04  -96.88   -0.16   -6.72   -0.16   -6.68  -19.20  -91.90
   5.470  -19.29  -96.51   -0.16   -6.99   -0.16   -6.97  -19.40  -92.87
   5.535  -19.49  -96.87   -0.15   -7.33   -0.15   -7.34  -19.59  -92.86
   5.600  -19.66  -96.20   -0.15   -7.67   -0.16   -7.70  -19.83  -94.19
   5.665  -19.85  -96.21   -0.15   -7.99   -0.16   -8.00  -20.03  -94.90
   5.730  -20.07  -95.72   -0.15   -8.33   -0.15   -8.31  -20.26  -95.74
   5.795  -20.25  -96.00   -0.14   -8.58   -0.15   -8.58  -20.45  -96.30
   5.860  -20.51  -95.60   -0.15   -8.92   -0.15   -8.90  -20.65  -97.15
   5.925  -20.70  -95.44   -0.15   -9.26   -0.16   -9.26  -20.89  -98.12
   5.990  -20.82  -94.65   -0.14   -9.52   -0.14   -9.56  -21.23  -99.08
   6.055  -21.14  -94.77   -0.15   -9.84   -0.15   -9.77  -21.38  -99.68
   6.120  -21.36  -94.43   -0.14  -10.12   -0.14  -10.13  -21.63 -100.25
   6.185  -21.57  -94.39   -0.14  -10.44   -0.14  -10.42  -21.86 -101.13
   6.250  -21.80  -92.90   -0.14  -10.73   -0.14  -10.76  -22.08 -102.62
   6.315  -22.01  -92.77   -0.14  -11.05   -0.14  -11.07  -22.41 -103.09
   6.380  -22.19  -91.92   -0.14  -11.30   -0.13  -11.35  -22.62 -104.40
   6.445  -22.51  -91.86   -0.14  -11.64   -0.14  -11.59  -22.82 -104.86
   6.510  -22.73  -91.16   -0.13  -11.96   -0.13  -11.95  -23.13 -105.79
   6.575  -22.96  -90.35   -0.13  -12.22   -0.14  -12.23  -23.45 -107.39
   6.640  -23.19  -89.36   -0.13  -12.52   -0.14  -12.52  -23.70 -108.46
   6.705  -23.52  -89.02   -0.13  -12.80   -0.13  -12.79  -24.01 -108.91
   6.770  -23.73  -87.98   -0.13  -13.07   -0.14  -13.06  -24.36 -110.44
   6.835  -24.05  -87.01   -0.13  -13.38   -0.14  -13.36  -24.61 -110.69
   6.900  -24.24  -85.96   -0.13  -13.66   -0.13  -13.71  -25.04 -112.76
   6.965  -24.50  -84.86   -0.13  -13.95   -0.13  -13.98  -25.27 -113.85
   7.030  -24.81  -83.93   -0.13  -14.24   -0.13  -14.21  -25.57 -114.71
   7.095  -25.12  -82.80   -0.13  -14.51   -0.13  -14.53  -25.94 -115.87
   7.160  -25.34  -81.74   -0.13  -14.80   -0.14  -14.80  -26.34 -117.49
   7.225  -25.65  -80.17   -0.13  -15.10   -0.14  -15.08  -26.67 -118.75
   7.290  -25.92  -78.87   -0.13  -15.33   -0.13  -15.37  -27.18 -120.48
   7.355  -26.27  -77.44   -0.14  -15.62   -0.13  -15.63  -27.41 -122.14
   7.420  -26.50  -76.25   -0.13  -15.91   -0.13  -15.86  -27.98 -122.84
   7.485  -26.81  -74.22   -0.13  -16.17   -0.13  -16.19  -28.37 -125.63
   7.550  -27.09  -72.65   -0.14  -16.45   -0.14  -16.44  -28.89 -127.15
   7.615  -27.44  -70.88   -0.13  -16.73   -0.14  -16.71  -29.44 -128.79
   7.680  -27.77  -69.12   -0.13  -16.98   -0.13  -17.01  -29.93 -130.54
   7.745  -27.97  -66.93   -0.13  -17.29   -0.14  -17.26  -30.56 -133.00
   7.810  -28.27  -65.13   -0.13  -17.51   -0.13  -17.49  -31.26 -133.97
   7.875  -28.58  -62.03   -0.13  -17.74   -0.13  -17.78  -32.05 -137.67
   7.940  -28.92  -60.29   -0.13  -18.06   -0.13  -18.04  -32.71 -137.79
   8.005  -29.22  -57.80   -0.13  -18.30   -0.13  -18.29  -33.68 -139.32
   8.070  -29.49  -55.33   -0.12  -18.58   -0.13  -18.63  -34.49 -141.54
   8.135  -29.79  -53.91   -0.13  -18.91   -0.13  -18.90  -35.59 -143.82
   8.200  -30.31  -51.26   -0.13  -19.17   -0.13  -19.19  -36.23 -146.92
   8.265  -30.97  -46.70   -0.15  -19.48   -0.14  -19.42  -37.11 -150.80
   8.330  -28.42   11.96   -0.16  -19.73   -0.15  -19.70  -31.20  106.80
   8.395  -28.00   14.38   -0.16  -19.93   -0.17  -19.97  -30.71  104.38
   8.460  -27.61   17.14   -0.17  -20.16   -0.17  -20.22  -29.94  101.82
   8.525  -27.36   18.23   -0.16  -20.45   -0.16  -20.49  -29.48   99.28
   8.590  -27.03   19.45   -0.17  -20.70   -0.17  -20.72  -28.98   96.32
   8.655  -26.82   20.96   -0.17  -20.98   -0.18  -20.91  -28.50   94.10
   8.720  -26.44   23.01   -0.17  -21.19   -0.17  -21.13  -28.34   91.18
   8.785  -26.27   24.44   -0.17  -21.42   -0.17  -21.42  -28.19   88.73
   8.850  -25.92   25.72   -0.17  -21.66   -0.16  -21.71  -27.81   87.91
   8.915  -25.79   26.78   -0.16  -21.95   -0.17  -21.95  -27.69   87.35
   8.980  -25.67   27.23   -0.17  -22.18   -0.17  -22.21  -27.41   86.44
   9.045  -25.50   28.26   -0.17  -22.46   -0.17  -22.41  -27.04   87.59
   9.110  -25.32   30.55   -0.18  -22.70   -0.18  -22.70  -26.68   85.76
   9.175  -25.29   32.29   -0.18  -22.94   -0.18  -22.93  -26.22   84.39
   9.240  -24.93   32.83   -0.18  -23.13   -0.18  -23.15  -25.80   83.20
   9.305  -24.57   34.51   -0.18  -23.31   -0.19  -23.30  -25.45   81.33
   9.370  -24.44   35.50   -0.18  -23.55   -0.18  -23.62  -25.29   79.04
   9.435  -24.40   36.06   -0.17  -23.81   -0.17  -23.81  -25.10   77.85
   9.500  -24.20   36.44   -0.17  -24.04   -0.17  -24.02  -24.83   76.79
   9.565  -23.98   37.51   -0.17  -24.29   -0.18  -24.29  -24.56   75.72
   9.630  -23.93   38.86   -0.17  -24.47   -0.17  -24.51  -24.49   73.90
   9.695  -23.81   40.13   -0.17  -24.72   -0.17  -24.71  -24.28   71.90
   9.760  -23.62   40.88   -0.15  -24.97   -0.15  -24.97  -24.08   70.96
   9.825  -23.44   41.87   -0.15  -25.20   -0.15  -25.25  -23.87   69.41
   9.890  -23.39   42.43   -0.15  -25.51   -0.15  -25.48  -23.70   68.03
   9.955  -23.15   43.13   -0.14  -25.75   -0.14  -25.81  -23.65   66.81
  10.020  -23.08   44.13   -0.14  -26.05   -0.14  -26.06  -23.45   65.19
  10.085  -23.08   44.64   -0.14  -26.36   -0.14  -26.28  -23.35   64.00
  10.150  -22.96   44.92   -0.14  -26.59   -0.14  -26.58  -23.27   63.13
  10.215  -22.83   45.53   -0.14  -26.86   -0.15  -26.88  -23.10   61.26
  10.280  -22.82   46.73   -0.15  -27.14   -0.15  -27.15  -23.02   60.16
  10.345  -22.69   47.48   -0.15  -27.44   -0.16  -27.44  -22.99   58.56
  10.410  -22.60   48.00   -0.16  -27.68   -0.16  -27.68  -22.80   57.13
  10.475  -22.50   48.63   -0.17  -27.95   -0.18  -27.85  -22.79   56.76
  10.540  -22.37   49.13   -0.19  -28.11   -0.19  -28.14  -22.79   54.43
  10.605  -22.29   49.24   -0.20  -28.29   -0.20  -28.35  -22.67   53.07
  10.670  -22.39   50.01   -0.20  -28.46   -0.19  -28.43  -22.67   53.06
  10.735  -22.28   51.34   -0.19  -28.60   -0.20  -28.67  -22.69   52.35
  10.800  -22.12   51.59   -0.19  -28.90   -0.19  -28.87  -22.41   52.25
  10.865  -21.96   52.47   -0.18  -29.12   -0.19  -29.12  -22.35   51.61
  10.930  -21.80   53.26   -0.18  -29.36   -0.19  -29.40  -22.28   50.02
  10.995  -21.71   53.19   -0.19  -29.62   -0.19  -29.60  -22.08   49.78
  11.060  -21.68   53.47   -0.18  -29.85   -0.18  -29.79  -21.97   49.11
  11.125  -21.55   53.48   -0.19  -30.05   -0.19  -30.05  -21.92   48.11
  11.190  -21.45   53.94   -0.18  -30.34   -0.19  -30.35  -21.78   47.62
  11.255  -21.37   54.27   -0.18  -30.55   -0.19  -30.60  -21.71   46.78
  11.320  -21.32   54.28   -0.19  -30.81   -0.18  -30.84  -21.54   46.40
  11.385  -21.17   54.07   -0.18  -31.05   -0.20  -30.99  -21.44   46.41
  11.450  -21.15   54.35   -0.19  -31.30   -0.19  -31.31  -21.32   45.71
  11.515  -21.06   54.22   -0.19  -31.54   -0.20  -31.58  -21.26   44.68
  11.580  -20.98   53.95   -0.18  -31.76   -0.20  -31.73  -21.18   44.89
  11.645  -20.91   53.74   -0.18  -32.05   -0.18  -32.02  -21.04   44.00
  11.710  -20.91   53.90   -0.18  -32.30   -0.18  -32.29  -20.91   43.70
  11.775  -20.75   53.31   -0.18  -32.57   -0.20  -32.62  -20.94   43.67
  11.840  -20.68   53.30   -0.20  -32.88   -0.20  -33.01  -20.72   43.10
  11.905  -20.57   52.77   -0.20  -33.14   -0.20  -33.18  -20.73   43.36
  11.970  -20.57   52.81   -0.20  -33.44   -0.19  -33.45  -20.47   42.97
  12.035  -20.49   51.88   -0.21  -33.72   -0.20  -33.67  -20.37   43.63
  12.100  -20.39   51.70   -0.21  -33.98   -0.21  -33.99  -20.26   43.47
  12.165  -20.25   51.01   -0.21  -34.35   -0.23  -34.36  -20.21   43.41
  12.230  -20.16   50.88   -0.23  -34.60   -0.23  -34.67  -19.91   42.85
  12.295  -20.04   49.25   -0.23  -34.95   -0.22  -34.85  -19.81   44.04
  12.360  -19.84   49.26   -0.24  -35.15   -0.23  -35.18  -19.66   43.13
  12.425  -19.80   47.99   -0.26  -35.54   -0.26  -35.48  -19.44   43.57
  12.490  -19.58   47.09   -0.25  -35.79   -0.26  -35.83  -19.33   42.88
  12.555  -19.50   45.54   -0.28  -36.11   -0.29  -36.05  -19.08   43.15
  12.620  -19.49   44.06   -0.30  -36.41   -0.29  -36.40  -18.82   42.99
  12.685  -19.32   42.53   -0.32  -36.67   -0.32  -36.64  -18.68   42.90
  12.750  -19.11   41.22   -0.33  -37.00   -0.34  -37.10  -18.51   42.21
  12.815  -19.14   39.52   -0.37  -37.29   -0.36  -37.25  -18.21   41.95
  12.880  -18.99   37.52   -0.38  -37.56   -0.38  -37.56  -18.09   40.80
  12.945  -18.98   35.31   -0.43  -37.73   -0.42  -37.68  -17.76   40.40
  13.010  -18.99   32.60   -0.47  -38.06   -0.46  -38.07  -17.61   39.65
  13.075  -18.95   30.73   -0.50  -38.15   -0.51  -38.17  -17.49   37.67
  13.140  -19.08   28.22   -0.55  -38.36   -0.57  -38.39  -17.38   36.52
  13.205  -19.33   25.84   -0.59  -38.30   -0.57  -38.42  -17.11   34.87
  13.270  -19.50   24.05   -0.62  -38.34   -0.62  -38.27  -17.23   33.27
  13.335  -19.89   23.18   -0.64  -38.13   -0.63  -38.16  -17.30   31.81
  13.400  -20.23   22.15   -0.66  -38.12   -0.67  -38.15  -17.48   30.47
  13.465  -20.45   23.66   -0.63  -38.00   -0.63  -37.99  -17.65   29.71
  13.530  -20.79   24.71   -0.61  -37.91   -0.61  -37.91  -17.83   30.34
  13.595  -20.82   26.12   -0.60  -37.98   -0.57  -37.85  -18.10   30.44
  13.660  -20.70   28.52   -0.56  -38.09   -0.56  -38.14  -18.26   31.56
  13.725  -20.54   30.37   -0.52  -38.22   -0.53  -38.25  -18.47   33.05
  13.790  -20.33   31.10   -0.49  -38.40   -0.51  -38.48  -18.46   34.48
  13.855  -19.91   32.32   -0.46  -38.65   -0.45  -38.71  -18.50   36.85
  13.920  -19.59   32.52   -0.42  -38.93   -0.42  -39.04  -18.54   38.79
  13.985  -19.09   31.21   -0.40  -39.46   -0.40  -39.46  -18.49   41.03
  14.050  -18.86   30.80   -0.39  -39.77   -0.39  -39.84  -18.34   42.96
  14.115  -18.69   28.88   -0.40  -40.21   -0.39  -40.28  -18.06   45.81
  14.180  -18.51   28.59   -0.40  -40.48   -0.40  -40.57  -17.78   46.31
  14.245  -18.34   27.78   -0.41  -40.85   -0.40  -40.80  -17.62   48.15
  14.310  -18.15   27.53   -0.41  -41.17   -0.42  -41.34  -17.46   48.27
  14.375  -17.92   27.15   -0.42  -41.52   -0.42  -41.50  -17.14   49.09
  14.440  -17.74   27.17   -0.42  -41.83   -0.42  -41.82  -16.94   49.88
  14.505  -17.50   25.93   -0.43  -42.16   -0.42  -42.12  -16.71   50.91
  14.570  -17.14   25.96   -0.43  -42.54   -0.45  -42.48  -16.61   51.21
  14.635  -17.03   24.88   -0.44  -42.81   -0.44  -42.87  -16.34   51.91
  14.700  -16.80   23.89   -0.45  -43.21   -0.46  -43.21  -16.12   52.55
  14.765  -16.68   23.16   -0.46  -43.47   -0.46  -43.53  -15.81   53.37
  14.830  -16.45   22.81   -0.49  -43.86   -0.48  -43.68  -15.66   53.78
  14.895  -16.26   22.76   -0.50  -44.17   -0.51  -44.26  -15.41   53.51
  14.960  -16.07   22.67   -0.52  -44.36   -0.53  -44.41  -15.16   53.83
  15.025  -15.85   22.56   -0.54  -44.55   -0.54  -44.72  -14.85   53.14
  15.090  -15.46   21.86   -0.55  -44.83   -0.54  -44.83  -14.61   53.16
  15.155  -15.18   21.24   -0.55  -45.07   -0.54  -45.04  -14.53   52.61
  15.220  -14.95   20.12   -0.55  -45.37   -0.54  -45.41  -14.40   52.18
  15.285  -14.78   19.90   -0.54  -45.79   -0.57  -45.86  -14.23   51.92
  15.350  -14.56   18.75   -0.57  -46.04   -0.57  -46.15  -14.06   52.50
  15.415  -14.32   18.08   -0.58  -46.35   -0.57  -46.38  -13.82   52.34
  15.480  -14.07   17.47   -0.58  -46.78   -0.57  -46.70  -13.62   52.21
  15.545  -13.84   16.67   -0.60  -47.12   -0.59  -47.05  -13.50   51.67
  15.610  -13.65   15.84   -0.61  -47.52   -0.62  -47.59  -13.23   50.98
  15.675  -13.47   15.36   -0.64  -47.93   -0.66  -47.93  -13.11   50.62
  15.740  -13.26   14.30   -0.67  -48.28   -0.66  -48.39  -12.98   50.37
  15.805  -13.02   13.99   -0.70  -48.67   -0.70  -48.57  -12.82   49.47
  15.870  -12.86   13.47   -0.72  -49.00   -0.73  -48.96  -12.66   49.08
  15.935  -12.70   12.18   -0.76  -49.25   -0.77  -49.33  -12.52   48.92
  16.000  -12.53   11.49   -0.79  -49.63   -0.81  -49.71  -12.30   48.30
  16.065  -12.30   10.79   -0.82  -49.92   -0.82  -49.87  -12.21   48.07
  16.130  -12.13   10.40   -0.87  -50.22   -0.85  -50.15  -12.09   47.07
  16.195  -12.00    9.52   -0.89  -50.50   -0.90  -50.41  -11.92   46.55
  16.260  -11.87    8.61   -0.94  -50.74   -0.95  -50.80  -11.80   45.97
  16.325  -11.70    7.58   -0.96  -50.97   -0.97  -51.09  -11.65   45.48
  16.390  -11.55    6.92   -1.01  -51.20   -1.00  -51.22  -11.59   44.73
  16.455  -11.43    6.17   -1.04  -51.52   -1.05  -51.40  -11.46   43.74
  16.520  -11.32    5.33   -1.08  -51.68   -1.09  -51.66  -11.36   43.26
  16.585  -11.22    4.03   -1.14  -51.88   -1.13  -51.99  -11.30   42.71
  16.650  -11.15    3.22   -1.17  -52.00   -1.19  -52.11  -11.23   41.87
  16.715  -11.02    2.73   -1.22  -52.26   -1.19  -52.16  -11.18   41.05
  16.780  -10.98    1.56   -1.24  -52.25   -1.24  -52.24  -11.14   40.58
  16.845  -10.93    0.86   -1.30  -52.56   -1.30  -52.38  -11.08   39.58
  16.910  -10.88   -0.12   -1.32  -52.53   -1.33  -52.60  -11.05   39.34
  16.975  -10.78   -1.04   -1.36  -52.55   -1.35  -52.82  -11.10   38.50
  17.040  -10.81   -1.14   -1.39  -52.82   -1.39  -52.65  -11.01   37.59
  17.105  -10.76   -2.09   -1.41  -52.73   -1.40  -52.75  -11.06   37.58
  17.170  -10.76   -2.81   -1.42  -52.72   -1.43  -52.70  -11.06   37.25
  17.235  -10.76   -3.32   -1.46  -52.90   -1.47  -53.03  -11.05   36.70
  17.300  -10.74   -3.47   -1.46  -52.88   -1.47  -52.87  -11.09   36.44
  17.365  -10.66   -3.86   -1.47  -52.87   -1.46  -52.98  -11.11   35.96
  17.430  -10.77   -3.71   -1.49  -53.13   -1.50  -52.91  -11.04   35.74
  17.495  -10.71   -4.61   -1.49  -53.04   -1.49  -53.22  -11.11   36.13
  17.560  -10.65   -4.59   -1.50  -53.23   -1.51  -53.27  -11.09   35.53
  17.625  -10.70   -4.79   -1.51  -53.45   -1.51  -53.55  -11.02   35.46
