!  American Technical Ceramics   Date:  10/27/06
!  One Norden Lane
!  Huntington Station,  NY.   11746-2102
!  Tel:  (631) 622-4700               Fax:  (631) 622-4748
!  Part Number  600L2R2
!  Description: Ultra Low ESR Microwave capacitors
!  Application: Coupling, Bypass, Tuning, DC Block
!               Filters, Matching
# GHZ S DB R 50
! Freq   |S11|   S11 Ph  |S21|   S21 Ph  |S12|   S12 Ph  |S22|   S22 Ph
    0.00    0.00    0.00 -999.00   90.00 -999.00   90.00    0.00    0.00
   0.400   -1.13  -28.83   -6.58   60.65   -6.58   60.59   -1.14  -28.63
   0.465   -1.45  -32.67   -5.60   56.86   -5.60   56.83   -1.47  -32.45
   0.530   -1.80  -36.26   -4.81   53.34   -4.81   53.36   -1.81  -35.99
   0.595   -2.17  -39.55   -4.17   50.06   -4.17   50.09   -2.17  -39.27
   0.660   -2.54  -42.60   -3.64   47.04   -3.64   47.03   -2.54  -42.27
   0.725   -2.92  -45.42   -3.19   44.25   -3.20   44.21   -2.92  -45.05
   0.790   -3.29  -48.00   -2.82   41.68   -2.82   41.64   -3.30  -47.64
   0.855   -3.67  -50.38   -2.50   39.31   -2.50   39.29   -3.68  -50.07
   0.920   -4.04  -52.61   -2.24   37.12   -2.23   37.14   -4.06  -52.34
   0.985   -4.42  -54.65   -2.00   35.08   -2.01   35.11   -4.42  -54.41
   1.050   -4.78  -56.53   -1.80   33.20   -1.81   33.20   -4.78  -56.28
   1.115   -5.14  -58.31   -1.63   31.46   -1.64   31.43   -5.14  -58.02
   1.180   -5.49  -59.96   -1.48   29.82   -1.48   29.79   -5.51  -59.67
   1.245   -5.84  -61.47   -1.34   28.28   -1.34   28.28   -5.87  -61.31
   1.310   -6.18  -62.90   -1.23   26.87   -1.23   26.89   -6.20  -62.88
   1.375   -6.52  -64.25   -1.12   25.52   -1.13   25.56   -6.52  -64.27
   1.440   -6.84  -65.49   -1.03   24.26   -1.04   24.27   -6.85  -65.48
   1.505   -7.17  -66.66   -0.95   23.07   -0.95   23.05   -7.18  -66.62
   1.570   -7.49  -67.77   -0.87   21.94   -0.88   21.93   -7.51  -67.80
   1.635   -7.79  -68.79   -0.81   20.90   -0.81   20.90   -7.83  -69.05
   1.700   -8.09  -69.78   -0.75   19.88   -0.75   19.91   -8.13  -70.24
   1.765   -8.39  -70.76   -0.69   18.93   -0.70   18.97   -8.41  -71.23
   1.830   -8.69  -71.63   -0.64   18.03   -0.65   18.03   -8.69  -72.08
   1.895   -8.97  -72.46   -0.60   17.15   -0.61   17.14   -8.99  -72.86
   1.960   -9.26  -73.29   -0.56   16.32   -0.56   16.32   -9.30  -73.70
   2.025   -9.54  -74.04   -0.52   15.52   -0.52   15.54   -9.59  -74.72
   2.090   -9.81  -74.76   -0.49   14.76   -0.49   14.79   -9.85  -75.71
   2.155  -10.08  -75.46   -0.46   14.03   -0.46   14.06  -10.09  -76.49
   2.220  -10.35  -76.13   -0.43   13.32   -0.44   13.33  -10.34  -77.05
   2.285  -10.62  -76.78   -0.40   12.64   -0.41   12.63  -10.62  -77.59
   2.350  -10.88  -77.39   -0.38   11.98   -0.38   11.97  -10.91  -78.28
   2.415  -11.15  -77.98   -0.36   11.33   -0.36   11.35  -11.19  -79.15
   2.480  -11.41  -78.52   -0.34   10.72   -0.34   10.76  -11.41  -80.00
   2.545  -11.67  -78.98   -0.32   10.13   -0.33   10.17  -11.61  -80.62
   2.610  -11.92  -79.37   -0.30    9.58   -0.31    9.60  -11.83  -81.05
   2.675  -12.14  -79.85   -0.28    9.04   -0.29    9.03  -12.10  -81.57
   2.740  -12.39  -80.39   -0.26    8.46   -0.27    8.47  -12.39  -82.23
   2.805  -12.63  -80.84   -0.25    7.91   -0.25    7.92  -12.66  -83.04
   2.870  -12.88  -81.26   -0.24    7.35   -0.24    7.39  -12.88  -83.88
   2.935  -13.12  -81.66   -0.23    6.82   -0.23    6.84  -13.08  -84.38
   3.000  -13.50  -82.89   -0.22    5.91   -0.23    5.93  -13.44  -84.20
   3.065  -13.72  -83.30   -0.21    5.43   -0.22    5.42  -13.71  -84.48
   3.130  -13.92  -83.67   -0.21    4.95   -0.21    4.96  -14.01  -84.95
   3.195  -14.10  -84.21   -0.21    4.54   -0.21    4.57  -14.26  -85.40
   3.260  -14.32  -84.86   -0.20    4.16   -0.20    4.20  -14.39  -85.91
   3.325  -14.54  -85.28   -0.19    3.73   -0.19    3.76  -14.52  -86.30
   3.390  -14.75  -85.68   -0.18    3.32   -0.19    3.34  -14.70  -86.41
   3.455  -14.96  -86.09   -0.18    2.91   -0.18    2.92  -14.94  -86.66
   3.520  -15.16  -86.52   -0.17    2.52   -0.17    2.53  -15.20  -87.29
   3.585  -15.37  -86.98   -0.16    2.13   -0.16    2.15  -15.42  -88.14
   3.650  -15.58  -87.34   -0.16    1.75   -0.16    1.78  -15.56  -88.88
   3.715  -15.78  -87.66   -0.15    1.38   -0.16    1.41  -15.70  -89.15
   3.780  -15.98  -87.98   -0.14    1.01   -0.15    1.03  -15.89  -89.18
   3.845  -16.19  -88.33   -0.14    0.66   -0.14    0.66  -16.16  -89.33
   3.910  -16.39  -88.64   -0.14    0.29   -0.14    0.31  -16.44  -89.92
   3.975  -16.59  -88.84   -0.13   -0.06   -0.13   -0.03  -16.66  -90.78
   4.040  -16.79  -89.05   -0.13   -0.40   -0.13   -0.37  -16.78  -91.33
   4.105  -16.95  -89.24   -0.12   -0.75   -0.13   -0.71  -16.89  -91.44
   4.170  -17.13  -89.54   -0.12   -1.08   -0.12   -1.06  -17.08  -91.33
   4.235  -17.31  -89.93   -0.12   -1.41   -0.12   -1.39  -17.36  -91.56
   4.300  -17.50  -90.35   -0.11   -1.74   -0.11   -1.72  -17.62  -92.28
   4.365  -17.73  -90.78   -0.11   -2.02   -0.11   -2.00  -17.85  -93.11
   4.430  -17.95  -90.78   -0.11   -2.34   -0.11   -2.30  -17.96  -93.38
   4.495  -18.13  -90.91   -0.10   -2.67   -0.10   -2.63  -18.07  -93.33
   4.560  -18.32  -91.00   -0.09   -2.99   -0.09   -2.96  -18.26  -93.19
   4.625  -18.51  -91.06   -0.09   -3.30   -0.09   -3.28  -18.52  -93.25
   4.690  -18.66  -91.07   -0.08   -3.65   -0.09   -3.62  -18.72  -93.91
   4.755  -18.82  -91.53   -0.09   -3.95   -0.09   -3.91  -18.89  -95.20
   4.820  -19.02  -91.81   -0.09   -4.23   -0.09   -4.20  -19.01  -95.78
   4.885  -19.22  -91.99   -0.09   -4.54   -0.09   -4.51  -19.15  -95.71
   4.950  -19.42  -92.12   -0.08   -4.82   -0.08   -4.80  -19.37  -95.53
   5.015  -19.61  -92.29   -0.08   -5.11   -0.08   -5.08  -19.66  -95.75
   5.080  -19.81  -92.45   -0.08   -5.40   -0.08   -5.37  -19.92  -96.60
   5.145  -20.00  -92.57   -0.08   -5.67   -0.08   -5.64  -20.08  -97.54
   5.210  -20.20  -92.71   -0.08   -5.96   -0.08   -5.93  -20.19  -98.00
   5.275  -20.40  -92.86   -0.08   -6.25   -0.08   -6.22  -20.33  -97.78
   5.340  -20.60  -92.99   -0.08   -6.52   -0.08   -6.49  -20.57  -97.56
   5.405  -20.81  -93.10   -0.08   -6.80   -0.07   -6.77  -20.88  -97.90
   5.470  -21.01  -93.27   -0.08   -7.07   -0.07   -7.03  -21.16  -98.97
   5.535  -21.21  -93.44   -0.08   -7.34   -0.08   -7.30  -21.31 -100.07
   5.600  -21.42  -93.76   -0.08   -7.61   -0.08   -7.57  -21.43 -100.51
   5.665  -21.66  -94.29   -0.08   -7.86   -0.08   -7.83  -21.63 -100.48
   5.730  -21.98  -94.62   -0.08   -8.07   -0.08   -8.04  -21.99 -100.24
   5.795  -22.34  -94.21   -0.08   -8.28   -0.07   -8.25  -22.41 -100.31
   5.860  -22.58  -93.63   -0.07   -8.54   -0.07   -8.50  -22.70 -101.14
   5.925  -22.80  -93.42   -0.06   -8.81   -0.06   -8.77  -22.84 -101.96
   5.990  -23.03  -93.25   -0.06   -9.09   -0.06   -9.05  -22.95 -102.18
   6.055  -23.28  -93.07   -0.06   -9.36   -0.06   -9.32  -23.16 -101.73
   6.120  -23.54  -92.93   -0.05   -9.63   -0.05   -9.58  -23.53 -101.34
   6.185  -23.79  -92.77   -0.06   -9.88   -0.05   -9.84  -23.95 -101.82
   6.250  -24.03  -92.65   -0.05  -10.14   -0.05  -10.10  -24.27 -103.07
   6.315  -24.30  -92.66   -0.05  -10.39   -0.05  -10.36  -24.43 -104.09
   6.380  -24.59  -92.73   -0.05  -10.65   -0.05  -10.61  -24.56 -104.25
   6.445  -24.90  -92.77   -0.05  -10.89   -0.05  -10.85  -24.83 -103.63
   6.510  -25.23  -92.68   -0.05  -11.14   -0.05  -11.10  -25.30 -103.36
   6.575  -25.59  -92.61   -0.05  -11.38   -0.05  -11.34  -25.84 -104.31
   6.640  -25.95  -92.46   -0.05  -11.62   -0.05  -11.58  -26.24 -105.90
   6.705  -26.35  -92.19   -0.05  -11.86   -0.05  -11.82  -26.49 -107.00
   6.770  -26.75  -91.84   -0.05  -12.10   -0.05  -12.06  -26.70 -106.71
   6.835  -27.17  -91.41   -0.05  -12.36   -0.04  -12.31  -27.11 -105.54
   6.900  -27.59  -90.93   -0.05  -12.60   -0.04  -12.55  -27.76 -105.12
   6.965  -28.01  -90.51   -0.05  -12.83   -0.04  -12.79  -28.42 -106.49
   7.030  -28.48  -90.06   -0.05  -13.08   -0.04  -13.03  -28.96 -108.59
   7.095  -28.99  -89.39   -0.05  -13.30   -0.04  -13.26  -29.31 -109.78
   7.160  -29.52  -88.74   -0.05  -13.54   -0.04  -13.50  -29.65 -108.96
   7.225  -30.10  -87.87   -0.05  -13.78   -0.04  -13.73  -30.30 -107.03
   7.290  -30.72  -86.76   -0.04  -14.01   -0.04  -13.97  -31.27 -106.52
   7.355  -31.36  -85.65   -0.05  -14.25   -0.04  -14.21  -32.28 -108.30
   7.420  -32.07  -84.31   -0.04  -14.49   -0.04  -14.44  -32.98 -111.05
   7.485  -32.81  -82.38   -0.04  -14.70   -0.04  -14.67  -33.48 -112.89
   7.550  -33.56  -80.01   -0.04  -14.91   -0.04  -14.88  -34.09 -111.53
   7.615  -34.38  -76.79   -0.04  -15.15   -0.04  -15.12  -35.44 -108.40
   7.680  -35.21  -73.52   -0.04  -15.37   -0.04  -15.33  -37.55 -107.16
   7.745  -36.06  -70.12   -0.04  -15.60   -0.03  -15.56  -39.82 -110.42
   7.810  -36.98  -65.78   -0.04  -15.82   -0.03  -15.77  -41.79 -115.13
   7.875  -37.87  -60.31   -0.03  -16.04   -0.03  -16.01  -43.62 -115.33
   7.940  -38.66  -55.13   -0.03  -16.29   -0.02  -16.25  -46.15  -99.20
   8.005  -39.62  -50.64   -0.02  -16.59   -0.02  -16.55  -48.40  -55.18
   8.070  -41.49  -44.53   -0.03  -16.89   -0.02  -16.85  -47.77  -18.49
   8.135  -43.68  -26.91   -0.04  -17.15   -0.03  -17.10  -49.23    7.78
   8.200  -43.86   -1.33   -0.05  -17.35   -0.04  -17.31  -49.56   40.03
   8.265  -42.45   17.57   -0.05  -17.54   -0.04  -17.51  -47.42   54.21
   8.330  -44.59   43.75   -0.05  -17.75   -0.04  -17.71  -42.62    8.18
   8.395  -42.02   48.71   -0.05  -17.96   -0.04  -17.91  -40.11   20.35
   8.460  -40.31   51.13   -0.05  -18.19   -0.05  -18.15  -37.95   31.71
   8.525  -38.97   53.94   -0.06  -18.41   -0.05  -18.37  -36.57   39.91
   8.590  -38.00   56.75   -0.06  -18.61   -0.06  -18.58  -35.84   43.13
   8.655  -37.05   60.70   -0.06  -18.76   -0.06  -18.74  -35.34   41.38
   8.720  -35.89   64.64   -0.06  -18.94   -0.06  -18.91  -34.66   39.40
   8.785  -34.70   66.37   -0.06  -19.15   -0.05  -19.10  -33.69   40.84
   8.850  -33.63   67.14   -0.05  -19.37   -0.04  -19.32  -32.66   44.65
   8.915  -32.78   67.67   -0.05  -19.63   -0.04  -19.59  -31.95   48.87
   8.980  -32.01   68.59   -0.04  -19.88   -0.04  -19.84  -31.68   51.16
   9.045  -31.30   69.41   -0.05  -20.13   -0.04  -20.09  -31.35   50.67
   9.110  -30.49   69.71   -0.06  -20.35   -0.05  -20.30  -30.67   49.81
   9.175  -29.70   68.80   -0.06  -20.53   -0.06  -20.49  -29.83   49.59
   9.240  -29.13   67.88   -0.06  -20.72   -0.06  -20.69  -29.11   50.45
   9.305  -28.65   67.12   -0.06  -20.92   -0.06  -20.89  -28.71   52.61
   9.370  -28.19   66.70   -0.06  -21.13   -0.06  -21.10  -28.62   53.64
   9.435  -27.81   66.36   -0.06  -21.32   -0.06  -21.27  -28.46   53.37
   9.500  -27.42   65.74   -0.07  -21.51   -0.06  -21.49  -28.00   52.90
   9.565  -27.04   65.40   -0.06  -21.71   -0.06  -21.66  -27.41   53.09
   9.630  -26.67   64.91   -0.06  -21.90   -0.05  -21.86  -26.83   54.29
   9.695  -26.35   64.26   -0.06  -22.10   -0.05  -22.06  -26.43   55.97
   9.760  -26.12   63.78   -0.06  -22.32   -0.05  -22.29  -26.26   56.21
   9.825  -25.94   63.57   -0.06  -22.53   -0.05  -22.50  -26.09   55.06
   9.890  -25.74   63.45   -0.06  -22.74   -0.05  -22.70  -25.75   53.99
   9.955  -25.50   63.51   -0.05  -22.95   -0.05  -22.91  -25.31   53.63
  10.020  -25.25   63.58   -0.05  -23.17   -0.04  -23.14  -24.92   54.07
  10.085  -25.04   63.74   -0.05  -23.41   -0.04  -23.39  -24.75   54.79
  10.150  -24.80   63.75   -0.04  -23.67   -0.04  -23.62  -24.72   54.84
  10.215  -24.56   63.74   -0.05  -23.91   -0.04  -23.89  -24.66   54.22
  10.280  -24.35   63.57   -0.05  -24.14   -0.05  -24.10  -24.43   53.67
  10.345  -24.15   63.14   -0.06  -24.35   -0.05  -24.31  -24.08   53.73
  10.410  -23.99   62.98   -0.06  -24.56   -0.05  -24.53  -23.80   54.86
  10.475  -23.82   63.05   -0.06  -24.75   -0.06  -24.72  -23.66   55.76
  10.540  -23.66   63.14   -0.06  -24.95   -0.06  -24.92  -23.57   56.10
  10.605  -23.51   63.21   -0.06  -25.14   -0.06  -25.15  -23.42   55.62
  10.670  -23.33   63.34   -0.06  -25.35   -0.06  -25.37  -23.18   54.94
  10.735  -23.16   63.40   -0.06  -25.57   -0.05  -25.57  -22.87   54.79
  10.800  -22.95   63.32   -0.06  -25.79   -0.06  -25.80  -22.62   55.24
  10.865  -22.71   63.15   -0.06  -26.03   -0.06  -26.03  -22.48   55.35
  10.930  -22.54   62.62   -0.07  -26.25   -0.06  -26.24  -22.41   55.14
  10.995  -22.39   62.11   -0.07  -26.44   -0.06  -26.43  -22.31   54.43
  11.060  -22.27   61.42   -0.08  -26.64   -0.07  -26.63  -22.14   53.66
  11.125  -22.19   60.93   -0.07  -26.82   -0.07  -26.81  -21.93   53.35
  11.190  -22.15   60.63   -0.07  -27.01   -0.07  -27.03  -21.80   53.69
  11.255  -22.06   60.48   -0.07  -27.24   -0.06  -27.22  -21.74   53.91
  11.320  -22.00   60.48   -0.07  -27.46   -0.06  -27.48  -21.73   53.62
  11.385  -21.94   60.56   -0.07  -27.66   -0.06  -27.67  -21.66   53.10
  11.450  -21.86   60.47   -0.07  -27.88   -0.06  -27.88  -21.52   52.49
  11.515  -21.78   60.61   -0.07  -28.10   -0.06  -28.08  -21.36   52.43
  11.580  -21.72   60.75   -0.07  -28.32   -0.06  -28.30  -21.25   52.92
  11.645  -21.58   60.92   -0.06  -28.56   -0.06  -28.56  -21.24   53.27
  11.710  -21.44   61.02   -0.06  -28.77   -0.05  -28.79  -21.21   53.04
  11.775  -21.37   61.06   -0.06  -29.04   -0.05  -29.04  -21.13   52.47
  11.840  -21.25   61.03   -0.06  -29.30   -0.06  -29.30  -20.98   51.98
  11.905  -21.15   60.78   -0.06  -29.54   -0.06  -29.53  -20.80   52.03
  11.970  -21.04   60.75   -0.07  -29.77   -0.06  -29.78  -20.71   52.42
  12.035  -20.93   60.61   -0.07  -30.01   -0.07  -30.03  -20.69   52.56
  12.100  -20.83   60.39   -0.08  -30.26   -0.07  -30.27  -20.64   52.22
  12.165  -20.73   60.46   -0.08  -30.49   -0.07  -30.50  -20.54   51.75
  12.230  -20.61   60.11   -0.08  -30.73   -0.08  -30.73  -20.35   51.30
  12.295  -20.48   59.74   -0.08  -30.96   -0.08  -30.97  -20.17   51.24
  12.360  -20.37   59.48   -0.09  -31.23   -0.08  -31.24  -20.03   51.34
  12.425  -20.24   59.05   -0.10  -31.48   -0.09  -31.49  -19.95   51.38
  12.490  -20.09   58.68   -0.10  -31.74   -0.09  -31.75  -19.87   50.86
  12.555  -19.98   58.19   -0.10  -32.04   -0.09  -32.03  -19.72   49.89
  12.620  -19.84   57.56   -0.11  -32.31   -0.11  -32.29  -19.52   49.24
  12.685  -19.69   56.82   -0.12  -32.60   -0.12  -32.59  -19.28   48.92
  12.750  -19.52   55.96   -0.13  -32.90   -0.13  -32.90  -19.09   48.58
  12.815  -19.35   54.91   -0.15  -33.19   -0.15  -33.23  -18.94   48.00
  12.880  -19.17   53.49   -0.17  -33.54   -0.17  -33.54  -18.75   46.53
  12.945  -18.98   51.69   -0.21  -33.87   -0.20  -33.91  -18.45   44.77
  13.010  -18.79   49.32   -0.25  -34.22   -0.24  -34.23  -18.10   42.79
  13.075  -18.64   45.93   -0.31  -34.54   -0.30  -34.54  -17.77   40.19
  13.140  -18.57   41.34   -0.39  -34.72   -0.39  -34.77  -17.51   36.68
  13.205  -18.72   35.56   -0.50  -34.69   -0.49  -34.72  -17.41   31.37
  13.270  -19.34   28.76   -0.60  -34.21   -0.59  -34.22  -17.61   24.36
  13.335  -20.63   23.34   -0.63  -33.36   -0.62  -33.36  -18.23   17.52
  13.400  -22.41   22.86   -0.57  -32.56   -0.56  -32.56  -19.33   13.61
  13.465  -23.99   29.37   -0.46  -32.21   -0.45  -32.23  -20.59   13.99
  13.530  -24.67   39.54   -0.35  -32.28   -0.35  -32.32  -21.60   17.80
  13.595  -24.50   48.23   -0.27  -32.57   -0.26  -32.59  -22.24   22.74
  13.660  -24.05   53.70   -0.22  -32.93   -0.21  -32.98  -22.46   26.50
  13.725  -23.54   57.06   -0.18  -33.33   -0.18  -33.34  -22.38   29.95
  13.790  -23.14   59.05   -0.16  -33.69   -0.15  -33.70  -22.20   33.16
  13.855  -22.78   60.26   -0.14  -34.04   -0.14  -34.07  -21.99   35.61
  13.920  -22.47   61.05   -0.13  -34.35   -0.13  -34.40  -21.85   37.61
  13.985  -22.15   61.60   -0.12  -34.69   -0.11  -34.70  -21.75   38.58
  14.050  -21.88   62.04   -0.11  -34.97   -0.11  -35.02  -21.60   38.98
  14.115  -21.67   61.80   -0.11  -35.34   -0.10  -35.35  -21.36   39.41
  14.180  -21.54   61.56   -0.12  -35.66   -0.11  -35.68  -21.10   40.41
  14.245  -21.48   61.97   -0.13  -35.92   -0.12  -35.95  -20.83   41.40
  14.310  -21.35   62.82   -0.14  -36.13   -0.13  -36.16  -20.65   41.96
  14.375  -21.16   63.67   -0.14  -36.31   -0.13  -36.34  -20.51   41.54
  14.440  -20.87   64.11   -0.14  -36.48   -0.13  -36.50  -20.32   40.53
  14.505  -20.59   64.26   -0.14  -36.67   -0.13  -36.70  -20.15   39.75
  14.570  -20.37   63.86   -0.13  -36.89   -0.12  -36.92  -19.99   39.19
  14.635  -20.16   63.32   -0.12  -37.10   -0.12  -37.17  -19.88   39.49
  14.700  -20.01   62.72   -0.12  -37.36   -0.11  -37.39  -19.89   39.57
  14.765  -19.84   62.33   -0.11  -37.60   -0.11  -37.65  -19.82   39.15
  14.830  -19.67   61.78   -0.11  -37.86   -0.10  -37.87  -19.72   38.61
  14.895  -19.59   61.41   -0.11  -38.10   -0.11  -38.13  -19.58   38.42
  14.960  -19.45   61.04   -0.11  -38.34   -0.11  -38.39  -19.41   38.36
  15.025  -19.32   60.72   -0.11  -38.57   -0.11  -38.61  -19.32   38.57
  15.090  -19.20   60.39   -0.12  -38.84   -0.11  -38.88  -19.30   38.66
  15.155  -19.07   60.05   -0.12  -39.07   -0.11  -39.12  -19.22   38.23
  15.220  -18.94   59.77   -0.12  -39.28   -0.11  -39.33  -19.12   37.88
  15.285  -18.81   59.34   -0.12  -39.54   -0.11  -39.59  -18.99   37.61
  15.350  -18.69   58.91   -0.12  -39.78   -0.12  -39.84  -18.83   37.70
  15.415  -18.56   58.59   -0.13  -40.02   -0.12  -40.07  -18.71   38.26
  15.480  -18.45   58.11   -0.13  -40.25   -0.13  -40.27  -18.68   38.29
  15.545  -18.32   57.63   -0.14  -40.47   -0.13  -40.54  -18.59   37.91
  15.610  -18.21   57.40   -0.14  -40.69   -0.13  -40.73  -18.49   37.73
  15.675  -18.10   57.00   -0.14  -40.92   -0.14  -40.98  -18.33   37.56
  15.740  -18.00   56.83   -0.15  -41.14   -0.14  -41.19  -18.18   37.89
  15.805  -17.89   56.44   -0.15  -41.37   -0.15  -41.43  -18.07   38.44
  15.870  -17.77   56.20   -0.16  -41.59   -0.15  -41.63  -18.00   38.40
  15.935  -17.64   55.88   -0.17  -41.78   -0.16  -41.86  -17.87   38.34
  16.000  -17.52   55.65   -0.17  -41.99   -0.16  -42.06  -17.75   38.11
  16.065  -17.40   55.35   -0.17  -42.23   -0.16  -42.29  -17.56   38.00
  16.130  -17.29   55.22   -0.18  -42.46   -0.17  -42.49  -17.34   38.40
  16.195  -17.18   55.03   -0.19  -42.64   -0.18  -42.72  -17.21   39.10
  16.260  -17.05   54.72   -0.19  -42.87   -0.18  -42.94  -17.13   38.99
  16.325  -16.91   54.63   -0.20  -43.05   -0.19  -43.11  -16.99   38.56
  16.390  -16.77   54.30   -0.21  -43.24   -0.19  -43.30  -16.80   38.10
  16.455  -16.64   54.06   -0.21  -43.42   -0.20  -43.50  -16.59   37.96
  16.520  -16.51   53.75   -0.21  -43.62   -0.20  -43.69  -16.43   38.14
  16.585  -16.39   53.47   -0.21  -43.82   -0.20  -43.90  -16.29   38.21
  16.650  -16.25   53.21   -0.22  -44.04   -0.21  -44.10  -16.16   38.13
  16.715  -16.13   52.91   -0.22  -44.22   -0.21  -44.28  -16.06   37.69
  16.780  -16.00   52.78   -0.23  -44.42   -0.22  -44.48  -15.88   37.26
  16.845  -15.88   52.48   -0.23  -44.63   -0.22  -44.68  -15.68   37.15
  16.910  -15.77   52.34   -0.24  -44.82   -0.22  -44.89  -15.53   37.21
  16.975  -15.65   52.17   -0.24  -45.03   -0.23  -45.08  -15.41   37.13
  17.040  -15.52   51.97   -0.24  -45.22   -0.23  -45.28  -15.28   36.99
  17.105  -15.38   51.83   -0.25  -45.42   -0.24  -45.46  -15.18   36.66
  17.170  -15.22   51.64   -0.26  -45.56   -0.24  -45.66  -15.00   36.12
  17.235  -15.07   51.41   -0.26  -45.74   -0.25  -45.81  -14.82   36.26
  17.300  -14.93   51.11   -0.26  -45.93   -0.25  -45.99  -14.67   36.25
  17.365  -14.78   50.81   -0.26  -46.07   -0.25  -46.18  -14.53   36.13
  17.430  -14.64   50.39   -0.25  -46.28   -0.25  -46.37  -14.42   35.88
  17.495  -14.52   49.95   -0.25  -46.48   -0.25  -46.54  -14.31   35.22
  17.560  -14.39   49.61   -0.26  -46.71   -0.24  -46.76  -14.12   34.70
  17.625  -14.28   49.14   -0.25  -46.93   -0.25  -46.98  -13.98   34.53
  17.690  -14.17   48.70   -0.25  -47.15   -0.25  -47.21  -13.87   34.24
