!  American Technical Ceramics   Date:  4/29/2005
!  One Norden Lane
!  Huntington Station,  NY.   11746-2102
!  Tel:  (631) 622-4700               Fax:  (631) 622-4748
!  Part Number  600L0R1        Mounting Orientation:  Horizontal  
!  Description: Ultra Low ESR Microwave capacitors
!  Application: Coupling, Bypass, Tuning, DC Block
!               Filters, Matching
# GHZ S DB R 50
! Freq   |S11|   S11 Ph  |S21|   S21 Ph  |S12|   S12 Ph  |S22|   S22 Ph
    0.00    0.00    0.00 -999.00   90.00  -999.00  90.00    0.00    0.00
   0.400   -0.01   -2.03  -35.17   87.74  -35.21   87.44   -0.01   -1.82
   0.499   -0.01   -2.74  -33.27   87.08  -33.29   87.30   -0.01   -1.76
   0.598   -0.01   -3.16  -31.70   86.83  -31.73   86.99   -0.01   -2.10
   0.697   -0.01   -3.70  -30.37   86.19  -30.41   86.17   -0.01   -3.01
   0.796   -0.01   -3.37  -29.16   85.77  -29.24   84.38   -0.08   -4.80
   0.895   -0.09   -4.13  -28.24   85.26  -28.19   84.47   -0.01   -4.68
   0.994   -0.01   -5.57  -27.31   84.34  -27.33   85.09   -0.05   -3.41
   1.093   -0.06   -6.09  -26.53   84.23  -26.55   84.61   -0.03   -3.65
   1.192   -0.01   -6.62  -25.73   83.59  -25.81   83.40   -0.11   -5.01
   1.291   -0.01   -5.95  -25.05   83.53  -25.11   82.30   -0.07   -6.98
   1.390   -0.03   -6.55  -24.49   82.97  -24.48   82.54   -0.04   -6.77
   1.489   -0.05   -7.62  -23.93   82.14  -23.94   82.89   -0.07   -5.99
   1.588   -0.06   -8.42  -23.37   81.79  -23.40   82.22   -0.07   -6.37
   1.687   -0.02   -9.10  -22.84   81.39  -22.87   81.36   -0.09   -7.11
   1.786   -0.01   -8.33  -22.31   81.36  -22.43   80.37   -0.16   -8.99
   1.885   -0.03   -8.48  -21.92   80.96  -21.91   80.49   -0.07   -9.10
   1.984   -0.02   -9.17  -21.47   80.15  -21.53   80.77   -0.12   -8.81
   2.083   -0.11  -10.22  -21.08   79.93  -21.10   80.27   -0.05   -8.70
   2.182   -0.02  -10.75  -20.66   79.52  -20.73   79.34   -0.11   -9.44
   2.281   -0.02  -10.60  -20.29   79.29  -20.36   78.38   -0.13  -10.87
   2.380   -0.01  -10.50  -19.93   78.69  -20.01   78.31   -0.14  -11.52
   2.479   -0.05  -11.01  -19.61   78.25  -19.63   78.65   -0.06  -11.11
   2.578   -0.05  -11.70  -19.27   77.82  -19.37   78.39   -0.09  -10.99
   2.677   -0.10  -12.54  -19.01   77.73  -19.03   77.22   -0.06  -11.66
   2.776   -0.06  -12.53  -18.71   77.14  -18.79   76.41   -0.17  -12.90
   2.875   -0.08  -12.65  -18.45   76.79  -18.48   76.08   -0.12  -13.62
   2.974   -0.03  -12.89  -18.17   76.09  -18.16   76.77   -0.10  -13.16
   3.073   -0.09  -13.16  -17.80   75.75  -17.87   76.21   -0.08  -13.92
   3.172   -0.11  -14.05  -17.55   75.61  -17.57   75.14   -0.10  -14.16
   3.271   -0.11  -14.64  -17.30   74.95  -17.36   74.29   -0.21  -15.14
   3.370   -0.10  -14.65  -17.03   74.47  -17.05   74.00   -0.18  -15.76
   3.469   -0.08  -14.88  -16.76   73.80  -16.77   74.42   -0.17  -15.74
   3.568   -0.12  -15.54  -16.44   73.49  -16.54   73.94   -0.13  -16.16
   3.667   -0.15  -16.17  -16.26   73.48  -16.27   73.16   -0.12  -16.07
   3.766   -0.19  -16.63  -16.05   72.99  -16.12   72.39   -0.25  -16.99
   3.865   -0.17  -16.96  -15.83   72.48  -15.87   72.04   -0.25  -17.62
   3.964   -0.15  -17.16  -15.58   71.92  -15.60   72.33   -0.22  -17.84
   4.063   -0.12  -17.53  -15.29   71.62  -15.33   72.16   -0.15  -17.94
   4.162   -0.15  -17.93  -15.07   71.83  -15.13   71.54   -0.17  -18.08
   4.261   -0.25  -18.57  -14.96   71.26  -15.00   70.69   -0.31  -18.81
   4.360   -0.24  -19.07  -14.73   70.67  -14.79   70.02   -0.30  -19.62
   4.459   -0.17  -19.27  -14.51   69.97  -14.48   70.17   -0.24  -19.78
   4.558   -0.13  -19.46  -14.22   69.51  -14.25   70.17   -0.18  -19.90
   4.657   -0.16  -19.81  -14.05   69.83  -14.11   69.50   -0.22  -20.08
   4.756   -0.31  -20.55  -13.96   69.36  -14.06   68.62   -0.38  -20.74
   4.855   -0.28  -21.39  -13.77   68.67  -13.81   67.62   -0.34  -21.63
   4.954   -0.22  -21.29  -13.59   68.01  -13.50   68.08   -0.26  -21.70
   5.053   -0.19  -21.52  -13.30   67.43  -13.33   68.31   -0.21  -21.80
   5.152   -0.24  -21.74  -13.16   67.65  -13.25   67.39   -0.30  -22.13
   5.251   -0.36  -22.78  -13.06   66.93  -13.20   66.14   -0.41  -23.17
   5.350   -0.31  -23.27  -12.93   66.55  -12.94   65.50   -0.39  -23.78
   5.449   -0.30  -23.19  -12.74   65.74  -12.68   66.22   -0.28  -23.72
   5.548   -0.29  -23.33  -12.54   65.59  -12.55   66.27   -0.30  -23.69
   5.647   -0.30  -24.00  -12.37   65.21  -12.51   65.12   -0.38  -24.47
   5.746   -0.35  -24.54  -12.30   64.86  -12.37   63.91   -0.47  -25.50
   5.845   -0.39  -25.37  -12.13   63.89  -12.18   63.70   -0.37  -25.72
   5.944   -0.38  -24.94  -12.00   63.89  -11.94   64.23   -0.33  -25.56
   6.043   -0.41  -25.65  -11.82   63.06  -11.86   64.12   -0.36  -25.58
   6.142   -0.31  -25.84  -11.68   63.10  -11.79   62.40   -0.51  -26.87
   6.241   -0.47  -26.38  -11.64   61.99  -11.65   61.86   -0.45  -27.88
   6.340   -0.48  -27.17  -11.46   61.61  -11.52   61.68   -0.40  -27.48
   6.439   -0.54  -27.46  -11.37   61.20  -11.40   61.98   -0.41  -27.13
   6.538   -0.43  -27.65  -11.24   60.87  -11.24   61.28   -0.44  -27.95
   6.637   -0.41  -27.77  -11.10   60.61  -11.16   60.59   -0.50  -28.77
   6.736   -0.52  -27.96  -11.07   60.14  -11.08   59.82   -0.49  -29.74
   6.835   -0.59  -29.84  -10.87   59.18  -11.02   60.05   -0.42  -28.69
   6.934   -0.50  -29.60  -10.81   59.35  -10.86   59.41   -0.50  -29.42
   7.033   -0.55  -29.89  -10.68   58.60  -10.66   59.68   -0.39  -29.52
   7.132   -0.48  -29.56  -10.58   58.93  -10.64   58.85   -0.56  -30.56
   7.231   -0.55  -30.73  -10.48   57.99  -10.58   58.17   -0.52  -31.09
   7.330   -0.57  -31.59  -10.35   57.66  -10.49   57.95   -0.53  -30.87
   7.429   -0.54  -32.44  -10.19   57.29  -10.32   58.21   -0.48  -30.52
   7.528   -0.56  -31.62  -10.13   57.20  -10.13   57.60   -0.47  -31.75
   7.627   -0.52  -32.58   -9.94   56.69  -10.09   57.34   -0.53  -31.85
   7.726   -0.53  -31.79   -9.91   56.88  -10.07   55.96   -0.71  -33.79
   7.825   -0.63  -34.24   -9.76   55.21   -9.93   56.03   -0.56  -32.75
   7.924   -0.47  -33.96   -9.60   55.42   -9.80   55.77   -0.63  -32.94
   8.023   -0.59  -34.34   -9.53   54.83   -9.59   55.86   -0.48  -33.20
   8.122   -0.46  -33.83   -9.43   55.17   -9.63   55.11   -0.73  -34.17
   8.221   -0.52  -34.18   -9.38   54.39   -9.57   53.85   -0.78  -35.62
   8.320   -0.54  -34.81   -9.30   53.79   -9.38   53.26   -0.74  -36.03
   8.419   -0.62  -36.77   -9.10   52.54   -9.12   53.38   -0.60  -35.18
   8.518   -0.56  -36.31   -9.00   52.71   -9.04   53.16   -0.66  -35.74
   8.617   -0.58  -36.79   -8.94   52.13   -9.02   52.42   -0.78  -36.72
   8.716   -0.50  -35.57   -8.85   52.19   -8.98   50.78   -0.90  -39.16
   8.815   -0.66  -36.91   -8.82   51.31   -8.84   50.97   -0.77  -38.81
   8.914   -0.58  -37.82   -8.67   50.70   -8.69   51.01   -0.75  -38.51
   9.013   -0.66  -38.63   -8.62   50.41   -8.58   51.11   -0.72  -38.02
   9.112   -0.69  -38.35   -8.57   50.18   -8.60   49.91   -0.87  -39.77
   9.211   -0.73  -38.51   -8.46   49.56   -8.51   48.85   -0.86  -40.99
   9.310   -0.75  -38.56   -8.40   49.22   -8.42   48.71   -0.87  -41.31
   9.409   -0.80  -39.88   -8.30   48.40   -8.25   48.91   -0.72  -40.58
   9.508   -0.85  -40.16   -8.25   47.99   -8.17   48.64   -0.71  -40.77
   9.607   -0.87  -40.27   -8.19   47.50   -8.16   47.62   -0.81  -42.11
   9.706   -0.81  -39.87   -8.10   47.21   -8.13   46.72   -0.87  -43.51
   9.805   -0.83  -39.85   -8.04   46.98   -8.04   46.72   -0.86  -43.67
   9.904   -0.93  -41.17   -8.02   46.12   -7.94   46.65   -0.77  -43.31
  10.003   -0.83  -42.21   -7.89   45.51   -7.81   46.43   -0.76  -43.31
  10.102   -0.83  -42.18   -7.84   45.19   -7.81   45.66   -0.89  -44.54
  10.201   -0.76  -41.98   -7.73   44.92   -7.76   44.72   -0.94  -46.13
  10.300   -0.82  -41.71   -7.70   44.99   -7.70   44.85   -0.95  -46.31
  10.399   -0.88  -42.61   -7.65   44.47   -7.58   44.93   -0.89  -45.94
  10.498   -0.84  -43.97   -7.55   43.72   -7.49   44.68   -0.92  -45.88
  10.597   -0.83  -43.98   -7.44   43.22   -7.44   43.33   -0.94  -47.63
  10.696   -0.81  -44.48   -7.32   42.88   -7.35   43.05   -0.97  -48.13
  10.795   -0.84  -43.19   -7.26   43.30   -7.36   42.99   -1.08  -49.00
  10.894   -0.95  -44.43   -7.26   42.43   -7.24   42.85   -1.01  -48.69
  10.993   -0.94  -44.52   -7.12   41.96   -7.15   42.23   -1.00  -49.60
  11.092   -0.96  -45.88   -7.05   41.30   -7.00   41.50   -0.90  -49.82
  11.191   -0.89  -45.02   -6.92   41.29   -7.03   40.99   -1.08  -51.11
  11.290   -0.97  -45.30   -6.93   40.99   -7.00   40.89   -1.16  -51.21
  11.389   -1.05  -45.48   -6.85   40.49   -6.89   40.24   -1.08  -52.13
  11.488   -1.02  -47.03   -6.78   39.76   -6.71   40.18   -1.00  -51.25
  11.587   -1.01  -46.86   -6.65   39.36   -6.74   39.35   -1.11  -52.67
  11.686   -1.01  -47.70   -6.60   38.72   -6.67   38.63   -1.15  -53.23
  11.785   -1.08  -46.86   -6.55   38.93   -6.69   38.31   -1.23  -53.83
  11.884   -1.26  -48.47   -6.64   38.29   -6.54   37.91   -1.12  -53.27
  11.983   -1.12  -49.10   -6.48   37.64   -6.41   38.04   -1.14  -53.18
  12.082   -1.16  -49.84   -6.40   36.91   -6.39   37.12   -1.19  -54.07
  12.181   -1.14  -49.32   -6.26   36.96   -6.42   36.16   -1.19  -55.39
  12.280   -1.27  -50.11   -6.29   36.83   -6.31   35.98   -1.23  -55.25
  12.379   -1.31  -50.43   -6.26   36.73   -6.19   36.15   -1.20  -54.94
  12.478   -1.31  -51.91   -6.26   35.66   -6.11   36.20   -1.30  -54.29
  12.577   -1.32  -51.55   -6.08   35.49   -6.15   35.24   -1.32  -55.90
  12.676   -1.32  -52.89   -6.00   34.73   -6.05   33.94   -1.31  -56.93
  12.775   -1.33  -52.61   -5.87   35.12   -5.92   33.68   -1.26  -56.81
  12.874   -1.41  -53.23   -6.00   34.78   -5.85   34.81   -1.40  -55.66
  12.973   -1.43  -53.56   -5.88   34.07   -5.86   34.22   -1.49  -56.56
  13.072   -1.42  -55.13   -5.80   33.00   -5.75   32.94   -1.46  -57.33
  13.171   -1.45  -55.07   -5.57   33.07   -5.73   31.89   -1.39  -58.09
  13.270   -1.45  -55.58   -5.61   33.15   -5.55   32.24   -1.44  -57.65
  13.369   -1.49  -55.42   -5.57   32.67   -5.55   32.76   -1.58  -57.57
  13.468   -1.58  -56.56   -5.62   31.75   -5.51   32.03   -1.68  -58.00
  13.567   -1.57  -57.30   -5.41   31.09   -5.42   30.77   -1.60  -59.25
  13.666   -1.51  -57.62   -5.31   30.94   -5.31   30.31   -1.57  -59.21
  13.765   -1.58  -57.61   -5.23   30.94   -5.31   30.59   -1.63  -59.17
  13.864   -1.63  -58.05   -5.29   30.66   -5.25   30.68   -1.74  -59.17
  13.963   -1.68  -58.82   -5.25   29.90   -5.18   29.94   -1.78  -59.92
  14.062   -1.62  -59.76   -5.15   29.04   -5.00   28.94   -1.75  -60.79
  14.161   -1.66  -60.04   -4.93   28.69   -4.98   28.90   -1.70  -61.28
  14.260   -1.78  -60.40   -4.91   28.57   -5.01   28.33   -1.82  -61.21
  14.359   -1.76  -60.96   -4.87   28.12   -4.90   27.91   -1.84  -61.95
  14.458   -1.79  -61.05   -4.87   27.51   -4.79   27.52   -1.93  -62.32
  14.557   -1.78  -61.44   -4.83   27.00   -4.70   26.98   -1.94  -63.04
  14.656   -1.90  -62.21   -4.72   26.44   -4.75   26.47   -2.03  -63.32
  14.755   -1.90  -62.98   -4.62   26.35   -4.74   26.03   -2.01  -63.19
  14.854   -1.94  -63.38   -4.56   25.88   -4.61   25.69   -2.02  -63.87
  14.953   -1.91  -63.35   -4.50   25.76   -4.50   25.56   -2.04  -64.12
  15.052   -1.97  -63.63   -4.47   25.03   -4.40   24.96   -2.09  -65.27
  15.151   -2.01  -64.23   -4.41   24.73   -4.43   24.37   -2.18  -65.34
  15.250   -2.09  -65.09   -4.31   24.29   -4.44   24.26   -2.18  -65.31
  15.349   -2.07  -65.24   -4.26   24.10   -4.30   23.69   -2.19  -65.85
  15.448   -2.12  -65.63   -4.21   23.43   -4.22   23.61   -2.20  -66.56
  15.547   -2.08  -65.69   -4.16   23.29   -4.12   22.77   -2.26  -67.46
  15.646   -2.23  -66.31   -4.09   22.60   -4.10   22.70   -2.25  -67.89
  15.745   -2.23  -67.25   -4.02   22.43   -4.12   21.87   -2.41  -68.08
  15.844   -2.31  -67.53   -3.95   21.83   -4.00   21.87   -2.34  -68.48
  15.943   -2.30  -67.81   -3.90   21.54   -3.93   21.29   -2.45  -69.13
  16.042   -2.36  -67.63   -3.87   20.98   -3.80   20.80   -2.40  -70.62
  16.141   -2.46  -68.10   -3.85   20.62   -3.83   20.29   -2.54  -71.07
  16.240   -2.50  -69.31   -3.76   19.91   -3.81   19.62   -2.58  -71.43
  16.339   -2.55  -69.96   -3.68   19.48   -3.75   19.41   -2.60  -71.52
  16.438   -2.55  -70.14   -3.60   18.99   -3.63   19.08   -2.59  -71.79
  16.537   -2.62  -70.12   -3.58   18.52   -3.56   18.45   -2.65  -73.14
  16.636   -2.64  -70.66   -3.54   18.16   -3.60   17.86   -2.76  -73.27
  16.735   -2.80  -71.08   -3.58   17.61   -3.56   17.03   -2.84  -74.70
  16.834   -2.83  -72.33   -3.42   16.78   -3.46   17.01   -2.76  -73.97
  16.933   -2.88  -72.21   -3.39   16.54   -3.36   16.82   -2.79  -74.73
  17.032   -2.87  -73.31   -3.24   15.90   -3.34   16.45   -2.88  -74.51
  17.131   -2.90  -72.79   -3.29   15.78   -3.36   15.19   -3.10  -76.60
  17.230   -2.98  -74.30   -3.19   14.68   -3.31   14.55   -3.12  -76.57
  17.329   -3.10  -73.98   -3.20   14.32   -3.17   14.44   -3.03  -77.02
  17.428   -3.11  -75.45   -3.07   13.66   -3.11   14.54   -3.09  -76.08
  17.527   -3.09  -74.90   -3.05   13.27   -3.11   13.22   -3.24  -77.72
  17.626   -3.13  -76.16   -2.98   12.30   -3.12   12.31   -3.39  -78.48
  17.725   -3.28  -75.81   -3.02   11.62   -3.03   11.15   -3.36  -80.00
  17.824   -3.33  -76.91   -2.94   11.07   -2.98   11.53   -3.38  -78.86
  17.923   -3.28  -76.90   -2.86   10.54   -2.95   10.71   -3.56  -79.35
  18.022   -3.41  -77.42   -2.87    9.55   -2.94    9.64   -3.64  -80.30
  18.121   -3.51  -76.05   -2.89    8.99   -2.97    8.13   -3.80  -81.68
  18.220   -3.72  -77.22   -2.99    7.47   -3.01    7.49   -3.82  -80.88
  18.319   -3.68  -76.24   -3.09    7.43   -3.13    7.58   -3.87  -79.81
  18.418   -3.48  -76.22   -3.12    7.91   -3.17    7.99   -3.80  -79.45
  18.517   -3.41  -76.56   -3.03    8.30   -3.08    7.75   -3.69  -81.40
  18.616   -3.52  -77.36   -2.97    7.72   -3.00    7.25   -3.66  -82.15
  18.715   -3.59  -78.21   -2.91    7.12   -2.95    6.73   -3.74  -82.93
  18.814   -3.69  -78.89   -2.89    6.42   -2.92    6.45   -3.82  -82.64
  18.913   -3.83  -78.92   -2.88    5.69   -2.91    5.58   -3.93  -83.32
  19.012   -3.91  -78.26   -2.92    5.26   -2.87    4.80   -3.79  -83.65
  19.111   -3.89  -78.69   -2.97    4.61   -2.95    4.33   -3.87  -83.82
  19.210   -3.84  -78.68   -2.96    4.38   -2.97    4.13   -3.89  -83.84
  19.309   -3.76  -79.33   -2.96    4.19   -2.96    4.34   -3.83  -83.48
  19.408   -3.83  -79.50   -2.90    4.08   -2.91    3.80   -3.87  -84.90
  19.507   -3.97  -80.16   -2.90    3.87   -2.81    3.54   -3.69  -85.14
  19.606   -3.92  -80.56   -2.82    3.23   -2.83    2.95   -3.87  -85.68
  19.705   -4.02  -81.15   -2.86    2.49   -2.82    2.32   -3.87  -86.16
  19.804   -3.95  -80.97   -2.81    2.03   -2.85    2.23   -4.03  -86.12
  19.903   -4.08  -80.87   -2.87    1.87   -2.81    1.55   -3.86  -86.92
  20.002   -4.02  -81.57   -2.83    1.46   -2.76    1.36   -3.81  -86.81
  20.101   -4.01  -81.58   -2.83    1.27   -2.76    1.10   -3.84  -87.29
  20.200   -3.91  -82.26   -2.77    0.76   -2.81    0.73   -4.01  -88.15
  20.299   -3.94  -82.15   -2.75    0.57   -2.77    0.42   -3.95  -88.60
  20.398   -3.99  -83.32   -2.76    0.00   -2.73   -0.20   -3.94  -88.99
  20.497   -4.05  -83.59   -2.74   -0.19   -2.65   -0.29   -3.83  -89.04
  20.596   -3.97  -84.02   -2.69   -0.47   -2.67   -0.30   -3.94  -89.39
  20.695   -3.95  -83.96   -2.64   -0.88   -2.70   -0.83   -4.04  -90.69
  20.794   -3.98  -84.75   -2.65   -1.15   -2.67   -1.47   -4.05  -91.44
  20.893   -4.04  -85.35   -2.61   -1.60   -2.58   -1.76   -3.97  -91.65
  20.992   -4.03  -86.21   -2.61   -1.90   -2.51   -1.84   -3.98  -91.34
  21.091   -4.00  -86.73   -2.55   -2.39   -2.55   -2.03   -4.12  -92.18
  21.190   -4.09  -86.21   -2.53   -2.38   -2.63   -2.65   -4.15  -93.41
  21.289   -4.14  -87.89   -2.52   -2.93   -2.53   -3.06   -4.18  -93.73
  21.388   -4.16  -88.06   -2.49   -2.93   -2.43   -3.08   -4.13  -93.38
  21.487   -4.16  -89.30   -2.51   -3.55   -2.41   -3.02   -4.29  -93.41
  21.586   -4.27  -88.75   -2.41   -3.54   -2.49   -3.77   -4.33  -94.90
  21.685   -4.39  -90.07   -2.39   -3.91   -2.43   -4.12   -4.37  -95.24
  21.784   -4.37  -90.23   -2.33   -4.08   -2.35   -4.45   -4.40  -95.27
  21.883   -4.39  -91.35   -2.32   -4.49   -2.28   -4.24   -4.50  -95.15
  21.982   -4.50  -91.28   -2.28   -4.53   -2.30   -4.50   -4.55  -95.51
  22.081   -4.62  -92.54   -2.25   -5.34   -2.28   -5.37   -4.64  -95.94
  22.180   -4.65  -92.62   -2.14   -5.37   -2.21   -5.91   -4.60  -96.50
  22.279   -4.68  -93.38   -2.17   -5.62   -2.14   -5.90   -4.68  -96.04
  22.378   -4.68  -93.34   -2.07   -6.03   -2.12   -6.01   -4.74  -96.60
  22.477   -4.72  -94.33   -2.10   -6.50   -2.07   -6.37   -4.83  -96.49
  22.576   -4.87  -94.95   -2.00   -7.16   -2.09   -7.36   -4.86  -97.65
  22.675   -4.86  -95.44   -1.96   -7.11   -1.97   -7.75   -4.88  -97.14
  22.774   -4.94  -95.74   -1.93   -7.51   -1.97   -7.76   -4.97  -97.55
  22.873   -4.96  -96.28   -1.94   -8.04   -1.91   -8.17   -5.07  -97.55
  22.972   -5.06  -96.83   -1.89   -8.69   -1.92   -8.70   -5.15  -98.35
  23.071   -5.11  -97.59   -1.86   -9.09   -1.85   -9.55   -5.21  -98.59
  23.170   -5.17  -97.75   -1.79   -9.51   -1.83   -9.51   -5.25  -98.81
  23.269   -5.29  -98.15   -1.78   -9.62   -1.82   -9.81   -5.37  -98.70
  23.368   -5.29  -98.69   -1.77  -10.25   -1.77  -10.41   -5.45  -99.32
  23.467   -5.35  -99.20   -1.74  -10.76   -1.71  -10.78   -5.52  -99.75
  23.566   -5.40  -99.64   -1.69  -11.15   -1.70  -11.22   -5.58 -100.01
  23.665   -5.51 -100.03   -1.65  -11.53   -1.69  -11.55   -5.64 -100.42
  23.764   -5.58 -100.37   -1.64  -11.70   -1.68  -11.93   -5.72 -100.51
  23.863   -5.60 -101.13   -1.62  -12.41   -1.61  -12.37   -5.83 -101.45
  23.962   -5.63 -101.28   -1.57  -12.68   -1.55  -12.63   -5.85 -101.79
  24.061   -5.69 -102.23   -1.52  -13.04   -1.54  -13.10   -5.92 -102.47
  24.160   -5.86 -102.59   -1.45  -13.33   -1.52  -13.32   -5.98 -102.69
  24.259   -5.99 -103.30   -1.45  -13.84   -1.49  -13.82   -6.10 -103.40
  24.358   -5.99 -103.65   -1.38  -14.21   -1.40  -14.42   -6.19 -103.90
  24.457   -6.04 -103.65   -1.39  -14.70   -1.36  -14.67   -6.30 -104.89
  24.556   -6.23 -104.50   -1.31  -15.33   -1.37  -15.21   -6.37 -105.11
  24.655   -6.23 -104.88   -1.30  -15.71   -1.34  -15.93   -6.50 -105.73
  24.754   -6.39 -105.55   -1.25  -16.20   -1.29  -16.09   -6.55 -106.17
  24.853   -6.39 -105.44   -1.23  -16.51   -1.25  -16.58   -6.66 -106.58
  24.952   -6.54 -106.03   -1.22  -17.12   -1.22  -16.95   -6.75 -107.59
  25.051   -6.58 -106.63   -1.17  -17.44   -1.21  -17.65   -6.83 -107.56
  25.150   -6.71 -107.16   -1.16  -17.94   -1.20  -18.17   -6.96 -108.78
  25.249   -6.79 -107.48   -1.14  -18.47   -1.16  -18.62   -7.04 -109.04
  25.348   -6.92 -107.84   -1.12  -18.78   -1.12  -18.81   -7.13 -109.67
  25.447   -7.03 -108.06   -1.10  -19.20   -1.11  -18.74   -7.23 -109.73
  25.546   -7.17 -108.76   -1.08  -19.84   -1.09  -19.26   -7.25 -110.77
  25.645   -7.29 -110.13   -1.03  -20.20   -1.11  -20.07   -7.44 -110.83
  25.744   -7.30 -109.95   -1.02  -20.78   -1.04  -20.72   -7.44 -112.16
  25.843   -7.38 -110.71   -0.99  -21.30   -1.00  -21.30   -7.51 -112.98
  25.942   -7.53 -111.07   -1.01  -21.78   -1.01  -21.72   -7.56 -114.00
  26.041   -7.57 -112.28   -0.97  -22.28   -1.01  -22.71   -7.71 -115.10
  26.140   -7.67 -112.41   -0.99  -22.58   -1.02  -23.03   -7.85 -115.60
  26.239   -7.80 -113.07   -0.99  -23.26   -1.01  -23.28   -7.89 -116.68
  26.338   -7.95 -113.22   -0.98  -23.64   -0.96  -23.73   -7.90 -117.55
  26.437   -8.01 -115.04   -0.97  -24.33   -1.01  -23.95   -8.06 -117.49
  26.536   -8.02 -114.83   -0.95  -24.59   -0.98  -25.41   -8.23 -119.99
  26.635   -8.18 -115.82   -0.99  -24.92   -1.00  -24.98   -8.25 -119.75
