!  American Technical Ceramics   Date:  10/27/06
!  One Norden Lane
!  Huntington Station,  NY.   11746-2102
!  Tel:  (631) 622-4700               Fax:  (631) 622-4748
!  Part Number  600L3R9		Mounting Orientation:  Horizontal
!  Description: Ultra Low ESR Microwave capacitors
!  Application: Coupling, Bypass, Tuning, DC Block
!               Filters, Matching
# GHZ S DB R 50
! Freq   |S11|   S11 Ph  |S21|   S21 Ph  |S12|   S12 Ph  |S22|   S22 Ph
    0.00    0.00    0.00 -999.00   90.00 -999.00   90.00    0.00    0.00
   0.400   -2.91  -44.37   -3.22   45.05   -3.19   44.99   -2.84  -44.56
   0.465   -3.58  -48.74   -2.59   40.65   -2.55   40.59   -3.53  -49.03
   0.530   -4.26  -52.56   -2.11   36.86   -2.08   36.80   -4.19  -52.83
   0.595   -4.91  -55.85   -1.75   33.58   -1.72   33.50   -4.85  -56.15
   0.660   -5.54  -58.68   -1.47   30.72   -1.44   30.64   -5.48  -59.07
   0.725   -6.15  -61.20   -1.25   28.21   -1.22   28.13   -6.09  -61.63
   0.790   -6.73  -63.43   -1.08   26.00   -1.04   25.92   -6.67  -63.92
   0.855   -7.29  -65.36   -0.93   24.03   -0.90   23.95   -7.23  -65.94
   0.920   -7.83  -67.11   -0.82   22.26   -0.78   22.18   -7.77  -67.77
   0.985   -8.34  -68.66   -0.72   20.68   -0.68   20.59   -8.28  -69.40
   1.050   -8.85  -70.10   -0.63   19.24   -0.60   19.15   -8.78  -70.91
   1.115   -9.31  -71.42   -0.56   17.94   -0.53   17.85   -9.27  -72.32
   1.180   -9.78  -72.60   -0.50   16.74   -0.47   16.65   -9.72  -73.62
   1.245  -10.23  -73.64   -0.45   15.62   -0.42   15.53  -10.17  -74.77
   1.310  -10.66  -74.68   -0.41   14.61   -0.37   14.51  -10.60  -75.84
   1.375  -11.07  -75.59   -0.37   13.67   -0.34   13.57  -11.02  -76.88
   1.440  -11.49  -76.38   -0.33   12.77   -0.30   12.66  -11.43  -77.81
   1.505  -11.89  -77.18   -0.30   11.94   -0.27   11.83  -11.83  -78.71
   1.570  -12.27  -78.02   -0.28   11.18   -0.25   11.06  -12.20  -79.69
   1.635  -12.63  -78.58   -0.26   10.44   -0.22   10.32  -12.58  -80.44
   1.700  -13.00  -79.19   -0.23    9.73   -0.20    9.62  -12.95  -81.21
   1.765  -13.36  -79.90   -0.22    9.09   -0.19    8.97  -13.32  -81.93
   1.830  -13.73  -80.46   -0.20    8.47   -0.17    8.34  -13.68  -82.58
   1.895  -14.07  -81.00   -0.18    7.87   -0.15    7.75  -14.02  -83.30
   1.960  -14.41  -81.50   -0.17    7.29   -0.14    7.18  -14.36  -83.94
   2.025  -14.75  -81.95   -0.16    6.75   -0.13    6.63  -14.70  -84.49
   2.090  -15.07  -82.42   -0.14    6.23   -0.12    6.12  -15.01  -85.11
   2.155  -15.40  -82.75   -0.13    5.71   -0.11    5.61  -15.34  -85.62
   2.220  -15.74  -83.13   -0.12    5.22   -0.10    5.11  -15.67  -86.21
   2.285  -16.05  -83.55   -0.12    4.75   -0.09    4.65  -15.99  -86.76
   2.350  -16.38  -83.99   -0.11    4.29   -0.08    4.19  -16.30  -87.34
   2.415  -16.67  -84.23   -0.10    3.84   -0.08    3.75  -16.59  -87.79
   2.480  -16.99  -84.45   -0.10    3.42   -0.07    3.31  -16.90  -88.25
   2.545  -17.30  -84.69   -0.09    3.00   -0.07    2.89  -17.21  -88.78
   2.610  -17.59  -84.78   -0.09    2.62   -0.06    2.50  -17.49  -89.28
   2.675  -17.90  -85.10   -0.08    2.22   -0.05    2.10  -17.82  -89.87
   2.740  -18.17  -85.50   -0.08    1.84   -0.05    1.71  -18.13  -90.35
   2.805  -18.44  -85.72   -0.08    1.45   -0.05    1.32  -18.45  -90.83
   2.870  -18.72  -85.97   -0.07    1.07   -0.05    0.94  -18.77  -91.02
   2.935  -19.00  -86.35   -0.07    0.71   -0.05    0.57  -19.11  -91.16
   3.000  -19.28  -86.74   -0.08    0.21   -0.05    0.06  -19.45  -91.82
   3.065  -19.53  -87.02   -0.08   -0.11   -0.05   -0.26  -19.75  -91.83
   3.130  -19.82  -87.80   -0.07   -0.42   -0.05   -0.57  -20.04  -92.00
   3.195  -20.10  -88.43   -0.07   -0.71   -0.04   -0.87  -20.24  -92.04
   3.260  -20.42  -88.26   -0.07   -1.04   -0.04   -1.21  -20.49  -91.96
   3.325  -20.70  -88.52   -0.06   -1.35   -0.04   -1.52  -20.73  -92.73
   3.390  -20.99  -88.48   -0.06   -1.66   -0.03   -1.84  -20.97  -93.08
   3.455  -21.29  -88.82   -0.06   -1.96   -0.03   -2.12  -21.25  -93.71
   3.520  -21.53  -89.17   -0.05   -2.26   -0.03   -2.43  -21.51  -94.32
   3.585  -21.84  -89.23   -0.05   -2.55   -0.03   -2.75  -21.76  -94.62
   3.650  -22.12  -89.44   -0.05   -2.84   -0.03   -3.02  -22.04  -95.02
   3.715  -22.36  -89.45   -0.05   -3.11   -0.03   -3.30  -22.32  -95.47
   3.780  -22.72  -89.37   -0.05   -3.39   -0.03   -3.58  -22.58  -96.06
   3.845  -23.01  -89.59   -0.05   -3.66   -0.03   -3.85  -22.87  -96.89
   3.910  -23.30  -89.60   -0.05   -3.92   -0.03   -4.12  -23.21  -97.43
   3.975  -23.60  -89.99   -0.04   -4.19   -0.02   -4.38  -23.49  -97.90
   4.040  -23.78  -89.41   -0.04   -4.47   -0.02   -4.66  -23.83  -97.40
   4.105  -24.11  -89.36   -0.04   -4.73   -0.02   -4.93  -24.16  -97.72
   4.170  -24.41  -89.69   -0.04   -4.99   -0.02   -5.20  -24.44  -98.22
   4.235  -24.64  -89.72   -0.04   -5.25   -0.02   -5.46  -24.68  -98.34
   4.300  -25.02  -89.72   -0.04   -5.51   -0.02   -5.71  -24.98  -98.72
   4.365  -25.30  -90.38   -0.04   -5.76   -0.02   -5.97  -25.28  -98.83
   4.430  -25.58  -90.56   -0.04   -5.99   -0.02   -6.21  -25.54  -98.82
   4.495  -26.00  -89.64   -0.03   -6.25   -0.01   -6.46  -25.87  -98.46
   4.560  -26.32  -88.46   -0.03   -6.53   -0.01   -6.75  -26.09  -98.96
   4.625  -26.47  -88.74   -0.03   -6.82   -0.02   -7.04  -26.29 -100.44
   4.690  -26.79  -89.19   -0.04   -7.05   -0.02   -7.28  -26.65 -100.80
   4.755  -27.11  -90.02   -0.04   -7.28   -0.02   -7.50  -26.97 -101.19
   4.820  -27.41  -89.61   -0.04   -7.51   -0.02   -7.75  -27.35 -101.30
   4.885  -27.82  -89.33   -0.04   -7.75   -0.02   -7.98  -27.77 -101.56
   4.950  -28.13  -89.39   -0.04   -7.98   -0.03   -8.21  -28.09 -102.29
   5.015  -28.54  -88.67   -0.04   -8.21   -0.03   -8.45  -28.45 -102.71
   5.080  -28.98  -89.17   -0.04   -8.45   -0.03   -8.69  -28.74 -102.93
   5.145  -29.26  -89.10   -0.04   -8.68   -0.03   -8.93  -29.15 -102.92
   5.210  -29.65  -88.87   -0.04   -8.92   -0.03   -9.16  -29.53 -103.19
   5.275  -30.02  -88.70   -0.04   -9.14   -0.03   -9.39  -29.89 -103.54
   5.340  -30.45  -88.00   -0.04   -9.37   -0.03   -9.63  -30.39 -103.85
   5.405  -30.94  -88.07   -0.04   -9.60   -0.03   -9.86  -30.68 -105.50
   5.470  -31.37  -87.61   -0.04   -9.82   -0.04  -10.09  -31.01 -105.00
   5.535  -31.91  -88.41   -0.05  -10.04   -0.04  -10.31  -31.57 -105.72
   5.600  -32.22  -89.54   -0.05  -10.26   -0.04  -10.54  -31.93 -107.04
   5.665  -32.84  -88.76   -0.05  -10.47   -0.05  -10.76  -32.53 -107.17
   5.730  -33.78  -90.06   -0.05  -10.66   -0.05  -10.94  -33.21 -109.99
   5.795  -34.97  -88.79   -0.05  -10.83   -0.05  -11.11  -33.86 -111.45
   5.860  -35.94  -85.07   -0.05  -11.01   -0.05  -11.29  -34.65 -110.26
   5.925  -36.63  -81.25   -0.04  -11.23   -0.04  -11.51  -35.54 -110.15
   5.990  -37.33  -78.31   -0.04  -11.47   -0.04  -11.74  -36.43 -109.15
   6.055  -37.75  -75.16   -0.04  -11.69   -0.03  -11.97  -37.14 -109.01
   6.120  -38.29  -70.97   -0.03  -11.91   -0.03  -12.21  -38.06 -108.93
   6.185  -39.34  -66.06   -0.03  -12.15   -0.04  -12.44  -38.96 -109.57
   6.250  -40.16  -63.42   -0.03  -12.38   -0.04  -12.67  -39.71 -109.00
   6.315  -41.24  -59.93   -0.03  -12.60   -0.04  -12.90  -40.97 -108.20
   6.380  -41.95  -54.52   -0.03  -12.82   -0.04  -13.11  -42.42 -107.56
   6.445  -42.84  -46.19   -0.03  -13.03   -0.04  -13.33  -44.44 -110.58
   6.510  -43.73  -39.19   -0.03  -13.26   -0.04  -13.56  -46.20 -115.30
   6.575  -44.41  -22.99   -0.04  -13.48   -0.04  -13.79  -49.13 -115.24
   6.640  -45.12   -7.94   -0.04  -13.69   -0.04  -14.00  -53.36 -126.49
   6.705  -44.94    4.80   -0.04  -13.91   -0.04  -14.22  -61.15 -136.25
   6.770  -44.03   20.23   -0.04  -14.13   -0.05  -14.43  -56.36   76.30
   6.835  -43.25   27.32   -0.04  -14.34   -0.05  -14.65  -50.27   87.18
   6.900  -41.84   32.80   -0.04  -14.55   -0.05  -14.86  -47.84   77.93
   6.965  -40.16   41.99   -0.04  -14.77   -0.05  -15.08  -44.34   72.31
   7.030  -39.31   46.81   -0.04  -14.97   -0.05  -15.29  -42.90   73.63
   7.095  -38.37   50.71   -0.04  -15.19   -0.05  -15.51  -41.25   69.00
   7.160  -37.37   53.25   -0.04  -15.41   -0.05  -15.74  -39.32   67.70
   7.225  -36.65   54.76   -0.04  -15.62   -0.05  -15.95  -38.12   70.62
   7.290  -35.91   56.19   -0.04  -15.85   -0.06  -16.18  -37.31   69.41
   7.355  -34.97   57.44   -0.04  -16.06   -0.06  -16.40  -36.09   66.58
   7.420  -34.23   59.04   -0.04  -16.29   -0.06  -16.63  -35.24   67.04
   7.485  -33.62   61.49   -0.04  -16.51   -0.06  -16.85  -34.70   64.63
   7.550  -32.87   62.80   -0.05  -16.71   -0.06  -17.05  -33.67   64.31
   7.615  -32.37   62.36   -0.05  -16.91   -0.07  -17.25  -32.92   66.45
   7.680  -31.89   62.18   -0.04  -17.13   -0.07  -17.47  -32.49   64.96
   7.745  -31.29   61.85   -0.04  -17.35   -0.07  -17.71  -31.60   63.04
   7.810  -30.83   63.59   -0.04  -17.60   -0.07  -17.95  -31.08   63.02
   7.875  -30.49   65.47   -0.04  -17.85   -0.07  -18.21  -30.73   61.17
   7.940  -29.86   66.00   -0.05  -18.10   -0.07  -18.45  -30.09   60.43
   8.005  -29.37   67.06   -0.05  -18.36   -0.08  -18.70  -29.70   61.60
   8.070  -28.94   67.29   -0.06  -18.58   -0.09  -18.93  -29.44   61.50
   8.135  -28.38   66.31   -0.07  -18.79   -0.09  -19.15  -28.92   61.00
   8.200  -27.78   66.64   -0.07  -19.00   -0.10  -19.37  -28.38   61.80
   8.265  -27.31   66.97   -0.07  -19.22   -0.11  -19.59  -27.85   61.21
   8.330  -27.25   71.09   -0.07  -19.44   -0.11  -19.81  -27.38   53.86
   8.395  -26.92   70.44   -0.08  -19.66   -0.11  -20.03  -26.82   53.96
   8.460  -26.54   70.08   -0.08  -19.89   -0.11  -20.26  -26.52   53.84
   8.525  -26.00   69.03   -0.08  -20.13   -0.11  -20.52  -26.12   53.04
   8.590  -25.47   68.52   -0.08  -20.41   -0.11  -20.78  -25.57   52.35
   8.655  -25.18   68.11   -0.08  -20.69   -0.12  -21.06  -25.12   52.17
   8.720  -24.80   67.94   -0.09  -20.98   -0.12  -21.36  -24.69   51.20
   8.785  -24.46   68.07   -0.09  -21.30   -0.13  -21.67  -24.28   50.38
   8.850  -24.04   67.81   -0.10  -21.61   -0.14  -21.96  -24.00   50.50
   8.915  -23.39   67.19   -0.11  -21.93   -0.15  -22.29  -23.68   49.59
   8.980  -22.75   66.53   -0.13  -22.28   -0.16  -22.63  -23.17   49.05
   9.045  -22.11   65.52   -0.15  -22.64   -0.18  -23.01  -22.63   49.55
   9.110  -21.48   64.08   -0.17  -23.05   -0.21  -23.41  -22.10   48.74
   9.175  -20.96   61.47   -0.21  -23.43   -0.24  -23.81  -21.38   47.57
   9.240  -20.35   58.76   -0.25  -23.85   -0.28  -24.22  -20.81   46.17
   9.305  -19.69   55.79   -0.30  -24.30   -0.34  -24.68  -20.23   43.15
   9.370  -18.94   51.98   -0.37  -24.75   -0.41  -25.11  -19.42   40.23
   9.435  -18.21   47.55   -0.47  -25.22   -0.51  -25.59  -18.68   36.98
   9.500  -17.53   41.30   -0.61  -25.62   -0.65  -25.99  -17.85   31.05
   9.565  -16.85   32.47   -0.83  -25.70   -0.86  -26.05  -17.00   22.87
   9.630  -16.42   20.84   -1.09  -24.94   -1.13  -25.29  -16.53   11.34
   9.695  -16.59    6.19   -1.27  -22.89   -1.30  -23.23  -16.64   -3.92
   9.760  -17.68   -8.40   -1.19  -20.41   -1.23  -20.76  -17.69  -18.52
   9.825  -19.76  -19.43   -0.93  -19.01   -0.97  -19.38  -19.76  -30.06
   9.890  -22.27  -25.46   -0.68  -18.82   -0.71  -19.18  -22.22  -36.55
   9.955  -24.87  -25.81   -0.49  -19.21   -0.53  -19.55  -24.96  -36.77
  10.020  -27.28  -20.15   -0.37  -19.76   -0.41  -20.08  -27.69  -32.15
  10.085  -29.10   -8.87   -0.29  -20.32   -0.33  -20.62  -29.71  -20.96
  10.150  -30.13    5.36   -0.24  -20.84   -0.27  -21.13  -30.97   -3.75
  10.215  -30.34   19.72   -0.20  -21.32   -0.24  -21.62  -31.16   11.54
  10.280  -30.07   30.13   -0.17  -21.75   -0.21  -22.05  -30.57   24.51
  10.345  -29.61   37.46   -0.15  -22.15   -0.19  -22.45  -29.91   33.95
  10.410  -28.85   42.82   -0.14  -22.54   -0.18  -22.82  -29.15   38.84
  10.475  -28.11   47.29   -0.13  -22.87   -0.17  -23.17  -28.18   42.92
  10.540  -27.40   51.07   -0.12  -23.16   -0.14  -23.30  -27.41   45.97
  10.605  -26.76   53.00   -0.11  -23.50   -0.13  -23.63  -26.71   48.17
  10.670  -26.17   54.45   -0.11  -23.79   -0.12  -23.92  -26.13   49.52
  10.735  -25.73   55.52   -0.11  -24.08   -0.13  -24.22  -25.67   50.87
  10.800  -25.28   55.39   -0.11  -24.37   -0.12  -24.49  -25.31   50.88
  10.865  -24.87   55.85   -0.11  -24.61   -0.12  -24.75  -24.85   50.75
  10.930  -24.56   56.26   -0.11  -24.88   -0.12  -25.00  -24.46   51.49
  10.995  -24.27   56.02   -0.11  -25.11   -0.12  -25.23  -24.16   51.52
  11.060  -24.05   56.65   -0.11  -25.33   -0.12  -25.46  -23.80   51.97
  11.125  -23.88   57.24   -0.10  -25.59   -0.12  -25.70  -23.63   52.79
  11.190  -23.61   57.23   -0.10  -25.82   -0.12  -25.95  -23.43   52.18
  11.255  -23.33   58.11   -0.10  -26.05   -0.11  -26.18  -23.09   52.37
  11.320  -23.08   58.72   -0.09  -26.30   -0.11  -26.42  -22.87   52.80
  11.385  -22.80   58.59   -0.09  -26.55   -0.11  -26.66  -22.60   52.60
  11.450  -22.58   59.14   -0.09  -26.80   -0.10  -26.92  -22.33   52.86
  11.515  -22.38   59.37   -0.09  -27.06   -0.10  -27.16  -22.20   53.36
  11.580  -22.15   58.78   -0.09  -27.30   -0.10  -27.42  -22.02   52.41
  11.645  -21.93   59.19   -0.08  -27.57   -0.10  -27.67  -21.75   52.35
  11.710  -21.73   59.33   -0.09  -27.84   -0.10  -27.95  -21.57   52.43
  11.775  -21.55   59.24   -0.09  -28.08   -0.11  -28.20  -21.40   52.18
  11.840  -21.35   59.57   -0.09  -28.35   -0.11  -28.46  -21.17   52.40
  11.905  -21.17   59.67   -0.09  -28.60   -0.11  -28.73  -21.08   52.43
  11.970  -20.99   59.40   -0.09  -28.86   -0.11  -28.98  -20.91   51.75
  12.035  -20.76   59.47   -0.10  -29.12   -0.12  -29.22  -20.68   51.65
  12.100  -20.59   59.56   -0.10  -29.37   -0.12  -29.48  -20.52   51.66
  12.165  -20.40   59.35   -0.11  -29.62   -0.13  -29.72  -20.31   51.23
  12.230  -20.24   59.31   -0.11  -29.87   -0.13  -29.97  -20.15   51.20
  12.295  -20.06   59.48   -0.12  -30.12   -0.14  -30.21  -20.00   50.90
  12.360  -19.89   59.06   -0.12  -30.37   -0.14  -30.47  -19.84   50.38
  12.425  -19.73   59.16   -0.12  -30.60   -0.15  -30.73  -19.67   49.75
  12.490  -19.52   59.03   -0.13  -30.86   -0.15  -30.96  -19.46   49.44
  12.555  -19.37   58.99   -0.13  -31.12   -0.16  -31.20  -19.30   49.35
  12.620  -19.19   58.99   -0.14  -31.38   -0.16  -31.48  -19.15   48.85
  12.685  -19.01   59.04   -0.14  -31.64   -0.16  -31.75  -18.99   48.29
  12.750  -18.85   58.89   -0.14  -31.91   -0.17  -32.02  -18.85   47.86
  12.815  -18.65   58.65   -0.15  -32.20   -0.17  -32.27  -18.68   46.79
  12.880  -18.46   58.60   -0.16  -32.47   -0.18  -32.58  -18.44   46.54
  12.945  -18.27   58.48   -0.16  -32.74   -0.19  -32.84  -18.33   46.41
  13.010  -18.09   58.16   -0.17  -33.07   -0.20  -33.14  -18.18   45.39
  13.075  -17.85   58.27   -0.18  -33.36   -0.20  -33.45  -17.97   44.98
  13.140  -17.69   58.04   -0.19  -33.67   -0.21  -33.76  -17.85   44.42
  13.205  -17.51   57.44   -0.20  -33.97   -0.22  -34.05  -17.66   43.18
  13.270  -17.25   57.35   -0.21  -34.28   -0.24  -34.36  -17.37   42.80
  13.335  -17.04   57.13   -0.22  -34.61   -0.25  -34.70  -17.27   42.49
  13.400  -16.83   56.59   -0.23  -34.94   -0.26  -35.02  -17.09   41.25
  13.465  -16.58   56.18   -0.25  -35.29   -0.27  -35.36  -16.84   40.70
  13.530  -16.37   55.76   -0.26  -35.63   -0.29  -35.71  -16.71   39.90
  13.595  -16.11   54.94   -0.28  -36.02   -0.31  -36.11  -16.45   38.52
  13.660  -15.84   54.24   -0.30  -36.44   -0.33  -36.55  -16.19   38.24
  13.725  -15.59   53.22   -0.33  -36.90   -0.35  -37.00  -16.01   37.45
  13.790  -15.38   52.03   -0.36  -37.36   -0.39  -37.43  -15.70   36.25
  13.855  -15.13   51.44   -0.40  -37.76   -0.43  -37.83  -15.41   35.32
  13.920  -14.91   50.62   -0.45  -38.21   -0.48  -38.25  -15.14   33.57
  13.985  -14.63   49.42   -0.50  -38.64   -0.52  -38.70  -14.79   31.91
  14.050  -14.29   48.41   -0.55  -39.12   -0.58  -39.16  -14.46   30.67
  14.115  -13.97   46.93   -0.61  -39.64   -0.63  -39.70  -14.17   28.52
  14.180  -13.62   45.25   -0.68  -40.18   -0.71  -40.26  -13.82   26.46
  14.245  -13.24   43.45   -0.78  -40.75   -0.80  -40.84  -13.48   24.34
  14.310  -12.88   41.06   -0.89  -41.33   -0.92  -41.41  -13.08   21.48
  14.375  -12.46   38.33   -1.04  -41.86   -1.07  -41.96  -12.63   18.66
  14.440  -12.03   35.06   -1.21  -42.30   -1.25  -42.36  -12.22   14.94
  14.505  -11.60   31.00   -1.42  -42.64   -1.46  -42.67  -11.76   10.42
  14.570  -11.20   26.26   -1.68  -42.72   -1.71  -42.77  -11.38    5.54
  14.635  -10.86   20.50   -1.98  -42.43   -2.01  -42.46  -11.07   -0.79
  14.700  -10.61   13.90   -2.31  -41.46   -2.35  -41.47  -10.77   -7.59
  14.765  -10.52    6.44   -2.62  -39.55   -2.66  -39.58  -10.69  -15.09
  14.830  -10.60   -1.96   -2.84  -36.75   -2.88  -36.77  -10.77  -23.79
  14.895  -10.91  -10.49   -2.88  -33.39   -2.92  -33.42  -11.05  -32.38
  14.960  -11.52  -19.03   -2.72  -30.24   -2.75  -30.24  -11.68  -41.05
  15.025  -12.36  -27.05   -2.41  -27.90   -2.44  -27.91  -12.45  -49.36
  15.090  -13.41  -33.93   -2.04  -26.61   -2.08  -26.63  -13.47  -55.99
  15.155  -14.63  -39.81   -1.69  -26.16   -1.73  -26.12  -14.70  -62.19
  15.220  -15.94  -44.46   -1.39  -26.26   -1.44  -26.24  -15.88  -66.91
  15.285  -17.36  -47.62   -1.16  -26.75   -1.19  -26.66  -17.26  -69.70
  15.350  -18.90  -49.93   -0.97  -27.34   -1.00  -27.30  -18.71  -72.79
  15.415  -20.35  -50.89   -0.81  -27.98   -0.85  -27.95  -19.94  -73.63
  15.480  -21.96  -50.57   -0.69  -28.71   -0.72  -28.68  -21.42  -72.95
  15.545  -23.59  -49.63   -0.60  -29.40   -0.63  -29.35  -22.95  -72.77
  15.610  -25.12  -47.00   -0.52  -30.07   -0.56  -30.00  -24.21  -70.01
  15.675  -27.06  -41.64   -0.47  -30.70   -0.50  -30.60  -25.90  -66.11
  15.740  -28.80  -34.55   -0.42  -31.27   -0.46  -31.19  -27.27  -62.27
  15.805  -30.24  -24.27   -0.38  -31.79   -0.42  -31.72  -28.26  -54.55
  15.870  -31.47   -9.18   -0.35  -32.26   -0.38  -32.22  -29.58  -44.14
  15.935  -31.96    4.31   -0.33  -32.70   -0.36  -32.68  -30.31  -35.17
  16.000  -31.55   17.90   -0.30  -33.17   -0.34  -33.18  -30.52  -23.15
  16.065  -30.91   30.35   -0.29  -33.62   -0.32  -33.60  -30.76  -12.08
  16.130  -29.94   38.81   -0.27  -34.04   -0.31  -34.01  -30.33   -4.24
  16.195  -29.06   45.67   -0.26  -34.43   -0.30  -34.40  -29.63    5.16
  16.260  -28.22   50.05   -0.26  -34.78   -0.30  -34.77  -29.12   11.47
  16.325  -27.34   53.79   -0.24  -35.12   -0.29  -35.08  -28.29   16.13
  16.390  -26.57   55.65   -0.24  -35.46   -0.29  -35.41  -27.51   21.41
  16.455  -25.92   57.41   -0.23  -35.81   -0.28  -35.73  -27.09   23.50
  16.520  -25.19   58.81   -0.23  -36.12   -0.27  -36.01  -26.29   24.37
  16.585  -24.70   60.28   -0.22  -36.42   -0.26  -36.33  -25.58   27.00
  16.650  -24.23   61.19   -0.22  -36.71   -0.26  -36.62  -25.24   28.11
  16.715  -23.75   61.55   -0.22  -36.99   -0.26  -36.91  -24.54   28.50
  16.780  -23.29   61.93   -0.21  -37.29   -0.25  -37.21  -24.23   31.12
  16.845  -22.92   62.41   -0.22  -37.57   -0.25  -37.50  -24.08   30.59
  16.910  -22.48   62.39   -0.21  -37.85   -0.25  -37.78  -23.47   30.45
  16.975  -22.14   62.71   -0.21  -38.09   -0.25  -38.02  -23.15   32.44
  17.040  -21.84   63.06   -0.21  -38.35   -0.26  -38.28  -22.92   31.66
  17.105  -21.49   62.75   -0.21  -38.58   -0.26  -38.54  -22.32   32.67
  17.170  -21.13   62.89   -0.21  -38.79   -0.26  -38.73  -22.16   34.34
  17.235  -20.85   62.08   -0.21  -38.98   -0.26  -38.94  -21.90   32.79
  17.300  -20.44   61.92   -0.21  -39.22   -0.26  -39.14  -21.37   33.28
  17.365  -20.22   61.86   -0.20  -39.47   -0.25  -39.32  -21.16   33.74
  17.430  -20.08   61.37   -0.20  -39.66   -0.25  -39.58  -20.83   32.39
  17.495  -19.76   60.78   -0.19  -39.92   -0.24  -39.81  -20.42   33.41
  17.560  -19.58   60.07   -0.19  -40.15   -0.23  -40.04  -20.39   33.28
  17.625  -19.42   59.33   -0.19  -40.39   -0.23  -40.29  -20.10   31.42
