!  American Technical Ceramics   Date:  6/18/2004
!  One Norden Lane
!  Huntington Station,  NY.   11746-2102
!  Tel:  (631) 622-4700               Fax:  (631) 622-4748
!  Part Number  600L180         Mounting Orientation: Horizontal
!  Description: Ultra Low ESR Microwave capacitors
!  Application: Coupling, Bypass, Tuning, DC Block
!               Filters, Matching
# GHZ S DB R 50
! Freq   |S11|   S11 Ph  |S21|   S21 Ph  |S12|   S12 Ph  |S22|   S22 Ph
    0.00    0.00    0.00 -999.00   90.00 -999.00   90.00    0.00    0.00
   0.400  -13.49  -78.34   -0.21   11.25   -0.20   11.19  -13.45  -77.66
   0.423  -13.95  -79.06   -0.19   10.55   -0.18   10.49  -13.89  -78.31
   0.445  -14.37  -79.74   -0.17    9.93   -0.16    9.82  -14.33  -78.91
   0.468  -14.80  -80.34   -0.16    9.33   -0.15    9.26  -14.75  -79.44
   0.490  -15.21  -80.90   -0.14    8.77   -0.14    8.76  -15.16  -79.80
   0.513  -15.60  -81.35   -0.13    8.31   -0.12    8.22  -15.53  -80.23
   0.535  -15.95  -81.76   -0.12    7.81   -0.11    7.75  -15.90  -80.88
   0.558  -16.30  -82.33   -0.11    7.38   -0.10    7.31  -16.28  -81.25
   0.580  -16.66  -82.68   -0.11    7.01   -0.09    6.95  -16.61  -81.52
   0.603  -16.98  -83.01   -0.10    6.63   -0.09    6.57  -16.95  -81.92
   0.625  -17.30  -83.32   -0.09    6.27   -0.08    6.19  -17.27  -82.28
   0.648  -17.60  -83.63   -0.08    5.96   -0.08    5.89  -17.57  -82.53
   0.670  -17.92  -84.02   -0.07    5.64   -0.07    5.62  -17.88  -82.74
   0.693  -18.21  -84.27   -0.07    5.32   -0.06    5.27  -18.16  -83.00
   0.715  -18.48  -84.55   -0.07    5.03   -0.05    4.94  -18.45  -83.38
   0.738  -18.76  -84.97   -0.06    4.75   -0.05    4.68  -18.73  -83.55
   0.760  -19.05  -85.26   -0.06    4.49   -0.05    4.44  -19.00  -83.70
   0.783  -19.31  -85.36   -0.06    4.28   -0.05    4.19  -19.26  -83.92
   0.805  -19.52  -85.49   -0.05    3.99   -0.04    3.96  -19.52  -84.21
   0.828  -19.76  -86.00   -0.05    3.77   -0.04    3.73  -19.77  -84.34
   0.850  -20.05  -86.34   -0.05    3.55   -0.04    3.51  -20.01  -84.37
   0.873  -20.28  -86.23   -0.05    3.32   -0.04    3.25  -20.24  -84.79
   0.895  -20.51  -86.50   -0.05    3.12   -0.04    3.06  -20.52  -84.97
   0.918  -20.75  -86.87   -0.04    2.93   -0.04    2.88  -20.73  -84.96
   0.940  -20.98  -87.13   -0.04    2.74   -0.03    2.68  -20.94  -85.23
   0.963  -21.20  -87.27   -0.04    2.55   -0.03    2.50  -21.17  -85.47
   0.985  -21.40  -87.40   -0.04    2.39   -0.03    2.33  -21.40  -85.50
   1.008  -21.61  -87.68   -0.04    2.20   -0.03    2.13  -21.60  -85.44
   1.030  -21.83  -87.94   -0.03    2.03   -0.02    1.97  -21.80  -85.58
   1.053  -22.05  -88.01   -0.03    1.86   -0.02    1.80  -22.02  -85.91
   1.075  -22.24  -88.03   -0.03    1.69   -0.02    1.66  -22.25  -85.99
   1.098  -22.43  -88.48   -0.03    1.53   -0.02    1.49  -22.45  -85.97
   1.120  -22.64  -88.80   -0.03    1.39   -0.02    1.34  -22.63  -86.03
   1.143  -22.89  -88.86   -0.03    1.24   -0.02    1.18  -22.81  -86.28
   1.165  -23.07  -88.74   -0.03    1.08   -0.02    1.03  -23.00  -86.48
   1.188  -23.20  -89.01   -0.03    0.96   -0.02    0.88  -23.22  -86.42
   1.210  -23.39  -89.51   -0.03    0.78   -0.01    0.75  -23.41  -86.39
   1.233  -23.65  -89.68   -0.02    0.66   -0.01    0.61  -23.57  -86.31
   1.255  -23.84  -89.46   -0.02    0.49   -0.01    0.45  -23.76  -86.78
   1.278  -23.99  -89.79   -0.02    0.37   -0.01    0.32  -24.00  -86.76
   1.300  -24.19  -90.20   -0.02    0.26   -0.01    0.20  -24.17  -86.67
   1.323  -24.41  -90.26   -0.02    0.12   -0.01    0.08  -24.31  -86.92
   1.345  -24.57  -90.32   -0.02    0.01   -0.01   -0.02  -24.53  -87.00
   1.368  -24.72  -90.50   -0.02   -0.10   -0.01   -0.15  -24.71  -86.81
   1.390  -24.93  -90.86   -0.02   -0.23   -0.01   -0.27  -24.84  -86.72
   1.413  -25.14  -90.89   -0.02   -0.35   -0.01   -0.40  -25.00  -86.93
   1.435  -25.33  -90.83   -0.02   -0.48   -0.01   -0.53  -25.21  -87.12
   1.458  -25.47  -90.89   -0.02   -0.58   -0.01   -0.64  -25.44  -87.01
   1.480  -25.65  -91.40   -0.02   -0.71    0.00   -0.76  -25.60  -86.75
   1.503  -25.87  -91.64   -0.02   -0.84   -0.01   -0.89  -25.74  -86.68
   1.525  -26.07  -91.45   -0.02   -0.95    0.00   -1.01  -25.89  -87.04
   1.548  -26.17  -91.34   -0.01   -1.05   -0.01   -1.11  -26.12  -87.31
   1.570  -26.30  -92.25   -0.01   -1.14    0.00   -1.23  -26.27  -87.08
   1.593  -26.59  -92.43   -0.01   -1.28   -0.01   -1.34  -26.39  -86.67
   1.615  -26.79  -91.81   -0.01   -1.41   -0.01   -1.46  -26.57  -87.41
   1.638  -26.87  -91.96   -0.02   -1.53   -0.01   -1.56  -26.87  -87.40
   1.660  -27.06  -92.68   -0.02   -1.62   -0.01   -1.66  -27.02  -86.56
   1.683  -27.32  -92.76   -0.02   -1.70   -0.01   -1.77  -27.11  -86.71
   1.705  -27.48  -92.60   -0.02   -1.79   -0.01   -1.84  -27.35  -87.28
   1.728  -27.61  -92.97   -0.02   -1.89   -0.01   -1.93  -27.58  -86.98
   1.750  -27.82  -93.66   -0.02   -1.98    0.00   -2.04  -27.76  -86.59
   1.773  -28.05  -93.86   -0.01   -2.08    0.00   -2.12  -27.87  -86.57
   1.795  -28.28  -93.62   -0.02   -2.19    0.00   -2.21  -28.08  -86.99
   1.818  -28.45  -93.49   -0.02   -2.27   -0.01   -2.31  -28.31  -86.85
   1.840  -28.61  -93.95   -0.02   -2.38    0.00   -2.43  -28.51  -86.16
   1.863  -28.82  -94.36   -0.01   -2.46    0.00   -2.52  -28.67  -85.76
   1.885  -29.08  -94.42   -0.01   -2.57   -0.01   -2.63  -28.79  -86.14
   1.908  -29.30  -94.19   -0.01   -2.66    0.00   -2.73  -29.02  -86.41
   1.930  -29.42  -94.09   -0.01   -2.76   -0.01   -2.81  -29.29  -86.21
   1.953  -29.58  -94.81   -0.01   -2.85   -0.01   -2.91  -29.53  -85.65
   1.975  -29.88  -95.44   -0.01   -2.95   -0.01   -3.02  -29.67  -85.30
   1.998  -30.14  -95.02   -0.01   -3.04   -0.01   -3.12  -29.80  -85.58
   2.020  -30.27  -94.54   -0.01   -3.15    0.00   -3.20  -30.08  -85.79
   2.043  -30.43  -95.28   -0.01   -3.25   -0.01   -3.30  -30.35  -85.07
   2.065  -30.72  -95.94   -0.01   -3.34   -0.01   -3.41  -30.49  -84.40
   2.088  -31.02  -95.40   -0.01   -3.44   -0.01   -3.49  -30.67  -85.02
   2.110  -31.13  -95.25   -0.01   -3.55    0.00   -3.56  -31.00  -84.69
   2.133  -31.33  -96.35   -0.01   -3.60   -0.01   -3.66  -31.24  -84.06
   2.155  -31.69  -96.76   -0.02   -3.68    0.00   -3.73  -31.39  -83.97
   2.178  -31.96  -96.08   -0.01   -3.79    0.00   -3.83  -31.66  -84.46
   2.200  -32.06  -96.17   -0.01   -3.85   -0.01   -3.91  -32.01  -83.87
   2.223  -32.25  -97.03   -0.02   -3.95   -0.01   -3.97  -32.17  -82.85
   2.245  -32.60  -97.92   -0.01   -4.02    0.00   -4.08  -32.30  -82.47
   2.268  -32.96  -97.23   -0.01   -4.11   -0.01   -4.17  -32.51  -82.69
   2.290  -33.18  -96.97   -0.01   -4.19    0.00   -4.25  -32.93  -82.40
   2.313  -33.39  -97.69   -0.01   -4.27    0.00   -4.34  -33.32  -81.48
   2.335  -33.70  -98.60   -0.01   -4.37   -0.01   -4.45  -33.53  -80.55
   2.358  -34.11  -99.15   -0.01   -4.46   -0.01   -4.51  -33.71  -80.63
   2.380  -34.33  -98.87   -0.01   -4.56   -0.01   -4.62  -33.98  -81.26
   2.403  -34.58  -99.28   -0.01   -4.63    0.00   -4.69  -34.40  -80.66
   2.425  -34.91  -99.83   -0.01   -4.71   -0.01   -4.79  -34.69  -79.14
   2.448  -35.31  -99.90   -0.01   -4.81    0.00   -4.88  -34.89  -77.94
   2.470  -35.64  -99.69   -0.01   -4.91    0.00   -4.97  -35.19  -78.17
   2.493  -35.91 -100.57   -0.01   -5.00    0.00   -5.06  -35.66  -77.45
   2.515  -36.35 -102.40   -0.01   -5.09    0.00   -5.13  -36.03  -76.00
   2.538  -36.91 -102.75   -0.01   -5.18    0.00   -5.21  -36.28  -75.36
   2.560  -37.25 -102.70   -0.02   -5.25    0.00   -5.28  -36.79  -76.19
   2.583  -37.45 -102.99   -0.02   -5.33    0.00   -5.37  -37.32  -74.80
   2.605  -37.86 -105.28   -0.02   -5.39    0.00   -5.44  -37.54  -71.79
   2.628  -38.54 -106.30   -0.01   -5.47    0.00   -5.50  -37.76  -70.86
   2.650  -39.12 -106.13   -0.02   -5.55    0.00   -5.59  -38.13  -70.13
   2.673  -39.51 -106.72   -0.02   -5.61    0.00   -5.67  -38.86  -68.10
   2.695  -40.18 -109.32   -0.01   -5.73   -0.01   -5.75  -39.44  -64.38
   2.718  -41.10 -111.88   -0.02   -5.80    0.00   -5.84  -39.73  -61.52
   2.740  -41.62 -112.10   -0.02   -5.87    0.00   -5.93  -39.88  -61.09
   2.763  -42.07 -115.70   -0.01   -5.94    0.00   -6.01  -40.50  -60.44
   2.785  -42.64 -120.59   -0.01   -6.03   -0.01   -6.11  -41.07  -57.14
   2.808  -44.14 -121.84   -0.01   -6.12    0.00   -6.19  -41.38  -52.55
   2.830  -45.21 -121.45   -0.01   -6.20    0.00   -6.28  -41.53  -48.60
   2.853  -45.74 -123.80   -0.01   -6.29    0.00   -6.35  -41.80  -45.99
   2.875  -46.31 -133.14   -0.01   -6.37    0.00   -6.43  -42.31  -41.27
   2.898  -48.15 -146.08   -0.02   -6.44    0.00   -6.53  -43.13  -35.31
   2.920  -49.81 -152.70   -0.01   -6.53   -0.01   -6.61  -43.45  -29.61
   2.943  -50.12 -158.24   -0.01   -6.61    0.00   -6.68  -43.51  -25.42
   2.965  -49.68 -172.02   -0.01   -6.71    0.00   -6.77  -43.73  -20.19
   2.988  -49.26  171.14   -0.01   -6.78   -0.01   -6.84  -43.47  -14.43
   3.010  -49.77  154.46   -0.01   -6.86   -0.01   -6.91  -43.33  -10.24
   3.033  -49.86  146.58   -0.02   -6.94    0.00   -6.99  -43.25   -3.90
   3.055  -49.36  146.73   -0.01   -7.01    0.00   -7.05  -43.24    3.27
   3.078  -47.37  136.12   -0.01   -7.10    0.00   -7.15  -42.64    8.69
   3.100  -46.39  124.24   -0.02   -7.18    0.00   -7.23  -42.50   12.08
   3.123  -46.17  116.60   -0.02   -7.24    0.00   -7.32  -42.60   15.29
   3.145  -45.69  118.73   -0.01   -7.31    0.00   -7.39  -42.43   20.51
   3.168  -44.53  117.13   -0.02   -7.43    0.00   -7.47  -41.91   23.92
   3.190  -43.50  110.17   -0.02   -7.48   -0.01   -7.55  -41.32   25.95
   3.213  -43.25  103.48   -0.02   -7.57   -0.01   -7.63  -40.96   28.16
   3.235  -43.09  101.68   -0.02   -7.65   -0.01   -7.72  -40.76   31.03
   3.258  -42.26  102.50   -0.02   -7.72   -0.01   -7.80  -40.19   34.98
   3.280  -41.31  100.50   -0.02   -7.81   -0.01   -7.86  -39.71   37.85
   3.303  -40.87   97.12   -0.02   -7.88   -0.01   -7.94  -39.37   39.28
   3.325  -40.74   96.97   -0.02   -7.94   -0.01   -8.00  -39.14   41.28
   3.348  -40.28   98.00   -0.02   -8.02   -0.01   -8.07  -38.78   42.43
   3.370  -39.56   97.65   -0.02   -8.08   -0.01   -8.13  -38.65   42.71
   3.393  -39.06   95.04   -0.02   -8.17   -0.01   -8.22  -38.51   44.68
   3.415  -38.76   93.69   -0.02   -8.23   -0.01   -8.29  -38.03   48.38
   3.438  -38.39   94.34   -0.02   -8.31   -0.01   -8.36  -37.40   49.64
   3.460  -37.65   94.25   -0.02   -8.39   -0.01   -8.45  -37.02   49.82
   3.483  -37.04   91.92   -0.02   -8.46   -0.01   -8.54  -36.93   51.11
   3.505  -36.87   89.96   -0.02   -8.54   -0.01   -8.65  -36.79   54.02
   3.528  -36.76   90.41   -0.02   -8.64   -0.01   -8.73  -36.31   56.15
   3.550  -36.33   91.48   -0.02   -8.72   -0.01   -8.79  -35.90   56.21
   3.573  -35.80   89.97   -0.02   -8.78   -0.01   -8.87  -35.71   55.97
   3.595  -35.53   87.43   -0.02   -8.85   -0.01   -8.95  -35.52   57.41
   3.618  -35.39   87.24   -0.02   -8.95   -0.02   -9.05  -35.17   59.30
   3.640  -35.07   88.16   -0.02   -9.04   -0.02   -9.13  -34.71   60.31
   3.663  -34.48   87.35   -0.02   -9.11   -0.01   -9.18  -34.31   60.54
   3.685  -34.29   85.64   -0.02   -9.20   -0.02   -9.29  -34.06   60.74
   3.708  -34.15   85.40   -0.02   -9.27   -0.02   -9.37  -33.92   61.00
   3.730  -33.88   85.96   -0.03   -9.36   -0.02   -9.45  -33.71   62.09
   3.753  -33.54   85.17   -0.02   -9.43   -0.02   -9.51  -33.48   62.40
   3.775  -33.31   83.89   -0.02   -9.51   -0.02   -9.61  -33.23   63.17
   3.798  -33.18   83.89   -0.02   -9.60   -0.02   -9.66  -32.94   63.91
   3.820  -32.88   84.13   -0.03   -9.69   -0.02   -9.72  -32.65   64.26
   3.843  -32.50   83.69   -0.03   -9.74   -0.02   -9.80  -32.46   64.42
   3.865  -32.29   82.30   -0.03   -9.82   -0.02   -9.89  -32.31   65.09
   3.888  -32.19   82.12   -0.03   -9.89   -0.02   -9.99  -32.05   66.14
   3.910  -31.98   82.78   -0.02   -9.97   -0.02  -10.05  -31.75   66.68
   3.933  -31.62   82.33   -0.03  -10.05   -0.02  -10.14  -31.45   66.21
   3.955  -31.36   81.47   -0.03  -10.14   -0.02  -10.22  -31.34   66.27
   3.978  -31.24   81.11   -0.03  -10.22   -0.02  -10.31  -31.21   67.19
   4.000  -31.02   81.23   -0.03  -10.29   -0.03  -10.39  -30.90   68.37
   4.023  -30.71   81.00   -0.03  -10.39   -0.03  -10.48  -30.55   68.67
   4.045  -30.43   80.21   -0.03  -10.48   -0.03  -10.56  -30.31   68.18
   4.068  -30.26   79.57   -0.03  -10.54   -0.03  -10.65  -30.22   68.16
   4.090  -30.09   79.48   -0.04  -10.64   -0.03  -10.73  -30.05   68.95
   4.113  -29.81   79.18   -0.04  -10.71   -0.04  -10.84  -29.74   69.51
   4.135  -29.54   78.30   -0.04  -10.84   -0.04  -10.89  -29.45   69.35
   4.158  -29.39   77.33   -0.04  -10.91   -0.04  -10.98  -29.21   69.22
   4.180  -29.20   77.47   -0.05  -10.98   -0.05  -11.09  -28.97   69.34
   4.203  -28.88   77.43   -0.05  -11.07   -0.05  -11.17  -28.70   69.50
   4.225  -28.55   76.26   -0.05  -11.17   -0.05  -11.26  -28.45   69.13
   4.248  -28.39   75.03   -0.06  -11.26   -0.06  -11.34  -28.21   68.73
   4.270  -28.24   74.42   -0.06  -11.36   -0.06  -11.45  -27.93   68.39
   4.293  -27.94   74.22   -0.07  -11.47   -0.06  -11.55  -27.68   67.86
   4.315  -27.56   72.85   -0.07  -11.57   -0.07  -11.64  -27.41   66.61
   4.338  -27.32   71.02   -0.07  -11.67   -0.07  -11.74  -27.18   65.78
   4.360  -27.14   69.53   -0.09  -11.77   -0.08  -11.85  -26.96   65.12
   4.383  -26.85   68.30   -0.10  -11.85   -0.10  -11.95  -26.66   64.13
   4.405  -26.54   65.82   -0.11  -11.97   -0.11  -12.06  -26.35   62.19
   4.428  -26.37   62.44   -0.13  -12.04   -0.13  -12.13  -26.16   59.59
   4.450  -26.34   59.11   -0.15  -12.12   -0.16  -12.20  -26.08   56.54
   4.473  -26.33   55.63   -0.18  -12.09   -0.18  -12.17  -26.10   53.51
   4.495  -26.47   51.44   -0.21  -12.02   -0.21  -12.10  -26.19   50.30
   4.518  -26.91   46.87   -0.22  -11.86   -0.22  -11.92  -26.44   46.91
   4.540  -27.70   44.11   -0.23  -11.67   -0.23  -11.76  -27.02   43.90
   4.563  -28.58   44.72   -0.21  -11.53   -0.22  -11.62  -27.82   43.18
   4.585  -29.21   47.03   -0.19  -11.42   -0.19  -11.51  -28.57   45.16
   4.608  -29.67   49.52   -0.17  -11.40   -0.18  -11.49  -29.01   48.81
   4.630  -30.10   53.93   -0.15  -11.43   -0.15  -11.52  -29.22   52.49
   4.653  -30.15   59.11   -0.13  -11.46   -0.13  -11.55  -29.20   55.49
   4.675  -29.81   62.58   -0.11  -11.54   -0.12  -11.65  -29.16   58.01
   4.698  -29.43   63.90   -0.10  -11.64   -0.10  -11.74  -29.05   60.39
   4.720  -29.29   65.01   -0.08  -11.77   -0.09  -11.83  -28.90   62.36
   4.743  -29.11   66.97   -0.07  -11.87   -0.08  -11.95  -28.72   64.21
   4.765  -28.78   68.30   -0.07  -11.98   -0.08  -12.06  -28.49   65.86
   4.788  -28.50   68.63   -0.07  -12.09   -0.07  -12.14  -28.29   66.83
   4.810  -28.36   68.61   -0.06  -12.21   -0.07  -12.26  -28.14   67.33
   4.833  -28.22   69.66   -0.06  -12.29   -0.07  -12.33  -28.02   68.48
   4.855  -27.93   70.50   -0.06  -12.40   -0.06  -12.46  -27.84   69.63
   4.878  -27.64   69.92   -0.05  -12.48   -0.07  -12.54  -27.57   70.41
   4.900  -27.54   69.40   -0.05  -12.57   -0.06  -12.63  -27.35   70.31
   4.923  -27.49   69.97   -0.05  -12.65   -0.06  -12.74  -27.22   70.40
   4.945  -27.20   70.97   -0.05  -12.74   -0.06  -12.81  -27.12   71.12
   4.968  -26.87   70.78   -0.05  -12.83   -0.06  -12.90  -26.99   72.00
   4.990  -26.79   69.55   -0.05  -12.93   -0.06  -12.97  -26.74   72.48
   5.013  -26.82   69.71   -0.05  -13.00   -0.06  -13.09  -26.56   72.43
   5.035  -26.69   70.67   -0.05  -13.09   -0.07  -13.16  -26.45   72.27
   5.058  -26.37   70.64   -0.05  -13.17   -0.06  -13.22  -26.37   72.42
   5.080  -26.21   69.51   -0.05  -13.26   -0.06  -13.32  -26.24   73.09
   5.103  -26.18   69.18   -0.05  -13.35   -0.06  -13.37  -26.05   73.42
   5.125  -26.07   70.03   -0.05  -13.44   -0.06  -13.48  -25.90   73.36
   5.148  -25.83   70.08   -0.05  -13.51   -0.07  -13.58  -25.78   73.29
   5.170  -25.71   69.28   -0.05  -13.60   -0.06  -13.62  -25.68   73.47
   5.193  -25.69   69.08   -0.05  -13.66   -0.06  -13.73  -25.57   73.75
   5.215  -25.58   69.75   -0.05  -13.77   -0.07  -13.82  -25.45   73.91
   5.238  -25.35   69.49   -0.05  -13.85   -0.07  -13.86  -25.32   74.15
   5.260  -25.23   68.47   -0.05  -13.91   -0.07  -13.96  -25.18   74.18
   5.283  -25.22   68.24   -0.05  -14.02   -0.07  -14.06  -25.08   73.99
   5.305  -25.13   69.07   -0.05  -14.08   -0.07  -14.13  -25.00   73.99
   5.328  -24.89   69.12   -0.05  -14.19   -0.07  -14.19  -24.93   74.44
   5.350  -24.72   68.34   -0.05  -14.27   -0.07  -14.28  -24.77   74.70
   5.373  -24.69   67.80   -0.05  -14.32   -0.08  -14.37  -24.60   74.64
   5.395  -24.65   68.09   -0.05  -14.40   -0.07  -14.44  -24.50   74.35
   5.418  -24.51   68.25   -0.05  -14.50   -0.07  -14.51  -24.43   74.29
   5.440  -24.37   67.89   -0.05  -14.58   -0.08  -14.60  -24.37   74.62
   5.463  -24.28   67.47   -0.05  -14.65   -0.08  -14.67  -24.24   74.83
   5.485  -24.19   67.45   -0.06  -14.74   -0.08  -14.73  -24.09   74.97
   5.508  -24.05   67.42   -0.06  -14.83   -0.08  -14.83  -23.97   74.74
   5.530  -23.90   67.07   -0.06  -14.90   -0.09  -14.90  -23.90   74.58
   5.553  -23.86   66.86   -0.05  -14.97   -0.08  -14.97  -23.83   74.56
   5.575  -23.80   67.08   -0.06  -15.07   -0.09  -15.04  -23.73   74.96
   5.598  -23.62   67.02   -0.06  -15.15   -0.09  -15.11  -23.59   75.07
   5.620  -23.48   66.43   -0.06  -15.24   -0.09  -15.19  -23.49   74.89
   5.643  -23.46   65.80   -0.06  -15.32   -0.09  -15.23  -23.40   74.67
   5.665  -23.43   66.00   -0.06  -15.40   -0.10  -15.33  -23.33   74.67
   5.688  -23.27   66.47   -0.06  -15.50   -0.09  -15.41  -23.26   74.69
   5.710  -23.07   66.11   -0.07  -15.58   -0.10  -15.49  -23.13   74.76
   5.733  -23.01   65.23   -0.07  -15.67   -0.10  -15.57  -23.01   74.84
   5.755  -22.99   65.00   -0.07  -15.77   -0.10  -15.68  -22.88   74.48
   5.778  -22.86   65.57   -0.07  -15.83   -0.10  -15.73  -22.82   74.48
   5.800  -22.70   65.12   -0.07  -15.90   -0.10  -15.81  -22.77   74.65
   5.823  -22.66   64.69   -0.07  -15.99   -0.10  -15.85  -22.67   75.00
   5.845  -22.62   64.83   -0.07  -16.12   -0.10  -15.96  -22.55   74.95
   5.868  -22.42   65.03   -0.08  -16.20   -0.11  -16.04  -22.43   74.54
   5.890  -22.24   64.29   -0.08  -16.26   -0.11  -16.11  -22.35   74.15
   5.913  -22.24   63.40   -0.08  -16.39   -0.11  -16.18  -22.28   74.09
   5.935  -22.23   63.90   -0.08  -16.46   -0.11  -16.27  -22.16   74.30
   5.958  -22.03   64.50   -0.09  -16.55   -0.12  -16.35  -22.05   74.40
   5.980  -21.80   63.63   -0.09  -16.64   -0.12  -16.41  -21.92   74.41
   6.003  -21.81   62.40   -0.09  -16.72   -0.12  -16.53  -21.82   74.14
   6.025  -21.85   62.52   -0.09  -16.80   -0.12  -16.57  -21.76   74.02
   6.048  -21.69   63.51   -0.09  -16.92   -0.12  -16.70  -21.70   73.83
   6.070  -21.45   63.07   -0.10  -17.00   -0.13  -16.72  -21.59   73.75
   6.093  -21.34   62.03   -0.10  -17.08   -0.13  -16.79  -21.44   73.73
   6.115  -21.35   61.80   -0.11  -17.18   -0.13  -16.89  -21.32   73.34
   6.138  -21.21   62.08   -0.11  -17.29   -0.14  -16.96  -21.21   73.08
   6.160  -21.02   61.51   -0.11  -17.37   -0.14  -17.04  -21.12   73.16
   6.183  -20.97   60.58   -0.12  -17.46   -0.14  -17.11  -21.03   73.30
   6.205  -20.97   60.84   -0.12  -17.57   -0.14  -17.19  -20.92   73.15
   6.228  -20.80   61.38   -0.12  -17.70   -0.15  -17.30  -20.82   72.57
   6.250  -20.55   60.76   -0.13  -17.79   -0.15  -17.34  -20.72   72.06
   6.273  -20.45   59.27   -0.13  -17.88   -0.15  -17.45  -20.62   71.67
   6.295  -20.50   58.86   -0.14  -17.99   -0.15  -17.53  -20.50   71.46
   6.318  -20.41   59.43   -0.14  -18.10   -0.15  -17.66  -20.35   71.40
   6.340  -20.13   59.32   -0.15  -18.20   -0.15  -17.72  -20.19   71.25
   6.363  -19.97   57.96   -0.16  -18.30   -0.16  -17.83  -20.09   70.88
