!  American Technical Ceramics   Date:  6/18/2004
!  One Norden Lane
!  Huntington Station,  NY.   11746-2102
!  Tel:  (631) 622-4700               Fax:  (631) 622-4748
!  Part Number  600L1R0         Mounting Orientation: Horizontal
!  Description: Ultra Low ESR Microwave capacitors
!  Application: Coupling, Bypass, Tuning, DC Block
!               Filters, Matching
# GHZ S DB R 50
! Freq   |S11|   S11 Ph  |S21|   S21 Ph  |S12|   S12 Ph  |S22|   S22 Ph
    0.00    0.00    0.00 -999.00   90.00  -999.00  90.00    0.00    0.00
   0.400   -0.23  -14.46  -12.70   75.15  -12.78   75.23   -0.31  -14.30
   0.499   -0.38  -18.04  -10.93   71.75  -11.00   72.12   -0.45  -16.92
   0.598   -0.53  -21.23   -9.52   68.67   -9.58   68.89   -0.59  -20.14
   0.697   -0.70  -24.41   -8.36   65.40   -8.42   65.42   -0.77  -23.74
   0.796   -0.84  -26.85   -7.36   62.18   -7.46   61.32   -1.04  -27.87
   0.895   -1.17  -29.73   -6.61   59.47   -6.60   59.18   -1.12  -29.97
   0.994   -1.32  -33.41   -5.92   56.37   -5.95   57.40   -1.43  -31.07
   1.093   -1.60  -36.04   -5.34   54.02   -5.41   54.31   -1.68  -34.02
   1.192   -1.76  -38.74   -4.80   51.15   -4.88   50.95   -1.95  -37.56
   1.291   -1.98  -40.18   -4.31   48.96   -4.39   48.45   -2.14  -41.00
   1.390   -2.26  -42.31   -3.97   46.82   -3.97   47.11   -2.33  -42.37
   1.489   -2.55  -44.78   -3.66   44.64   -3.67   45.59   -2.62  -43.48
   1.588   -2.82  -47.14   -3.35   42.60   -3.42   42.95   -2.92  -45.94
   1.687   -3.03  -49.30   -3.07   40.59   -3.10   40.37   -3.16  -48.41
   1.786   -3.22  -50.37   -2.78   38.74   -2.84   38.59   -3.41  -51.14
   1.885   -3.49  -51.66   -2.58   37.19   -2.58   37.54   -3.58  -52.44
   1.984   -3.76  -53.41   -2.40   35.38   -2.43   36.32   -3.89  -53.60
   2.083   -4.08  -55.51   -2.22   33.94   -2.27   34.14   -4.12  -55.32
   2.182   -4.28  -57.14   -2.06   32.27   -2.09   32.15   -4.39  -57.25
   2.281   -4.52  -58.18   -1.90   30.85   -1.92   30.69   -4.63  -59.11
   2.380   -4.75  -58.96   -1.77   29.37   -1.78   29.95   -4.86  -60.53
   2.479   -5.03  -60.17   -1.66   28.13   -1.66   28.81   -5.08  -61.62
   2.578   -5.29  -61.74   -1.54   26.80   -1.59   27.23   -5.35  -63.06
   2.677   -5.53  -63.32   -1.45   25.81   -1.47   25.43   -5.57  -64.29
   2.776   -5.74  -64.07   -1.36   24.55   -1.38   24.50   -5.84  -65.79
   2.875   -5.97  -64.87   -1.28   23.40   -1.28   23.66   -6.05  -67.15
   2.974   -6.18  -65.44   -1.21   22.22   -1.19   22.92   -6.30  -68.13
   3.073   -6.49  -66.95   -1.11   21.18   -1.15   21.51   -6.51  -69.19
   3.172   -6.74  -68.56   -1.04   20.24   -1.07   19.93   -6.76  -69.96
   3.271   -6.98  -69.36   -1.00   19.18   -0.98   19.02   -7.04  -71.12
   3.370   -7.20  -69.98   -0.95   18.10   -0.92   18.32   -7.28  -72.12
   3.469   -7.45  -70.65   -0.89   17.01   -0.86   17.60   -7.56  -73.27
   3.568   -7.78  -71.87   -0.81   16.03   -0.84   16.34   -7.77  -74.40
   3.667   -7.98  -73.21   -0.76   15.31   -0.77   15.01   -8.02  -74.94
   3.766   -8.23  -73.89   -0.73   14.48   -0.72   14.34   -8.28  -75.85
   3.865   -8.45  -74.58   -0.70   13.58   -0.67   13.72   -8.52  -76.75
   3.964   -8.71  -75.10   -0.66   12.59   -0.64   12.99   -8.79  -77.98
   4.063   -8.97  -76.02   -0.60   11.67   -0.61   11.85   -9.00  -79.24
   4.162   -9.22  -77.12   -0.55   11.07   -0.57   10.88   -9.23  -79.52
   4.261   -9.46  -77.74   -0.54   10.48   -0.52   10.26   -9.51  -80.21
   4.360   -9.71  -78.36   -0.52    9.61   -0.50    9.70   -9.77  -80.80
   4.459   -9.90  -78.62   -0.50    8.76   -0.48    8.93  -10.06  -82.09
   4.558  -10.18  -79.46   -0.45    7.94   -0.45    8.08  -10.28  -83.11
   4.657  -10.44  -80.38   -0.39    7.42   -0.41    7.18  -10.46  -83.32
   4.756  -10.73  -81.02   -0.40    6.90   -0.39    6.69  -10.73  -83.75
   4.855  -10.93  -81.77   -0.38    6.13   -0.39    6.14  -11.01  -84.13
   4.954  -11.13  -81.66   -0.37    5.40   -0.35    5.38  -11.32  -85.70
   5.053  -11.44  -81.95   -0.33    4.56   -0.33    4.68  -11.49  -86.91
   5.152  -11.69  -82.90   -0.30    4.11   -0.33    3.96  -11.74  -86.98
   5.251  -11.99  -83.74   -0.30    3.56   -0.31    3.46  -11.97  -87.18
   5.350  -12.16  -84.24   -0.29    2.97   -0.30    2.93  -12.33  -87.68
   5.449  -12.42  -83.81   -0.28    2.28   -0.26    2.30  -12.55  -89.30
   5.548  -12.69  -84.36   -0.26    1.64   -0.26    1.73  -12.79  -90.02
   5.647  -12.94  -85.26   -0.22    1.07   -0.26    1.05  -13.01  -90.38
   5.746  -13.20  -85.92   -0.22    0.60   -0.25    0.49  -13.34  -90.73
   5.845  -13.53  -86.26   -0.22   -0.03   -0.23    0.08  -13.55  -91.43
   5.944  -13.74  -86.13   -0.20   -0.55   -0.20   -0.45  -13.88  -92.31
   6.043  -14.11  -86.49   -0.20   -1.19   -0.21   -0.91  -14.09  -93.03
   6.142  -14.26  -87.17   -0.17   -1.65   -0.22   -1.57  -14.50  -93.07
   6.241  -14.64  -86.96   -0.18   -2.15   -0.18   -2.01  -14.68  -94.33
   6.340  -14.96  -87.47   -0.17   -2.69   -0.15   -2.36  -14.92  -93.96
   6.439  -15.25  -87.56   -0.16   -3.17   -0.13   -2.78  -15.14  -94.75
   6.538  -15.45  -87.58   -0.16   -3.71   -0.13   -3.44  -15.56  -95.49
   6.637  -15.69  -87.97   -0.14   -4.22   -0.12   -4.06  -15.79  -96.52
   6.736  -16.01  -87.74   -0.14   -4.64   -0.10   -4.58  -16.12  -97.15
   6.835  -16.43  -88.96   -0.14   -5.21   -0.07   -4.92  -16.16  -97.02
   6.934  -16.56  -89.12   -0.12   -5.60   -0.09   -5.43  -16.69  -97.66
   7.033  -16.92  -89.16   -0.13   -6.14   -0.07   -6.06  -16.87  -99.13
   7.132  -17.16  -89.44   -0.10   -6.57   -0.08   -6.61  -17.33  -99.83
   7.231  -17.55  -90.07   -0.11   -7.08   -0.06   -7.09  -17.49 -100.44
   7.330  -17.96  -90.76   -0.11   -7.54   -0.06   -7.43  -17.88 -100.53
   7.429  -18.33  -91.12   -0.09   -7.98   -0.06   -7.80  -18.16 -100.86
   7.528  -18.59  -90.15   -0.09   -8.36   -0.06   -8.41  -18.65 -102.55
   7.627  -18.94  -90.74   -0.08   -8.87   -0.05   -8.89  -18.94 -102.66
   7.726  -19.20  -90.36   -0.07   -9.25   -0.04   -9.36  -19.41 -103.95
   7.825  -19.72  -91.28   -0.07   -9.79   -0.03   -9.73  -19.58 -103.16
   7.924  -19.96  -91.36   -0.06  -10.20   -0.03  -10.15  -20.09 -103.99
   8.023  -20.43  -91.01   -0.06  -10.65   -0.03  -10.72  -20.39 -104.74
   8.122  -20.67  -90.95   -0.04  -11.04   -0.03  -11.11  -20.88 -105.66
   8.221  -21.07  -90.58   -0.04  -11.46   -0.03  -11.58  -21.30 -106.38
   8.320  -21.45  -90.48   -0.05  -11.90   -0.02  -12.00  -21.64 -106.70
   8.419  -21.71  -92.54   -0.04  -12.47   -0.01  -12.52  -21.66 -106.19
   8.518  -22.00  -92.35   -0.03  -12.88   -0.01  -12.96  -22.06 -106.95
   8.617  -22.38  -92.40   -0.04  -13.30   -0.02  -13.37  -22.49 -107.71
   8.716  -22.63  -91.15   -0.03  -13.73   -0.03  -13.90  -22.95 -108.40
   8.815  -23.09  -92.11   -0.04  -14.15   -0.02  -14.27  -23.23 -109.03
   8.914  -23.49  -93.10   -0.04  -14.61   -0.02  -14.70  -23.64 -108.99
   9.013  -24.11  -94.49   -0.05  -14.97   -0.03  -15.09  -24.05 -110.74
   9.112  -24.70  -93.74   -0.05  -15.32   -0.04  -15.53  -24.81 -111.27
   9.211  -25.33  -92.65   -0.05  -15.68   -0.03  -15.86  -25.32 -111.26
   9.310  -25.86  -91.13   -0.05  -16.08   -0.03  -16.22  -25.83 -109.82
   9.409  -26.28  -90.83   -0.05  -16.39   -0.04  -16.57  -25.92 -111.22
   9.508  -26.70  -90.04   -0.05  -16.71   -0.02  -16.85  -26.72 -111.57
   9.607  -27.08  -90.45   -0.04  -17.07   -0.02  -17.22  -27.22 -112.48
   9.706  -27.65  -89.58   -0.02  -17.46   -0.01  -17.74  -28.13 -112.82
   9.805  -28.16  -89.39   -0.02  -17.88   -0.01  -18.05  -28.58 -112.06
   9.904  -28.79  -90.06   -0.01  -18.33   -0.01  -18.45  -29.50 -111.04
  10.003  -29.39  -90.02   -0.01  -18.72   -0.01  -18.95  -29.97 -109.74
  10.102  -30.14  -89.90   -0.01  -19.14   -0.01  -19.30  -30.82 -110.25
  10.201  -30.85  -88.78   -0.01  -19.58   -0.01  -19.78  -31.54 -108.54
  10.300  -31.74  -89.05    0.00  -19.95   -0.01  -20.16  -32.36 -110.60
  10.399  -32.87  -87.31    0.00  -20.33   -0.01  -20.53  -33.32 -107.26
  10.498  -33.85  -87.25   -0.01  -20.74   -0.01  -20.98  -34.54 -110.35
  10.597  -35.24  -84.25   -0.01  -21.16   -0.01  -21.29  -36.59 -105.24
  10.696  -36.60  -80.41   -0.01  -21.49   -0.01  -21.68  -37.91 -104.24
  10.795  -38.39  -72.85   -0.01  -21.86    0.00  -22.03  -40.23  -92.70
  10.894  -39.61  -66.55   -0.02  -22.20   -0.01  -22.45  -41.19  -84.86
  10.993  -41.36  -53.94   -0.02  -22.55    0.00  -22.76  -43.92  -64.42
  11.092  -42.09  -44.31   -0.01  -22.89   -0.01  -23.17  -43.63  -56.51
  11.191  -43.64  -20.04   -0.01  -23.24   -0.01  -23.46  -45.62  -21.94
  11.290  -43.27   -3.35    0.00  -23.63   -0.01  -23.86  -44.36   -9.17
  11.389  -42.68   15.57   -0.01  -24.04   -0.01  -24.22  -42.28   17.17
  11.488  -40.80   26.89   -0.01  -24.41   -0.01  -24.69  -39.72   22.84
  11.587  -39.41   39.58   -0.01  -24.78   -0.01  -24.98  -38.05   31.42
  11.686  -37.84   42.26   -0.01  -25.19   -0.01  -25.42  -36.33   31.45
  11.785  -36.53   50.23   -0.01  -25.59   -0.01  -25.88  -35.34   34.85
  11.884  -35.55   50.98   -0.01  -25.91   -0.01  -26.13  -33.97   35.89
  11.983  -34.25   54.47   -0.01  -26.33   -0.01  -26.59  -33.33   39.17
  12.082  -33.31   56.82   -0.01  -26.68   -0.01  -26.95  -32.17   39.64
  12.181  -32.41   58.90   -0.01  -27.08   -0.01  -27.32  -31.32   40.73
  12.280  -31.45   59.77   -0.01  -27.46   -0.01  -27.68  -30.42   42.47
  12.379  -30.61   59.73   -0.01  -27.84   -0.01  -28.11  -29.73   41.78
  12.478  -29.72   60.84   -0.01  -28.21    0.00  -28.55  -28.95   43.10
  12.577  -29.07   61.66   -0.01  -28.55   -0.01  -28.88  -28.28   42.08
  12.676  -28.55   62.37   -0.01  -28.89   -0.01  -29.20  -27.77   43.82
  12.775  -27.78   61.94   -0.01  -29.29   -0.01  -29.58  -26.98   43.33
  12.874  -27.00   62.16   -0.02  -29.72   -0.02  -29.95  -26.80   44.52
  12.973  -26.29   62.65   -0.01  -30.09   -0.01  -30.41  -25.95   43.17
  13.072  -25.82   62.52    0.00  -30.39   -0.01  -30.71  -25.70   44.50
  13.171  -25.33   61.85   -0.01  -30.75   -0.01  -31.15  -24.81   44.48
  13.270  -24.82   60.75   -0.02  -31.10   -0.01  -31.38  -24.79   45.26
  13.369  -24.20   61.07   -0.02  -31.52   -0.03  -31.83  -24.13   44.99
  13.468  -23.83   60.64   -0.01  -31.89   -0.02  -32.22  -23.98   44.53
  13.567  -23.43   60.85   -0.01  -32.23   -0.02  -32.41  -23.21   45.95
  13.666  -23.07   59.72   -0.02  -32.50    0.00  -32.84  -23.12   45.60
  13.765  -22.72   59.78   -0.03  -32.83   -0.02  -33.26  -22.57   46.33
  13.864  -22.32   58.97   -0.02  -33.35   -0.04  -33.71  -22.47   44.88
  13.963  -21.89   59.23   -0.01  -33.66   -0.02  -34.11  -22.00   46.11
  14.062  -21.53   57.95   -0.03  -34.02   -0.03  -34.22  -21.80   45.15
  14.161  -21.36   58.16   -0.03  -34.33   -0.03  -34.63  -21.33   46.09
  14.260  -21.10   56.73   -0.03  -34.74   -0.02  -35.24  -20.93   45.08
  14.359  -20.83   56.43   -0.04  -35.22   -0.03  -35.66  -20.83   46.03
  14.458  -20.44   56.13   -0.03  -35.57   -0.05  -36.03  -20.49   44.93
  14.557  -20.20   55.70   -0.05  -35.98   -0.06  -36.41  -20.40   45.65
  14.656  -20.04   55.22   -0.06  -36.27   -0.07  -36.82  -19.81   45.36
  14.755  -19.98   54.57   -0.09  -36.66   -0.08  -37.14  -19.59   46.36
  14.854  -19.75   55.35   -0.10  -36.96   -0.10  -37.44  -19.21   45.93
  14.953  -19.32   55.11   -0.11  -37.16   -0.10  -37.76  -19.08   44.89
  15.052  -19.00   55.21   -0.09  -37.50   -0.10  -38.02  -18.81   44.80
  15.151  -18.92   53.94   -0.10  -37.87   -0.10  -38.47  -18.63   43.53
  15.250  -18.85   55.21   -0.12  -38.16   -0.14  -38.81  -18.25   45.69
  15.349  -18.37   55.42   -0.13  -38.43   -0.14  -39.04  -18.10   43.72
  15.448  -18.08   55.47   -0.12  -38.71   -0.14  -39.30  -17.87   43.79
  15.547  -17.69   54.37   -0.12  -39.12   -0.12  -39.63  -17.73   42.33
  15.646  -17.63   53.90   -0.11  -39.45   -0.14  -40.12  -17.64   43.16
  15.745  -17.44   52.84   -0.11  -39.85   -0.14  -40.59  -17.47   42.41
  15.844  -17.32   52.63   -0.12  -40.19   -0.15  -41.04  -17.36   42.99
  15.943  -17.03   52.34   -0.13  -40.63   -0.17  -41.29  -17.15   42.55
  16.042  -16.89   52.63   -0.14  -40.98   -0.18  -41.44  -17.14   42.69
  16.141  -16.69   52.33   -0.14  -41.36   -0.18  -41.85  -16.89   42.40
  16.240  -16.56   51.67   -0.14  -41.63   -0.18  -42.33  -16.78   42.64
  16.339  -16.41   51.96   -0.16  -41.92   -0.21  -42.86  -16.53   42.94
  16.438  -16.19   51.49   -0.17  -42.19   -0.23  -43.07  -16.46   42.57
  16.537  -15.97   52.13   -0.17  -42.59   -0.24  -43.29  -16.23   42.81
  16.636  -15.73   51.41   -0.18  -42.94   -0.25  -43.59  -16.11   42.26
  16.735  -15.61   51.05   -0.17  -43.35   -0.24  -43.80  -15.94   42.47
  16.834  -15.52   50.36   -0.19  -43.43   -0.27  -44.18  -15.70   42.01
  16.933  -15.38   50.31   -0.19  -43.90   -0.28  -44.62  -15.65   41.85
  17.032  -15.15   49.86   -0.20  -43.97   -0.29  -44.88  -15.36   41.58
  17.131  -14.93   49.57   -0.21  -44.58   -0.29  -45.21  -15.42   41.38
  17.230  -14.72   49.32   -0.19  -44.73   -0.33  -45.45  -15.05   40.83
  17.329  -14.77   49.10   -0.20  -45.18   -0.34  -45.73  -15.07   40.85
  17.428  -14.57   48.44   -0.20  -45.38   -0.34  -45.93  -14.73   40.90
  17.527  -14.32   48.16   -0.21  -45.88   -0.30  -46.32  -14.78   40.21
  17.626  -14.13   47.97   -0.19  -46.06   -0.31  -46.80  -14.53   40.09
  17.725  -14.08   47.88   -0.20  -46.62   -0.32  -47.20  -14.55   38.32
  17.824  -14.04   46.58   -0.20  -46.84   -0.38  -47.60  -14.25   39.21
  17.923  -13.79   46.27   -0.25  -47.21   -0.39  -47.78  -14.50   38.65
  18.022  -13.75   46.50   -0.23  -47.61   -0.37  -47.99  -14.15   38.69
  18.121  -13.51   46.60   -0.25  -48.06   -0.35  -48.23  -14.18   37.38
  18.220  -13.56   45.79   -0.23  -48.32   -0.38  -48.66  -13.90   37.89
  18.319  -13.40   44.92   -0.26  -48.70   -0.38  -49.12  -13.90   36.55
  18.418  -13.33   44.68   -0.28  -48.97   -0.41  -49.36  -13.86   36.87
  18.517  -13.19   44.90   -0.28  -49.32   -0.41  -49.50  -13.77   35.45
  18.616  -13.16   44.37   -0.26  -49.69   -0.41  -49.68  -13.67   35.96
  18.715  -13.01   44.09   -0.27  -50.09   -0.41  -49.96  -13.49   35.23
  18.814  -12.99   43.04   -0.27  -50.53   -0.40  -50.47  -13.52   35.59
  18.913  -12.87   43.18   -0.28  -50.89   -0.39  -50.85  -13.29   34.62
  19.012  -12.84   42.75   -0.28  -51.36   -0.41  -51.11  -13.21   34.55
  19.111  -12.70   42.41   -0.28  -51.72   -0.40  -51.42  -13.00   34.17
  19.210  -12.56   42.07   -0.27  -52.03   -0.41  -51.81  -13.04   33.73
  19.309  -12.44   41.26   -0.27  -52.49   -0.42  -52.27  -12.80   33.62
  19.408  -12.30   41.06   -0.30  -52.91   -0.40  -52.64  -12.73   32.70
  19.507  -12.33   39.97   -0.31  -53.48   -0.44  -52.94  -12.44   32.73
  19.606  -12.05   39.68   -0.32  -53.79   -0.41  -53.51  -12.42   31.61
  19.705  -12.00   38.51   -0.33  -54.30   -0.46  -53.86  -12.25   31.19
  19.804  -11.78   38.31   -0.35  -54.61   -0.47  -54.53  -12.24   29.83
  19.903  -11.79   37.11   -0.36  -55.25   -0.48  -54.78  -11.97   29.42
  20.002  -11.62   36.29   -0.38  -55.63   -0.48  -55.14  -11.83   28.67
  20.101  -11.52   34.86   -0.40  -56.22   -0.50  -55.71  -11.73   28.03
  20.200  -11.35   34.64   -0.42  -56.67   -0.50  -56.40  -11.67   26.18
  20.299  -11.19   33.31   -0.46  -57.23   -0.54  -57.01  -11.49   25.36
  20.398  -11.10   32.11   -0.48  -57.85   -0.58  -57.46  -11.27   24.33
  20.497  -10.94   30.07   -0.55  -58.50   -0.64  -58.06  -11.09   23.31
  20.596  -10.70   28.73   -0.62  -59.13   -0.72  -58.74  -10.92   21.31
  20.695  -10.46   27.37   -0.72  -59.77   -0.80  -59.45  -10.75   18.10
  20.794  -10.30   24.43   -0.86  -60.47   -0.92  -60.11  -10.52   15.05
  20.893  -10.11   21.08   -1.04  -60.79   -1.10  -60.43  -10.44   11.48
  20.992  -10.06   16.07   -1.28  -60.84   -1.33  -60.10  -10.45    7.60
  21.091  -10.09   11.16   -1.54  -60.04   -1.61  -59.62  -10.76    1.17
  21.190  -10.66    5.61   -1.77  -58.21   -1.80  -58.20  -11.30   -5.63
  21.289  -11.59    0.25   -1.77  -55.87   -1.80  -55.65  -12.45   -9.93
  21.388  -12.89   -1.95   -1.57  -53.90   -1.59  -53.42  -13.96   -9.96
  21.487  -14.17    0.47   -1.25  -53.15   -1.32  -52.84  -15.45   -5.54
  21.586  -15.15    7.00   -1.01  -53.16   -1.06  -53.14  -16.18    1.89
  21.685  -15.64   14.02   -0.80  -53.69   -0.86  -53.61  -16.20   10.10
  21.784  -15.45   21.28   -0.64  -54.49   -0.70  -54.30  -15.95   16.54
  21.883  -14.97   26.05   -0.54  -55.39   -0.60  -55.04  -15.48   20.50
  21.982  -14.45   28.94   -0.48  -56.24   -0.54  -55.93  -14.95   22.25
  22.081  -14.05   29.82   -0.42  -57.04   -0.48  -56.68  -14.44   23.85
  22.180  -13.69   30.66   -0.41  -57.67   -0.45  -57.56  -14.04   23.71
  22.279  -13.36   30.15   -0.38  -58.44   -0.44  -58.18  -13.75   24.13
  22.378  -13.08   31.20   -0.37  -58.98   -0.44  -58.81  -13.48   22.99
  22.477  -12.82   30.61   -0.35  -59.67   -0.42  -59.33  -13.27   23.01
  22.576  -12.68   31.13   -0.34  -60.14   -0.40  -59.99  -12.98   22.13
  22.675  -12.45   30.14   -0.36  -60.85   -0.37  -60.33  -12.83   22.49
  22.774  -12.24   30.36   -0.36  -61.45   -0.40  -61.18  -12.67   20.90
  22.873  -11.93   29.66   -0.34  -62.00   -0.40  -61.64  -12.62   20.58
  22.972  -11.82   29.91   -0.34  -62.41   -0.40  -62.14  -12.43   19.43
  23.071  -11.64   28.59   -0.35  -62.92   -0.39  -62.58  -12.33   19.33
  23.170  -11.60   28.79   -0.37  -63.42   -0.41  -63.04  -12.15   18.33
  23.269  -11.46   28.08   -0.36  -63.99   -0.39  -63.79  -12.08   17.63
  23.368  -11.31   27.99   -0.36  -64.35   -0.39  -64.09  -11.98   17.04
  23.467  -11.15   28.19   -0.35  -64.90   -0.40  -64.54  -11.93   16.21
  23.566  -11.06   27.77   -0.36  -65.34   -0.39  -65.03  -11.77   15.79
  23.665  -10.97   28.06   -0.37  -65.82   -0.39  -65.58  -11.66   14.82
  23.764  -10.87   27.17   -0.37  -66.42   -0.40  -66.21  -11.52   14.41
  23.863  -10.69   27.58   -0.36  -66.87   -0.42  -66.57  -11.51   13.36
  23.962  -10.57   27.55   -0.38  -67.30   -0.42  -67.08  -11.41   12.75
  24.061  -10.52   27.21   -0.40  -67.91   -0.42  -67.51  -11.24   12.12
  24.160  -10.43   26.94   -0.42  -68.43   -0.44  -68.25  -11.14   11.47
  24.259  -10.34   26.67   -0.43  -68.99   -0.45  -68.81  -11.02   10.46
  24.358  -10.17   26.39   -0.47  -69.47   -0.47  -69.15  -11.03   10.12
  24.457  -10.07   26.83   -0.46  -69.94   -0.51  -69.58  -10.97    8.59
  24.556  -10.05   26.75   -0.49  -70.18   -0.51  -70.17  -10.79    8.40
  24.655   -9.91   26.19   -0.50  -70.83   -0.52  -70.53  -10.72    7.87
  24.754   -9.79   26.41   -0.53  -71.12   -0.55  -71.00  -10.67    7.04
  24.853   -9.65   25.82   -0.54  -71.77   -0.56  -71.41  -10.57    6.55
  24.952   -9.54   26.24   -0.54  -72.14   -0.56  -71.87  -10.49    5.29
  25.051   -9.50   24.80   -0.59  -72.53   -0.57  -72.35  -10.33    5.32
  25.150   -9.41   25.59   -0.57  -73.09   -0.61  -72.92  -10.31    3.86
  25.249   -9.34   24.88   -0.60  -73.57   -0.65  -73.73  -10.25    3.01
  25.348   -9.24   24.81   -0.63  -74.09   -0.64  -73.93  -10.20    2.30
  25.447   -9.13   24.81   -0.66  -74.45   -0.65  -73.72  -10.17    2.24
  25.546   -9.16   24.76   -0.66  -74.92   -0.67  -74.65  -10.10    0.96
  25.645   -9.07   24.06   -0.70  -75.43   -0.67  -75.53  -10.11    0.53
  25.744   -9.01   24.00   -0.69  -76.09   -0.70  -75.88  -10.07   -0.07
  25.843   -8.95   24.60   -0.73  -76.74   -0.73  -76.05  -10.09   -0.21
  25.942   -8.87   24.70   -0.73  -77.30   -0.72  -76.78   -9.99   -0.88
  26.041   -8.74   24.48   -0.79  -77.85   -0.77  -77.86  -10.01   -1.37
  26.140   -8.65   24.27   -0.81  -78.58   -0.82  -78.01   -9.99   -1.08
  26.239   -8.55   24.87   -0.84  -78.95   -0.86  -78.56  -10.01   -1.65
  26.338   -8.51   24.57   -0.89  -79.50   -0.95  -79.06   -9.95   -1.76
  26.437   -8.41   24.33   -0.94  -79.83   -0.96  -80.03   -9.91   -1.82
  26.536   -8.24   24.43   -1.03  -80.32   -1.02  -79.82   -9.92   -1.35
  26.635   -8.20   24.24   -1.08  -80.91   -1.09  -80.55   -9.87   -1.95
