!  American Technical Ceramics   Date:  10/27/06
!  One Norden Lane
!  Huntington Station,  NY.   11746-2102
!  Tel:  (631) 622-4700               Fax:  (631) 622-4748
!  Part Number  600L3R0		Mounting Orientation:  Horizontal
!  Description: Ultra Low ESR Microwave capacitors
!  Application: Coupling, Bypass, Tuning, DC Block
!               Filters, Matching
# GHZ S DB R 50
! Freq   |S11|   S11 Ph  |S21|   S21 Ph  |S12|   S12 Ph  |S22|   S22 Ph
    0.00    0.00    0.00 -999.00   90.00 -999.00   90.00    0.00    0.00
   0.400   -1.96  -37.34   -4.53   52.24   -4.50   52.17   -1.92  -37.13
   0.465   -2.47  -41.65   -3.73   47.95   -3.70   47.90   -2.43  -41.47
   0.530   -3.00  -45.53   -3.11   44.12   -3.09   44.09   -2.95  -45.31
   0.595   -3.53  -48.99   -2.63   40.69   -2.61   40.67   -3.48  -48.74
   0.660   -4.04  -52.06   -2.24   37.64   -2.22   37.60   -4.00  -51.81
   0.725   -4.56  -54.83   -1.93   34.90   -1.91   34.84   -4.51  -54.52
   0.790   -5.06  -57.31   -1.67   32.44   -1.65   32.37   -5.01  -57.00
   0.855   -5.55  -59.53   -1.46   30.23   -1.44   30.17   -5.51  -59.27
   0.920   -6.02  -61.56   -1.29   28.22   -1.27   28.17   -5.98  -61.37
   0.985   -6.49  -63.40   -1.14   26.38   -1.12   26.34   -6.44  -63.23
   1.050   -6.94  -65.09   -1.01   24.71   -0.99   24.66   -6.88  -64.91
   1.115   -7.37  -66.66   -0.91   23.20   -0.89   23.13   -7.32  -66.44
   1.180   -7.79  -68.10   -0.81   21.77   -0.79   21.71   -7.75  -67.86
   1.245   -8.21  -69.39   -0.73   20.45   -0.71   20.40   -8.17  -69.25
   1.310   -8.60  -70.62   -0.66   19.26   -0.64   19.21   -8.57  -70.58
   1.375   -8.99  -71.76   -0.60   18.13   -0.58   18.08   -8.94  -71.78
   1.440   -9.37  -72.79   -0.55   17.05   -0.53   16.99   -9.32  -72.79
   1.505   -9.74  -73.79   -0.50   16.06   -0.48   15.99   -9.69  -73.72
   1.570  -10.11  -74.75   -0.46   15.14   -0.44   15.07  -10.06  -74.73
   1.635  -10.45  -75.54   -0.42   14.26   -0.40   14.19  -10.43  -75.72
   1.700  -10.79  -76.36   -0.39   13.42   -0.37   13.36  -10.77  -76.72
   1.765  -11.13  -77.22   -0.36   12.64   -0.34   12.59  -11.09  -77.54
   1.830  -11.47  -77.94   -0.33   11.89   -0.31   11.83  -11.41  -78.19
   1.895  -11.80  -78.61   -0.30   11.18   -0.29   11.10  -11.75  -78.83
   1.960  -12.12  -79.26   -0.28   10.49   -0.26   10.42  -12.09  -79.52
   2.025  -12.44  -79.87   -0.26    9.83   -0.24    9.76  -12.43  -80.31
   2.090  -12.74  -80.47   -0.24    9.21   -0.22    9.16  -12.72  -81.15
   2.155  -13.05  -81.01   -0.23    8.60   -0.21    8.55  -13.00  -81.77
   2.220  -13.36  -81.53   -0.21    8.01   -0.19    7.95  -13.29  -82.22
   2.285  -13.66  -82.07   -0.20    7.45   -0.18    7.39  -13.60  -82.63
   2.350  -13.96  -82.60   -0.18    6.90   -0.16    6.85  -13.92  -83.21
   2.415  -14.24  -83.03   -0.17    6.38   -0.15    6.32  -14.23  -83.94
   2.480  -14.54  -83.42   -0.16    5.86   -0.14    5.82  -14.51  -84.67
   2.545  -14.83  -83.79   -0.15    5.37   -0.14    5.32  -14.75  -85.15
   2.610  -15.11  -84.09   -0.14    4.91   -0.13    4.85  -15.00  -85.51
   2.675  -15.39  -84.50   -0.13    4.45   -0.12    4.37  -15.31  -85.89
   2.740  -15.66  -84.97   -0.13    4.00   -0.11    3.92  -15.64  -86.40
   2.805  -15.92  -85.32   -0.12    3.54   -0.10    3.46  -15.95  -87.14
   2.870  -16.20  -85.66   -0.12    3.08   -0.10    3.02  -16.23  -87.74
   2.935  -16.46  -86.06   -0.11    2.66   -0.10    2.58  -16.49  -88.01
   3.000  -16.77  -86.75   -0.12    2.03   -0.10    1.95  -16.82  -88.05
   3.065  -17.01  -87.13   -0.11    1.65   -0.10    1.56  -17.14  -87.95
   3.130  -17.27  -87.86   -0.11    1.29   -0.09    1.21  -17.45  -88.13
   3.195  -17.54  -88.49   -0.10    0.94   -0.08    0.86  -17.68  -88.53
   3.260  -17.83  -88.60   -0.10    0.57   -0.08    0.48  -17.88  -88.94
   3.325  -18.10  -88.94   -0.09    0.21   -0.07    0.11  -18.05  -89.45
   3.390  -18.35  -89.11   -0.09   -0.15   -0.07   -0.25  -18.27  -89.51
   3.455  -18.63  -89.45   -0.08   -0.49   -0.07   -0.59  -18.56  -89.72
   3.520  -18.87  -89.80   -0.08   -0.84   -0.06   -0.95  -18.87  -90.33
   3.585  -19.13  -90.03   -0.08   -1.18   -0.06   -1.28  -19.12  -91.06
   3.650  -19.39  -90.31   -0.08   -1.51   -0.06   -1.61  -19.33  -91.64
   3.715  -19.62  -90.52   -0.07   -1.82   -0.06   -1.93  -19.53  -91.98
   3.780  -19.92  -90.71   -0.07   -2.14   -0.06   -2.25  -19.76  -92.08
   3.845  -20.18  -90.99   -0.07   -2.44   -0.05   -2.55  -20.07  -92.39
   3.910  -20.44  -91.16   -0.06   -2.75   -0.05   -2.87  -20.43  -93.02
   3.975  -20.71  -91.51   -0.06   -3.06   -0.05   -3.17  -20.70  -93.84
   4.040  -20.92  -91.35   -0.06   -3.37   -0.05   -3.49  -20.94  -94.01
   4.105  -21.19  -91.50   -0.06   -3.67   -0.04   -3.79  -21.15  -94.04
   4.170  -21.45  -91.81   -0.05   -3.97   -0.04   -4.09  -21.40  -93.87
   4.235  -21.69  -92.02   -0.05   -4.26   -0.04   -4.39  -21.70  -93.74
   4.300  -21.97  -92.25   -0.05   -4.55   -0.04   -4.67  -22.03  -94.23
   4.365  -22.24  -92.76   -0.05   -4.83   -0.04   -4.96  -22.27  -94.88
   4.430  -22.49  -93.04   -0.05   -5.12   -0.03   -5.23  -22.44  -95.32
   4.495  -22.85  -92.79   -0.04   -5.39   -0.03   -5.51  -22.65  -94.97
   4.560  -23.13  -92.11   -0.04   -5.71   -0.02   -5.83  -22.86  -94.64
   4.625  -23.29  -92.39   -0.04   -6.02   -0.03   -6.15  -23.15  -95.34
   4.690  -23.55  -92.84   -0.04   -6.29   -0.03   -6.42  -23.53  -96.05
   4.755  -23.83  -93.47   -0.04   -6.55   -0.03   -6.67  -23.81  -96.95
   4.820  -24.10  -93.41   -0.04   -6.80   -0.03   -6.94  -24.02  -97.37
   4.885  -24.43  -93.46   -0.04   -7.07   -0.03   -7.20  -24.26  -97.05
   4.950  -24.71  -93.65   -0.04   -7.34   -0.03   -7.47  -24.58  -96.77
   5.015  -25.04  -93.52   -0.04   -7.60   -0.03   -7.73  -24.97  -96.88
   5.080  -25.36  -93.92   -0.04   -7.87   -0.03   -7.99  -25.32  -97.56
   5.145  -25.63  -94.01   -0.04   -8.12   -0.03   -8.26  -25.61  -98.42
   5.210  -25.95  -94.09   -0.04   -8.38   -0.03   -8.51  -25.79  -98.78
   5.275  -26.24  -94.17   -0.04   -8.64   -0.03   -8.77  -26.02  -98.34
   5.340  -26.59  -94.11   -0.04   -8.88   -0.03   -9.02  -26.40  -97.75
   5.405  -26.94  -94.40   -0.04   -9.13   -0.04   -9.29  -26.83  -98.38
   5.470  -27.27  -94.40   -0.04   -9.38   -0.04   -9.54  -27.19  -99.02
   5.535  -27.64  -95.04   -0.05   -9.63   -0.04   -9.79  -27.51 -100.25
   5.600  -27.91  -95.78   -0.05   -9.87   -0.04  -10.02  -27.66 -100.95
   5.665  -28.34  -96.15   -0.05  -10.12   -0.05  -10.27  -27.96 -100.50
   5.730  -28.91  -97.41   -0.05  -10.32   -0.05  -10.48  -28.52 -100.89
   5.795  -29.65  -97.51   -0.05  -10.51   -0.05  -10.68  -29.23 -101.52
   5.860  -30.31  -96.20   -0.05  -10.71   -0.04  -10.87  -29.84 -101.79
   5.925  -30.80  -94.72   -0.04  -10.95   -0.04  -11.11  -30.26 -102.36
   5.990  -31.28  -93.79   -0.04  -11.20   -0.03  -11.37  -30.54 -101.65
   6.055  -31.68  -92.72   -0.03  -11.46   -0.03  -11.62  -30.91 -100.04
   6.120  -32.16  -91.51   -0.03  -11.70   -0.03  -11.87  -31.58  -98.28
   6.185  -32.75  -90.51   -0.03  -11.95   -0.03  -12.12  -32.28  -98.28
   6.250  -33.25  -90.08   -0.03  -12.19   -0.03  -12.36  -32.83  -99.49
   6.315  -33.85  -89.98   -0.03  -12.43   -0.03  -12.61  -33.24 -100.64
   6.380  -34.37  -89.38   -0.03  -12.67   -0.03  -12.84  -33.56 -100.18
   6.445  -35.09  -88.47   -0.03  -12.90   -0.03  -13.07  -34.18  -98.62
   6.510  -35.79  -87.95   -0.03  -13.14   -0.03  -13.32  -35.13  -97.27
   6.575  -36.80  -86.27   -0.03  -13.37   -0.03  -13.55  -36.33  -97.22
   6.640  -37.88  -85.63   -0.03  -13.61   -0.03  -13.78  -37.42 -100.04
   6.705  -38.90  -83.73   -0.03  -13.84   -0.03  -14.02  -38.12 -101.06
   6.770  -40.25  -81.28   -0.03  -14.06   -0.03  -14.25  -39.10  -98.53
   6.835  -41.49  -78.41   -0.03  -14.30   -0.04  -14.47  -40.42  -95.68
   6.900  -42.81  -71.42   -0.03  -14.52   -0.04  -14.70  -42.28  -88.94
   6.965  -45.09  -61.05   -0.03  -14.75   -0.04  -14.93  -45.41  -82.24
   7.030  -47.01  -49.42   -0.03  -14.97   -0.04  -15.16  -48.54  -84.23
   7.095  -48.60  -30.59   -0.03  -15.20   -0.04  -15.39  -50.77  -77.89
   7.160  -48.96   -6.46   -0.03  -15.43   -0.04  -15.61  -52.47  -49.54
   7.225  -47.85   13.98   -0.03  -15.65   -0.04  -15.83  -51.89   -3.03
   7.290  -46.11   28.95   -0.03  -15.88   -0.04  -16.08  -48.16   26.63
   7.355  -44.03   39.62   -0.03  -16.11   -0.04  -16.31  -44.62   42.43
   7.420  -42.33   47.17   -0.03  -16.35   -0.04  -16.55  -43.04   52.65
   7.485  -40.96   54.41   -0.03  -16.56   -0.04  -16.76  -42.36   51.99
   7.550  -39.46   58.11   -0.04  -16.77   -0.04  -16.97  -40.74   51.03
   7.615  -38.31   58.41   -0.04  -16.98   -0.04  -17.17  -38.97   53.24
   7.680  -37.38   58.96   -0.03  -17.20   -0.04  -17.39  -37.41   53.65
   7.745  -36.46   59.09   -0.03  -17.43   -0.04  -17.63  -35.89   55.50
   7.810  -35.77   62.18   -0.03  -17.67   -0.04  -17.87  -35.25   57.91
   7.875  -35.17   65.23   -0.03  -17.92   -0.04  -18.13  -35.05   56.33
   7.940  -34.25   66.51   -0.03  -18.17   -0.04  -18.37  -34.39   54.29
   8.005  -33.49   67.99   -0.04  -18.41   -0.05  -18.60  -33.64   54.71
   8.070  -32.85   68.34   -0.04  -18.62   -0.06  -18.84  -32.98   55.92
   8.135  -32.11   67.63   -0.05  -18.83   -0.06  -19.04  -32.25   58.03
   8.200  -31.37   67.98   -0.05  -19.03   -0.06  -19.25  -31.75   60.86
   8.265  -30.81   68.37   -0.05  -19.23   -0.07  -19.44  -31.31   60.65
   8.330  -30.80   74.36   -0.05  -19.42   -0.07  -19.64  -30.79   49.23
   8.395  -30.43   73.71   -0.05  -19.61   -0.07  -19.84  -30.03   48.95
   8.460  -30.00   73.44   -0.05  -19.82   -0.07  -20.05  -29.51   49.64
   8.525  -29.43   72.35   -0.05  -20.04   -0.06  -20.26  -29.08   50.71
   8.590  -28.92   71.72   -0.05  -20.26   -0.06  -20.48  -28.71   51.41
   8.655  -28.67   71.23   -0.04  -20.50   -0.06  -20.71  -28.42   51.15
   8.720  -28.38   71.30   -0.04  -20.73   -0.06  -20.95  -28.05   49.55
   8.785  -28.16   72.04   -0.04  -20.98   -0.06  -21.19  -27.64   48.73
   8.850  -27.79   72.50   -0.05  -21.21   -0.06  -21.43  -27.37   49.81
   8.915  -27.22   72.59   -0.05  -21.44   -0.06  -21.65  -27.19   50.88
   8.980  -26.67   72.68   -0.05  -21.69   -0.07  -21.89  -27.00   51.89
   9.045  -26.13   72.43   -0.05  -21.93   -0.07  -22.15  -26.74   53.02
   9.110  -25.63   71.66   -0.06  -22.17   -0.08  -22.37  -26.39   52.82
   9.175  -25.33   69.76   -0.07  -22.38   -0.09  -22.60  -25.82   52.57
   9.240  -25.01   68.20   -0.07  -22.59   -0.09  -22.80  -25.47   53.21
   9.305  -24.71   66.98   -0.08  -22.79   -0.10  -23.01  -25.33   53.45
   9.370  -24.38   65.51   -0.08  -22.97   -0.10  -23.18  -25.08   53.89
   9.435  -24.17   64.52   -0.08  -23.14   -0.10  -23.35  -24.91   54.97
   9.500  -24.13   63.82   -0.08  -23.34   -0.09  -23.56  -24.58   54.73
   9.565  -24.07   63.27   -0.07  -23.56   -0.09  -23.77  -24.08   54.61
   9.630  -23.90   63.72   -0.07  -23.82   -0.09  -24.02  -23.70   55.44
   9.695  -23.68   63.89   -0.07  -24.06   -0.09  -24.26  -23.49   55.30
   9.760  -23.35   63.80   -0.07  -24.32   -0.09  -24.51  -23.23   55.18
   9.825  -23.01   64.36   -0.07  -24.57   -0.09  -24.78  -23.03   55.17
   9.890  -22.74   64.13   -0.07  -24.84   -0.09  -25.04  -22.79   54.41
   9.955  -22.45   63.52   -0.08  -25.12   -0.09  -25.30  -22.43   54.33
  10.020  -22.18   62.74   -0.08  -25.38   -0.10  -25.55  -22.17   54.92
  10.085  -21.88   61.91   -0.09  -25.65   -0.10  -25.81  -21.94   54.95
  10.150  -21.60   61.24   -0.09  -25.89   -0.11  -26.06  -21.69   55.05
  10.215  -21.34   60.76   -0.10  -26.15   -0.12  -26.33  -21.49   54.67
  10.280  -21.14   60.18   -0.10  -26.42   -0.12  -26.58  -21.17   54.19
  10.345  -20.94   59.62   -0.11  -26.69   -0.13  -26.86  -20.84   54.19
  10.410  -20.68   58.89   -0.12  -26.99   -0.14  -27.14  -20.55   54.23
  10.475  -20.38   58.42   -0.12  -27.27   -0.14  -27.44  -20.23   54.09
  10.540  -20.05   58.05   -0.13  -27.56   -0.14  -27.63  -19.95   53.76
  10.605  -19.72   57.15   -0.15  -27.88   -0.15  -27.99  -19.65   53.03
  10.670  -19.37   56.14   -0.16  -28.25   -0.17  -28.30  -19.28   51.98
  10.735  -19.04   54.92   -0.18  -28.59   -0.19  -28.66  -18.88   51.28
  10.800  -18.68   53.35   -0.21  -28.97   -0.21  -29.05  -18.52   50.46
  10.865  -18.28   51.76   -0.24  -29.37   -0.24  -29.45  -18.15   49.21
  10.930  -17.88   49.80   -0.28  -29.81   -0.28  -29.87  -17.75   47.74
  10.995  -17.47   47.27   -0.33  -30.24   -0.34  -30.32  -17.34   45.45
  11.060  -17.01   44.26   -0.41  -30.71   -0.41  -30.78  -16.79   42.49
  11.125  -16.53   40.30   -0.51  -31.19   -0.52  -31.24  -16.24   39.09
  11.190  -16.03   34.57   -0.67  -31.52   -0.68  -31.61  -15.73   33.87
  11.255  -15.61   26.92   -0.88  -31.47   -0.89  -31.54  -15.27   26.57
  11.320  -15.52   16.45   -1.13  -30.54   -1.14  -30.61  -15.16   16.38
  11.385  -16.12    3.74   -1.27  -28.44   -1.28  -28.50  -15.65    4.04
  11.450  -17.70   -7.88   -1.17  -26.13   -1.18  -26.20  -17.02   -6.98
  11.515  -20.09  -14.66   -0.91  -24.91   -0.91  -24.96  -19.24  -13.14
  11.580  -22.76  -14.31   -0.66  -24.79   -0.66  -24.86  -21.63  -12.98
  11.645  -25.23   -5.53   -0.47  -25.23   -0.48  -25.26  -23.74   -5.94
  11.710  -26.70    8.84   -0.35  -25.83   -0.36  -25.87  -25.15    4.80
  11.775  -26.99   23.08   -0.28  -26.39   -0.28  -26.47  -25.58   15.59
  11.840  -26.52   34.55   -0.22  -26.97   -0.23  -27.03  -25.28   25.57
  11.905  -25.83   42.18   -0.19  -27.48   -0.19  -27.55  -24.89   33.14
  11.970  -25.13   46.60   -0.16  -27.97   -0.17  -28.03  -24.39   38.02
  12.035  -24.41   49.86   -0.14  -28.39   -0.15  -28.45  -23.90   41.87
  12.100  -23.86   52.17   -0.13  -28.80   -0.14  -28.86  -23.50   44.22
  12.165  -23.38   53.69   -0.12  -29.17   -0.13  -29.22  -23.03   45.13
  12.230  -22.93   54.59   -0.12  -29.52   -0.13  -29.56  -22.58   46.52
  12.295  -22.55   55.59   -0.11  -29.85   -0.12  -29.89  -22.21   47.57
  12.360  -22.20   55.85   -0.11  -30.16   -0.12  -30.20  -21.90   48.50
  12.425  -21.89   56.45   -0.11  -30.47   -0.12  -30.51  -21.66   48.95
  12.490  -21.59   56.69   -0.11  -30.78   -0.11  -30.82  -21.41   48.89
  12.555  -21.33   57.00   -0.10  -31.04   -0.11  -31.08  -21.16   48.88
  12.620  -21.10   57.33   -0.10  -31.33   -0.11  -31.38  -20.90   48.90
  12.685  -20.87   57.54   -0.10  -31.61   -0.11  -31.65  -20.66   48.95
  12.750  -20.66   57.63   -0.10  -31.87   -0.11  -31.92  -20.47   49.40
  12.815  -20.46   57.65   -0.10  -32.16   -0.11  -32.19  -20.36   49.03
  12.880  -20.27   57.81   -0.10  -32.42   -0.11  -32.47  -20.18   48.80
  12.945  -20.09   57.89   -0.10  -32.68   -0.11  -32.71  -20.03   48.65
  13.010  -19.93   57.91   -0.10  -32.96   -0.11  -32.99  -19.84   48.16
  13.075  -19.72   58.19   -0.10  -33.21   -0.11  -33.25  -19.65   48.18
  13.140  -19.57   58.20   -0.10  -33.48   -0.11  -33.53  -19.55   48.37
  13.205  -19.43   57.91   -0.10  -33.74   -0.12  -33.77  -19.47   47.83
  13.270  -19.23   58.08   -0.11  -33.98   -0.12  -34.01  -19.28   47.48
  13.335  -19.08   58.14   -0.11  -34.25   -0.12  -34.27  -19.19   47.37
  13.400  -18.94   57.89   -0.11  -34.47   -0.12  -34.51  -19.07   46.80
  13.465  -18.77   57.76   -0.11  -34.74   -0.12  -34.79  -18.87   46.84
  13.530  -18.64   57.73   -0.11  -35.01   -0.12  -35.04  -18.83   47.04
  13.595  -18.48   57.30   -0.11  -35.28   -0.12  -35.31  -18.77   46.47
  13.660  -18.33   57.05   -0.11  -35.55   -0.12  -35.60  -18.62   46.46
  13.725  -18.21   56.50   -0.12  -35.87   -0.13  -35.88  -18.51   46.39
  13.790  -18.18   56.03   -0.13  -36.13   -0.14  -36.15  -18.32   45.98
  13.855  -18.10   56.13   -0.14  -36.36   -0.15  -36.37  -18.13   46.06
  13.920  -18.05   56.31   -0.15  -36.58   -0.16  -36.61  -18.04   45.56
  13.985  -17.96   56.21   -0.15  -36.79   -0.16  -36.82  -17.93   44.96
  14.050  -17.83   56.38   -0.16  -37.03   -0.17  -37.05  -17.80   44.67
  14.115  -17.74   56.36   -0.16  -37.27   -0.17  -37.28  -17.72   43.91
  14.180  -17.63   56.34   -0.16  -37.51   -0.17  -37.54  -17.57   43.64
  14.245  -17.51   56.50   -0.17  -37.77   -0.18  -37.79  -17.45   43.90
  14.310  -17.43   56.54   -0.17  -38.02   -0.19  -38.07  -17.36   43.54
  14.375  -17.29   56.63   -0.18  -38.26   -0.20  -38.30  -17.15   43.20
  14.440  -17.12   56.78   -0.19  -38.46   -0.21  -38.48  -17.02   42.31
  14.505  -16.93   56.52   -0.19  -38.71   -0.20  -38.71  -16.88   41.13
  14.570  -16.76   56.17   -0.18  -38.96   -0.20  -38.95  -16.75   40.78
  14.635  -16.64   55.70   -0.19  -39.25   -0.20  -39.22  -16.74   40.41
  14.700  -16.52   55.25   -0.19  -39.50   -0.21  -39.51  -16.63   39.87
  14.765  -16.42   55.02   -0.19  -39.77   -0.21  -39.78  -16.55   39.79
  14.830  -16.32   54.56   -0.20  -40.07   -0.22  -40.06  -16.49   39.21
  14.895  -16.17   54.18   -0.21  -40.35   -0.22  -40.35  -16.30   38.65
  14.960  -16.07   54.02   -0.21  -40.65   -0.23  -40.61  -16.18   38.64
  15.025  -15.95   53.72   -0.22  -40.93   -0.23  -40.92  -16.11   38.21
  15.090  -15.81   53.35   -0.23  -41.22   -0.25  -41.21  -15.96   37.72
  15.155  -15.69   53.04   -0.24  -41.51   -0.25  -41.50  -15.88   37.67
  15.220  -15.57   52.59   -0.25  -41.78   -0.27  -41.76  -15.79   36.79
  15.285  -15.41   52.13   -0.26  -42.12   -0.28  -42.06  -15.58   36.39
  15.350  -15.27   51.83   -0.27  -42.41   -0.29  -42.36  -15.45   36.51
  15.415  -15.17   51.23   -0.28  -42.68   -0.30  -42.64  -15.34   35.87
  15.480  -15.01   50.82   -0.30  -43.02   -0.31  -42.97  -15.18   35.34
  15.545  -14.89   50.35   -0.31  -43.34   -0.32  -43.28  -15.07   35.02
  15.610  -14.78   49.71   -0.32  -43.65   -0.34  -43.62  -14.94   34.06
  15.675  -14.60   49.43   -0.34  -44.01   -0.36  -43.93  -14.75   33.91
  15.740  -14.47   48.89   -0.35  -44.34   -0.37  -44.27  -14.62   33.58
  15.805  -14.32   48.24   -0.37  -44.69   -0.39  -44.63  -14.47   33.01
  15.870  -14.13   47.74   -0.40  -45.02   -0.41  -44.97  -14.29   32.70
  15.935  -13.99   47.07   -0.42  -45.36   -0.43  -45.33  -14.15   32.09
  16.000  -13.81   46.21   -0.44  -45.74   -0.46  -45.72  -13.94   31.36
  16.065  -13.62   45.50   -0.47  -46.16   -0.49  -46.11  -13.73   30.94
  16.130  -13.43   44.60   -0.51  -46.56   -0.52  -46.53  -13.53   30.26
  16.195  -13.23   43.71   -0.54  -46.99   -0.56  -46.95  -13.30   29.70
  16.260  -13.02   42.71   -0.58  -47.39   -0.60  -47.37  -13.10   28.98
  16.325  -12.79   41.58   -0.63  -47.84   -0.64  -47.81  -12.86   27.95
  16.390  -12.56   40.22   -0.68  -48.29   -0.70  -48.26  -12.58   27.00
  16.455  -12.32   38.80   -0.74  -48.76   -0.76  -48.76  -12.33   25.84
  16.520  -12.06   37.07   -0.81  -49.30   -0.83  -49.25  -12.02   24.48
  16.585  -11.81   35.25   -0.89  -49.81   -0.91  -49.76  -11.72   23.16
  16.650  -11.55   33.10   -0.98  -50.35   -1.00  -50.29  -11.44   21.43
  16.715  -11.27   30.60   -1.10  -50.88   -1.12  -50.80  -11.10   19.24
  16.780  -11.00   27.80   -1.25  -51.38   -1.26  -51.33  -10.79   17.05
  16.845  -10.73   24.55   -1.42  -51.84   -1.44  -51.78  -10.49   14.22
  16.910  -10.47   20.81   -1.63  -52.18   -1.64  -52.11  -10.14   11.10
  16.975  -10.25   16.51   -1.88  -52.28   -1.90  -52.23   -9.86    7.58
  17.040  -10.07   11.42   -2.18  -52.04   -2.20  -51.98   -9.61    3.05
  17.105   -9.95    5.60   -2.50  -51.18   -2.52  -51.15   -9.38   -1.82
  17.170   -9.97   -0.88   -2.83  -49.53   -2.85  -49.51   -9.31   -7.46
  17.235  -10.15   -8.27   -3.10  -46.97   -3.12  -46.94   -9.34  -13.89
  17.300  -10.55  -15.92   -3.22  -43.69   -3.24  -43.62   -9.57  -20.36
  17.365  -11.23  -23.77   -3.14  -40.24   -3.16  -40.15  -10.07  -27.11
  17.430  -12.16  -31.37   -2.88  -37.30   -2.90  -37.25  -10.73  -33.37
  17.495  -13.37  -37.84   -2.51  -35.33   -2.53  -35.28  -11.64  -38.42
  17.560  -14.81  -43.32   -2.12  -34.36   -2.14  -34.30  -12.72  -42.64
  17.625  -16.45  -47.30   -1.77  -34.16   -1.79  -34.11  -13.83  -45.05
