!  American Technical Ceramics  Date:   10/26/00
!  One Norden Lane
!  Huntington Station,  NY.   11746-2102
!  Tel:  (631) 622-4700               Fax:  (631) 622-4748
!  Part Number  600L150J       Mounting Orientation:  Horizontal  
!  Description:  Low ESR, High Q Microwave capacitors
!  Application: Coupling, Bypass, Tuning, DC Block
!               Filters, Matching
# GHZ S DB R 50
! Freq   |S11|   S11 Ph  |S21|   S21 Ph  |S12|   S12 Ph  |S22|   S22 Ph
    0.00    0.00    0.00 -999.00   90.00  -999.00  90.00    0.00    0.00
   0.400  -11.49  -74.52   -0.37   14.80   -0.38   14.86  -11.43  -73.03
   0.445  -12.40  -76.21   -0.31   13.05   -0.32   12.98  -12.37  -74.77
   0.490  -13.25  -77.86   -0.27   11.69   -0.26   11.75  -13.21  -75.41
   0.535  -14.03  -78.65   -0.22   10.48   -0.24   10.38  -13.99  -77.03
   0.580  -14.78  -79.99   -0.20    9.46   -0.20    9.49  -14.75  -77.36
   0.625  -15.50  -80.50   -0.18    8.51   -0.18    8.47  -15.46  -78.63
   0.670  -16.15  -81.73   -0.16    7.71   -0.16    7.76  -16.14  -78.64
   0.715  -16.83  -82.11   -0.14    6.96   -0.14    6.92  -16.77  -79.48
   0.760  -17.42  -82.95   -0.13    6.31   -0.13    6.27  -17.40  -79.71
   0.805  -18.01  -83.31   -0.12    5.68   -0.11    5.73  -18.01  -80.57
   0.850  -18.61  -84.17   -0.11    5.11   -0.11    5.11  -18.57  -80.38
   0.895  -19.20  -84.38   -0.10    4.63   -0.10    4.65  -19.13  -80.68
   0.940  -19.70  -84.78   -0.09    4.14   -0.09    4.09  -19.70  -81.25
   0.985  -20.28  -85.47   -0.09    3.67   -0.09    3.69  -20.25  -81.08
   1.030  -20.82  -85.39   -0.09    3.25   -0.08    3.22  -20.75  -81.61
   1.075  -21.33  -86.22   -0.08    2.85   -0.08    2.87  -21.28  -81.21
   1.120  -21.89  -86.23   -0.07    2.48   -0.07    2.50  -21.77  -81.48
   1.165  -22.38  -86.84   -0.07    2.11   -0.08    2.11  -22.32  -81.37
   1.210  -22.91  -86.89   -0.07    1.76   -0.07    1.78  -22.79  -81.63
   1.255  -23.42  -87.51   -0.07    1.40   -0.06    1.41  -23.27  -81.45
   1.300  -23.95  -87.46   -0.07    1.10   -0.06    1.15  -23.78  -81.27
   1.345  -24.42  -87.93   -0.07    0.81   -0.06    0.83  -24.29  -80.77
   1.390  -24.98  -87.86   -0.06    0.54   -0.06    0.56  -24.71  -81.13
   1.435  -25.42  -88.39   -0.06    0.25   -0.06    0.27  -25.26  -80.91
   1.480  -26.05  -88.95   -0.06   -0.01   -0.05    0.00  -25.72  -80.06
   1.525  -26.47  -88.23   -0.06   -0.30   -0.06   -0.29  -26.28  -80.06
   1.570  -27.05  -89.12   -0.06   -0.55   -0.06   -0.54  -26.77  -79.42
   1.615  -27.56  -88.69   -0.06   -0.83   -0.06   -0.80  -27.32  -79.61
   1.660  -28.14  -89.72   -0.06   -1.05   -0.06   -1.06  -27.75  -78.18
   1.705  -28.53  -89.29   -0.06   -1.27   -0.06   -1.25  -28.32  -77.85
   1.750  -29.20  -90.00   -0.05   -1.51   -0.05   -1.50  -28.80  -77.31
   1.795  -29.78  -89.23   -0.06   -1.73   -0.05   -1.71  -29.50  -77.33
   1.840  -30.33  -90.56   -0.06   -1.97   -0.06   -1.94  -29.89  -75.77
   1.885  -30.95  -89.94   -0.06   -2.20   -0.04   -2.17  -30.45  -75.29
   1.930  -31.43  -89.68   -0.05   -2.41   -0.05   -2.40  -31.11  -73.68
   1.975  -32.27  -89.24   -0.05   -2.62   -0.05   -2.60  -31.68  -73.52
   2.020  -32.72  -90.06   -0.05   -2.85   -0.05   -2.81  -32.29  -72.15
   2.065  -33.49  -90.28   -0.06   -3.05   -0.06   -3.02  -32.71  -70.55
   2.110  -33.94  -89.63   -0.06   -3.27   -0.06   -3.24  -33.36  -68.39
   2.155  -34.94  -89.29   -0.06   -3.46   -0.06   -3.43  -34.05  -67.86
   2.200  -35.48  -88.81   -0.06   -3.64   -0.06   -3.60  -34.68  -65.72
   2.245  -36.36  -90.09   -0.06   -3.83   -0.06   -3.80  -35.07  -64.23
   2.290  -36.97  -88.26   -0.06   -4.03   -0.06   -4.00  -35.74  -60.89
   2.335  -37.89  -87.98   -0.06   -4.20   -0.06   -4.19  -36.39  -58.88
   2.380  -38.86  -86.97   -0.06   -4.38   -0.05   -4.36  -37.21  -56.73
   2.425  -39.62  -88.26   -0.06   -4.58   -0.05   -4.57  -37.48  -54.91
   2.470  -40.41  -86.37   -0.06   -4.78   -0.06   -4.75  -38.08  -51.44
   2.515  -41.68  -86.75   -0.06   -4.95   -0.05   -4.94  -38.65  -47.29
   2.560  -43.28  -83.20   -0.06   -5.16   -0.05   -5.09  -39.46  -43.71
   2.605  -44.06  -84.99   -0.06   -5.32   -0.06   -5.28  -39.74  -42.85
   2.650  -45.83  -82.45   -0.06   -5.48   -0.06   -5.44  -40.34  -39.97
   2.695  -47.30  -76.27   -0.06   -5.67   -0.06   -5.63  -40.77  -35.38
   2.740  -49.31  -67.35   -0.06   -5.84   -0.06   -5.81  -41.64  -32.09
   2.785  -50.06  -64.46   -0.07   -6.03   -0.06   -5.98  -42.37  -29.04
   2.830  -51.74  -57.00   -0.06   -6.21   -0.06   -6.16  -42.92  -26.29
   2.875  -52.60  -37.93   -0.07   -6.37   -0.06   -6.34  -43.21  -19.60
   2.920  -53.03  -23.67   -0.06   -6.54   -0.06   -6.51  -43.77  -15.05
   2.965  -51.56  -20.56   -0.07   -6.70   -0.06   -6.66  -44.68  -13.14
   3.010  -43.68  124.28   -0.07   -6.88   -0.07   -6.84  -37.18   11.68
   3.055  -42.51  116.76   -0.07   -7.05   -0.06   -7.01  -36.77   14.65
   3.100  -41.50  113.32   -0.07   -7.22   -0.07   -7.16  -36.42   18.68
   3.145  -40.78  110.21   -0.07   -7.37   -0.07   -7.32  -36.22   22.26
   3.190  -40.37  108.21   -0.07   -7.52   -0.07   -7.49  -36.25   24.61
   3.235  -39.62  102.91   -0.07   -7.70   -0.06   -7.66  -35.83   27.83
   3.280  -38.88  101.21   -0.07   -7.86   -0.07   -7.83  -35.36   29.21
   3.325  -38.25  100.66   -0.07   -8.03   -0.06   -7.98  -35.15   32.08
   3.370  -37.90   99.21   -0.08   -8.19   -0.07   -8.15  -35.05   34.23
   3.415  -37.53   96.82   -0.08   -8.35   -0.07   -8.30  -34.87   35.13
   3.460  -36.83   94.13   -0.08   -8.52   -0.07   -8.47  -34.56   37.04
   3.505  -36.34   93.43   -0.08   -8.67   -0.07   -8.66  -34.18   38.54
   3.550  -36.12   92.16   -0.08   -8.84   -0.07   -8.80  -34.16   40.91
   3.595  -35.96   90.31   -0.08   -9.00   -0.08   -8.96  -34.03   42.32
   3.640  -35.55   88.42   -0.08   -9.16   -0.07   -9.12  -33.80   43.08
   3.685  -35.02   88.66   -0.08   -9.33   -0.08   -9.28  -33.51   44.42
   3.730  -34.72   87.44   -0.08   -9.49   -0.08   -9.43  -33.35   46.53
   3.775  -34.54   86.74   -0.08   -9.65   -0.08   -9.60  -33.31   48.10
   3.820  -34.21   84.38   -0.08   -9.81   -0.07   -9.75  -33.10   49.74
   3.865  -33.79   83.16   -0.08   -9.97   -0.08   -9.89  -32.84   50.39
   3.910  -33.53   82.72   -0.08  -10.13   -0.07  -10.06  -32.65   51.79
   3.955  -33.36   82.35   -0.09  -10.29   -0.08  -10.21  -32.53   53.49
   4.000  -33.21   80.45   -0.08  -10.44   -0.08  -10.38  -32.40   54.32
   4.045  -32.86   79.39   -0.09  -10.62   -0.08  -10.55  -32.20   55.48
   4.090  -32.59   78.65   -0.08  -10.78   -0.08  -10.71  -32.01   56.37
   4.135  -32.48   78.77   -0.09  -10.93   -0.09  -10.88  -31.85   57.95
   4.180  -32.17   77.47   -0.08  -11.12   -0.09  -11.05  -31.65   59.08
   4.225  -31.99   75.19   -0.09  -11.27   -0.08  -11.20  -31.46   60.14
   4.270  -31.67   75.43   -0.09  -11.43   -0.08  -11.36  -31.29   60.84
   4.315  -31.40   74.29   -0.09  -11.61   -0.09  -11.56  -30.98   62.16
   4.360  -31.18   72.93   -0.09  -11.78   -0.09  -11.70  -30.77   62.77
   4.405  -31.00   71.68   -0.09  -11.93   -0.09  -11.89  -30.57   63.98
   4.450  -30.60   70.71   -0.10  -12.10   -0.09  -12.03  -30.33   64.79
   4.495  -30.37   69.37   -0.10  -12.29   -0.10  -12.24  -30.02   65.27
   4.540  -30.07   68.54   -0.10  -12.48   -0.10  -12.40  -29.79   65.63
   4.585  -29.75   66.78   -0.11  -12.66   -0.10  -12.63  -29.49   66.42
   4.630  -29.44   65.40   -0.11  -12.85   -0.11  -12.78  -29.18   67.01
   4.675  -29.03   64.12   -0.12  -13.08   -0.11  -13.00  -28.88   66.76
   4.720  -28.75   62.29   -0.12  -13.25   -0.12  -13.19  -28.53   66.71
   4.765  -28.32   60.37   -0.13  -13.45   -0.13  -13.37  -28.19   66.51
   4.810  -27.90   57.78   -0.15  -13.69   -0.14  -13.60  -27.73   65.69
   4.855  -27.42   55.20   -0.17  -13.90   -0.16  -13.77  -27.41   63.93
   4.900  -27.04   51.93   -0.19  -14.12   -0.18  -14.01  -26.97   61.96
   4.945  -26.59   47.54   -0.22  -14.26   -0.22  -14.20  -26.51   58.36
   4.990  -26.21   41.36   -0.27  -14.39   -0.26  -14.30  -26.27   53.90
   5.035  -26.06   33.85   -0.31  -14.37   -0.30  -14.29  -26.17   47.80
   5.080  -26.29   26.04   -0.35  -14.18   -0.34  -14.09  -26.50   39.66
   5.125  -27.03   18.08   -0.36  -13.88   -0.35  -13.78  -27.38   32.85
   5.170  -28.18   12.52   -0.33  -13.62   -0.33  -13.52  -28.82   29.14
   5.215  -29.57   11.74   -0.29  -13.54   -0.29  -13.44  -30.53   28.86
   5.260  -30.61   14.41   -0.25  -13.59   -0.24  -13.50  -32.01   33.96
   5.305  -31.49   19.29   -0.22  -13.71   -0.21  -13.65  -32.80   40.99
   5.350  -31.77   24.91   -0.19  -13.92   -0.19  -13.81  -33.35   49.86
   5.395  -31.79   28.54   -0.17  -14.13   -0.17  -14.04  -33.36   58.60
   5.440  -31.62   32.19   -0.15  -14.31   -0.15  -14.24  -33.12   64.04
   5.485  -31.37   35.66   -0.15  -14.50   -0.14  -14.44  -32.76   68.72
   5.530  -30.94   37.82   -0.14  -14.70   -0.14  -14.66  -32.20   72.85
   5.575  -30.69   38.86   -0.13  -14.87   -0.13  -14.81  -31.81   75.77
   5.620  -30.33   39.44   -0.13  -15.08   -0.13  -15.03  -31.47   78.19
   5.665  -30.04   40.25   -0.13  -15.26   -0.12  -15.18  -31.10   79.75
   5.710  -29.72   41.33   -0.12  -15.44   -0.12  -15.37  -30.72   80.93
   5.755  -29.36   41.21   -0.13  -15.61   -0.12  -15.48  -30.37   82.20
   5.800  -29.15   40.64   -0.12  -15.79   -0.12  -15.71  -30.14   83.12
   5.845  -28.85   40.22   -0.12  -15.99   -0.10  -15.90  -29.87   84.07
   5.890  -28.57   40.00   -0.12  -16.18   -0.11  -16.08  -29.47   84.72
   5.935  -28.41   39.72   -0.12  -16.34   -0.11  -16.26  -29.27   85.31
   5.980  -28.30   39.71   -0.12  -16.54   -0.11  -16.43  -29.08   86.45
   6.025  -28.10   39.32   -0.12  -16.72   -0.11  -16.66  -28.75   86.99
   6.070  -27.86   40.47   -0.12  -16.89   -0.11  -16.82  -28.47   87.09
   6.115  -27.56   40.75   -0.12  -17.07   -0.12  -16.95  -28.20   87.66
   6.160  -27.34   40.44   -0.12  -17.24   -0.11  -17.10  -28.02   88.08
   6.205  -27.19   39.86   -0.12  -17.39   -0.12  -17.28  -27.83   89.01
   6.250  -26.84   40.03   -0.13  -17.57   -0.12  -17.45  -27.50   88.92
   6.295  -26.53   39.98   -0.13  -17.73   -0.12  -17.64  -27.33   88.72
   6.340  -26.40   39.58   -0.13  -17.90   -0.12  -17.81  -27.07   89.57
   6.385  -26.21   39.46   -0.13  -18.07   -0.12  -17.97  -26.83   89.67
   6.430  -25.96   38.68   -0.13  -18.23   -0.12  -18.14  -26.60   89.83
   6.475  -25.70   39.32   -0.13  -18.42   -0.13  -18.33  -26.33   89.37
   6.520  -25.51   38.92   -0.13  -18.59   -0.13  -18.53  -26.11   89.53
   6.565  -25.38   38.72   -0.14  -18.79   -0.13  -18.67  -25.92   89.79
   6.610  -25.13   37.83   -0.14  -18.95   -0.14  -18.88  -25.66   89.83
   6.655  -24.82   38.03   -0.14  -19.14   -0.13  -19.04  -25.42   89.08
   6.700  -24.62   38.12   -0.14  -19.30   -0.14  -19.20  -25.18   89.00
   6.745  -24.45   37.90   -0.15  -19.51   -0.15  -19.38  -24.95   88.69
   6.790  -24.19   37.09   -0.15  -19.66   -0.14  -19.58  -24.81   88.62
   6.835  -23.98   36.57   -0.15  -19.84   -0.15  -19.74  -24.53   88.11
   6.880  -23.71   37.45   -0.17  -20.03   -0.16  -19.89  -24.34   86.82
   6.925  -23.55   36.41   -0.17  -20.23   -0.16  -20.13  -24.12   87.29
   6.970  -23.36   35.98   -0.18  -20.41   -0.17  -20.29  -23.92   86.45
   7.015  -23.09   35.17   -0.17  -20.59   -0.17  -20.50  -23.72   86.16
   7.060  -22.80   35.77   -0.19  -20.81   -0.18  -20.69  -23.46   84.94
   7.105  -22.60   35.19   -0.19  -21.01   -0.18  -20.90  -23.24   84.60
   7.150  -22.43   34.82   -0.20  -21.23   -0.19  -21.10  -23.06   83.82
   7.195  -22.14   33.91   -0.21  -21.43   -0.20  -21.34  -22.83   82.75
   7.240  -21.87   33.63   -0.22  -21.66   -0.21  -21.56  -22.56   81.37
   7.285  -21.61   33.46   -0.23  -21.85   -0.22  -21.73  -22.35   80.69
   7.330  -21.44   32.49   -0.24  -22.09   -0.24  -21.99  -22.10   79.85
   7.375  -21.08   31.89   -0.26  -22.31   -0.25  -22.14  -21.94   77.73
   7.420  -20.81   30.53   -0.28  -22.56   -0.27  -22.44  -21.67   76.74
   7.465  -20.52   30.60   -0.31  -22.81   -0.30  -22.63  -21.38   74.58
   7.510  -20.25   29.09   -0.33  -23.03   -0.33  -22.93  -21.17   73.26
   7.555  -19.93   27.97   -0.37  -23.26   -0.35  -23.10  -20.93   70.56
   7.600  -19.58   26.11   -0.40  -23.45   -0.39  -23.35  -20.69   68.15
   7.645  -19.28   24.84   -0.44  -23.68   -0.45  -23.54  -20.39   65.30
   7.690  -18.98   22.75   -0.49  -23.82   -0.48  -23.71  -20.18   62.47
   7.735  -18.71   20.02   -0.56  -23.97   -0.55  -23.87  -20.03   58.71
   7.780  -18.40   16.87   -0.62  -24.00   -0.61  -23.88  -19.84   54.54
   7.825  -18.22   13.45   -0.68  -24.00   -0.68  -23.89  -19.65   50.06
   7.870  -18.05   10.17   -0.77  -23.76   -0.74  -23.57  -19.69   44.91
   7.915  -18.02    4.90   -0.83  -23.44   -0.82  -23.37  -19.81   39.65
   7.960  -18.11    0.74   -0.89  -22.99   -0.87  -22.86  -20.01   33.18
   8.005  -18.33   -4.25   -0.90  -22.40   -0.90  -22.32  -20.42   27.70
   8.050  -18.75   -8.33   -0.91  -21.83   -0.88  -21.69  -21.05   21.97
   8.095  -19.31  -12.85   -0.87  -21.30   -0.86  -21.22  -21.83   17.17
   8.140  -20.02  -15.87   -0.80  -20.91   -0.80  -20.84  -22.78   13.31
   8.185  -20.78  -17.92   -0.74  -20.63   -0.73  -20.56  -23.81   10.97
   8.230  -21.65  -18.80   -0.67  -20.53   -0.67  -20.46  -25.02   10.10
   8.275  -22.52  -18.14   -0.61  -20.52   -0.60  -20.44  -26.21   10.70
   8.320  -23.32  -16.78   -0.55  -20.61   -0.54  -20.52  -27.25   13.06
   8.365  -21.97    4.09   -0.54  -20.86   -0.54  -20.69  -24.06   42.65
   8.410  -22.36    7.17   -0.49  -21.06   -0.49  -20.92  -24.31   47.84
   8.455  -22.60   11.41   -0.46  -21.25   -0.44  -21.15  -24.40   51.57
   8.500  -22.74   14.45   -0.42  -21.50   -0.41  -21.32  -24.39   55.58
   8.545  -22.84   17.94   -0.40  -21.72   -0.38  -21.60  -24.20   58.58
   8.590  -22.80   20.71   -0.37  -21.95   -0.37  -21.83  -24.05   61.36
   8.635  -22.70   23.51   -0.35  -22.21   -0.34  -22.13  -23.80   63.66
   8.680  -22.58   26.16   -0.34  -22.42   -0.33  -22.25  -23.60   65.22
   8.725  -22.47   28.16   -0.32  -22.63   -0.32  -22.51  -23.42   66.58
   8.770  -22.37   29.82   -0.32  -22.85   -0.31  -22.69  -23.20   67.31
   8.815  -22.19   31.21   -0.30  -22.99   -0.30  -22.89  -23.05   67.93
   8.860  -21.99   33.02   -0.29  -23.18   -0.28  -23.06  -22.87   68.38
   8.905  -21.90   34.09   -0.29  -23.40   -0.28  -23.21  -22.72   69.05
   8.950  -21.81   35.35   -0.28  -23.57   -0.27  -23.39  -22.66   69.26
   8.995  -21.74   35.33   -0.27  -23.74   -0.27  -23.56  -22.56   70.38
   9.040  -21.61   36.38   -0.27  -23.93   -0.26  -23.78  -22.38   71.09
   9.085  -21.47   37.54   -0.26  -24.07   -0.25  -23.94  -22.19   71.68
   9.130  -21.36   38.95   -0.26  -24.23   -0.26  -24.12  -22.06   71.20
   9.175  -21.33   39.66   -0.26  -24.39   -0.25  -24.26  -21.90   70.90
   9.220  -21.16   40.22   -0.26  -24.53   -0.24  -24.41  -21.69   71.08
   9.265  -21.02   40.61   -0.25  -24.63   -0.23  -24.48  -21.53   71.17
   9.310  -20.90   41.25   -0.24  -24.78   -0.24  -24.67  -21.41   70.81
   9.355  -20.83   41.85   -0.24  -24.95   -0.23  -24.82  -21.35   70.13
   9.400  -20.82   41.75   -0.23  -25.09   -0.22  -24.92  -21.22   69.82
   9.445  -20.71   42.48   -0.23  -25.23   -0.21  -25.10  -21.16   69.44
   9.490  -20.63   42.64   -0.22  -25.39   -0.21  -25.22  -21.03   69.67
   9.535  -20.51   43.46   -0.22  -25.52   -0.21  -25.43  -20.97   68.67
   9.580  -20.49   43.56   -0.21  -25.72   -0.20  -25.51  -20.83   68.60
   9.625  -20.43   44.20   -0.20  -25.81   -0.20  -25.66  -20.77   68.07
   9.670  -20.41   44.39   -0.20  -25.95   -0.18  -25.81  -20.76   67.99
   9.715  -20.35   44.93   -0.19  -26.12   -0.18  -25.98  -20.71   66.90
   9.760  -20.29   45.08   -0.18  -26.29   -0.17  -26.13  -20.60   66.15
   9.805  -20.21   45.32   -0.17  -26.47   -0.16  -26.31  -20.44   65.75
   9.850  -20.16   45.57   -0.16  -26.66   -0.16  -26.51  -20.42   65.13
   9.895  -20.21   45.71   -0.17  -26.86   -0.15  -26.67  -20.38   64.54
   9.940  -20.19   46.11   -0.16  -27.04   -0.16  -26.92  -20.47   63.40
   9.985  -20.24   45.87   -0.17  -27.27   -0.16  -27.07  -20.32   63.31
  10.030  -20.18   46.55   -0.17  -27.40   -0.17  -27.30  -20.37   62.06
  10.075  -20.24   46.85   -0.17  -27.56   -0.16  -27.39  -20.36   62.02
  10.120  -20.24   47.71   -0.17  -27.71   -0.17  -27.58  -20.42   60.93
  10.165  -20.23   47.53   -0.17  -27.86   -0.16  -27.70  -20.37   61.13
  10.210  -20.17   47.91   -0.17  -27.98   -0.17  -27.87  -20.26   60.46
  10.255  -20.12   48.29   -0.17  -28.14   -0.17  -28.03  -20.27   59.74
  10.300  -20.20   48.70   -0.18  -28.29   -0.17  -28.16  -20.26   59.27
  10.345  -20.20   49.09   -0.17  -28.47   -0.17  -28.32  -20.26   58.44
  10.390  -20.18   48.96   -0.19  -28.62   -0.18  -28.45  -20.17   57.58
  10.435  -20.12   49.58   -0.19  -28.75   -0.18  -28.65  -20.21   56.59
  10.480  -20.21   50.16   -0.20  -28.90   -0.19  -28.72  -20.13   56.33
  10.525  -20.26   50.76   -0.20  -29.00   -0.19  -28.90  -20.24   55.01
  10.570  -20.27   50.77   -0.20  -29.16   -0.19  -28.97  -20.20   54.68
  10.615  -20.17   51.74   -0.21  -29.23   -0.20  -29.12  -20.15   53.24
  10.660  -20.14   52.17   -0.20  -29.39   -0.20  -29.21  -20.15   53.47
  10.705  -20.14   52.55   -0.21  -29.53   -0.20  -29.41  -20.09   52.77
  10.750  -20.02   52.38   -0.20  -29.66   -0.20  -29.49  -20.17   51.56
  10.795  -19.95   51.77   -0.21  -29.81   -0.20  -29.63  -20.01   50.90
  10.840  -19.91   52.22   -0.21  -29.96   -0.20  -29.78  -19.95   49.88
  10.885  -20.03   51.86   -0.21  -30.09   -0.21  -29.88  -19.96   49.61
  10.930  -20.05   51.73   -0.22  -30.20   -0.21  -30.05  -20.05   48.15
  10.975  -20.05   51.23   -0.23  -30.33   -0.22  -30.16  -19.95   47.12
  11.020  -20.05   51.65   -0.23  -30.41   -0.23  -30.31  -19.93   46.10
  11.065  -20.20   51.57   -0.24  -30.56   -0.23  -30.34  -19.94   45.83
  11.110  -20.32   51.70   -0.24  -30.62   -0.24  -30.49  -20.08   44.38
  11.155  -20.30   51.35   -0.24  -30.73   -0.23  -30.60  -20.09   43.65
  11.200  -20.38   51.84   -0.24  -30.81   -0.23  -30.65  -19.98   42.95
  11.245  -20.46   52.81   -0.24  -30.88   -0.23  -30.75  -20.10   42.33
  11.290  -20.59   52.99   -0.24  -31.00   -0.24  -30.80  -20.13   42.12
  11.335  -20.59   53.23   -0.24  -31.10   -0.22  -30.96  -20.18   40.57
  11.380  -20.59   53.57   -0.23  -31.16   -0.23  -31.00  -20.15   40.54
  11.425  -20.65   54.41   -0.23  -31.28   -0.22  -31.15  -20.17   40.36
  11.470  -20.78   54.62   -0.22  -31.41   -0.21  -31.25  -20.24   39.99
  11.515  -20.78   55.02   -0.22  -31.55   -0.22  -31.41  -20.33   39.14
  11.560  -20.76   54.96   -0.21  -31.63   -0.20  -31.46  -20.29   39.20
  11.605  -20.79   56.01   -0.21  -31.80   -0.20  -31.62  -20.33   39.03
  11.650  -20.83   56.51   -0.21  -31.93   -0.20  -31.76  -20.40   38.79
  11.695  -20.91   57.06   -0.20  -32.10   -0.18  -31.96  -20.39   37.99
  11.740  -20.82   57.62   -0.19  -32.22   -0.19  -32.08  -20.44   37.58
  11.785  -20.77   57.40   -0.19  -32.42   -0.19  -32.24  -20.37   38.49
  11.830  -20.80   57.93   -0.19  -32.60   -0.18  -32.46  -20.41   38.04
  11.875  -20.78   58.53   -0.19  -32.71   -0.18  -32.56  -20.47   37.84
  11.920  -20.70   58.30   -0.19  -32.93   -0.19  -32.76  -20.39   37.63
  11.965  -20.75   58.58   -0.19  -33.06   -0.18  -32.85  -20.29   37.74
  12.010  -20.72   58.58   -0.19  -33.20   -0.18  -33.06  -20.37   38.07
  12.055  -20.75   58.39   -0.19  -33.39   -0.17  -33.19  -20.34   38.03
  12.100  -20.70   58.49   -0.19  -33.55   -0.18  -33.39  -20.33   37.86
  12.145  -20.61   58.63   -0.19  -33.71   -0.18  -33.56  -20.29   37.86
  12.190  -20.64   58.43   -0.19  -33.91   -0.18  -33.64  -20.25   37.98
  12.235  -20.63   58.91   -0.20  -34.08   -0.19  -33.92  -20.26   37.51
  12.280  -20.54   58.39   -0.20  -34.27   -0.20  -34.03  -20.20   37.90
  12.325  -20.53   58.26   -0.21  -34.42   -0.20  -34.25  -20.16   37.48
