!  American Technical Ceramics   Date:  4/29/2005
!  One Norden Lane
!  Huntington Station,  NY.   11746-2102
!  Tel:  (631) 622-4700               Fax:  (631) 622-4748
!  Part Number  600L0R7        Mounting Orientation:  Horizontal  
!  Description: Ultra Low ESR Microwave capacitors
!  Application: Coupling, Bypass, Tuning, DC Block
!               Filters, Matching
# GHZ S DB R 50
! Freq   |S11|   S11 Ph  |S21|   S21 Ph  |S12|   S12 Ph  |S22|   S22 Ph
    0.00    0.00    0.00 -999.00   90.00  -999.00  90.00    0.00    0.00
   0.499   -0.23  -14.38  -13.26   75.84  -13.26   76.06   -0.27  -12.87
   0.598   -0.35  -16.92  -11.78   73.30  -11.78   73.39   -0.34  -15.47
   0.697   -0.46  -19.44  -10.55   70.60  -10.56   70.44   -0.44  -18.65
   0.796   -0.50  -21.16   -9.49   67.88   -9.52   66.73   -0.66  -22.43
   0.895   -0.78  -23.62   -8.67   65.60   -8.60   65.04   -0.65  -24.12
   0.994   -0.83  -26.89   -7.89   62.87   -7.87   63.76   -0.90  -24.68
   1.093   -1.04  -29.13   -7.24   60.90   -7.26   61.04   -1.05  -27.27
   1.192   -1.11  -31.54   -6.62   58.33   -6.66   57.98   -1.27  -30.46
   1.291   -1.25  -32.73   -6.05   56.46   -6.09   55.58   -1.38  -33.77
   1.390   -1.47  -34.71   -5.63   54.53   -5.59   54.50   -1.49  -34.83
   1.489   -1.67  -37.11   -5.25   52.50   -5.22   53.23   -1.71  -35.61
   1.588   -1.86  -39.39   -4.86   50.62   -4.90   50.74   -1.92  -37.91
   1.687   -2.02  -41.51   -4.52   48.68   -4.53   48.21   -2.11  -40.31
   1.786   -2.13  -42.46   -4.15   46.99   -4.20   46.42   -2.29  -42.93
   1.885   -2.35  -43.75   -3.89   45.44   -3.87   45.47   -2.40  -44.18
   1.984   -2.55  -45.52   -3.64   43.59   -3.66   44.33   -2.64  -45.20
   2.083   -2.82  -47.66   -3.42   42.16   -3.44   42.17   -2.80  -46.95
   2.182   -2.96  -49.29   -3.20   40.50   -3.21   40.07   -3.02  -48.85
   2.281   -3.14  -50.33   -2.98   39.06   -2.99   38.54   -3.21  -50.88
   2.380   -3.31  -51.19   -2.80   37.54   -2.81   37.83   -3.39  -52.15
   2.479   -3.54  -52.57   -2.64   36.22   -2.63   36.73   -3.56  -53.16
   2.578   -3.75  -54.19   -2.48   34.91   -2.54   35.12   -3.78  -54.43
   2.677   -3.95  -55.82   -2.36   33.91   -2.39   33.20   -3.96  -55.83
   2.776   -4.11  -56.63   -2.24   32.58   -2.24   32.17   -4.20  -57.26
   2.875   -4.31  -57.58   -2.12   31.40   -2.11   31.36   -4.35  -58.53
   2.974   -4.46  -58.44   -2.01   30.11   -1.98   30.69   -4.56  -59.37
   3.073   -4.76  -59.73   -1.86   28.92   -1.91   29.13   -4.75  -61.16
   3.172   -4.98  -61.29   -1.76   27.93   -1.79   27.32   -4.96  -62.07
   3.271   -5.18  -62.32   -1.69   26.75   -1.69   26.32   -5.22  -63.34
   3.370   -5.37  -63.04   -1.60   25.56   -1.59   25.61   -5.43  -64.26
   3.469   -5.57  -63.87   -1.51   24.38   -1.48   24.91   -5.65  -65.38
   3.568   -5.87  -65.28   -1.39   23.27   -1.44   23.50   -5.86  -66.64
   3.667   -6.03  -66.67   -1.32   22.54   -1.33   22.05   -6.05  -67.31
   3.766   -6.28  -67.58   -1.27   21.58   -1.27   21.28   -6.29  -68.25
   3.865   -6.47  -68.38   -1.21   20.57   -1.19   20.60   -6.50  -69.17
   3.964   -6.69  -69.06   -1.15   19.45   -1.12   19.89   -6.74  -70.33
   4.063   -6.93  -70.14   -1.06   18.43   -1.08   18.64   -6.93  -71.69
   4.162   -7.14  -71.31   -0.98   17.82   -1.01   17.45   -7.14  -72.24
   4.261   -7.38  -71.98   -0.96   17.13   -0.96   16.77   -7.41  -72.88
   4.360   -7.60  -72.85   -0.92   16.15   -0.92   16.17   -7.62  -73.56
   4.459   -7.79  -73.22   -0.89   15.20   -0.86   15.35   -7.89  -74.83
   4.558   -8.01  -74.00   -0.82   14.15   -0.82   14.31   -8.06  -76.08
   4.657   -8.24  -75.14   -0.74   13.69   -0.78   13.38   -8.28  -76.20
   4.756   -8.51  -75.83   -0.74   13.07   -0.74   12.79   -8.49  -76.79
   4.855   -8.71  -76.86   -0.72   12.24   -0.71   12.17   -8.76  -77.26
   4.954   -8.87  -76.80   -0.69   11.43   -0.64   11.38   -9.02  -78.84
   5.053   -9.16  -77.36   -0.64   10.42   -0.61   10.61   -9.16  -80.06
   5.152   -9.37  -78.34   -0.57    9.93   -0.61    9.74   -9.39  -80.22
   5.251   -9.66  -79.29   -0.57    9.37   -0.59    9.19   -9.62  -80.68
   5.350   -9.80  -79.91   -0.55    8.73   -0.56    8.50   -9.91  -81.18
   5.449  -10.06  -79.66   -0.54    7.89   -0.50    7.92  -10.12  -82.82
   5.548  -10.29  -80.24   -0.50    7.17   -0.48    7.23  -10.30  -83.62
   5.647  -10.53  -81.27   -0.46    6.51   -0.49    6.42  -10.52  -84.08
   5.746  -10.75  -81.84   -0.45    6.06   -0.47    5.73  -10.82  -84.57
   5.845  -11.04  -82.32   -0.44    5.32   -0.43    5.25  -10.97  -85.29
   5.944  -11.21  -82.24   -0.42    4.79   -0.39    4.73  -11.26  -86.27
   6.043  -11.53  -82.63   -0.41    4.02   -0.40    4.11  -11.43  -87.01
   6.142  -11.61  -83.57   -0.37    3.51   -0.42    3.25  -11.81  -87.44
   6.241  -11.93  -83.40   -0.38    2.96   -0.39    2.68  -11.97  -88.63
   6.340  -12.20  -84.37   -0.36    2.39   -0.36    2.31  -12.13  -88.56
   6.439  -12.46  -84.48   -0.35    1.85   -0.34    1.94  -12.37  -88.94
   6.538  -12.62  -85.05   -0.34    1.26   -0.36    1.17  -12.68  -90.16
   6.637  -12.81  -85.36   -0.31    0.67   -0.34    0.48  -12.93  -90.79
   6.736  -13.09  -85.53   -0.31    0.25   -0.34   -0.05  -13.13  -91.81
   6.835  -13.46  -86.44   -0.31   -0.44   -0.31   -0.27  -13.20  -91.09
   6.934  -13.56  -87.02   -0.29   -0.81   -0.33   -0.73  -13.56  -91.97
   7.033  -13.85  -86.82   -0.29   -1.41   -0.30   -1.35  -13.78  -92.95
   7.132  -14.01  -87.34   -0.26   -1.84   -0.32   -1.89  -14.08  -94.01
   7.231  -14.35  -87.51   -0.26   -2.40   -0.30   -2.28  -14.27  -94.17
   7.330  -14.60  -88.17   -0.24   -2.85   -0.28   -2.55  -14.47  -94.12
   7.429  -14.81  -88.57   -0.22   -3.42   -0.26   -2.89  -14.78  -93.90
   7.528  -14.97  -88.21   -0.22   -3.84   -0.26   -3.49  -14.98  -95.50
   7.627  -15.19  -88.70   -0.21   -4.42   -0.24   -3.90  -15.27  -95.40
   7.726  -15.29  -88.69   -0.19   -4.81   -0.22   -4.39  -15.51  -96.62
   7.825  -15.68  -90.37   -0.20   -5.44   -0.17   -4.78  -15.59  -95.73
   7.924  -15.83  -90.92   -0.17   -5.91   -0.15   -5.25  -15.90  -96.62
   8.023  -16.22  -90.84   -0.18   -6.38   -0.13   -5.95  -16.08  -97.53
   8.122  -16.33  -90.94   -0.16   -6.79   -0.13   -6.45  -16.42  -98.64
   8.221  -16.59  -90.78   -0.17   -7.25   -0.13   -7.05  -16.67  -99.31
   8.320  -16.86  -91.20   -0.16   -7.74   -0.12   -7.57  -16.91  -99.84
   8.419  -17.08  -91.93   -0.17   -8.29   -0.11   -8.15  -16.99 -100.14
   8.518  -17.28  -91.95   -0.15   -8.68   -0.11   -8.61  -17.29 -100.91
   8.617  -17.51  -92.08   -0.15   -9.10   -0.12   -9.13  -17.57 -101.36
   8.716  -17.66  -91.44   -0.13   -9.53   -0.13   -9.67  -17.90 -102.56
   8.815  -17.97  -92.06   -0.15  -10.00   -0.12  -10.11  -18.02 -102.69
   8.914  -18.16  -92.87   -0.14  -10.49   -0.13  -10.45  -18.30 -102.72
   9.013  -18.44  -93.49   -0.14  -10.83   -0.13  -10.98  -18.59 -103.23
   9.112  -18.67  -93.65   -0.13  -11.17   -0.13  -11.37  -19.02 -103.67
   9.211  -18.86  -94.14   -0.12  -11.72   -0.12  -11.86  -19.25 -103.00
   9.310  -19.24  -95.12   -0.12  -12.17   -0.12  -12.20  -19.36 -102.84
   9.409  -19.66  -95.87   -0.13  -12.59   -0.13  -12.52  -19.52 -102.92
   9.508  -20.00  -95.96   -0.14  -12.92   -0.12  -13.05  -19.82 -103.38
   9.607  -20.26  -95.95   -0.13  -13.29   -0.13  -13.41  -20.17 -103.65
   9.706  -20.49  -95.88   -0.12  -13.70   -0.13  -13.84  -20.46 -103.93
   9.805  -20.80  -96.03   -0.11  -14.10   -0.12  -14.17  -20.78 -103.98
   9.904  -21.15  -97.32   -0.12  -14.52   -0.11  -14.50  -21.02 -103.10
  10.003  -21.43  -98.32   -0.11  -14.98   -0.10  -15.02  -21.40 -102.35
  10.102  -21.74  -98.51   -0.11  -15.37   -0.10  -15.37  -21.70 -101.70
  10.201  -22.04  -98.74   -0.10  -15.81   -0.11  -15.80  -22.01 -102.00
  10.300  -22.40  -99.13   -0.09  -16.18   -0.08  -16.14  -22.25 -101.52
  10.399  -22.80 -100.87   -0.09  -16.57   -0.09  -16.60  -22.50 -101.44
  10.498  -23.18 -101.80   -0.09  -17.01   -0.09  -17.00  -22.97 -100.54
  10.597  -23.62 -102.87   -0.09  -17.43   -0.10  -17.43  -23.32 -100.67
  10.696  -24.05 -103.64   -0.09  -17.90   -0.09  -17.92  -23.82  -99.77
  10.795  -24.50 -103.95   -0.08  -18.19   -0.09  -18.18  -24.24  -99.53
  10.894  -25.08 -105.48   -0.09  -18.57   -0.08  -18.51  -24.72  -97.59
  10.993  -25.60 -106.62   -0.09  -18.97   -0.09  -18.95  -25.06  -96.14
  11.092  -26.28 -108.51   -0.08  -19.36   -0.08  -19.41  -25.55  -94.13
  11.191  -26.75 -108.89   -0.07  -19.74   -0.07  -19.73  -25.96  -93.01
  11.290  -27.53 -110.14   -0.07  -20.10   -0.07  -20.11  -26.55  -91.28
  11.389  -28.09 -111.54   -0.07  -20.48   -0.07  -20.44  -26.92  -89.20
  11.488  -28.95 -114.52   -0.06  -20.90   -0.06  -20.94  -27.55  -86.15
  11.587  -29.78 -115.47   -0.05  -21.29   -0.06  -21.29  -28.02  -83.41
  11.686  -30.62 -118.92   -0.06  -21.73   -0.05  -21.71  -28.64  -80.58
  11.785  -31.60 -121.16   -0.05  -22.12   -0.07  -22.05  -29.25  -77.10
  11.884  -32.83 -126.34   -0.05  -22.47   -0.06  -22.48  -29.90  -72.33
  11.983  -34.05 -131.39   -0.05  -22.90   -0.06  -22.93  -30.53  -66.90
  12.082  -35.53 -138.73   -0.05  -23.32   -0.05  -23.29  -31.15  -61.61
  12.181  -37.05 -148.07   -0.06  -23.69   -0.06  -23.69  -31.65  -54.36
  12.280  -38.75 -161.29   -0.05  -24.07   -0.06  -24.03  -32.11  -46.40
  12.379  -39.60 -179.33   -0.05  -24.48   -0.06  -24.46  -32.53  -37.16
  12.478  -40.06  159.31   -0.05  -24.84   -0.06  -24.85  -32.68  -27.93
  12.577  -38.93  140.54   -0.05  -25.24   -0.06  -25.21  -32.38  -20.05
  12.676  -37.78  122.42   -0.06  -25.58   -0.05  -25.55  -32.01  -10.64
  12.775  -35.94  112.76   -0.06  -26.01   -0.06  -25.95  -31.77   -3.22
  12.874  -34.48  102.20   -0.06  -26.41   -0.08  -26.35  -31.14    4.52
  12.973  -33.05   97.87   -0.06  -26.77   -0.06  -26.74  -30.58   10.19
  13.072  -31.55   90.92   -0.06  -27.11   -0.06  -27.07  -29.76   17.03
  13.171  -30.73   87.19   -0.07  -27.50   -0.06  -27.54  -28.94   20.40
  13.270  -29.48   82.01   -0.07  -27.89   -0.08  -27.75  -28.32   26.38
  13.369  -28.83   79.42   -0.07  -28.27   -0.09  -28.27  -27.77   28.09
  13.468  -27.79   76.73   -0.06  -28.68   -0.06  -28.65  -27.13   32.12
  13.567  -27.32   75.30   -0.07  -28.99   -0.10  -28.82  -26.47   33.69
  13.666  -26.49   73.33   -0.06  -29.33   -0.07  -29.45  -25.86   37.33
  13.765  -26.03   71.09   -0.08  -29.68   -0.09  -29.71  -25.26   38.18
  13.864  -25.13   69.97   -0.08  -30.12   -0.08  -30.06  -24.85   41.35
  13.963  -24.59   68.01   -0.07  -30.44   -0.08  -30.39  -24.28   42.45
  14.062  -23.97   66.95   -0.09  -30.79   -0.09  -30.71  -23.93   44.43
  14.161  -23.59   65.25   -0.09  -31.08   -0.08  -31.13  -23.21   44.97
  14.260  -23.15   63.83   -0.10  -31.51   -0.10  -31.54  -22.76   46.77
  14.359  -22.59   62.08   -0.09  -31.88   -0.10  -31.85  -22.29   47.54
  14.458  -22.08   61.30   -0.09  -32.28   -0.10  -32.20  -22.14   48.64
  14.557  -21.64   59.78   -0.10  -32.68   -0.11  -32.56  -21.65   49.92
  14.656  -21.54   58.22   -0.11  -33.03   -0.11  -33.02  -21.16   50.85
  14.755  -21.26   57.34   -0.13  -33.31   -0.13  -33.44  -20.54   52.07
  14.854  -20.96   57.00   -0.13  -33.62   -0.14  -33.60  -20.23   51.42
  14.953  -20.53   56.49   -0.13  -33.99   -0.13  -34.07  -19.99   51.28
  15.052  -20.22   55.62   -0.13  -34.35   -0.14  -34.32  -19.79   51.03
  15.151  -19.98   55.27   -0.14  -34.68   -0.15  -34.55  -19.49   52.29
  15.250  -19.77   54.09   -0.15  -34.93   -0.15  -34.98  -19.12   51.85
  15.349  -19.39   53.60   -0.15  -35.31   -0.16  -35.33  -19.02   52.41
  15.448  -19.11   52.73   -0.15  -35.63   -0.16  -35.69  -18.81   52.09
  15.547  -18.80   52.35   -0.17  -36.05   -0.15  -36.01  -18.71   52.50
  15.646  -18.65   51.86   -0.16  -36.40   -0.17  -36.23  -18.35   52.84
  15.745  -18.43   50.37   -0.18  -36.75   -0.16  -36.71  -18.24   53.89
  15.844  -18.22   50.13   -0.18  -37.10   -0.20  -37.10  -17.95   53.92
  15.943  -18.02   49.28   -0.20  -37.47   -0.19  -37.48  -17.88   54.04
  16.042  -17.77   49.91   -0.20  -37.80   -0.21  -37.62  -17.66   53.71
  16.141  -17.63   49.00   -0.20  -38.22   -0.19  -38.13  -17.48   53.82
  16.240  -17.47   48.36   -0.21  -38.46   -0.21  -38.39  -17.24   54.71
  16.339  -17.29   47.82   -0.22  -38.71   -0.23  -38.76  -17.06   54.70
  16.438  -17.13   47.76   -0.23  -39.00   -0.24  -38.96  -16.91   54.81
  16.537  -16.93   47.57   -0.24  -39.38   -0.24  -39.31  -16.77   54.20
  16.636  -16.76   46.96   -0.24  -39.70   -0.24  -39.71  -16.60   54.38
  16.735  -16.58   46.60   -0.24  -40.13   -0.24  -39.99  -16.46   54.09
  16.834  -16.56   45.87   -0.25  -40.21   -0.27  -40.35  -16.29   54.51
  16.933  -16.35   45.97   -0.26  -40.61   -0.28  -40.67  -16.14   53.90
  17.032  -16.32   45.19   -0.26  -40.72   -0.27  -40.85  -16.04   53.94
  17.131  -16.03   45.21   -0.28  -41.27   -0.26  -41.22  -15.95   53.37
  17.230  -15.99   44.18   -0.26  -41.48   -0.28  -41.64  -15.85   52.84
  17.329  -15.87   44.39   -0.26  -41.89   -0.29  -41.86  -15.66   52.76
  17.428  -15.81   43.08   -0.26  -42.05   -0.30  -42.19  -15.58   52.37
  17.527  -15.55   43.52   -0.27  -42.53   -0.28  -42.48  -15.53   51.73
  17.626  -15.45   42.34   -0.26  -42.76   -0.28  -42.90  -15.47   50.80
  17.725  -15.37   42.75   -0.26  -43.25   -0.28  -43.11  -15.37   50.15
  17.824  -15.34   41.51   -0.27  -43.54   -0.30  -43.57  -15.22   49.64
  17.923  -15.25   41.54   -0.29  -43.78   -0.31  -43.88  -15.37   49.22
  18.022  -15.11   41.17   -0.29  -44.18   -0.32  -44.18  -15.16   48.24
  18.121  -15.04   41.92   -0.30  -44.60   -0.30  -44.50  -15.18   47.07
  18.220  -15.03   40.96   -0.29  -44.87   -0.32  -44.80  -14.99   46.96
  18.319  -15.01   40.81   -0.30  -45.18   -0.32  -45.17  -15.02   46.00
  18.418  -14.89   41.04   -0.31  -45.45   -0.33  -45.46  -14.97   45.46
  18.517  -14.85   41.77   -0.31  -45.82   -0.31  -45.65  -14.94   44.14
  18.616  -14.77   41.86   -0.29  -46.20   -0.31  -45.93  -14.80   43.75
  18.715  -14.72   41.54   -0.29  -46.56   -0.30  -46.28  -14.77   42.35
  18.814  -14.66   41.50   -0.29  -46.92   -0.31  -46.75  -14.75   42.26
  18.913  -14.61   41.75   -0.29  -47.27   -0.31  -47.11  -14.68   40.75
  19.012  -14.59   42.34   -0.29  -47.68   -0.31  -47.25  -14.57   40.37
  19.111  -14.46   42.20   -0.29  -48.03   -0.29  -47.63  -14.47   39.13
  19.210  -14.38   42.66   -0.28  -48.33   -0.30  -48.04  -14.51   38.75
  19.309  -14.24   42.29   -0.28  -48.70   -0.31  -48.50  -14.39   37.74
  19.408  -14.21   42.75   -0.29  -49.07   -0.30  -48.85  -14.35   36.58
  19.507  -14.18   42.57   -0.30  -49.55   -0.32  -49.09  -14.09   36.10
  19.606  -14.02   42.67   -0.31  -49.78   -0.30  -49.55  -14.17   34.66
  19.705  -13.92   42.58   -0.31  -50.21   -0.31  -49.84  -13.98   33.88
  19.804  -13.79   42.77   -0.31  -50.40   -0.32  -50.34  -14.06   32.29
  19.903  -13.80   42.93   -0.30  -50.92   -0.32  -50.59  -13.81   31.46
  20.002  -13.73   42.38   -0.31  -51.28   -0.31  -50.95  -13.73   30.39
  20.101  -13.66   42.73   -0.31  -51.72   -0.33  -51.33  -13.69   29.53
  20.200  -13.51   42.93   -0.31  -52.03   -0.31  -51.89  -13.68   27.74
  20.299  -13.47   43.38   -0.32  -52.45   -0.33  -52.24  -13.58   27.01
  20.398  -13.41   43.12   -0.31  -52.76   -0.32  -52.65  -13.48   25.96
  20.497  -13.40   43.04   -0.32  -53.23   -0.34  -52.80  -13.40   25.82
  20.596  -13.19   43.25   -0.33  -53.64   -0.35  -53.39  -13.37   24.60
  20.695  -13.14   44.05   -0.34  -53.98   -0.36  -53.90  -13.31   23.06
  20.794  -13.03   44.05   -0.34  -54.40   -0.36  -54.37  -13.19   22.40
  20.893  -12.98   43.79   -0.36  -54.79   -0.36  -54.68  -13.12   21.98
  20.992  -12.85   43.33   -0.38  -55.24   -0.39  -54.84  -13.07   22.05
  21.091  -12.69   43.54   -0.39  -55.46   -0.42  -55.33  -13.05   20.78
  21.190  -12.70   44.25   -0.43  -55.91   -0.41  -55.97  -12.87   19.57
  21.289  -12.62   43.22   -0.43  -56.25   -0.43  -56.03  -12.85   19.75
  21.388  -12.58   43.38   -0.45  -56.64   -0.44  -56.17  -12.80   20.16
  21.487  -12.34   42.73   -0.44  -57.08   -0.47  -56.65  -12.73   20.17
  21.586  -12.44   43.75   -0.47  -57.28   -0.47  -57.22  -12.56   19.33
  21.685  -12.26   43.25   -0.48  -57.73   -0.48  -57.54  -12.32   19.68
  21.784  -12.20   43.80   -0.50  -57.96   -0.49  -57.79  -12.21   19.70
  21.883  -11.85   43.15   -0.51  -58.40   -0.53  -58.13  -12.10   19.78
  21.982  -11.80   42.96   -0.53  -58.78   -0.54  -58.70  -11.89   18.86
  22.081  -11.55   42.20   -0.52  -59.14   -0.54  -58.93  -11.70   19.42
  22.180  -11.56   41.54   -0.56  -59.32   -0.55  -59.22  -11.52   18.63
  22.279  -11.29   40.42   -0.57  -59.83   -0.59  -59.55  -11.44   19.37
  22.378  -11.32   40.09   -0.58  -59.97   -0.60  -59.96  -11.28   18.18
  22.477  -11.09   39.47   -0.59  -60.47   -0.61  -60.20  -11.20   18.81
  22.576  -11.12   39.03   -0.59  -60.69   -0.59  -60.69  -10.93   18.00
  22.675  -10.95   38.25   -0.63  -61.18   -0.61  -60.86  -10.84   19.09
  22.774  -10.84   37.41   -0.65  -61.61   -0.64  -61.47  -10.67   17.99
  22.873  -10.62   36.73   -0.64  -61.94   -0.66  -61.66  -10.67   18.50
  22.972  -10.55   36.23   -0.66  -62.27   -0.67  -62.04  -10.48   17.96
  23.071  -10.46   35.07   -0.67  -62.63   -0.67  -62.24  -10.38   18.60
  23.170  -10.41   34.90   -0.70  -62.94   -0.69  -62.59  -10.20   18.13
  23.269  -10.37   33.79   -0.71  -63.42   -0.71  -63.06  -10.13   18.24
  23.368  -10.19   33.54   -0.71  -63.72   -0.72  -63.41  -10.02   18.40
  23.467  -10.08   33.11   -0.71  -63.98   -0.74  -63.79   -9.94   18.14
  23.566  -10.02   32.70   -0.72  -64.36   -0.74  -64.01   -9.78   18.48
  23.665   -9.96   32.08   -0.75  -64.71   -0.76  -64.61   -9.64   18.17
  23.764   -9.89   31.16   -0.78  -65.21   -0.76  -65.09   -9.48   18.74
  23.863   -9.69   30.85   -0.77  -65.53   -0.79  -65.30   -9.43   18.39
  23.962   -9.61   30.77   -0.80  -65.90   -0.81  -65.65   -9.30   18.45
  24.061   -9.49   29.88   -0.83  -66.29   -0.81  -66.04   -9.07   18.36
  24.160   -9.48   29.35   -0.86  -66.80   -0.86  -66.46   -8.94   18.29
  24.259   -9.26   28.26   -0.87  -67.36   -0.86  -67.06   -8.77   17.97
  24.358   -9.18   27.39   -0.93  -67.74   -0.89  -67.41   -8.71   17.92
  24.457   -8.97   27.16   -0.93  -68.21   -0.96  -67.86   -8.60   17.01
  24.556   -9.08   26.26   -0.98  -68.42   -0.96  -68.27   -8.38   16.72
  24.655   -8.88   25.31   -1.01  -69.01   -0.98  -68.63   -8.27   16.75
  24.754   -8.89   24.54   -1.06  -69.30   -1.03  -69.10   -8.17   15.88
  24.853   -8.71   23.77   -1.10  -69.94   -1.07  -69.57   -8.08   15.73
  24.952   -8.65   23.14   -1.13  -70.31   -1.12  -70.06   -7.97   14.42
  25.051   -8.56   22.08   -1.21  -70.81   -1.15  -70.37   -7.82   14.45
  25.150   -8.53   20.87   -1.23  -71.35   -1.23  -71.15   -7.74   13.26
  25.249   -8.46   19.99   -1.31  -71.79   -1.32  -71.87   -7.64   12.62
  25.348   -8.34   18.67   -1.40  -72.27   -1.37  -72.55   -7.54   11.12
  25.447   -8.29   17.65   -1.50  -72.81   -1.47  -72.19   -7.48   10.54
  25.546   -8.20   15.79   -1.59  -73.11   -1.56  -73.49   -7.29    8.55
  25.645   -8.22   13.55   -1.73  -73.54   -1.67  -73.60   -7.26    7.16
  25.744   -8.05   12.07   -1.87  -73.92   -1.83  -73.54   -7.20    5.33
  25.843   -8.10    9.49   -2.07  -74.10   -2.02  -73.39   -7.21    3.30
  25.942   -8.14    7.13   -2.26  -74.02   -2.23  -73.59   -7.30   -0.37
  26.041   -8.34    2.97   -2.51  -73.07   -2.44  -72.51   -7.51   -2.93
  26.140   -8.73   -0.22   -2.71  -71.66   -2.64  -71.61   -7.98   -6.94
  26.239   -9.40   -3.21   -2.74  -69.35   -2.69  -69.00   -8.61   -9.42
  26.338  -10.39   -3.84   -2.64  -67.14   -2.58  -66.65   -9.50   -9.72
  26.437  -11.28   -2.96   -2.35  -65.55   -2.32  -65.49  -10.38   -7.32
  26.536  -11.97    2.09   -2.06  -65.29   -2.03  -65.47  -11.07   -3.92
  26.635  -12.33    6.76   -1.83  -65.72   -1.77  -65.84  -11.22    1.11
  26.734  -12.39   11.80   -1.62  -66.45   -1.61  -66.45  -11.13    5.06
