!  American Technical Ceramics   Date:  4/27/2005
!  One Norden Lane
!  Huntington Station,  NY.   11746-2102
!  Tel:  (631) 622-4700               Fax:  (631) 622-4748
!  Part Number  600L1R2AT      Mounting Orientation:  Horizontal  
!  Description: Ultra Low ESR Microwave capacitors
!  Application: Coupling, Bypass, Tuning, DC Block
!               Filters, Matching
# GHZ S DB R 50
! Freq   |S11|   S11 Ph  |S21|   S21 Ph  |S12|   S12 Ph  |S22|   S22 Ph
    0.00    0.00    0.00 -999.00   90.00  -999.00  90.00    0.00    0.00
   0.010   -0.01   -0.47  -42.64   88.96  -42.36   89.88   -0.01   -0.58
   0.014   -0.01   -0.69  -39.40   89.17  -39.30   89.20   -0.01   -0.70
   0.019   -0.01   -0.90  -37.06   89.23  -37.04   88.88   -0.01   -0.84
   0.023   -0.01   -1.09  -35.23   88.81  -35.22   88.94   -0.01   -1.02
   0.027   -0.01   -1.28  -33.76   88.86  -33.71   88.77   -0.01   -1.20
   0.032    0.00   -1.47  -32.47   88.62  -32.43   88.50   -0.01   -1.38
   0.036    0.00   -1.66  -31.35   88.37  -31.33   88.46   -0.01   -1.60
   0.041    0.00   -1.87  -30.37   88.19  -30.32   88.23   -0.01   -1.72
   0.045   -0.01   -2.06  -29.47   88.01  -29.44   87.97   -0.01   -1.92
   0.049   -0.01   -2.25  -28.66   87.91  -28.65   87.78   -0.01   -2.13
   0.054   -0.01   -2.43  -27.93   87.69  -27.89   87.64   -0.01   -2.34
   0.058   -0.01   -2.61  -27.26   87.42  -27.22   87.53   -0.01   -2.54
   0.062   -0.01   -2.79  -26.63   87.17  -26.59   87.28   -0.01   -2.73
   0.067   -0.01   -2.98  -26.05   87.02  -26.00   86.99   -0.01   -2.93
   0.071   -0.02   -3.16  -25.49   86.87  -25.45   86.81   -0.01   -3.12
   0.075   -0.02   -3.35  -24.98   86.69  -24.93   86.68   -0.01   -3.31
   0.080   -0.02   -3.54  -24.50   86.51  -24.46   86.48   -0.01   -3.50
   0.084   -0.02   -3.73  -24.03   86.29  -23.99   86.28   -0.01   -3.68
   0.089   -0.02   -3.92  -23.59   86.04  -23.56   86.12   -0.01   -3.87
   0.093   -0.02   -4.11  -23.18   85.97  -23.14   85.89   -0.01   -4.05
   0.097   -0.02   -4.30  -22.78   85.74  -22.74   85.69   -0.01   -4.24
   0.102   -0.03   -4.50  -22.40   85.55  -22.36   85.49   -0.01   -4.43
   0.106   -0.03   -4.69  -22.03   85.33  -22.00   85.33   -0.01   -4.61
   0.110   -0.03   -4.88  -21.69   85.13  -21.65   85.14   -0.01   -4.80
   0.115   -0.03   -5.08  -21.35   84.96  -21.31   84.96   -0.01   -4.99
   0.119   -0.04   -5.27  -21.03   84.75  -20.99   84.75   -0.01   -5.18
   0.123   -0.04   -5.46  -20.72   84.58  -20.68   84.56   -0.01   -5.37
   0.128   -0.04   -5.65  -20.42   84.35  -20.38   84.35   -0.01   -5.56
   0.132   -0.05   -5.84  -20.13   84.14  -20.10   84.16    0.00   -5.76
   0.137   -0.05   -6.02  -19.85   83.97  -19.81   83.95   -0.01   -5.95
   0.141   -0.05   -6.21  -19.58   83.81  -19.55   83.77   -0.01   -6.14
   0.145   -0.06   -6.40  -19.32   83.58  -19.28   83.57   -0.01   -6.33
   0.150   -0.06   -6.59  -19.06   83.40  -19.03   83.39   -0.02   -6.52
   0.154   -0.06   -6.78  -18.82   83.24  -18.78   83.19   -0.02   -6.70
   0.158   -0.07   -6.96  -18.58   83.03  -18.54   83.02   -0.03   -6.89
   0.163   -0.07   -7.15  -18.34   82.84  -18.31   82.82   -0.03   -7.08
   0.167   -0.07   -7.35  -18.12   82.64  -18.08   82.64   -0.03   -7.26
   0.171   -0.08   -7.54  -17.90   82.47  -17.86   82.44   -0.04   -7.45
   0.176   -0.08   -7.73  -17.69   82.29  -17.65   82.26   -0.04   -7.63
   0.180   -0.09   -7.92  -17.47   82.09  -17.44   82.07   -0.04   -7.82
   0.185   -0.09   -8.12  -17.27   81.90  -17.23   81.89   -0.05   -8.01
   0.189   -0.09   -8.31  -17.07   81.70  -17.04   81.69   -0.05   -8.20
   0.193   -0.10   -8.50  -16.88   81.52  -16.84   81.50   -0.06   -8.38
   0.198   -0.10   -8.69  -16.69   81.31  -16.65   81.30   -0.06   -8.57
   0.202   -0.11   -8.88  -16.50   81.11  -16.46   81.11   -0.06   -8.76
   0.206   -0.11   -9.07  -16.32   80.93  -16.28   80.93   -0.07   -8.95
   0.211   -0.12   -9.26  -16.14   80.75  -16.11   80.74   -0.07   -9.13
   0.215   -0.12   -9.44  -15.97   80.58  -15.94   80.55   -0.08   -9.32
   0.219   -0.13   -9.63  -15.80   80.37  -15.77   80.36   -0.08   -9.50
   0.224   -0.13   -9.82  -15.63   80.19  -15.60   80.18   -0.09   -9.70
   0.228   -0.13  -10.00  -15.47   80.01  -15.43   79.99   -0.09   -9.88
   0.232   -0.14  -10.19  -15.31   79.84  -15.28   79.82   -0.10  -10.06
   0.237   -0.14  -10.37  -15.16   79.64  -15.12   79.62   -0.10  -10.25
   0.241   -0.15  -10.57  -15.00   79.46  -14.96   79.44   -0.11  -10.43
   0.246   -0.15  -10.74  -14.85   79.29  -14.81   79.27   -0.11  -10.61
   0.250   -0.16  -10.94  -14.70   79.12  -14.67   79.09   -0.12  -10.79
   0.254   -0.16  -11.12  -14.56   78.93  -14.52   78.91   -0.12  -10.97
   0.259   -0.17  -11.31  -14.41   78.73  -14.38   78.70   -0.13  -11.16
   0.263   -0.17  -11.49  -14.27   78.54  -14.24   78.52   -0.13  -11.34
   0.267   -0.18  -11.67  -14.14   78.35  -14.10   78.34   -0.13  -11.52
   0.272   -0.18  -11.86  -14.00   78.17  -13.97   78.14   -0.14  -11.70
   0.276   -0.19  -12.04  -13.87   77.98  -13.83   77.95   -0.15  -11.89
   0.280   -0.20  -12.22  -13.74   77.78  -13.70   77.77   -0.15  -12.07
   0.285   -0.20  -12.41  -13.61   77.59  -13.57   77.57   -0.16  -12.25
   0.289   -0.21  -12.59  -13.48   77.41  -13.45   77.39   -0.16  -12.44
   0.294   -0.22  -12.77  -13.36   77.22  -13.32   77.20   -0.17  -12.62
   0.298   -0.22  -12.95  -13.24   77.04  -13.20   77.02   -0.17  -12.80
   0.302   -0.23  -13.13  -13.12   76.85  -13.08   76.83   -0.18  -12.98
   0.307   -0.23  -13.31  -13.00   76.67  -12.96   76.64   -0.19  -13.16
   0.311   -0.24  -13.49  -12.88   76.48  -12.85   76.47   -0.19  -13.34
   0.315   -0.25  -13.67  -12.77   76.30  -12.73   76.28   -0.20  -13.52
   0.320   -0.25  -13.86  -12.66   76.11  -12.62   76.08   -0.21  -13.70
   0.324   -0.26  -14.04  -12.54   75.92  -12.51   75.89   -0.21  -13.88
   0.328   -0.27  -14.23  -12.43   75.74  -12.40   75.72   -0.22  -14.06
   0.333   -0.28  -14.41  -12.33   75.56  -12.29   75.53   -0.23  -14.23
   0.337   -0.28  -14.59  -12.22   75.37  -12.18   75.33   -0.23  -14.41
   0.342   -0.29  -14.78  -12.11   75.17  -12.08   75.14   -0.24  -14.59
   0.346   -0.30  -14.96  -12.01   74.99  -11.97   74.96   -0.25  -14.77
   0.350   -0.30  -15.15  -11.91   74.80  -11.87   74.78   -0.26  -14.95
   0.355   -0.31  -15.33  -11.81   74.62  -11.77   74.59   -0.26  -15.12
   0.359   -0.32  -15.51  -11.71   74.43  -11.67   74.41   -0.27  -15.30
   0.363   -0.33  -15.70  -11.61   74.25  -11.57   74.22   -0.28  -15.48
   0.368   -0.34  -15.87  -11.51   74.06  -11.48   74.04   -0.28  -15.67
   0.372   -0.34  -16.06  -11.42   73.88  -11.38   73.85   -0.29  -15.85
   0.376   -0.35  -16.24  -11.33   73.71  -11.29   73.67   -0.30  -16.03
   0.381   -0.36  -16.42  -11.23   73.53  -11.20   73.50   -0.31  -16.20
   0.385   -0.37  -16.59  -11.14   73.35  -11.11   73.32   -0.32  -16.38
   0.390   -0.38  -16.78  -11.05   73.17  -11.02   73.14   -0.32  -16.56
   0.394   -0.38  -16.95  -10.96   73.00  -10.93   72.97   -0.33  -16.74
   0.398   -0.39  -17.13  -10.88   72.82  -10.84   72.79   -0.34  -16.91
   0.403   -0.40  -17.31  -10.79   72.64  -10.75   72.61   -0.35  -17.09
   0.407   -0.41  -17.49  -10.71   72.47  -10.67   72.43   -0.36  -17.26
   0.411   -0.41  -17.66  -10.62   72.29  -10.58   72.26   -0.36  -17.44
   0.416   -0.42  -17.84  -10.54   72.11  -10.50   72.08   -0.37  -17.61
   0.420   -0.43  -18.02  -10.45   71.93  -10.42   71.89   -0.38  -17.79
   0.424   -0.44  -18.20  -10.37   71.76  -10.34   71.72   -0.39  -17.96
   0.429   -0.45  -18.37  -10.29   71.58  -10.26   71.55   -0.40  -18.13
   0.433   -0.45  -18.55  -10.21   71.41  -10.18   71.38   -0.41  -18.30
   0.438   -0.46  -18.72  -10.13   71.23  -10.10   71.20   -0.41  -18.48
   0.442   -0.47  -18.89  -10.06   71.06  -10.02   71.02   -0.42  -18.65
   0.446   -0.48  -19.07   -9.98   70.88   -9.94   70.86   -0.43  -18.82
   0.451   -0.49  -19.23   -9.91   70.72   -9.87   70.69   -0.44  -18.99
   0.455   -0.50  -19.40   -9.83   70.55   -9.79   70.51   -0.45  -19.16
   0.459   -0.51  -19.58   -9.76   70.37   -9.72   70.34   -0.46  -19.34
   0.464   -0.52  -19.74   -9.68   70.21   -9.65   70.17   -0.47  -19.50
   0.468   -0.52  -19.91   -9.61   70.03   -9.57   70.00   -0.48  -19.67
   0.472   -0.53  -20.07   -9.54   69.86   -9.50   69.83   -0.48  -19.83
   0.477   -0.54  -20.24   -9.47   69.69   -9.43   69.65   -0.49  -20.01
   0.481   -0.55  -20.41   -9.40   69.52   -9.36   69.47   -0.50  -20.18
   0.486   -0.56  -20.57   -9.33   69.34   -9.29   69.31   -0.51  -20.34
   0.490   -0.57  -20.74   -9.26   69.18   -9.22   69.13   -0.52  -20.51
   0.494   -0.58  -20.91   -9.19   68.99   -9.16   68.95   -0.53  -20.67
   0.499   -0.59  -21.08   -9.13   68.82   -9.09   68.78   -0.54  -20.84
   0.503   -0.60  -21.25   -9.06   68.65   -9.02   68.61   -0.55  -21.00
   0.507   -0.61  -21.41   -9.00   68.47   -8.96   68.43   -0.56  -21.17
   0.512   -0.62  -21.58   -8.93   68.30   -8.89   68.26   -0.57  -21.33
   0.516   -0.63  -21.75   -8.87   68.12   -8.83   68.09   -0.58  -21.49
   0.520   -0.64  -21.92   -8.81   67.95   -8.77   67.92   -0.59  -21.66
   0.525   -0.65  -22.08   -8.74   67.78   -8.71   67.75   -0.60  -21.82
   0.529   -0.66  -22.25   -8.68   67.61   -8.65   67.58   -0.61  -21.98
   0.534   -0.67  -22.42   -8.62   67.44   -8.58   67.41   -0.62  -22.15
   0.538   -0.68  -22.58   -8.56   67.28   -8.52   67.24   -0.63  -22.31
   0.542   -0.70  -22.74   -8.50   67.11   -8.46   67.07   -0.64  -22.47
   0.547   -0.71  -22.91   -8.44   66.94   -8.40   66.90   -0.65  -22.64
   0.551   -0.72  -23.08   -8.38   66.78   -8.34   66.73   -0.66  -22.80
   0.555   -0.73  -23.24   -8.32   66.61   -8.29   66.56   -0.67  -22.96
   0.560   -0.74  -23.40   -8.26   66.44   -8.23   66.39   -0.68  -23.13
   0.564   -0.75  -23.57   -8.21   66.27   -8.17   66.22   -0.69  -23.29
   0.568   -0.76  -23.74   -8.15   66.10   -8.11   66.05   -0.71  -23.46
   0.573   -0.77  -23.90   -8.09   65.93   -8.06   65.89   -0.72  -23.62
   0.577   -0.78  -24.06   -8.04   65.77   -8.00   65.72   -0.73  -23.78
   0.581   -0.79  -24.23   -7.99   65.60   -7.95   65.55   -0.74  -23.94
   0.586   -0.80  -24.39   -7.93   65.42   -7.89   65.39   -0.75  -24.10
   0.590   -0.81  -24.55   -7.88   65.27   -7.84   65.22   -0.76  -24.26
   0.595   -0.83  -24.72   -7.82   65.09   -7.79   65.05   -0.77  -24.42
   0.599   -0.84  -24.88   -7.77   64.93   -7.74   64.89   -0.78  -24.58
   0.603   -0.85  -25.05   -7.72   64.77   -7.68   64.73   -0.79  -24.74
   0.608   -0.86  -25.21   -7.67   64.61   -7.63   64.57   -0.81  -24.90
   0.612   -0.87  -25.37   -7.62   64.45   -7.58   64.41   -0.82  -25.06
   0.616   -0.88  -25.53   -7.57   64.29   -7.53   64.25   -0.83  -25.22
   0.621   -0.89  -25.69   -7.52   64.13   -7.48   64.09   -0.84  -25.37
   0.625   -0.90  -25.85   -7.47   63.98   -7.43   63.93   -0.85  -25.53
   0.629   -0.91  -26.01   -7.42   63.82   -7.38   63.77   -0.86  -25.69
   0.634   -0.92  -26.16   -7.37   63.67   -7.33   63.62   -0.87  -25.84
   0.638   -0.94  -26.32   -7.32   63.51   -7.29   63.46   -0.88  -26.00
   0.643   -0.95  -26.48   -7.27   63.35   -7.24   63.30   -0.90  -26.16
   0.647   -0.96  -26.63   -7.23   63.19   -7.19   63.14   -0.91  -26.31
   0.651   -0.97  -26.78   -7.18   63.03   -7.15   62.98   -0.92  -26.47
   0.656   -0.98  -26.94   -7.13   62.87   -7.10   62.82   -0.93  -26.62
   0.660   -0.99  -27.09   -7.09   62.72   -7.05   62.67   -0.94  -26.77
   0.664   -1.01  -27.24   -7.04   62.56   -7.01   62.51   -0.95  -26.92
   0.669   -1.02  -27.39   -7.00   62.40   -6.97   62.36   -0.97  -27.07
   0.673   -1.03  -27.55   -6.96   62.25   -6.92   62.20   -0.98  -27.22
   0.677   -1.04  -27.70   -6.91   62.09   -6.88   62.05   -0.99  -27.37
   0.682   -1.05  -27.85   -6.87   61.94   -6.83   61.90   -1.00  -27.51
   0.686   -1.06  -28.00   -6.83   61.79   -6.79   61.74   -1.01  -27.66
   0.691   -1.08  -28.15   -6.78   61.64   -6.75   61.59   -1.03  -27.81
   0.695   -1.09  -28.30   -6.74   61.48   -6.71   61.44   -1.04  -27.96
   0.699   -1.10  -28.46   -6.70   61.33   -6.66   61.29   -1.05  -28.11
   0.704   -1.11  -28.60   -6.66   61.19   -6.62   61.13   -1.06  -28.25
   0.708   -1.13  -28.75   -6.62   61.04   -6.58   60.98   -1.07  -28.40
   0.712   -1.14  -28.89   -6.57   60.89   -6.54   60.83   -1.08  -28.54
   0.717   -1.15  -29.04   -6.53   60.74   -6.50   60.68   -1.10  -28.69
   0.721   -1.16  -29.18   -6.49   60.58   -6.46   60.52   -1.11  -28.84
   0.725   -1.18  -29.33   -6.45   60.43   -6.42   60.37   -1.12  -28.98
   0.730   -1.19  -29.48   -6.41   60.28   -6.38   60.23   -1.13  -29.13
   0.734   -1.20  -29.62   -6.37   60.13   -6.34   60.07   -1.15  -29.27
   0.739   -1.21  -29.77   -6.33   59.97   -6.30   59.92   -1.16  -29.42
   0.743   -1.23  -29.91   -6.30   59.82   -6.26   59.76   -1.17  -29.56
   0.747   -1.24  -30.06   -6.26   59.67   -6.22   59.61   -1.19  -29.71
   0.752   -1.25  -30.21   -6.22   59.51   -6.19   59.46   -1.20  -29.85
   0.756   -1.26  -30.36   -6.18   59.36   -6.15   59.32   -1.21  -29.99
   0.760   -1.28  -30.50   -6.15   59.21   -6.11   59.17   -1.23  -30.14
   0.765   -1.29  -30.65   -6.11   59.07   -6.08   59.02   -1.24  -30.28
   0.769   -1.30  -30.80   -6.08   58.92   -6.04   58.87   -1.25  -30.43
   0.773   -1.31  -30.95   -6.04   58.77   -6.00   58.73   -1.26  -30.56
   0.778   -1.33  -31.09   -6.00   58.62   -5.97   58.58   -1.28  -30.71
   0.782   -1.34  -31.24   -5.97   58.48   -5.93   58.43   -1.29  -30.85
   0.787   -1.35  -31.38   -5.93   58.34   -5.90   58.29   -1.30  -30.99
   0.791   -1.37  -31.52   -5.90   58.20   -5.86   58.14   -1.32  -31.13
   0.795   -1.38  -31.66   -5.86   58.05   -5.83   58.00   -1.33  -31.27
   0.800   -1.39  -31.81   -5.83   57.91   -5.79   57.85   -1.34  -31.41
   0.804   -1.41  -31.95   -5.79   57.76   -5.76   57.71   -1.36  -31.55
   0.808   -1.42  -32.09   -5.76   57.62   -5.72   57.57   -1.37  -31.68
   0.813   -1.43  -32.23   -5.73   57.47   -5.69   57.42   -1.38  -31.83
   0.817   -1.45  -32.37   -5.69   57.33   -5.66   57.27   -1.39  -31.96
   0.821   -1.46  -32.51   -5.66   57.19   -5.63   57.13   -1.41  -32.10
   0.826   -1.47  -32.64   -5.63   57.05   -5.59   57.00   -1.42  -32.24
   0.830   -1.48  -32.79   -5.60   56.91   -5.56   56.85   -1.43  -32.37
   0.835   -1.50  -32.93   -5.57   56.77   -5.53   56.72   -1.45  -32.51
   0.839   -1.51  -33.06   -5.53   56.64   -5.50   56.58   -1.46  -32.64
   0.843   -1.52  -33.21   -5.50   56.50   -5.47   56.45   -1.47  -32.77
   0.848   -1.54  -33.35   -5.47   56.36   -5.44   56.31   -1.49  -32.91
   0.852   -1.55  -33.49   -5.44   56.22   -5.41   56.17   -1.50  -33.04
   0.856   -1.56  -33.62   -5.41   56.09   -5.37   56.04   -1.51  -33.17
   0.861   -1.58  -33.76   -5.38   55.96   -5.34   55.90   -1.53  -33.30
   0.865   -1.59  -33.89   -5.35   55.82   -5.31   55.77   -1.54  -33.43
   0.869   -1.60  -34.03   -5.32   55.69   -5.28   55.63   -1.55  -33.56
   0.874   -1.62  -34.16   -5.29   55.55   -5.25   55.49   -1.57  -33.69
   0.878   -1.63  -34.29   -5.26   55.42   -5.22   55.35   -1.58  -33.82
   0.883   -1.64  -34.43   -5.23   55.28   -5.19   55.22   -1.59  -33.95
   0.887   -1.66  -34.56   -5.20   55.14   -5.17   55.09   -1.61  -34.08
   0.891   -1.67  -34.70   -5.17   55.00   -5.14   54.95   -1.62  -34.21
   0.896   -1.68  -34.82   -5.14   54.87   -5.11   54.82   -1.63  -34.34
   0.900   -1.70  -34.95   -5.12   54.73   -5.08   54.68   -1.65  -34.47
   0.904   -1.71  -35.08   -5.09   54.60   -5.05   54.55   -1.66  -34.59
   0.909   -1.72  -35.21   -5.06   54.47   -5.03   54.42   -1.67  -34.72
   0.913   -1.74  -35.34   -5.03   54.34   -5.00   54.29   -1.69  -34.85
   0.917   -1.75  -35.47   -5.01   54.22   -4.97   54.16   -1.70  -34.97
   0.922   -1.76  -35.60   -4.98   54.09   -4.94   54.03   -1.72  -35.11
   0.926   -1.78  -35.73   -4.95   53.96   -4.92   53.90   -1.73  -35.22
   0.930   -1.79  -35.86   -4.93   53.83   -4.89   53.78   -1.74  -35.34
   0.935   -1.80  -35.98   -4.90   53.71   -4.86   53.65   -1.76  -35.47
   0.939   -1.82  -36.12   -4.87   53.58   -4.84   53.52   -1.77  -35.59
   0.944   -1.83  -36.25   -4.85   53.45   -4.81   53.39   -1.79  -35.72
   0.948   -1.85  -36.37   -4.82   53.33   -4.79   53.26   -1.80  -35.84
   0.952   -1.86  -36.50   -4.79   53.20   -4.76   53.13   -1.81  -35.96
   0.957   -1.88  -36.63   -4.77   53.07   -4.73   53.00   -1.83  -36.08
   0.961   -1.89  -36.75   -4.74   52.94   -4.71   52.87   -1.84  -36.20
   0.965   -1.90  -36.87   -4.72   52.81   -4.68   52.74   -1.85  -36.33
   0.970   -1.92  -37.00   -4.69   52.67   -4.66   52.61   -1.87  -36.44
   0.974   -1.93  -37.12   -4.67   52.54   -4.63   52.48   -1.88  -36.57
   0.978   -1.94  -37.25   -4.64   52.42   -4.61   52.35   -1.89  -36.69
   0.983   -1.96  -37.37   -4.62   52.29   -4.58   52.22   -1.91  -36.81
   0.987   -1.97  -37.49   -4.59   52.16   -4.56   52.10   -1.92  -36.93
   0.992   -1.99  -37.61   -4.57   52.03   -4.54   51.98   -1.94  -37.05
   0.996   -2.00  -37.74   -4.55   51.91   -4.51   51.85   -1.95  -37.17
   1.000   -2.02  -37.86   -4.52   51.79   -4.49   51.73   -1.97  -37.29
   1.005   -2.03  -37.99   -4.50   51.67   -4.47   51.61   -1.98  -37.41
   1.009   -2.04  -38.11   -4.48   51.55   -4.44   51.49   -1.99  -37.53
   1.013   -2.06  -38.23   -4.46   51.43   -4.42   51.37   -2.01  -37.64
   1.018   -2.07  -38.36   -4.43   51.31   -4.40   51.25   -2.02  -37.76
   1.022   -2.09  -38.48   -4.41   51.20   -4.38   51.13   -2.04  -37.87
   1.026   -2.10  -38.60   -4.39   51.07   -4.35   51.02   -2.05  -37.99
   1.031   -2.11  -38.72   -4.37   50.96   -4.33   50.90   -2.07  -38.10
   1.035   -2.13  -38.85   -4.34   50.84   -4.31   50.77   -2.08  -38.21
   1.040   -2.14  -38.97   -4.32   50.71   -4.29   50.65   -2.09  -38.32
   1.044   -2.16  -39.08   -4.30   50.60   -4.26   50.53   -2.11  -38.44
   1.048   -2.17  -39.20   -4.28   50.48   -4.24   50.42   -2.12  -38.55
   1.053   -2.19  -39.32   -4.25   50.35   -4.22   50.29   -2.13  -38.66
   1.057   -2.20  -39.44   -4.23   50.23   -4.20   50.17   -2.15  -38.77
   1.061   -2.21  -39.55   -4.21   50.11   -4.18   50.05   -2.16  -38.89
   1.066   -2.23  -39.67   -4.19   49.99   -4.16   49.93   -2.18  -39.01
   1.070   -2.24  -39.79   -4.17   49.87   -4.14   49.81   -2.19  -39.12
   1.074   -2.26  -39.90   -4.15   49.76   -4.11   49.70   -2.20  -39.23
   1.079   -2.27  -40.02   -4.13   49.64   -4.09   49.58   -2.22  -39.34
   1.083   -2.28  -40.13   -4.11   49.52   -4.07   49.46   -2.23  -39.46
   1.088   -2.30  -40.25   -4.09   49.41   -4.05   49.34   -2.25  -39.57
   1.092   -2.31  -40.36   -4.07   49.30   -4.03   49.24   -2.26  -39.69
   1.096   -2.32  -40.48   -4.05   49.18   -4.01   49.12   -2.28  -39.79
   1.101   -2.34  -40.60   -4.03   49.07   -3.99   49.01   -2.29  -39.89
   1.105   -2.35  -40.71   -4.01   48.96   -3.97   48.89   -2.31  -40.01
   1.109   -2.37  -40.82   -3.99   48.85   -3.96   48.78   -2.32  -40.11
   1.114   -2.38  -40.94   -3.97   48.73   -3.94   48.67   -2.34  -40.21
   1.118   -2.39  -41.05   -3.95   48.62   -3.92   48.56   -2.35  -40.32
   1.122   -2.41  -41.16   -3.93   48.51   -3.90   48.44   -2.36  -40.42
   1.127   -2.42  -41.28   -3.91   48.40   -3.88   48.33   -2.38  -40.52
   1.131   -2.44  -41.39   -3.89   48.28   -3.86   48.22   -2.39  -40.63
   1.136   -2.45  -41.50   -3.88   48.17   -3.84   48.11   -2.41  -40.73
   1.140   -2.46  -41.60   -3.86   48.06   -3.83   48.00   -2.42  -40.84
   1.144   -2.48  -41.71   -3.84   47.95   -3.81   47.89   -2.43  -40.94
   1.149   -2.49  -41.82   -3.82   47.84   -3.79   47.77   -2.45  -41.05
   1.153   -2.51  -41.93   -3.80   47.72   -3.77   47.66   -2.46  -41.15
   1.157   -2.52  -42.04   -3.79   47.62   -3.75   47.56   -2.48  -41.25
   1.162   -2.54  -42.14   -3.77   47.51   -3.73   47.45   -2.49  -41.37
   1.166   -2.55  -42.25   -3.75   47.40   -3.72   47.34   -2.51  -41.47
