!  American Technical Ceramics   Date:  10/27/06
!  One Norden Lane
!  Huntington Station,  NY.   11746-2102
!  Tel:  (631) 622-4700               Fax:  (631) 622-4748
!  Part Number  600L5R6		Mounting Orientation:  Horizontal
!  Description: Ultra Low ESR Microwave capacitors
!  Application: Coupling, Bypass, Tuning, DC Block
!               Filters, Matching
# GHZ S DB R 50
! Freq   |S11|   S11 Ph  |S21|   S21 Ph  |S12|   S12 Ph  |S22|   S22 Ph
    0.00    0.00    0.00 -999.00   90.00 -999.00   90.00    0.00    0.00
   0.400   -4.54  -53.73   -1.91   35.67   -1.91   35.66   -4.61  -53.97
   0.445   -5.18  -56.73   -1.60   32.70   -1.59   32.71   -5.25  -56.97
   0.490   -5.79  -59.34   -1.35   30.11   -1.35   30.11   -5.86  -59.55
   0.535   -6.39  -61.65   -1.16   27.81   -1.15   27.81   -6.47  -61.83
   0.580   -6.97  -63.69   -1.00   25.78   -0.99   25.79   -7.03  -63.86
   0.625   -7.52  -65.49   -0.87   23.97   -0.86   23.96   -7.60  -65.62
   0.670   -8.05  -67.12   -0.76   22.34   -0.76   22.35   -8.14  -67.33
   0.715   -8.57  -68.60   -0.67   20.88   -0.67   20.87   -8.65  -68.68
   0.760   -9.07  -69.93   -0.59   19.55   -0.59   19.55   -9.15  -70.09
   0.805   -9.55  -71.12   -0.53   18.33   -0.52   18.33   -9.62  -71.24
   0.850  -10.01  -72.24   -0.47   17.22   -0.47   17.23  -10.11  -72.35
   0.895  -10.46  -73.26   -0.42   16.20   -0.42   16.21  -10.55  -73.40
   0.940  -10.90  -74.21   -0.38   15.26   -0.38   15.27  -11.00  -74.23
   0.985  -11.34  -75.06   -0.35   14.39   -0.34   14.39  -11.42  -75.24
   1.030  -11.75  -75.88   -0.31   13.58   -0.31   13.57  -11.84  -75.90
   1.075  -12.16  -76.61   -0.29   12.81   -0.28   12.82  -12.27  -76.77
   1.120  -12.56  -77.35   -0.26   12.11   -0.26   12.11  -12.64  -77.41
   1.165  -12.95  -78.01   -0.24   11.44   -0.24   11.43  -13.06  -78.02
   1.210  -13.34  -78.61   -0.22   10.80   -0.22   10.81  -13.42  -78.75
   1.255  -13.71  -79.21   -0.20   10.20   -0.20   10.20  -13.81  -79.12
   1.300  -14.08  -79.76   -0.19    9.64   -0.18    9.65  -14.18  -79.95
   1.345  -14.45  -80.29   -0.17    9.11   -0.17    9.10  -14.52  -80.21
   1.390  -14.81  -80.78   -0.16    8.59   -0.16    8.60  -14.92  -80.86
   1.435  -15.17  -81.23   -0.15    8.10   -0.15    8.10  -15.23  -81.22
   1.480  -15.51  -81.71   -0.14    7.63   -0.13    7.64  -15.63  -81.58
   1.525  -15.86  -82.08   -0.13    7.19   -0.13    7.20  -15.92  -82.22
   1.570  -16.21  -82.49   -0.12    6.77   -0.12    6.77  -16.28  -82.33
   1.615  -16.55  -82.75   -0.11    6.36   -0.11    6.37  -16.64  -83.09
   1.660  -16.88  -83.16   -0.10    5.97   -0.10    5.96  -16.95  -83.11
   1.705  -17.20  -83.53   -0.10    5.59   -0.09    5.59  -17.34  -83.68
   1.750  -17.53  -83.91   -0.09    5.22   -0.09    5.22  -17.61  -83.95
   1.795  -17.87  -84.29   -0.09    4.87   -0.08    4.87  -18.01  -84.07
   1.840  -18.20  -84.53   -0.08    4.53   -0.08    4.54  -18.29  -84.71
   1.885  -18.53  -84.83   -0.08    4.20   -0.07    4.20  -18.64  -84.46
   1.930  -18.85  -85.07   -0.07    3.88   -0.07    3.88  -18.99  -85.26
   1.975  -19.18  -85.31   -0.07    3.57   -0.06    3.55  -19.26  -85.06
   2.020  -19.50  -85.56   -0.06    3.26   -0.06    3.25  -19.67  -85.53
   2.065  -19.82  -85.71   -0.06    2.96   -0.06    2.96  -19.90  -85.79
   2.110  -20.14  -86.00   -0.06    2.68   -0.05    2.67  -20.31  -85.68
   2.155  -20.44  -86.12   -0.06    2.39   -0.05    2.39  -20.59  -86.50
   2.200  -20.77  -86.38   -0.05    2.12   -0.05    2.10  -20.92  -85.95
   2.245  -21.07  -86.53   -0.05    1.86   -0.05    1.85  -21.30  -86.85
   2.290  -21.40  -86.76   -0.05    1.59   -0.05    1.58  -21.53  -86.55
   2.335  -21.71  -86.98   -0.05    1.34   -0.04    1.33  -21.98  -86.94
   2.380  -22.03  -87.07   -0.04    1.09   -0.04    1.08  -22.19  -87.36
   2.425  -22.35  -87.24   -0.04    0.83   -0.04    0.82  -22.62  -86.91
   2.470  -22.66  -87.31   -0.04    0.60   -0.04    0.58  -22.90  -87.96
   2.515  -22.98  -87.45   -0.04    0.36   -0.04    0.34  -23.21  -87.26
   2.560  -23.28  -87.56   -0.04    0.13   -0.04    0.11  -23.64  -88.21
   2.605  -23.58  -87.68   -0.04   -0.10   -0.04   -0.11  -23.83  -87.79
   2.650  -23.89  -87.98   -0.04   -0.32   -0.04   -0.32  -24.34  -87.98
   2.695  -24.21  -88.19   -0.04   -0.53   -0.04   -0.53  -24.52  -88.67
   2.740  -24.55  -88.34   -0.04   -0.74   -0.03   -0.75  -24.96  -87.81
   2.785  -24.86  -88.37   -0.04   -0.95   -0.03   -0.96  -25.27  -89.07
   2.830  -25.21  -88.40   -0.03   -1.16   -0.03   -1.18  -25.55  -87.94
   2.875  -25.51  -88.54   -0.03   -1.37   -0.03   -1.38  -26.04  -89.19
   2.920  -25.85  -88.56   -0.03   -1.58   -0.03   -1.59  -26.19  -88.99
   2.965  -26.16  -88.68   -0.03   -1.78   -0.03   -1.79  -26.78  -88.88
   3.010  -26.51  -88.75   -0.03   -2.01   -0.03   -2.01  -26.93  -89.89
   3.055  -26.82  -88.78   -0.03   -2.21   -0.03   -2.21  -27.42  -88.47
   3.100  -27.11  -89.09   -0.04   -2.41   -0.03   -2.41  -27.81  -90.15
   3.145  -27.44  -89.23   -0.04   -2.60   -0.03   -2.61  -28.06  -88.03
   3.190  -27.76  -89.47   -0.04   -2.78   -0.04   -2.78  -28.59  -88.56
   3.235  -28.11  -89.44   -0.04   -2.95   -0.04   -2.95  -28.61  -88.06
   3.280  -28.41  -89.89   -0.04   -3.11   -0.04   -3.11  -29.18  -87.73
   3.325  -28.77  -90.26   -0.04   -3.28   -0.03   -3.29  -29.33  -89.50
   3.370  -29.15  -90.45   -0.04   -3.46   -0.03   -3.46  -29.76  -87.25
   3.415  -29.49  -90.81   -0.04   -3.63   -0.03   -3.63  -30.14  -89.62
   3.460  -29.92  -90.84   -0.04   -3.80   -0.03   -3.81  -30.32  -88.01
   3.505  -30.29  -90.99   -0.03   -3.98   -0.03   -3.99  -31.00  -89.14
   3.550  -30.72  -90.84   -0.03   -4.16   -0.03   -4.16  -30.96  -89.31
   3.595  -31.09  -90.70   -0.04   -4.33   -0.03   -4.33  -31.65  -88.43
   3.640  -31.42  -90.64   -0.04   -4.49   -0.03   -4.50  -31.80  -91.14
   3.685  -31.84  -90.59   -0.03   -4.66   -0.03   -4.66  -32.24  -88.22
   3.730  -32.22  -90.68   -0.03   -4.83   -0.03   -4.83  -32.67  -91.63
   3.775  -32.66  -90.20   -0.04   -4.99   -0.03   -5.00  -32.74  -90.50
   3.820  -32.99  -90.17   -0.03   -5.15   -0.03   -5.15  -33.62  -92.50
   3.865  -33.38  -89.73   -0.03   -5.31   -0.03   -5.30  -33.59  -93.43
   3.910  -33.78  -89.63   -0.04   -5.46   -0.03   -5.47  -34.52  -91.74
   3.955  -34.17  -89.67   -0.04   -5.63   -0.03   -5.63  -34.68  -95.71
   4.000  -34.63  -89.17   -0.03   -5.79   -0.03   -5.80  -35.22  -92.61
   4.045  -34.89  -88.69   -0.03   -5.95   -0.03   -5.96  -35.91  -96.40
   4.090  -35.36  -88.32   -0.03   -6.11   -0.03   -6.12  -35.93  -93.51
   4.135  -35.70  -88.04   -0.03   -6.26   -0.03   -6.27  -37.12  -94.66
   4.180  -36.07  -87.99   -0.03   -6.41   -0.03   -6.43  -36.89  -96.47
   4.225  -36.42  -88.32   -0.03   -6.57   -0.03   -6.58  -37.88  -92.60
   4.270  -36.89  -88.48   -0.03   -6.72   -0.03   -6.73  -38.01  -97.42
   4.315  -37.47  -87.74   -0.03   -6.88   -0.03   -6.90  -38.40  -91.52
   4.360  -37.95  -87.33   -0.03   -7.03   -0.03   -7.04  -39.32  -97.42
   4.405  -38.23  -86.10   -0.03   -7.18   -0.03   -7.20  -38.87  -94.76
   4.450  -38.67  -86.42   -0.04   -7.34   -0.03   -7.36  -40.39  -96.02
   4.495  -39.05  -86.18   -0.04   -7.49   -0.03   -7.51  -39.95  -98.80
   4.540  -39.77  -87.28   -0.04   -7.62   -0.03   -7.64  -41.58  -94.86
   4.585  -40.58  -87.36   -0.04   -7.74   -0.04   -7.76  -42.00 -101.48
   4.630  -41.41  -82.44   -0.03   -7.87   -0.03   -7.89  -42.08  -89.63
   4.675  -41.58  -78.47   -0.03   -8.04   -0.03   -8.08  -43.16  -95.30
   4.720  -41.63  -77.42   -0.03   -8.22   -0.03   -8.24  -42.24  -94.13
   4.765  -42.15  -78.98   -0.03   -8.37   -0.03   -8.38  -44.17  -96.37
   4.810  -42.63  -77.32   -0.03   -8.51   -0.03   -8.53  -43.43 -102.32
   4.855  -43.30  -75.99   -0.04   -8.65   -0.03   -8.68  -45.13  -93.78
   4.900  -43.88  -74.01   -0.03   -8.80   -0.03   -8.82  -45.56 -106.94
   4.945  -44.33  -72.20   -0.03   -8.94   -0.03   -8.97  -45.59  -96.90
   4.990  -45.00  -70.48   -0.04   -9.09   -0.03   -9.11  -47.71 -109.57
   5.035  -45.35  -67.78   -0.04   -9.23   -0.03   -9.25  -46.49 -104.15
   5.080  -46.28  -65.14   -0.04   -9.38   -0.03   -9.40  -49.91 -105.47
   5.125  -46.53  -62.43   -0.04   -9.52   -0.03   -9.55  -47.90 -115.96
   5.170  -47.23  -59.37   -0.04   -9.66   -0.03   -9.69  -50.64 -104.07
   5.215  -47.82  -55.94   -0.04   -9.80   -0.03   -9.83  -50.27 -127.68
   5.260  -48.41  -51.91   -0.04   -9.94   -0.03   -9.98  -50.87 -109.17
   5.305  -49.14  -47.69   -0.04  -10.09   -0.04  -10.12  -53.72 -138.09
   5.350  -49.37  -44.43   -0.04  -10.23   -0.04  -10.26  -51.03 -123.11
   5.395  -50.27  -37.58   -0.04  -10.37   -0.04  -10.40  -56.44 -142.41
   5.440  -50.81  -31.41   -0.04  -10.51   -0.04  -10.54  -52.11 -147.02
   5.485  -51.06  -24.86   -0.04  -10.65   -0.04  -10.69  -57.71 -139.94
   5.530  -52.04  -18.72   -0.04  -10.80   -0.04  -10.82  -53.08 -171.21
   5.575  -52.20  -10.99   -0.05  -10.93   -0.04  -10.96  -55.48 -150.45
   5.620  -53.17    6.23   -0.05  -11.06   -0.04  -11.10  -53.09  163.09
   5.665  -52.68   16.90   -0.05  -11.20   -0.05  -11.22  -52.84 -175.92
   5.710  -52.16   35.11   -0.05  -11.32   -0.05  -11.35  -52.89  148.10
   5.755  -49.83   45.59   -0.06  -11.43   -0.05  -11.45  -50.05  157.46
   5.800  -47.68   50.37   -0.05  -11.55   -0.05  -11.57  -51.68  130.37
   5.845  -45.96   50.68   -0.05  -11.66   -0.05  -11.69  -48.57  131.29
   5.890  -44.97   47.81   -0.05  -11.80   -0.04  -11.83  -51.49  123.32
   5.935  -44.19   46.85   -0.05  -11.94   -0.04  -11.97  -47.99  112.96
   5.980  -43.55   46.13   -0.04  -12.09   -0.04  -12.12  -49.63  118.28
   6.025  -42.92   45.22   -0.04  -12.23   -0.04  -12.25  -47.78   99.96
   6.070  -42.57   45.35   -0.04  -12.37   -0.04  -12.40  -47.65  114.19
   6.115  -42.21   44.60   -0.04  -12.50   -0.04  -12.54  -47.79   96.51
   6.160  -41.72   46.44   -0.04  -12.65   -0.04  -12.67  -45.67  105.04
   6.205  -41.34   45.98   -0.04  -12.79   -0.04  -12.81  -47.05   98.22
   6.250  -41.00   47.56   -0.04  -12.93   -0.04  -12.94  -44.59   97.64
   6.295  -40.73   47.61   -0.04  -13.06   -0.04  -13.09  -45.67  100.99
   6.340  -40.19   48.88   -0.04  -13.20   -0.04  -13.23  -43.97   90.61
   6.385  -39.92   49.86   -0.04  -13.34   -0.04  -13.37  -43.78   99.63
   6.430  -39.50   51.35   -0.04  -13.48   -0.04  -13.51  -43.55   89.53
   6.475  -39.14   51.60   -0.04  -13.62   -0.04  -13.64  -42.27   94.86
   6.520  -38.70   53.12   -0.04  -13.77   -0.04  -13.79  -42.86   90.53
   6.565  -38.19   53.54   -0.04  -13.91   -0.04  -13.94  -41.08   89.66
   6.610  -37.84   54.53   -0.05  -14.05   -0.04  -14.08  -41.56   92.09
   6.655  -37.38   54.98   -0.05  -14.20   -0.04  -14.22  -40.49   85.40
   6.700  -37.00   55.45   -0.05  -14.33   -0.04  -14.36  -40.18   91.00
   6.745  -36.55   55.78   -0.05  -14.48   -0.04  -14.51  -39.87   83.84
   6.790  -36.14   56.26   -0.05  -14.62   -0.04  -14.66  -38.81   87.74
   6.835  -35.76   56.70   -0.05  -14.77   -0.04  -14.79  -39.19   84.85
   6.880  -35.32   56.79   -0.05  -14.91   -0.04  -14.94  -37.88   83.63
   6.925  -34.95   57.16   -0.05  -15.06   -0.05  -15.09  -38.05   85.28
   6.970  -34.51   57.23   -0.05  -15.20   -0.05  -15.23  -37.10   80.29
   7.015  -34.18   57.44   -0.05  -15.34   -0.05  -15.38  -36.82   83.89
   7.060  -33.77   57.78   -0.05  -15.50   -0.05  -15.52  -36.49   78.70
   7.105  -33.37   57.70   -0.05  -15.64   -0.05  -15.67  -35.66   80.42
   7.150  -33.02   57.55   -0.06  -15.79   -0.05  -15.82  -35.78   77.93
   7.195  -32.66   57.54   -0.06  -15.94   -0.05  -15.98  -34.78   77.11
   7.240  -32.29   57.76   -0.06  -16.10   -0.05  -16.12  -34.81   77.83
   7.285  -31.91   57.54   -0.06  -16.25   -0.06  -16.29  -34.06   74.01
   7.330  -31.55   57.57   -0.06  -16.40   -0.06  -16.45  -33.72   76.06
   7.375  -31.21   57.47   -0.06  -16.56   -0.06  -16.60  -33.39   72.34
   7.420  -30.87   57.65   -0.06  -16.72   -0.06  -16.77  -32.67   73.51
   7.465  -30.50   57.62   -0.07  -16.90   -0.06  -16.93  -32.65   71.39
   7.510  -30.14   57.66   -0.07  -17.06   -0.07  -17.10  -31.82   70.47
   7.555  -29.72   57.73   -0.07  -17.21   -0.07  -17.26  -31.72   70.88
   7.600  -29.33   57.43   -0.08  -17.38   -0.07  -17.42  -31.07   68.13
   7.645  -28.92   57.29   -0.08  -17.56   -0.08  -17.60  -30.66   69.63
   7.690  -28.53   56.83   -0.08  -17.74   -0.08  -17.76  -30.31   66.90
   7.735  -28.12   56.36   -0.09  -17.93   -0.08  -17.97  -29.58   67.51
   7.780  -27.73   55.77   -0.09  -18.11   -0.09  -18.14  -29.34   65.78
   7.825  -27.36   55.19   -0.10  -18.31   -0.09  -18.34  -28.57   64.27
   7.870  -26.99   54.76   -0.10  -18.52   -0.10  -18.55  -28.29   63.78
   7.915  -26.59   54.34   -0.11  -18.74   -0.11  -18.77  -27.68   60.96
   7.960  -26.14   54.07   -0.12  -18.97   -0.12  -19.01  -27.23   60.90
   8.005  -25.65   53.56   -0.14  -19.21   -0.13  -19.25  -26.79   58.07
   8.050  -25.12   52.79   -0.15  -19.46   -0.15  -19.50  -26.12   57.66
   8.095  -24.54   51.57   -0.18  -19.72   -0.17  -19.75  -25.72   55.41
   8.140  -23.95   49.96   -0.20  -19.99   -0.20  -20.03  -24.91   53.27
   8.185  -23.30   47.94   -0.24  -20.28   -0.24  -20.32  -24.39   51.27
   8.230  -22.63   45.16   -0.28  -20.58   -0.28  -20.60  -23.58   47.40
   8.275  -21.95   41.48   -0.34  -20.84   -0.34  -20.88  -22.88   44.20
   8.320  -20.92   40.75   -0.44  -21.10   -0.43  -21.14  -21.19   35.74
   8.365  -20.34   34.57   -0.55  -21.18   -0.54  -21.22  -20.47   30.15
   8.410  -19.91   26.78   -0.67  -20.99   -0.67  -21.03  -20.00   21.93
   8.455  -19.73   17.23   -0.80  -20.38   -0.79  -20.42  -19.64   12.57
   8.500  -19.94    6.53   -0.87  -19.34   -0.87  -19.38  -19.83    1.64
   8.545  -20.68   -4.18   -0.85  -18.16   -0.85  -18.19  -20.38   -9.20
   8.590  -21.94  -13.22   -0.75  -17.27   -0.75  -17.31  -21.60  -18.22
   8.635  -23.56  -19.71   -0.62  -16.84   -0.62  -16.88  -22.99  -25.35
   8.680  -25.40  -23.01   -0.50  -16.79   -0.50  -16.82  -24.76  -28.28
   8.725  -27.25  -22.77   -0.40  -16.94   -0.40  -16.99  -26.44  -29.97
   8.770  -29.07  -19.76   -0.33  -17.18   -0.33  -17.25  -28.01  -26.28
   8.815  -30.73  -13.86   -0.28  -17.47   -0.28  -17.52  -29.71  -22.63
   8.860  -32.15   -4.93   -0.24  -17.76   -0.24  -17.80  -30.69  -15.61
   8.905  -33.01    6.91   -0.21  -18.05   -0.21  -18.10  -31.95   -5.94
   8.950  -33.24   19.05   -0.18  -18.31   -0.18  -18.35  -32.30    2.07
   8.995  -32.91   29.78   -0.17  -18.58   -0.16  -18.62  -32.31   14.96
   9.040  -32.28   38.14   -0.15  -18.81   -0.15  -18.89  -32.22   22.25
   9.085  -31.57   44.10   -0.14  -19.06   -0.13  -19.12  -31.23   29.27
   9.130  -30.78   48.21   -0.13  -19.31   -0.12  -19.35  -30.83   34.59
   9.175  -30.10   51.36   -0.12  -19.56   -0.12  -19.59  -30.02   36.13
   9.220  -29.45   53.46   -0.12  -19.76   -0.12  -19.81  -29.54   40.39
   9.265  -28.90   55.05   -0.12  -19.94   -0.12  -19.99  -29.25   40.32
   9.310  -28.38   56.09   -0.12  -20.13   -0.12  -20.17  -28.67   43.19
   9.355  -27.88   56.98   -0.11  -20.29   -0.11  -20.35  -28.54   45.20
   9.400  -27.43   57.57   -0.11  -20.46   -0.11  -20.50  -27.96   46.61
   9.445  -27.01   57.84   -0.11  -20.63   -0.11  -20.67  -27.73   49.57
   9.490  -26.65   57.86   -0.10  -20.78   -0.10  -20.82  -27.26   49.39
   9.535  -26.33   57.66   -0.10  -20.95   -0.10  -20.99  -26.76   51.92
   9.580  -26.09   57.55   -0.09  -21.11   -0.09  -21.15  -26.47   51.88
   9.625  -25.86   57.74   -0.09  -21.31   -0.08  -21.34  -25.88   52.96
   9.670  -25.68   58.06   -0.08  -21.47   -0.08  -21.53  -25.71   53.28
   9.715  -25.47   58.53   -0.08  -21.65   -0.08  -21.72  -25.23   52.81
   9.760  -25.27   59.13   -0.08  -21.84   -0.08  -21.89  -25.00   54.01
   9.805  -24.99   59.78   -0.08  -22.01   -0.08  -22.06  -24.72   53.06
   9.850  -24.72   60.19   -0.08  -22.19   -0.08  -22.22  -24.38   54.22
   9.895  -24.46   60.36   -0.09  -22.35   -0.08  -22.39  -24.25   53.58
   9.940  -24.21   60.45   -0.08  -22.51   -0.08  -22.56  -23.83   53.85
   9.985  -23.96   60.55   -0.09  -22.66   -0.09  -22.71  -23.73   54.34
  10.030  -23.73   60.55   -0.09  -22.82   -0.08  -22.87  -23.40   53.53
  10.075  -23.50   60.54   -0.09  -22.99   -0.09  -23.04  -23.22   54.25
  10.120  -23.30   60.56   -0.09  -23.15   -0.09  -23.19  -23.06   53.44
  10.165  -23.07   60.43   -0.09  -23.31   -0.09  -23.37  -22.79   54.28
  10.210  -22.86   60.18   -0.09  -23.46   -0.09  -23.51  -22.74   53.95
  10.255  -22.68   59.94   -0.09  -23.62   -0.09  -23.66  -22.42   54.31
  10.300  -22.53   59.75   -0.09  -23.75   -0.09  -23.80  -22.35   54.89
  10.345  -22.38   59.78   -0.09  -23.91   -0.09  -23.95  -22.09   54.55
  10.390  -22.22   59.90   -0.09  -24.07   -0.09  -24.12  -21.89   55.46
  10.435  -22.04   59.90   -0.09  -24.24   -0.09  -24.28  -21.71   54.87
  10.480  -21.86   60.05   -0.09  -24.41   -0.09  -24.46  -21.43   55.55
  10.525  -21.69   60.17   -0.10  -24.59   -0.09  -24.61  -21.35   55.26
  10.570  -21.50   60.03   -0.10  -24.74   -0.09  -24.79  -21.04   55.19
  10.615  -21.31   60.01   -0.10  -24.91   -0.10  -24.95  -20.92   55.49
  10.660  -21.12   59.91   -0.10  -25.08   -0.10  -25.09  -20.69   54.88
  10.705  -20.93   59.72   -0.11  -25.25   -0.10  -25.27  -20.54   55.44
  10.750  -20.76   59.56   -0.11  -25.40   -0.11  -25.43  -20.41   54.58
  10.795  -20.57   59.15   -0.12  -25.56   -0.11  -25.60  -20.14   54.91
  10.840  -20.40   58.93   -0.12  -25.73   -0.12  -25.76  -20.06   54.72
  10.885  -20.27   58.59   -0.13  -25.86   -0.12  -25.91  -19.84   54.34
  10.930  -20.12   58.21   -0.13  -26.01   -0.13  -26.05  -19.77   54.64
  10.975  -19.97   57.87   -0.14  -26.15   -0.13  -26.19  -19.58   53.90
  11.020  -19.84   57.65   -0.14  -26.31   -0.14  -26.33  -19.41   54.29
  11.065  -19.71   57.36   -0.14  -26.45   -0.14  -26.46  -19.33   53.66
  11.110  -19.61   57.08   -0.14  -26.60   -0.14  -26.63  -19.14   53.85
  11.155  -19.48   57.02   -0.14  -26.73   -0.14  -26.79  -19.08   53.72
  11.200  -19.35   56.84   -0.15  -26.90   -0.14  -26.92  -18.84   53.33
  11.245  -19.21   56.76   -0.14  -27.06   -0.14  -27.09  -18.76   53.93
  11.290  -19.08   56.60   -0.14  -27.24   -0.14  -27.28  -18.62   53.19
  11.335  -18.92   56.36   -0.14  -27.45   -0.14  -27.46  -18.45   53.50
  11.380  -18.78   56.22   -0.15  -27.61   -0.15  -27.63  -18.33   53.01
  11.425  -18.63   56.06   -0.15  -27.79   -0.15  -27.81  -18.12   53.10
  11.470  -18.51   55.94   -0.16  -27.99   -0.16  -28.01  -18.06   53.07
  11.515  -18.35   55.61   -0.16  -28.19   -0.16  -28.21  -17.83   52.51
  11.560  -18.20   55.30   -0.16  -28.38   -0.16  -28.41  -17.71   52.72
  11.605  -18.05   55.00   -0.17  -28.60   -0.17  -28.61  -17.55   52.04
  11.650  -17.91   54.80   -0.18  -28.83   -0.17  -28.82  -17.39   52.22
  11.695  -17.77   54.41   -0.19  -29.03   -0.18  -29.04  -17.29   51.63
  11.740  -17.61   54.06   -0.19  -29.24   -0.19  -29.25  -17.07   51.44
  11.785  -17.45   53.70   -0.20  -29.45   -0.20  -29.49  -16.98   51.28
  11.830  -17.30   53.37   -0.21  -29.66   -0.21  -29.69  -16.77   50.68
  11.875  -17.12   53.00   -0.23  -29.91   -0.22  -29.94  -16.66   50.64
  11.920  -16.97   52.41   -0.24  -30.13   -0.23  -30.15  -16.48   49.94
  11.965  -16.80   51.90   -0.25  -30.39   -0.25  -30.41  -16.29   49.98
  12.010  -16.63   51.44   -0.26  -30.64   -0.26  -30.67  -16.17   49.24
  12.055  -16.48   50.87   -0.28  -30.89   -0.28  -30.90  -15.94   48.81
  12.100  -16.28   50.30   -0.30  -31.15   -0.30  -31.18  -15.81   48.41
  12.145  -16.10   49.57   -0.32  -31.40   -0.32  -31.43  -15.57   47.53
  12.190  -15.91   48.83   -0.35  -31.67   -0.34  -31.71  -15.40   47.21
  12.235  -15.71   47.98   -0.38  -31.96   -0.37  -31.99  -15.21   46.07
  12.280  -15.50   47.06   -0.40  -32.27   -0.40  -32.28  -14.98   45.54
  12.325  -15.28   46.08   -0.44  -32.55   -0.43  -32.59  -14.81   44.57
