!  American Technical Ceramics   Date:  6/18/2004
!  One Norden Lane
!  Huntington Station,  NY.   11746-2102
!  Tel:  (631) 622-4700               Fax:  (631) 622-4748
!  Part Number  600L4R3         Mounting Orientation: Horizontal
!  Description: Ultra Low ESR Microwave capacitors
!  Application: Coupling, Bypass, Tuning, DC Block
!               Filters, Matching
# GHZ S DB R 50
! Freq   |S11|   S11 Ph  |S21|   S21 Ph  |S12|   S12 Ph  |S22|   S22 Ph
    0.00    0.00    0.00 -999.00   90.00 -999.00   90.00    0.00    0.00
   0.400   -3.23  -46.74   -2.93   42.73   -2.97   42.72   -3.23  -46.45
   0.465   -3.96  -51.26   -2.34   38.34   -2.38   38.29   -3.94  -50.78
   0.530   -4.70  -54.93   -1.92   34.68   -1.96   34.14   -4.68  -54.39
   0.595   -5.36  -58.45   -1.61   31.47   -1.65   31.59   -5.37  -56.73
   0.660   -5.97  -60.91   -1.34   28.60   -1.39   28.95   -5.99  -59.92
   0.725   -6.62  -63.21   -1.15   26.19   -1.18   26.19   -6.60  -62.67
   0.790   -7.15  -65.59   -0.98   24.02   -1.02   23.86   -7.21  -65.05
   0.855   -7.74  -67.88   -0.88   22.16   -0.91   22.16   -7.77  -66.25
   0.920   -8.29  -69.32   -0.76   20.57   -0.80   20.62   -8.23  -67.80
   0.985   -8.74  -70.90   -0.68   18.92   -0.70   19.28   -8.81  -69.33
   1.050   -9.22  -71.99   -0.60   17.57   -0.63   17.64   -9.27  -71.43
   1.115   -9.72  -73.44   -0.54   16.38   -0.57   16.26   -9.69  -72.36
   1.180  -10.14  -75.15   -0.49   15.18   -0.51   15.25  -10.17  -72.90
   1.245  -10.57  -75.85   -0.44   14.28   -0.46   14.47  -10.54  -74.11
   1.310  -10.96  -76.51   -0.41   13.15   -0.43   13.37  -10.97  -75.58
   1.375  -11.35  -77.69   -0.37   12.28   -0.38   12.37  -11.35  -76.25
   1.440  -11.73  -78.82   -0.34   11.46   -0.37   11.45  -11.73  -76.98
   1.505  -12.10  -79.71   -0.32   10.75   -0.33   10.84  -12.07  -77.37
   1.570  -12.43  -79.65   -0.29    9.90   -0.30   10.13  -12.42  -78.08
   1.635  -12.77  -80.71   -0.26    9.23   -0.28    9.46  -12.78  -79.40
   1.700  -13.12  -81.81   -0.26    8.59   -0.27    8.61  -13.12  -79.71
   1.765  -13.45  -82.36   -0.23    7.96   -0.24    8.03  -13.43  -80.13
   1.830  -13.79  -83.04   -0.22    7.40   -0.23    7.55  -13.76  -80.59
   1.895  -14.06  -83.48   -0.20    6.79   -0.21    7.05  -14.06  -81.43
   1.960  -14.37  -83.66   -0.20    6.21   -0.20    6.42  -14.37  -82.01
   2.025  -14.70  -84.81   -0.18    5.71   -0.19    5.77  -14.68  -82.08
   2.090  -15.01  -85.58   -0.17    5.25   -0.18    5.35  -14.97  -82.46
   2.155  -15.25  -85.46   -0.16    4.75   -0.16    4.98  -15.25  -83.12
   2.220  -15.58  -85.68   -0.15    4.29   -0.15    4.52  -15.54  -83.51
   2.285  -15.86  -86.76   -0.15    3.84   -0.14    3.94  -15.84  -83.82
   2.350  -16.12  -87.32   -0.14    3.44   -0.14    3.50  -16.10  -84.04
   2.415  -16.42  -87.45   -0.14    3.00   -0.12    3.08  -16.40  -84.31
   2.480  -16.72  -87.77   -0.12    2.57   -0.11    2.76  -16.67  -84.97
   2.545  -16.95  -88.31   -0.12    2.18   -0.11    2.34  -16.93  -85.26
   2.610  -17.23  -88.67   -0.12    1.77   -0.11    1.86  -17.24  -85.19
   2.675  -17.55  -89.47   -0.11    1.43   -0.10    1.43  -17.50  -85.34
   2.740  -17.78  -89.64   -0.11    1.07   -0.10    1.22  -17.80  -85.87
   2.805  -18.02  -89.78   -0.11    0.73   -0.09    0.87  -18.11  -85.82
   2.870  -18.30  -90.57   -0.10    0.40   -0.09    0.50  -18.30  -85.84
   2.935  -18.64  -91.52   -0.09    0.09   -0.08    0.14  -18.59  -85.74
   3.000  -18.90  -91.89   -0.09   -0.24   -0.07   -0.22  -18.88  -85.86
   3.065  -19.26  -91.75   -0.08   -0.61   -0.07   -0.51  -19.14  -86.57
   3.130  -19.55  -92.36   -0.08   -0.93   -0.05   -0.84  -19.47  -86.63
   3.195  -19.84  -92.99   -0.08   -1.27   -0.06   -1.23  -19.70  -86.46
   3.260  -20.13  -93.15   -0.08   -1.57   -0.06   -1.62  -20.03  -86.59
   3.325  -20.50  -93.39   -0.08   -1.91   -0.06   -1.88  -20.29  -86.99
   3.390  -20.76  -93.63   -0.07   -2.24   -0.05   -2.16  -20.61  -87.24
   3.455  -21.05  -93.75   -0.07   -2.56   -0.05   -2.48  -20.92  -87.44
   3.520  -21.43  -94.48   -0.06   -2.80   -0.05   -2.85  -21.23  -86.98
   3.585  -21.77  -94.56   -0.07   -3.13   -0.05   -3.16  -21.54  -87.58
   3.650  -21.99  -94.59   -0.06   -3.42   -0.04   -3.44  -21.90  -87.57
   3.715  -22.35  -94.53   -0.07   -3.73   -0.04   -3.69  -22.18  -87.86
   3.780  -22.70  -95.31   -0.06   -3.99   -0.04   -4.00  -22.51  -87.64
   3.845  -23.00  -95.69   -0.06   -4.27   -0.04   -4.32  -22.83  -87.96
   3.910  -23.34  -95.47   -0.06   -4.59   -0.04   -4.62  -23.16  -88.25
   3.975  -23.70  -95.55   -0.06   -4.82   -0.04   -4.82  -23.56  -88.80
   4.040  -24.07  -96.20   -0.06   -5.07   -0.04   -5.10  -23.91  -88.85
   4.105  -24.43  -96.37   -0.06   -5.32   -0.04   -5.38  -24.30  -88.96
   4.170  -24.86  -96.37   -0.06   -5.61   -0.04   -5.67  -24.70  -89.17
   4.235  -25.28  -96.17   -0.06   -5.84   -0.04   -5.92  -25.19  -89.86
   4.300  -25.62  -96.11   -0.05   -6.13   -0.03   -6.16  -25.61  -89.80
   4.365  -26.09  -96.00   -0.05   -6.37   -0.03   -6.41  -26.05  -89.40
   4.430  -26.56  -96.03   -0.06   -6.62   -0.03   -6.70  -26.47  -89.64
   4.495  -26.85  -95.86   -0.05   -6.89   -0.04   -6.97  -26.92  -89.93
   4.560  -27.21  -95.46   -0.06   -7.13   -0.03   -7.24  -27.48  -91.04
   4.625  -27.85  -97.12   -0.06   -7.33   -0.05   -7.39  -28.23  -90.89
   4.690  -28.56  -96.91   -0.05   -7.57   -0.04   -7.63  -28.63  -89.74
   4.755  -29.09  -95.04   -0.05   -7.81   -0.04   -7.87  -29.14  -89.21
   4.820  -29.66  -93.66   -0.05   -8.07   -0.04   -8.16  -29.72  -90.01
   4.885  -30.25  -93.13   -0.05   -8.31   -0.03   -8.32  -30.31  -90.39
   4.950  -30.71  -91.85   -0.05   -8.55   -0.03   -8.62  -30.96  -90.45
   5.015  -31.53  -90.70   -0.04   -8.76   -0.03   -8.84  -31.63  -90.00
   5.080  -32.12  -89.61   -0.05   -9.01   -0.04   -9.10  -32.39  -91.49
   5.145  -32.70  -87.72   -0.04   -9.25   -0.04   -9.29  -33.17  -91.24
   5.210  -33.50  -84.95   -0.05   -9.46   -0.04   -9.51  -34.12  -92.44
   5.275  -34.31  -83.61   -0.04   -9.71   -0.04   -9.72  -35.05  -92.59
   5.340  -35.07  -80.53   -0.05   -9.91   -0.04   -9.98  -36.10  -92.82
   5.405  -35.92  -75.98   -0.04  -10.12   -0.04  -10.20  -37.22  -93.77
   5.470  -36.68  -72.04   -0.04  -10.36   -0.03  -10.43  -38.60  -95.89
   5.535  -37.58  -67.08   -0.04  -10.60   -0.04  -10.63  -40.20  -97.28
   5.600  -38.43  -60.30   -0.05  -10.82   -0.04  -10.86  -42.00  -99.09
   5.665  -39.19  -54.38   -0.04  -11.05   -0.04  -11.08  -44.20 -104.10
   5.730  -39.74  -44.74   -0.04  -11.28   -0.03  -11.30  -47.39 -111.71
   5.795  -40.28  -35.06   -0.05  -11.49   -0.04  -11.51  -50.84 -130.70
   5.860  -40.54  -24.52   -0.04  -11.72   -0.04  -11.74  -53.72 -175.22
   5.925  -40.35  -13.20   -0.05  -11.94   -0.04  -11.96  -51.56  138.36
   5.990  -39.59   -3.14   -0.05  -12.18   -0.04  -12.17  -47.68  119.85
   6.055  -39.02    4.64   -0.05  -12.38   -0.05  -12.37  -44.79  109.39
   6.120  -38.23   11.29   -0.05  -12.59   -0.05  -12.54  -42.52  105.40
   6.185  -37.38   15.32   -0.05  -12.79   -0.05  -12.75  -40.76  103.02
   6.250  -36.56   20.72   -0.05  -13.04   -0.05  -12.94  -39.39   99.37
   6.315  -36.07   23.29   -0.06  -13.20   -0.05  -13.13  -38.18   97.62
   6.380  -35.34   24.83   -0.06  -13.40   -0.05  -13.29  -37.30   97.17
   6.445  -34.65   27.66   -0.05  -13.65   -0.04  -13.55  -36.44   96.11
   6.510  -34.18   30.81   -0.06  -13.82   -0.04  -13.72  -35.50   95.38
   6.575  -33.93   31.36   -0.06  -14.05   -0.03  -13.92  -34.81   95.75
   6.640  -33.20   32.36   -0.06  -14.25   -0.04  -14.14  -34.33   95.05
   6.705  -32.71   36.38   -0.06  -14.45   -0.03  -14.34  -33.67   94.10
   6.770  -32.51   37.79   -0.06  -14.65   -0.03  -14.55  -33.10   95.39
   6.835  -32.05   38.05   -0.06  -14.86   -0.02  -14.82  -32.61   95.54
   6.900  -31.22   40.28   -0.06  -15.01   -0.02  -14.99  -32.11   94.78
   6.965  -30.92   41.61   -0.07  -15.20   -0.03  -15.20  -31.49   94.59
   7.030  -30.59   40.24   -0.06  -15.39   -0.03  -15.48  -30.96   94.52
   7.095  -30.06   40.12   -0.06  -15.58   -0.02  -15.69  -30.57   92.97
   7.160  -29.89   41.17   -0.06  -15.80   -0.03  -15.90  -30.14   92.13
   7.225  -29.73   41.01   -0.06  -16.01   -0.01  -16.11  -29.89   91.64
   7.290  -29.42   41.30   -0.05  -16.21   -0.01  -16.34  -29.68   90.04
   7.355  -29.17   41.94   -0.06  -16.47   -0.02  -16.53  -29.29   89.87
   7.420  -28.99   42.26   -0.06  -16.62   -0.03  -16.74  -29.15   90.73
   7.485  -28.70   42.55   -0.06  -16.84   -0.02  -16.96  -28.85   89.19
   7.550  -28.51   43.00   -0.06  -17.07   -0.03  -17.18  -28.53   88.39
   7.615  -28.33   43.45   -0.06  -17.23   -0.03  -17.42  -28.38   88.87
   7.680  -28.26   43.58   -0.06  -17.46   -0.03  -17.64  -28.07   87.23
   7.745  -28.07   43.41   -0.06  -17.64   -0.04  -17.85  -27.82   86.68
   7.810  -27.96   44.68   -0.06  -17.84   -0.04  -18.01  -27.74   85.93
   7.875  -27.94   46.79   -0.06  -18.03   -0.04  -18.15  -27.65   84.02
   7.940  -27.75   46.66   -0.06  -18.23   -0.04  -18.43  -27.52   84.27
   8.005  -27.31   47.60   -0.06  -18.42   -0.04  -18.62  -27.52   84.46
   8.070  -27.18   49.21   -0.06  -18.66   -0.04  -18.78  -27.36   83.58
   8.135  -26.93   48.10   -0.06  -18.85   -0.05  -19.04  -27.18   83.84
   8.200  -26.70   48.42   -0.06  -19.06   -0.04  -19.23  -27.06   83.07
   8.265  -26.63   48.41   -0.06  -19.29   -0.05  -19.48  -26.78   82.46
   8.330  -27.19   50.07   -0.06  -19.43   -0.04  -19.59  -27.64   80.84
   8.395  -27.01   50.48   -0.06  -19.64   -0.04  -19.90  -27.58   79.13
   8.460  -26.95   51.90   -0.06  -19.86   -0.05  -20.00  -27.39   78.14
   8.525  -26.89   51.81   -0.06  -20.04   -0.05  -20.23  -27.33   77.85
   8.590  -26.70   51.92   -0.07  -20.27   -0.05  -20.46  -27.25   76.93
   8.655  -26.55   52.28   -0.07  -20.48   -0.07  -20.64  -27.05   75.83
   8.720  -26.44   53.43   -0.07  -20.64   -0.05  -20.83  -27.11   74.43
   8.785  -26.46   52.85   -0.06  -20.89   -0.05  -21.02  -26.99   73.34
   8.850  -26.32   53.21   -0.06  -21.10   -0.06  -21.29  -26.88   73.07
   8.915  -26.29   54.32   -0.07  -21.32   -0.06  -21.46  -26.95   72.44
   8.980  -26.19   55.05   -0.08  -21.49   -0.07  -21.68  -26.88   71.51
   9.045  -25.98   56.02   -0.09  -21.65   -0.08  -21.79  -26.74   71.49
   9.110  -25.76   56.87   -0.08  -21.80   -0.08  -22.00  -26.60   71.19
   9.175  -25.63   55.65   -0.09  -21.96   -0.08  -22.14  -26.43   70.11
   9.240  -25.39   55.02   -0.09  -22.16   -0.09  -22.32  -26.38   69.43
   9.305  -25.42   55.32   -0.09  -22.32   -0.08  -22.50  -26.36   69.01
   9.370  -25.54   54.86   -0.08  -22.46   -0.08  -22.62  -26.11   68.52
   9.435  -25.59   55.31   -0.08  -22.65   -0.06  -22.80  -25.84   68.54
   9.500  -25.51   56.46   -0.08  -22.85   -0.07  -23.06  -25.66   67.47
   9.565  -25.42   57.81   -0.08  -23.03   -0.08  -23.21  -25.46   65.73
   9.630  -25.28   58.72   -0.07  -23.20   -0.07  -23.40  -25.26   64.39
   9.695  -25.15   58.88   -0.06  -23.40   -0.06  -23.59  -25.08   63.09
   9.760  -25.05   59.12   -0.06  -23.60   -0.06  -23.77  -24.93   62.03
   9.825  -25.00   59.31   -0.06  -23.85   -0.06  -24.03  -24.83   60.82
   9.890  -24.88   59.71   -0.05  -24.07   -0.05  -24.22  -24.72   59.25
   9.955  -24.77   61.10   -0.07  -24.29   -0.05  -24.44  -24.55   57.61
  10.020  -24.78   61.55   -0.06  -24.55   -0.06  -24.65  -24.43   57.32
  10.085  -24.56   61.83   -0.06  -24.71   -0.06  -24.89  -24.41   56.10
  10.150  -24.40   63.06   -0.06  -24.95   -0.06  -25.12  -24.22   55.02
  10.215  -24.28   63.91   -0.06  -25.17   -0.06  -25.28  -24.16   54.28
  10.280  -24.10   63.76   -0.06  -25.38   -0.06  -25.53  -24.02   53.12
  10.345  -23.94   64.35   -0.06  -25.57   -0.06  -25.73  -23.87   53.01
  10.410  -23.84   64.66   -0.06  -25.81   -0.08  -25.96  -23.78   52.88
  10.475  -23.58   64.97   -0.07  -25.97   -0.07  -26.15  -23.65   52.12
  10.540  -23.49   65.62   -0.07  -26.25   -0.07  -26.33  -23.35   51.94
  10.605  -23.30   65.58   -0.07  -26.45   -0.07  -26.54  -23.19   51.21
  10.670  -23.14   65.40   -0.08  -26.55   -0.08  -26.69  -22.97   50.19
  10.735  -23.02   65.51   -0.07  -26.79   -0.09  -26.90  -22.79   49.65
  10.800  -22.88   65.92   -0.08  -26.96   -0.09  -27.09  -22.73   48.52
  10.865  -22.77   66.11   -0.08  -27.16   -0.08  -27.33  -22.51   48.25
  10.930  -22.66   66.05   -0.08  -27.38   -0.08  -27.45  -22.30   48.30
  10.995  -22.49   66.82   -0.08  -27.54   -0.09  -27.71  -22.16   47.17
  11.060  -22.29   67.13   -0.08  -27.73   -0.09  -27.91  -21.96   46.71
  11.125  -22.09   67.22   -0.08  -27.96   -0.08  -28.12  -21.83   46.13
  11.190  -21.87   67.26   -0.08  -28.12   -0.08  -28.29  -21.68   45.25
  11.255  -21.76   66.73   -0.08  -28.36   -0.09  -28.46  -21.46   45.66
  11.320  -21.59   66.71   -0.08  -28.54   -0.09  -28.70  -21.37   45.37
  11.385  -21.39   66.91   -0.08  -28.79   -0.08  -28.95  -21.14   44.39
  11.450  -21.22   66.74   -0.07  -28.99   -0.08  -29.13  -20.99   44.57
  11.515  -21.12   66.41   -0.08  -29.23   -0.08  -29.34  -20.79   44.54
  11.580  -20.96   66.49   -0.08  -29.44   -0.08  -29.58  -20.58   43.68
  11.645  -20.75   66.27   -0.07  -29.70   -0.08  -29.85  -20.46   43.74
  11.710  -20.55   66.28   -0.07  -29.96   -0.08  -30.09  -20.34   43.40
  11.775  -20.46   66.13   -0.08  -30.24   -0.09  -30.39  -20.06   42.95
  11.840  -20.18   65.82   -0.08  -30.39   -0.09  -30.53  -19.98   43.40
  11.905  -20.11   65.64   -0.09  -30.69   -0.09  -30.74  -19.72   43.15
  11.970  -19.87   65.32   -0.08  -30.87   -0.10  -31.01  -19.62   42.80
  12.035  -19.72   65.26   -0.09  -31.08   -0.10  -31.21  -19.43   42.68
  12.100  -19.53   64.76   -0.09  -31.30   -0.10  -31.44  -19.25   42.74
  12.165  -19.46   64.39   -0.10  -31.54   -0.09  -31.67  -18.98   42.79
  12.230  -19.17   63.97   -0.10  -31.73   -0.12  -31.98  -18.96   42.62
  12.295  -19.06   64.08   -0.11  -32.00   -0.12  -32.18  -18.72   42.07
  12.360  -18.88   63.37   -0.11  -32.26   -0.12  -32.35  -18.57   42.60
  12.425  -18.78   63.47   -0.12  -32.37   -0.13  -32.56  -18.35   41.88
  12.490  -18.53   62.41   -0.12  -32.72   -0.15  -32.75  -18.23   42.43
  12.555  -18.37   62.70   -0.12  -32.89   -0.14  -33.01  -18.06   41.96
  12.620  -18.19   62.22   -0.13  -33.12   -0.15  -33.23  -17.96   41.77
  12.685  -18.05   61.53   -0.13  -33.35   -0.14  -33.51  -17.68   41.93
  12.750  -17.88   60.87   -0.15  -33.62   -0.15  -33.55  -17.59   42.78
  12.815  -17.71   61.11   -0.15  -33.74   -0.15  -33.96  -17.44   41.56
  12.880  -17.50   59.79   -0.16  -34.17   -0.19  -34.21  -17.28   42.35
  12.945  -17.33   60.18   -0.16  -34.32   -0.17  -34.53  -17.10   41.83
  13.010  -17.25   59.23   -0.17  -34.52   -0.18  -34.62  -16.88   41.97
  13.075  -16.95   58.32   -0.16  -34.88   -0.17  -34.94  -16.73   42.35
  13.140  -16.82   58.01   -0.18  -35.13   -0.19  -35.10  -16.60   42.41
  13.205  -16.65   58.05   -0.17  -35.29   -0.21  -35.44  -16.42   41.39
  13.270  -16.47   56.36   -0.20  -35.63   -0.20  -35.63  -16.20   42.57
  13.335  -16.28   56.27   -0.19  -35.87   -0.19  -35.96  -16.04   41.86
  13.400  -16.13   55.45   -0.21  -36.06   -0.21  -36.07  -15.86   41.90
  13.465  -15.82   54.65   -0.20  -36.53   -0.23  -36.65  -15.78   41.75
  13.530  -15.74   54.28   -0.23  -36.69   -0.24  -36.82  -15.56   41.48
  13.595  -15.59   53.14   -0.22  -37.15   -0.27  -37.30  -15.29   41.54
  13.660  -15.35   52.20   -0.25  -37.31   -0.27  -37.31  -15.20   41.91
  13.725  -15.14   51.29   -0.27  -37.62   -0.28  -37.70  -15.07   41.16
  13.790  -15.00   50.90   -0.28  -37.80   -0.31  -37.97  -14.84   40.84
  13.855  -14.77   49.60   -0.30  -38.31   -0.33  -38.38  -14.69   41.05
  13.920  -14.62   48.77   -0.32  -38.51   -0.33  -38.57  -14.46   40.87
  13.985  -14.39   47.50   -0.36  -38.94   -0.36  -38.97  -14.25   40.76
  14.050  -14.13   47.06   -0.35  -39.24   -0.40  -39.29  -14.15   40.07
  14.115  -14.03   45.40   -0.40  -39.58   -0.42  -39.84  -13.82   39.67
  14.180  -13.74   44.54   -0.41  -39.92   -0.44  -40.01  -13.63   39.36
  14.245  -13.54   42.87   -0.46  -40.39   -0.46  -40.43  -13.41   39.37
  14.310  -13.22   41.62   -0.49  -40.79   -0.51  -40.80  -13.21   38.00
  14.375  -13.01   39.99   -0.54  -41.26   -0.57  -41.34  -12.94   37.24
  14.440  -12.77   38.16   -0.59  -41.78   -0.63  -41.80  -12.71   36.30
  14.505  -12.60   35.86   -0.68  -42.19   -0.71  -42.29  -12.37   35.31
  14.570  -12.27   33.82   -0.77  -42.68   -0.79  -42.51  -12.18   34.15
  14.635  -12.08   31.92   -0.87  -43.01   -0.90  -43.00  -11.88   31.90
  14.700  -11.76   29.17   -0.99  -43.43   -1.03  -43.31  -11.62   29.71
  14.765  -11.54   25.98   -1.13  -43.69   -1.17  -43.70  -11.28   27.33
  14.830  -11.24   21.95   -1.31  -43.89   -1.31  -43.83  -11.06   24.64
  14.895  -10.98   17.87   -1.50  -43.91   -1.53  -43.80  -10.83   20.48
  14.960  -10.85   12.78   -1.73  -43.52   -1.75  -43.41  -10.64   16.25
  15.025  -10.82    7.08   -1.98  -42.71   -2.02  -42.51  -10.54   10.78
  15.090  -10.92    0.18   -2.22  -41.20   -2.24  -41.18  -10.62    5.06
  15.155  -11.21   -6.84   -2.38  -39.02   -2.39  -38.88  -10.93   -1.51
  15.220  -11.72  -13.95   -2.41  -36.41   -2.40  -36.35  -11.42   -8.30
  15.285  -12.59  -20.17   -2.26  -33.99   -2.27  -33.73  -12.19  -14.79
  15.350  -13.70  -26.53   -2.02  -32.06   -2.04  -32.12  -13.27  -19.76
  15.415  -14.98  -30.53   -1.73  -31.05   -1.75  -31.11  -14.55  -23.88
  15.480  -16.46  -32.52   -1.44  -30.72   -1.46  -30.73  -16.01  -26.00
  15.545  -17.96  -32.72   -1.20  -30.81   -1.21  -30.82  -17.55  -26.36
  15.610  -19.53  -30.20   -1.00  -31.22   -1.03  -31.15  -18.97  -23.74
  15.675  -20.98  -24.98   -0.84  -31.79   -0.86  -31.70  -20.50  -18.99
  15.740  -22.09  -18.43   -0.71  -32.37   -0.73  -32.32  -21.78  -12.38
  15.805  -22.74   -9.38   -0.62  -33.03   -0.63  -32.84  -22.67   -4.18
  15.870  -23.19   -0.30   -0.53  -33.62   -0.54  -33.46  -23.24    5.04
  15.935  -23.20    6.98   -0.48  -34.17   -0.49  -34.10  -23.42   13.98
  16.000  -23.01   13.41   -0.43  -34.74   -0.43  -34.60  -23.18   22.02
  16.065  -22.54   19.45   -0.38  -35.22   -0.39  -35.11  -23.02   28.63
  16.130  -22.22   23.67   -0.35  -35.78   -0.36  -35.59  -22.58   33.24
  16.195  -21.80   27.02   -0.33  -36.15   -0.34  -36.03  -22.14   37.92
  16.260  -21.42   29.52   -0.31  -36.60   -0.32  -36.52  -21.72   41.43
  16.325  -21.00   31.32   -0.30  -37.01   -0.29  -36.90  -21.37   43.82
  16.390  -20.65   33.13   -0.28  -37.43   -0.29  -37.27  -20.99   45.67
  16.455  -20.33   34.07   -0.26  -37.70   -0.27  -37.60  -20.67   47.32
  16.520  -20.08   34.85   -0.26  -38.05   -0.27  -38.01  -20.35   48.56
  16.585  -19.76   35.75   -0.25  -38.41   -0.25  -38.31  -20.08   50.11
  16.650  -19.58   35.86   -0.25  -38.73   -0.24  -38.69  -19.85   50.81
  16.715  -19.27   36.60   -0.23  -39.07   -0.24  -38.92  -19.59   51.43
  16.780  -19.10   37.02   -0.25  -39.30   -0.24  -39.18  -19.39   52.54
  16.845  -18.97   36.77   -0.22  -39.59   -0.23  -39.58  -19.14   52.93
  16.910  -18.73   37.02   -0.23  -39.89   -0.22  -39.86  -18.94   53.43
  16.975  -18.62   38.04   -0.23  -40.20   -0.21  -39.96  -18.86   53.54
  17.040  -18.57   37.57   -0.21  -40.29   -0.21  -40.23  -18.62   53.61
  17.105  -18.28   37.72   -0.22  -40.63   -0.21  -40.57  -18.44   53.76
  17.170  -18.27   38.08   -0.22  -40.87   -0.23  -40.84  -18.40   53.84
  17.235  -18.14   37.28   -0.19  -41.11   -0.20  -41.04  -18.25   53.61
  17.300  -17.98   37.66   -0.19  -41.37   -0.19  -41.28  -18.09   53.67
  17.365  -17.89   38.15   -0.20  -41.69   -0.18  -41.54  -18.08   53.34
  17.430  -17.92   37.25   -0.18  -41.79   -0.18  -41.80  -17.92   53.48
  17.495  -17.66   38.08   -0.19  -42.21   -0.17  -42.10  -17.82   53.31
  17.560  -17.66   37.89   -0.18  -42.44   -0.18  -42.32  -17.82   52.94
  17.625  -17.55   37.22   -0.17  -42.61   -0.18  -42.62  -17.74   52.55
