!  American Technical Ceramics   Date:  10/27/06
!  One Norden Lane
!  Huntington Station,  NY.   11746-2102
!  Tel:  (631) 622-4700               Fax:  (631) 622-4748
!  Part Number  600L100		Mounting Orientation:  Horizontal
!  Description: Ultra Low ESR Microwave capacitors
!  Application: Coupling, Bypass, Tuning, DC Block
!               Filters, Matching
# GHZ S DB R 50
! Freq   |S11|   S11 Ph  |S21|   S21 Ph  |S12|   S12 Ph  |S22|   S22 Ph
    0.00    0.00    0.00 -999.00   90.00 -999.00   90.00    0.00    0.00
   0.400   -8.64  -68.54   -0.68   20.93   -0.68   20.97   -8.62  -68.44
   0.445   -9.43  -70.73   -0.56   18.77   -0.56   18.75   -9.45  -70.32
   0.490  -10.20  -72.47   -0.46   17.01   -0.46   17.02  -10.24  -72.37
   0.535  -10.90  -74.06   -0.39   15.45   -0.40   15.45  -10.88  -73.82
   0.580  -11.57  -75.33   -0.34   14.11   -0.33   14.10  -11.62  -75.00
   0.625  -12.20  -76.62   -0.29   12.94   -0.29   12.97  -12.19  -76.58
   0.670  -12.77  -77.61   -0.25   11.89   -0.25   11.87  -12.81  -77.14
   0.715  -13.35  -78.55   -0.22   10.98   -0.22   11.00  -13.38  -78.63
   0.760  -13.87  -79.41   -0.20   10.11   -0.20   10.11  -13.88  -78.91
   0.805  -14.38  -80.05   -0.18    9.37   -0.17    9.37  -14.48  -80.13
   0.850  -14.86  -80.91   -0.16    8.67   -0.16    8.68  -14.85  -80.80
   0.895  -15.32  -81.41   -0.14    8.03   -0.14    8.01  -15.43  -81.19
   0.940  -15.79  -82.09   -0.13    7.45   -0.13    7.46  -15.79  -82.43
   0.985  -16.21  -82.57   -0.12    6.88   -0.12    6.87  -16.27  -82.06
   1.030  -16.64  -83.08   -0.10    6.38   -0.10    6.40  -16.73  -83.68
   1.075  -17.03  -83.62   -0.10    5.88   -0.10    5.88  -17.03  -83.35
   1.120  -17.44  -83.98   -0.09    5.44   -0.09    5.45  -17.60  -84.33
   1.165  -17.82  -84.45   -0.08    5.01   -0.08    5.03  -17.79  -84.82
   1.210  -18.20  -84.70   -0.07    4.60   -0.07    4.59  -18.36  -84.57
   1.255  -18.57  -85.14   -0.07    4.22   -0.07    4.24  -18.61  -86.32
   1.300  -18.92  -85.49   -0.06    3.85   -0.06    3.85  -18.99  -85.18
   1.345  -19.30  -85.78   -0.06    3.51   -0.06    3.53  -19.45  -87.11
   1.390  -19.63  -86.07   -0.06    3.17   -0.06    3.17  -19.60  -86.24
   1.435  -19.98  -86.24   -0.05    2.85   -0.05    2.85  -20.23  -87.11
   1.480  -20.32  -86.65   -0.05    2.54   -0.05    2.55  -20.25  -87.94
   1.525  -20.66  -86.82   -0.04    2.23   -0.04    2.23  -20.83  -86.88
   1.570  -21.00  -86.96   -0.04    1.95   -0.04    1.97  -21.03  -89.38
   1.615  -21.30  -87.13   -0.04    1.66   -0.04    1.66  -21.34  -87.33
   1.660  -21.63  -87.24   -0.04    1.39   -0.03    1.42  -21.89  -89.85
   1.705  -21.92  -87.52   -0.04    1.13   -0.04    1.14  -21.85  -88.82
   1.750  -22.25  -87.79   -0.03    0.87   -0.03    0.88  -22.62  -89.25
   1.795  -22.58  -88.00   -0.03    0.64   -0.03    0.66  -22.53  -90.61
   1.840  -22.90  -88.05   -0.03    0.40   -0.03    0.38  -23.16  -88.47
   1.885  -23.22  -88.16   -0.03    0.16   -0.03    0.18  -23.38  -92.00
   1.930  -23.52  -88.31   -0.03   -0.07   -0.02   -0.08  -23.55  -89.02
   1.975  -23.85  -88.29   -0.02   -0.31   -0.02   -0.29  -24.26  -91.75
   2.020  -24.15  -88.41   -0.02   -0.53   -0.02   -0.52  -24.05  -90.76
   2.065  -24.46  -88.41   -0.02   -0.74   -0.02   -0.74  -24.96  -90.39
   2.110  -24.77  -88.57   -0.02   -0.95   -0.02   -0.94  -24.77  -93.00
   2.155  -25.08  -88.60   -0.02   -1.17   -0.02   -1.18  -25.38  -89.49
   2.200  -25.41  -88.62   -0.02   -1.38   -0.02   -1.36  -25.72  -93.97
   2.245  -25.70  -88.76   -0.02   -1.58   -0.02   -1.58  -25.73  -90.24
   2.290  -26.03  -88.70   -0.02   -1.78   -0.02   -1.77  -26.67  -93.09
   2.335  -26.34  -88.88   -0.02   -1.97   -0.02   -1.97  -26.27  -92.59
   2.380  -26.67  -88.88   -0.02   -2.18   -0.01   -2.18  -27.32  -90.84
   2.425  -27.00  -88.95   -0.02   -2.36   -0.02   -2.35  -27.14  -94.77
   2.470  -27.29  -88.95   -0.02   -2.56   -0.02   -2.57  -27.69  -89.63
   2.515  -27.62  -89.04   -0.02   -2.76   -0.02   -2.73  -28.22  -95.15
   2.560  -27.93  -89.20   -0.02   -2.93   -0.02   -2.93  -28.01  -90.77
   2.605  -28.22  -89.48   -0.02   -3.11   -0.02   -3.11  -29.21  -92.66
   2.650  -28.53  -90.12   -0.02   -3.28   -0.02   -3.28  -28.63  -93.00
   2.695  -28.88  -90.66   -0.02   -3.46   -0.01   -3.46  -29.78  -89.54
   2.740  -29.29  -91.36   -0.01   -3.64   -0.02   -3.63  -29.65  -94.52
   2.785  -29.66  -91.73   -0.02   -3.83   -0.02   -3.82  -30.01  -87.25
   2.830  -30.03  -92.38   -0.01   -4.00   -0.01   -3.98  -30.78  -92.69
   2.875  -30.36  -93.20   -0.02   -4.17   -0.02   -4.16  -30.27  -88.08
   2.920  -30.74  -94.46   -0.02   -4.35   -0.02   -4.33  -31.59  -88.37
   2.965  -31.15  -96.14   -0.02   -4.50   -0.02   -4.49  -30.93  -89.77
   3.010  -30.53  -89.68   -0.02   -4.72   -0.02   -4.73  -31.78  -93.69
   3.055  -30.84  -90.09   -0.02   -4.90   -0.02   -4.88  -31.47 -101.57
   3.100  -31.14  -90.22   -0.02   -5.05   -0.02   -5.04  -31.86  -92.11
   3.145  -31.54  -91.02   -0.02   -5.21   -0.02   -5.19  -32.73 -101.28
   3.190  -31.99  -90.85   -0.02   -5.37   -0.02   -5.35  -31.95  -95.04
   3.235  -32.38  -90.50   -0.02   -5.52   -0.02   -5.52  -33.83  -97.21
   3.280  -32.77  -90.17   -0.02   -5.68   -0.02   -5.67  -32.57 -100.24
   3.325  -33.12  -89.47   -0.02   -5.84   -0.02   -5.82  -34.26  -93.64
   3.370  -33.47  -89.51   -0.02   -6.01   -0.02   -5.98  -33.95 -104.85
   3.415  -33.83  -89.42   -0.02   -6.16   -0.02   -6.14  -34.29  -92.64
   3.460  -34.25  -89.62   -0.02   -6.32   -0.02   -6.29  -35.61 -104.44
   3.505  -34.70  -89.30   -0.02   -6.47   -0.02   -6.45  -34.44  -97.86
   3.550  -35.15  -88.71   -0.02   -6.61   -0.02   -6.60  -37.01 -100.33
   3.595  -35.62  -88.73   -0.02   -6.76   -0.02   -6.74  -35.27 -105.31
   3.640  -36.09  -87.85   -0.02   -6.91   -0.02   -6.90  -37.36  -94.36
   3.685  -36.62  -87.61   -0.02   -7.07   -0.02   -7.05  -36.91 -111.52
   3.730  -37.14  -86.62   -0.02   -7.22   -0.02   -7.19  -37.16  -96.48
   3.775  -37.68  -85.87   -0.03   -7.37   -0.03   -7.34  -39.15 -114.23
   3.820  -38.20  -84.88   -0.03   -7.50   -0.03   -7.49  -37.29 -104.97
   3.865  -38.75  -83.77   -0.03   -7.63   -0.03   -7.62  -41.16 -109.31
   3.910  -39.37  -83.06   -0.02   -7.79   -0.02   -7.76  -38.58 -117.94
   3.955  -40.00  -80.77   -0.02   -7.93   -0.02   -7.92  -42.08 -103.51
   4.000  -40.64  -79.77   -0.02   -8.09   -0.02   -8.06  -40.95 -130.60
   4.045  -41.33  -77.67   -0.03   -8.24   -0.02   -8.21  -41.72 -105.20
   4.090  -42.11  -75.29   -0.03   -8.38   -0.02   -8.36  -44.99 -139.40
   4.135  -42.87  -73.30   -0.02   -8.52   -0.02   -8.51  -42.30 -117.82
   4.180  -43.78  -70.33   -0.02   -8.66   -0.02   -8.65  -49.93 -133.53
   4.225  -44.79  -66.13   -0.02   -8.82   -0.02   -8.81  -43.61 -137.05
   4.270  -45.83  -60.39   -0.02   -8.97   -0.02   -8.96  -51.60 -107.82
   4.315  -46.89  -53.74   -0.03   -9.13   -0.02   -9.10  -46.56 -167.19
   4.360  -47.80  -46.48   -0.03   -9.27   -0.02   -9.25  -50.47 -114.80
   4.405  -48.89  -36.66   -0.03   -9.41   -0.03   -9.40  -50.04  151.49
   4.450  -49.76  -22.44   -0.03   -9.55   -0.03   -9.54  -50.05 -145.26
   4.495  -49.96   -4.96   -0.03   -9.68   -0.03   -9.67  -51.60  104.18
   4.540  -48.96   14.78   -0.03   -9.83   -0.03   -9.81  -48.68  163.93
   4.585  -46.67   25.81   -0.02   -9.96   -0.02   -9.93  -52.48   68.64
   4.630  -44.75   26.66   -0.02  -10.14   -0.02  -10.12  -47.12  125.45
   4.675  -44.25   24.36   -0.02  -10.33   -0.02  -10.31  -58.76   94.29
   4.720  -44.02   28.84   -0.02  -10.48   -0.02  -10.47  -44.37  104.26
   4.765  -43.45   34.35   -0.03  -10.63   -0.02  -10.63  -49.26  124.06
   4.810  -42.70   39.15   -0.03  -10.78   -0.03  -10.77  -43.16   85.85
   4.855  -41.77   42.43   -0.03  -10.94   -0.03  -10.91  -43.75  114.97
   4.900  -41.06   44.79   -0.03  -11.09   -0.03  -11.07  -43.18   78.45
   4.945  -40.20   46.95   -0.03  -11.24   -0.03  -11.22  -40.31  101.57
   4.990  -39.57   48.54   -0.03  -11.40   -0.03  -11.38  -42.90   85.13
   5.035  -38.83   50.31   -0.03  -11.54   -0.03  -11.53  -38.56   89.41
   5.080  -38.14   51.14   -0.03  -11.71   -0.03  -11.70  -40.93   93.24
   5.125  -37.51   52.23   -0.04  -11.87   -0.04  -11.85  -37.75   79.73
   5.170  -36.88   53.00   -0.04  -12.04   -0.04  -12.03  -38.16   94.46
   5.215  -36.30   53.77   -0.04  -12.21   -0.04  -12.19  -37.60   76.05
   5.260  -35.64   54.69   -0.04  -12.38   -0.04  -12.36  -35.94   88.50
   5.305  -35.02   55.02   -0.05  -12.55   -0.04  -12.54  -37.13   78.09
   5.350  -34.42   55.66   -0.05  -12.72   -0.05  -12.71  -34.45   80.68
   5.395  -33.82   55.74   -0.05  -12.91   -0.05  -12.89  -35.69   82.02
   5.440  -33.20   56.00   -0.06  -13.09   -0.06  -13.08  -33.62   73.66
   5.485  -32.55   56.10   -0.06  -13.29   -0.06  -13.28  -33.69   81.75
   5.530  -31.94   55.84   -0.07  -13.49   -0.07  -13.46  -33.06   69.73
   5.575  -31.27   55.83   -0.08  -13.70   -0.08  -13.68  -31.80   76.97
   5.620  -30.58   55.29   -0.09  -13.92   -0.09  -13.90  -32.11   69.69
   5.665  -29.84   54.73   -0.10  -14.14   -0.10  -14.13  -30.32   69.84
   5.710  -29.06   53.67   -0.12  -14.39   -0.12  -14.38  -30.56   68.73
   5.755  -28.22   52.17   -0.14  -14.65   -0.14  -14.62  -28.93   62.59
   5.800  -27.31   49.94   -0.17  -14.91   -0.17  -14.88  -28.46   64.04
   5.845  -26.34   46.72   -0.20  -15.17   -0.20  -15.14  -27.40   54.73
   5.890  -25.34   42.39   -0.26  -15.43   -0.26  -15.42  -26.21   53.59
   5.935  -24.33   36.39   -0.33  -15.66   -0.33  -15.64  -25.50   43.29
   5.980  -23.35   28.36   -0.43  -15.74   -0.43  -15.72  -24.08   35.99
   6.025  -22.54   17.62   -0.55  -15.51   -0.55  -15.49  -23.67   22.87
   6.070  -22.17    4.19   -0.65  -14.75   -0.65  -14.72  -22.86    8.34
   6.115  -22.47  -10.51   -0.67  -13.66   -0.67  -13.63  -23.53   -7.86
   6.160  -23.48  -24.04   -0.59  -12.76   -0.58  -12.74  -24.10  -23.61
   6.205  -24.99  -34.49   -0.47  -12.35   -0.47  -12.33  -26.10  -34.73
   6.250  -26.74  -41.63   -0.36  -12.35   -0.36  -12.33  -27.37  -46.65
   6.295  -28.55  -45.74   -0.27  -12.54   -0.27  -12.51  -29.67  -48.74
   6.340  -30.35  -47.65   -0.22  -12.82   -0.22  -12.80  -31.35  -59.90
   6.385  -32.12  -46.87   -0.17  -13.10   -0.17  -13.07  -33.01  -54.47
   6.430  -33.82  -44.82   -0.15  -13.38   -0.14  -13.35  -36.01  -64.80
   6.475  -35.44  -40.31   -0.12  -13.64   -0.12  -13.62  -36.30  -58.67
   6.520  -36.87  -33.97   -0.11  -13.89   -0.11  -13.86  -41.20  -55.15
   6.565  -38.10  -25.95   -0.10  -14.12   -0.09  -14.11  -40.68  -61.78
   6.610  -38.98  -15.24   -0.08  -14.35   -0.08  -14.32  -44.67  -26.68
   6.655  -39.54   -5.56   -0.08  -14.56   -0.08  -14.53  -48.70  -53.40
   6.700  -39.64    5.03   -0.07  -14.77   -0.07  -14.72  -45.69   -2.41
   6.745  -39.41   14.49   -0.07  -14.95   -0.07  -14.94  -50.89   48.32
   6.790  -38.97   22.86   -0.06  -15.14   -0.06  -15.10  -46.45   21.60
   6.835  -38.38   28.84   -0.06  -15.31   -0.06  -15.30  -43.19   63.18
   6.880  -37.86   34.31   -0.06  -15.50   -0.06  -15.49  -46.22   53.64
   6.925  -37.17   38.38   -0.05  -15.68   -0.05  -15.64  -40.18   58.53
   6.970  -36.64   41.70   -0.05  -15.83   -0.05  -15.83  -41.96   74.69
   7.015  -36.03   44.40   -0.05  -16.02   -0.05  -15.99  -39.16   57.43
   7.060  -35.52   46.74   -0.05  -16.18   -0.05  -16.14  -38.37   76.07
   7.105  -35.01   48.69   -0.05  -16.34   -0.05  -16.31  -38.79   61.26
   7.150  -34.51   50.28   -0.05  -16.49   -0.05  -16.48  -36.18   70.69
   7.195  -34.10   51.59   -0.05  -16.64   -0.05  -16.61  -37.73   69.08
   7.240  -33.70   52.61   -0.05  -16.80   -0.05  -16.77  -35.16   65.05
   7.285  -33.29   53.65   -0.05  -16.95   -0.05  -16.93  -36.01   73.55
   7.330  -32.92   54.64   -0.05  -17.10   -0.05  -17.07  -34.86   61.72
   7.375  -32.54   55.68   -0.05  -17.23   -0.05  -17.24  -34.24   72.36
   7.420  -32.19   56.11   -0.05  -17.39   -0.05  -17.38  -34.70   63.15
   7.465  -31.80   56.77   -0.05  -17.54   -0.05  -17.52  -33.02   68.02
   7.510  -31.44   57.19   -0.05  -17.70   -0.05  -17.67  -34.17   67.79
   7.555  -31.10   57.39   -0.05  -17.85   -0.06  -17.81  -32.39   64.26
   7.600  -30.83   57.66   -0.06  -17.97   -0.05  -17.94  -32.83   71.24
   7.645  -30.56   57.63   -0.06  -18.11   -0.05  -18.09  -32.15   62.60
   7.690  -30.28   58.08   -0.05  -18.25   -0.05  -18.23  -31.46   70.17
   7.735  -30.02   58.22   -0.06  -18.39   -0.05  -18.36  -31.91   63.90
   7.780  -29.75   58.36   -0.05  -18.54   -0.05  -18.52  -30.50   66.36
   7.825  -29.50   58.39   -0.05  -18.68   -0.05  -18.66  -31.25   66.20
   7.870  -29.25   58.40   -0.05  -18.82   -0.05  -18.79  -30.04   62.36
   7.915  -29.03   58.48   -0.05  -18.96   -0.05  -18.94  -30.30   67.26
   7.960  -28.83   58.31   -0.05  -19.10   -0.05  -19.08  -29.86   60.24
   8.005  -28.63   58.18   -0.05  -19.24   -0.05  -19.23  -29.29   65.33
   8.050  -28.48   58.16   -0.05  -19.41   -0.04  -19.40  -29.66   60.53
   8.095  -28.32   58.39   -0.05  -19.58   -0.04  -19.56  -28.61   61.97
   8.140  -28.16   59.03   -0.05  -19.76   -0.04  -19.73  -29.25   62.23
   8.185  -27.97   59.37   -0.05  -19.94   -0.05  -19.91  -28.36   58.73
   8.230  -27.72   59.89   -0.06  -20.09   -0.05  -20.07  -28.56   63.29
   8.275  -27.50   60.15   -0.06  -20.24   -0.06  -20.22  -28.32   57.75
   8.320  -27.42   65.23   -0.06  -20.38   -0.06  -20.36  -27.83   55.41
   8.365  -27.24   65.07   -0.07  -20.52   -0.07  -20.52  -28.04   51.87
   8.410  -27.01   64.69   -0.07  -20.69   -0.07  -20.66  -27.15   53.57
   8.455  -26.81   64.49   -0.07  -20.83   -0.07  -20.81  -27.49   53.99
   8.500  -26.62   64.17   -0.07  -20.98   -0.07  -20.95  -26.71   51.66
   8.545  -26.44   64.03   -0.08  -21.13   -0.08  -21.12  -26.75   54.66
   8.590  -26.28   63.71   -0.08  -21.29   -0.08  -21.27  -26.43   50.65
   8.635  -26.12   63.82   -0.08  -21.45   -0.08  -21.44  -25.96   53.61
   8.680  -25.96   63.89   -0.09  -21.62   -0.09  -21.59  -26.13   50.69
   8.725  -25.78   64.23   -0.10  -21.76   -0.10  -21.72  -25.42   50.74
   8.770  -25.53   64.65   -0.10  -21.89   -0.10  -21.89  -25.76   50.75
   8.815  -25.28   64.78   -0.11  -22.04   -0.11  -22.02  -25.24   48.23
   8.860  -24.98   64.89   -0.11  -22.19   -0.11  -22.16  -25.36   50.85
   8.905  -24.70   64.82   -0.12  -22.34   -0.11  -22.33  -25.27   47.45
   8.950  -24.38   64.54   -0.12  -22.49   -0.13  -22.48  -24.94   50.48
   8.995  -24.07   64.13   -0.13  -22.63   -0.13  -22.60  -25.18   49.15
   9.040  -23.75   63.39   -0.14  -22.77   -0.14  -22.73  -24.55   50.17
   9.085  -23.45   62.38   -0.14  -22.87   -0.14  -22.85  -24.73   51.78
   9.130  -23.20   61.12   -0.15  -22.99   -0.15  -22.95  -24.13   50.16
   9.175  -22.95   59.95   -0.15  -23.11   -0.14  -23.10  -23.93   52.79
   9.220  -22.80   58.78   -0.15  -23.25   -0.15  -23.23  -23.73   49.76
   9.265  -22.62   57.72   -0.15  -23.41   -0.15  -23.38  -23.27   51.34
   9.310  -22.46   56.87   -0.15  -23.57   -0.14  -23.57  -23.40   49.98
   9.355  -22.30   56.01   -0.15  -23.75   -0.15  -23.71  -22.82   50.03
   9.400  -22.13   55.27   -0.15  -23.93   -0.15  -23.89  -22.88   51.11
   9.445  -22.01   54.41   -0.15  -24.14   -0.15  -24.10  -22.38   49.07
   9.490  -21.83   53.91   -0.15  -24.35   -0.15  -24.34  -22.13   50.90
   9.535  -21.66   53.40   -0.16  -24.58   -0.16  -24.54  -21.94   48.43
   9.580  -21.45   52.92   -0.17  -24.82   -0.17  -24.81  -21.42   49.35
   9.625  -21.23   52.39   -0.18  -25.06   -0.18  -25.04  -21.40   47.88
   9.670  -20.98   51.66   -0.19  -25.34   -0.19  -25.29  -20.80   46.79
   9.715  -20.71   50.99   -0.21  -25.61   -0.20  -25.58  -20.74   46.80
   9.760  -20.45   50.08   -0.23  -25.86   -0.23  -25.83  -20.30   44.23
   9.805  -20.14   48.95   -0.26  -26.13   -0.26  -26.11  -20.05   44.64
   9.850  -19.84   47.72   -0.28  -26.39   -0.28  -26.38  -19.83   41.81
   9.895  -19.52   46.26   -0.32  -26.66   -0.32  -26.61  -19.36   41.51
   9.940  -19.20   44.65   -0.36  -26.92   -0.36  -26.87  -19.28   39.41
   9.985  -18.89   42.68   -0.41  -27.14   -0.41  -27.09  -18.75   37.47
  10.030  -18.54   40.53   -0.46  -27.36   -0.46  -27.33  -18.61   36.17
  10.075  -18.23   38.00   -0.52  -27.54   -0.52  -27.48  -18.17   32.79
  10.120  -17.89   35.11   -0.59  -27.70   -0.59  -27.67  -17.87   31.31
  10.165  -17.59   31.75   -0.67  -27.80   -0.67  -27.77  -17.61   27.01
  10.210  -17.31   27.88   -0.77  -27.81   -0.76  -27.76  -17.21   24.25
  10.255  -17.07   23.59   -0.86  -27.66   -0.86  -27.66  -17.11   19.54
  10.300  -16.91   18.64   -0.97  -27.36   -0.96  -27.32  -16.79   14.97
  10.345  -16.83   13.32   -1.06  -26.85   -1.06  -26.82  -16.86    9.82
  10.390  -16.87    7.48   -1.13  -26.12   -1.13  -26.10  -16.79    3.64
  10.435  -17.06    1.54   -1.17  -25.26   -1.17  -25.24  -17.08   -1.53
  10.480  -17.43   -4.45   -1.17  -24.33   -1.17  -24.30  -17.40   -8.39
  10.525  -17.93  -10.24   -1.12  -23.47   -1.12  -23.41  -17.95  -12.94
  10.570  -18.60  -15.26   -1.05  -22.78   -1.05  -22.75  -18.70  -19.26
  10.615  -19.39  -19.71   -0.95  -22.27   -0.95  -22.23  -19.40  -22.47
  10.660  -20.26  -23.21   -0.85  -21.99   -0.84  -21.95  -20.56  -26.55
  10.705  -21.21  -25.98   -0.74  -21.88   -0.74  -21.86  -21.29  -28.98
  10.750  -22.20  -27.59   -0.65  -21.91   -0.65  -21.87  -22.66  -29.69
  10.795  -23.23  -28.25   -0.57  -22.02   -0.56  -22.00  -23.50  -31.51
  10.840  -24.23  -28.08   -0.50  -22.21   -0.49  -22.19  -24.73  -27.97
  10.885  -25.21  -27.19   -0.44  -22.44   -0.44  -22.41  -25.92  -29.10
  10.930  -26.15  -25.22   -0.39  -22.70   -0.38  -22.64  -26.57  -23.59
  10.975  -27.03  -21.82   -0.35  -22.93   -0.34  -22.92  -28.02  -20.48
  11.020  -27.88  -18.01   -0.31  -23.21   -0.31  -23.18  -28.16  -16.05
  11.065  -28.57  -13.87   -0.28  -23.46   -0.27  -23.42  -29.24   -7.65
  11.110  -29.15   -9.15   -0.25  -23.72   -0.25  -23.69  -29.59   -6.90
  11.155  -29.53   -3.75   -0.23  -23.97   -0.23  -23.91  -29.62    4.02
  11.200  -29.83    1.98   -0.21  -24.21   -0.21  -24.17  -30.47    7.24
  11.245  -30.03    7.09   -0.20  -24.43   -0.19  -24.42  -29.65   12.88
  11.290  -29.99   11.83   -0.18  -24.67   -0.18  -24.64  -30.31   20.86
  11.335  -29.87   16.77   -0.16  -24.92   -0.16  -24.86  -29.72   20.78
  11.380  -29.67   20.80   -0.15  -25.14   -0.15  -25.11  -29.34   30.23
  11.425  -29.56   24.83   -0.14  -25.34   -0.14  -25.31  -29.54   29.84
  11.470  -29.35   27.19   -0.13  -25.56   -0.13  -25.51  -28.56   34.34
  11.515  -29.11   30.08   -0.12  -25.78   -0.12  -25.74  -29.00   37.52
  11.560  -28.86   32.60   -0.12  -25.98   -0.12  -25.93  -28.10   37.40
  11.605  -28.60   35.23   -0.11  -26.19   -0.11  -26.16  -28.07   43.57
  11.650  -28.38   36.87   -0.10  -26.39   -0.10  -26.37  -27.81   40.71
  11.695  -28.06   38.27   -0.10  -26.60   -0.10  -26.55  -27.21   45.58
  11.740  -27.79   40.29   -0.09  -26.81   -0.09  -26.76  -27.43   44.79
  11.785  -27.58   41.49   -0.09  -26.99   -0.09  -26.96  -26.54   45.92
  11.830  -27.32   42.60   -0.09  -27.21   -0.09  -27.16  -26.87   49.17
  11.875  -27.09   43.60   -0.09  -27.38   -0.09  -27.36  -26.28   46.20
  11.920  -26.88   44.47   -0.08  -27.57   -0.09  -27.55  -26.08   50.95
  11.965  -26.58   45.46   -0.09  -27.75   -0.08  -27.73  -26.09   47.99
  12.010  -26.42   46.07   -0.09  -27.94   -0.08  -27.90  -25.40   51.10
  12.055  -26.18   46.65   -0.08  -28.13   -0.08  -28.10  -25.77   50.61
  12.100  -26.00   47.06   -0.08  -28.29   -0.08  -28.26  -24.99   49.96
  12.145  -25.71   47.56   -0.09  -28.48   -0.08  -28.45  -25.14   52.56
  12.190  -25.58   48.03   -0.09  -28.65   -0.09  -28.62  -24.81   49.92
  12.235  -25.34   48.31   -0.09  -28.83   -0.09  -28.78  -24.60   52.82
  12.280  -25.17   48.41   -0.09  -28.99   -0.09  -28.97  -24.63   50.48
  12.325  -25.00   48.63   -0.09  -29.18   -0.09  -29.13  -24.06   52.00
