!  American Technical Ceramics   Date:  6/18/2004
!  One Norden Lane
!  Huntington Station,  NY.   11746-2102
!  Tel:  (631) 622-4700               Fax:  (631) 622-4748
!  Part Number  600L2R0         Mounting Orientation: Horizontal
!  Description: Ultra Low ESR Microwave capacitors
!  Application: Coupling, Bypass, Tuning, DC Block
!               Filters, Matching
# GHZ S DB R 50
! Freq   |S11|   S11 Ph  |S21|   S21 Ph  |S12|   S12 Ph  |S22|   S22 Ph
    0.00    0.00    0.00 -999.00   90.00 -999.00   90.00    0.00    0.00
   0.400   -1.02  -27.98   -6.85   61.60   -6.90   61.51   -1.07  -27.99
   0.465   -1.33  -31.71   -5.83   57.79   -5.89   57.66   -1.37  -31.80
   0.530   -1.71  -35.14   -5.03   54.44   -5.08   53.71   -1.71  -35.24
   0.595   -2.04  -38.82   -4.40   51.08   -4.45   51.30   -2.09  -37.31
   0.660   -2.34  -41.41   -3.82   47.88   -3.89   48.24   -2.44  -41.02
   0.725   -2.76  -44.09   -3.38   45.08   -3.43   44.87   -2.78  -44.50
   0.790   -3.05  -46.86   -2.98   42.51   -3.04   42.12   -3.16  -47.16
   0.855   -3.45  -49.68   -2.69   40.08   -2.75   40.09   -3.56  -48.71
   0.920   -3.84  -51.51   -2.39   38.05   -2.45   38.11   -3.84  -50.92
   0.985   -4.12  -53.73   -2.16   35.72   -2.19   36.22   -4.24  -53.00
   1.050   -4.48  -55.21   -1.94   33.81   -1.99   33.77   -4.58  -55.85
   1.115   -4.87  -57.17   -1.77   32.21   -1.83   31.83   -4.92  -57.45
   1.180   -5.17  -59.39   -1.60   30.37   -1.65   30.52   -5.27  -58.46
   1.245   -5.52  -60.40   -1.47   29.11   -1.52   29.38   -5.56  -59.85
   1.310   -5.83  -61.67   -1.35   27.35   -1.39   27.58   -5.91  -62.08
   1.375   -6.14  -63.24   -1.24   26.07   -1.27   26.10   -6.22  -63.45
   1.440   -6.46  -64.70   -1.14   24.81   -1.20   24.66   -6.54  -64.60
   1.505   -6.76  -65.91   -1.06   23.71   -1.09   23.82   -6.83  -65.29
   1.570   -7.07  -66.50   -0.98   22.37   -1.02   22.73   -7.14  -66.64
   1.635   -7.32  -67.65   -0.89   21.40   -0.92   21.62   -7.41  -68.26
   1.700   -7.65  -69.02   -0.86   20.38   -0.88   20.26   -7.72  -69.13
   1.765   -7.93  -69.98   -0.77   19.42   -0.83   19.39   -8.01  -70.02
   1.830   -8.23  -70.94   -0.74   18.51   -0.78   18.70   -8.28  -70.75
   1.895   -8.45  -71.50   -0.68   17.58   -0.70   17.88   -8.52  -71.85
   1.960   -8.74  -72.02   -0.64   16.68   -0.68   16.87   -8.83  -73.02
   2.025   -9.02  -73.49   -0.60   15.94   -0.62   15.92   -9.08  -73.51
   2.090   -9.29  -74.32   -0.56   15.18   -0.60   15.21   -9.34  -74.26
   2.155   -9.51  -74.50   -0.52   14.37   -0.55   14.70   -9.59  -75.03
   2.220   -9.80  -75.10   -0.50   13.68   -0.52   13.98   -9.85  -75.83
   2.285  -10.02  -76.17   -0.47   12.95   -0.49   13.08  -10.11  -76.65
   2.350  -10.29  -76.69   -0.44   12.35   -0.47   12.40  -10.34  -77.22
   2.415  -10.55  -77.29   -0.43   11.66   -0.43   11.80  -10.60  -77.76
   2.480  -10.77  -77.69   -0.39   11.04   -0.40   11.40  -10.83  -78.59
   2.545  -11.00  -78.12   -0.38   10.46   -0.39   10.70  -11.06  -79.30
   2.610  -11.25  -78.92   -0.36    9.84   -0.37    9.95  -11.32  -79.70
   2.675  -11.51  -79.85   -0.33    9.35   -0.35    9.33  -11.54  -80.13
   2.740  -11.72  -79.90   -0.32    8.77   -0.34    9.05  -11.78  -80.89
   2.805  -11.94  -80.14   -0.31    8.22   -0.31    8.57  -12.02  -81.44
   2.870  -12.19  -81.06   -0.28    7.73   -0.29    7.98  -12.23  -82.06
   2.935  -12.43  -81.72   -0.27    7.26   -0.29    7.34  -12.46  -82.39
   3.000  -12.65  -81.94   -0.26    6.77   -0.26    6.86  -12.72  -82.79
   3.065  -12.93  -82.24   -0.23    6.22   -0.25    6.50  -12.94  -83.55
   3.130  -13.13  -82.97   -0.23    5.78   -0.23    6.05  -13.22  -83.77
   3.195  -13.38  -83.56   -0.22    5.30   -0.23    5.43  -13.41  -83.98
   3.260  -13.66  -83.99   -0.21    4.86   -0.21    4.92  -13.68  -84.32
   3.325  -13.91  -84.49   -0.19    4.38   -0.20    4.52  -13.88  -84.95
   3.390  -14.09  -84.67   -0.19    3.96   -0.18    4.16  -14.16  -85.38
   3.455  -14.37  -84.97   -0.18    3.45   -0.17    3.73  -14.40  -85.88
   3.520  -14.65  -86.11   -0.16    3.08   -0.16    3.15  -14.64  -85.91
   3.585  -14.90  -86.22   -0.16    2.60   -0.16    2.71  -14.91  -86.59
   3.650  -15.12  -86.26   -0.15    2.21   -0.13    2.33  -15.18  -87.08
   3.715  -15.41  -86.54   -0.14    1.75   -0.14    1.97  -15.42  -87.60
   3.780  -15.64  -87.42   -0.13    1.41   -0.12    1.55  -15.66  -87.62
   3.845  -15.89  -87.62   -0.13    1.00   -0.12    1.05  -15.92  -88.16
   3.910  -16.17  -87.80   -0.12    0.57   -0.12    0.64  -16.16  -88.64
   3.975  -16.40  -88.09   -0.12    0.23   -0.11    0.37  -16.47  -89.31
   4.040  -16.66  -88.51   -0.11   -0.16   -0.10    0.00  -16.72  -89.56
   4.105  -16.94  -88.80   -0.11   -0.51   -0.10   -0.39  -16.99  -89.76
   4.170  -17.25  -89.36   -0.10   -0.86   -0.09   -0.84  -17.24  -90.14
   4.235  -17.47  -89.27   -0.10   -1.20   -0.09   -1.11  -17.56  -91.06
   4.300  -17.76  -89.28   -0.09   -1.58   -0.07   -1.47  -17.83  -91.32
   4.365  -18.08  -89.78   -0.08   -1.89   -0.07   -1.78  -18.12  -91.39
   4.430  -18.35  -90.25   -0.09   -2.26   -0.07   -2.25  -18.37  -91.95
   4.495  -18.60  -90.21   -0.08   -2.55   -0.07   -2.61  -18.70  -92.17
   4.560  -18.96  -89.88   -0.07   -2.92   -0.06   -2.90  -19.03  -92.82
   4.625  -19.20  -90.47   -0.06   -3.20   -0.05   -3.16  -19.33  -93.08
   4.690  -19.53  -90.60   -0.06   -3.57   -0.05   -3.58  -19.57  -93.37
   4.755  -19.87  -90.53   -0.05   -3.83   -0.05   -3.91  -19.91  -93.57
   4.820  -20.15  -90.49   -0.05   -4.24   -0.05   -4.27  -20.24  -94.59
   4.885  -20.49  -90.43   -0.05   -4.53   -0.04   -4.52  -20.57  -94.95
   4.950  -20.78  -90.21   -0.05   -4.84   -0.04   -4.84  -20.95  -95.33
   5.015  -21.20  -90.76   -0.05   -5.16   -0.04   -5.19  -21.19  -95.58
   5.080  -21.48  -90.27   -0.05   -5.47   -0.04   -5.56  -21.61  -96.44
   5.145  -21.82  -90.10   -0.04   -5.76   -0.03   -5.79  -21.97  -96.80
   5.210  -22.15  -89.78   -0.05   -6.06   -0.04   -6.12  -22.35  -97.77
   5.275  -22.60  -89.76   -0.04   -6.36   -0.04   -6.35  -22.71  -97.95
   5.340  -22.92  -89.74   -0.04   -6.62   -0.04   -6.71  -23.14  -98.41
   5.405  -23.35  -89.11   -0.03   -6.97   -0.04   -7.02  -23.47  -99.35
   5.470  -23.67  -88.50   -0.03   -7.25   -0.04   -7.31  -24.00 -100.07
   5.535  -24.15  -88.21   -0.03   -7.54   -0.04   -7.55  -24.34 -100.68
   5.600  -24.54  -88.00   -0.03   -7.79   -0.04   -7.85  -24.81 -101.18
   5.665  -24.98  -87.33   -0.03   -8.10   -0.04   -8.13  -25.19 -102.10
   5.730  -25.37  -86.53   -0.03   -8.38   -0.05   -8.44  -25.75 -103.14
   5.795  -25.89  -86.10   -0.02   -8.68   -0.04   -8.65  -26.21 -104.17
   5.860  -26.34  -85.61   -0.02   -8.94   -0.04   -8.92  -26.73 -104.92
   5.925  -26.86  -84.39   -0.02   -9.23   -0.05   -9.18  -27.26 -105.71
   5.990  -27.49  -83.18   -0.03   -9.53   -0.05   -9.45  -27.84 -106.96
   6.055  -28.02  -82.35   -0.02   -9.75   -0.05   -9.68  -28.45 -108.94
   6.120  -28.42  -80.33   -0.03  -10.04   -0.05   -9.90  -29.18 -109.54
   6.185  -29.18  -77.79   -0.02  -10.30   -0.04  -10.08  -29.77 -111.34
   6.250  -29.91  -76.17   -0.03  -10.55   -0.05  -10.34  -30.48 -112.17
   6.315  -30.24  -74.17   -0.02  -10.80   -0.04  -10.54  -31.29 -113.24
   6.380  -30.68  -69.56   -0.02  -11.04   -0.03  -10.78  -32.00 -116.53
   6.445  -31.66  -67.37   -0.03  -11.33   -0.02  -11.03  -32.58 -118.35
   6.510  -32.13  -65.01   -0.02  -11.59   -0.01  -11.33  -33.62 -120.50
   6.575  -32.47  -61.15   -0.03  -11.83    0.00  -11.59  -34.51 -125.79
   6.640  -33.09  -54.98   -0.03  -12.08    0.00  -11.88  -35.25 -128.92
   6.705  -33.98  -50.15   -0.02  -12.33   -0.01  -12.15  -36.63 -134.46
   6.770  -34.14  -46.42   -0.03  -12.56   -0.01  -12.41  -37.42 -142.05
   6.835  -34.61  -40.80   -0.02  -12.84   -0.01  -12.68  -38.02 -147.12
   6.900  -34.59  -32.28   -0.02  -13.08   -0.01  -12.98  -39.60 -157.36
   6.965  -35.47  -28.04   -0.03  -13.31   -0.01  -13.19  -39.72 -171.00
   7.030  -35.33  -21.86   -0.02  -13.58   -0.01  -13.48  -40.05 -179.52
   7.095  -35.16  -13.02   -0.02  -13.81   -0.01  -13.80  -40.53  165.96
   7.160  -35.50   -5.16   -0.03  -14.06   -0.01  -14.02  -39.47  153.85
   7.225  -35.14   -1.63   -0.03  -14.29   -0.01  -14.26  -39.16  145.36
   7.290  -34.24    4.95   -0.02  -14.53   -0.01  -14.52  -38.49  133.48
   7.355  -34.39   12.23   -0.03  -14.79    0.00  -14.76  -37.40  126.42
   7.420  -34.26   13.64   -0.02  -15.03   -0.01  -14.99  -37.00  122.96
   7.485  -33.18   19.55   -0.02  -15.27    0.00  -15.24  -36.03  114.66
   7.550  -32.87   24.93   -0.03  -15.52    0.00  -15.47  -35.12  111.70
   7.615  -32.71   26.76   -0.03  -15.72   -0.01  -15.72  -34.56  108.38
   7.680  -31.94   28.54   -0.02  -16.00   -0.01  -16.02  -33.70  103.55
   7.745  -31.52   32.95   -0.03  -16.22   -0.01  -16.23  -33.17  102.35
   7.810  -31.24   34.92   -0.02  -16.46    0.00  -16.44  -32.66   99.83
   7.875  -30.67   36.70   -0.03  -16.69   -0.01  -16.68  -32.09   95.89
   7.940  -30.24   38.60   -0.02  -16.95   -0.01  -16.97  -31.59   95.77
   8.005  -29.88   40.25   -0.03  -17.17    0.00  -17.19  -31.24   93.50
   8.070  -29.54   41.32   -0.03  -17.39    0.00  -17.38  -30.73   90.88
   8.135  -29.09   42.97   -0.03  -17.64   -0.01  -17.68  -30.38   90.42
   8.200  -28.74   44.56   -0.03  -17.88   -0.01  -17.89  -29.94   88.22
   8.265  -28.51   45.30   -0.04  -18.12   -0.01  -18.12  -29.50   87.02
   8.330  -29.29   44.70   -0.03  -18.32    0.00  -18.43  -30.88   88.14
   8.395  -28.86   46.42   -0.03  -18.54   -0.01  -18.62  -30.63   86.42
   8.460  -28.73   47.67   -0.03  -18.78    0.00  -18.81  -30.28   84.50
   8.525  -28.44   47.44   -0.02  -18.97   -0.01  -19.05  -30.00   83.75
   8.590  -28.09   48.34   -0.03  -19.26   -0.01  -19.30  -29.71   82.31
   8.655  -27.88   49.00   -0.03  -19.50   -0.02  -19.59  -29.40   81.26
   8.720  -27.63   48.77   -0.03  -19.71   -0.01  -19.77  -29.12   79.71
   8.785  -27.53   48.76   -0.03  -20.00   -0.01  -20.01  -28.72   78.94
   8.850  -27.59   49.91   -0.03  -20.19   -0.01  -20.31  -28.62   77.16
   8.915  -27.48   51.67   -0.04  -20.42   -0.02  -20.44  -28.32   76.34
   8.980  -27.16   53.50   -0.04  -20.65   -0.02  -20.69  -28.10   75.58
   9.045  -26.85   54.47   -0.04  -20.80   -0.02  -20.92  -27.78   74.41
   9.110  -26.66   54.87   -0.04  -21.04   -0.02  -21.07  -27.40   72.56
   9.175  -26.51   54.46   -0.04  -21.26   -0.03  -21.33  -27.22   71.73
   9.240  -26.37   54.77   -0.04  -21.51   -0.03  -21.61  -27.14   69.51
   9.305  -26.28   56.22   -0.04  -21.72   -0.03  -21.80  -26.89   68.68
   9.370  -26.19   57.23   -0.05  -21.88   -0.03  -21.94  -26.79   69.17
   9.435  -26.07   58.03   -0.05  -22.12   -0.03  -22.19  -26.55   67.86
   9.500  -25.78   59.51   -0.05  -22.30   -0.04  -22.38  -26.17   67.36
   9.565  -25.58   60.85   -0.05  -22.49   -0.03  -22.59  -25.98   66.40
   9.630  -25.30   61.13   -0.05  -22.69   -0.03  -22.80  -25.65   64.45
   9.695  -25.05   61.62   -0.04  -22.91   -0.02  -23.01  -25.34   63.80
   9.760  -24.97   61.95   -0.04  -23.15   -0.02  -23.24  -25.19   62.75
   9.825  -24.80   61.91   -0.04  -23.36   -0.02  -23.47  -24.97   60.61
   9.890  -24.53   62.81   -0.03  -23.63   -0.02  -23.70  -24.65   59.97
   9.955  -24.36   64.12   -0.04  -23.85   -0.02  -23.94  -24.54   58.19
  10.020  -24.27   63.37   -0.03  -24.09   -0.02  -24.10  -24.21   57.28
  10.085  -23.94   64.08   -0.03  -24.31   -0.02  -24.40  -24.09   56.47
  10.150  -23.82   64.94   -0.03  -24.56   -0.02  -24.67  -23.92   54.37
  10.215  -23.71   65.05   -0.03  -24.80   -0.01  -24.87  -23.72   53.38
  10.280  -23.47   65.61   -0.03  -24.99   -0.01  -25.11  -23.60   52.99
  10.345  -23.33   66.15   -0.03  -25.25   -0.01  -25.33  -23.50   52.36
  10.410  -23.19   66.36   -0.03  -25.50   -0.03  -25.60  -23.23   51.94
  10.475  -22.89   66.99   -0.03  -25.71   -0.01  -25.84  -23.15   51.90
  10.540  -22.78   67.33   -0.04  -25.98   -0.03  -26.09  -22.84   50.89
  10.605  -22.61   67.46   -0.04  -26.19   -0.03  -26.28  -22.55   50.78
  10.670  -22.42   67.77   -0.05  -26.35   -0.04  -26.43  -22.43   50.32
  10.735  -22.31   67.98   -0.04  -26.61   -0.04  -26.67  -22.11   49.23
  10.800  -22.09   68.96   -0.05  -26.79   -0.04  -26.91  -21.94   48.55
  10.865  -21.96   69.04   -0.05  -27.04   -0.04  -27.10  -21.77   48.14
  10.930  -21.77   69.08   -0.05  -27.25   -0.04  -27.24  -21.50   47.71
  10.995  -21.53   70.32   -0.05  -27.42   -0.03  -27.55  -21.32   47.41
  11.060  -21.29   70.26   -0.05  -27.66   -0.05  -27.81  -21.18   46.59
  11.125  -21.07   69.99   -0.04  -27.87   -0.03  -28.00  -20.87   45.62
  11.190  -20.79   70.39   -0.05  -28.09   -0.04  -28.20  -20.74   45.49
  11.255  -20.74   69.80   -0.05  -28.35   -0.03  -28.40  -20.53   45.10
  11.320  -20.48   69.31   -0.05  -28.57   -0.04  -28.65  -20.38   44.52
  11.385  -20.34   70.13   -0.05  -28.82   -0.03  -28.94  -20.17   43.98
  11.450  -20.17   69.85   -0.05  -29.04   -0.04  -29.17  -20.04   43.68
  11.515  -20.02   69.17   -0.05  -29.30   -0.03  -29.35  -19.78   43.66
  11.580  -19.84   70.02   -0.05  -29.52   -0.03  -29.59  -19.63   43.15
  11.645  -19.67   69.57   -0.05  -29.80   -0.04  -29.90  -19.48   42.75
  11.710  -19.47   69.28   -0.05  -30.02   -0.04  -30.15  -19.29   42.65
  11.775  -19.36   69.67   -0.06  -30.29   -0.04  -30.42  -19.08   42.18
  11.840  -19.11   69.13   -0.04  -30.45   -0.04  -30.59  -18.95   42.28
  11.905  -19.03   68.98   -0.06  -30.78   -0.04  -30.83  -18.69   42.12
  11.970  -18.76   68.99   -0.05  -30.98   -0.05  -31.12  -18.61   41.85
  12.035  -18.65   68.93   -0.06  -31.22   -0.05  -31.33  -18.41   41.46
  12.100  -18.48   68.51   -0.06  -31.45   -0.05  -31.53  -18.22   41.67
  12.165  -18.40   68.27   -0.07  -31.68   -0.04  -31.76  -18.02   41.61
  12.230  -18.07   68.13   -0.07  -31.92   -0.06  -32.10  -17.93   41.30
  12.295  -18.02   68.25   -0.08  -32.15   -0.06  -32.33  -17.73   40.90
  12.360  -17.81   67.34   -0.08  -32.37   -0.06  -32.50  -17.59   41.18
  12.425  -17.69   67.80   -0.10  -32.50   -0.07  -32.74  -17.36   40.63
  12.490  -17.51   66.72   -0.09  -32.87   -0.09  -32.95  -17.29   41.15
  12.555  -17.37   66.86   -0.09  -33.06   -0.07  -33.23  -17.11   40.54
  12.620  -17.13   66.82   -0.10  -33.26   -0.10  -33.44  -17.01   40.63
  12.685  -17.08   66.38   -0.10  -33.50   -0.08  -33.69  -16.82   40.79
  12.750  -16.91   65.40   -0.11  -33.77   -0.09  -33.72  -16.69   41.33
  12.815  -16.74   66.21   -0.11  -33.87   -0.09  -34.10  -16.52   40.64
  12.880  -16.59   64.97   -0.12  -34.34   -0.12  -34.38  -16.47   41.06
  12.945  -16.47   65.33   -0.11  -34.44   -0.09  -34.64  -16.21   40.47
  13.010  -16.31   64.70   -0.13  -34.61   -0.10  -34.76  -16.06   41.11
  13.075  -16.10   64.11   -0.11  -34.96   -0.10  -35.06  -15.98   40.95
  13.140  -15.97   63.47   -0.13  -35.17   -0.10  -35.22  -15.81   41.04
  13.205  -15.81   64.01   -0.12  -35.30   -0.12  -35.59  -15.70   40.70
  13.270  -15.72   62.26   -0.14  -35.64   -0.12  -35.75  -15.59   41.44
  13.335  -15.58   62.51   -0.13  -35.83   -0.12  -36.02  -15.36   40.88
  13.400  -15.46   61.72   -0.15  -36.01   -0.12  -36.11  -15.28   41.56
  13.465  -15.22   61.31   -0.13  -36.43   -0.13  -36.61  -15.25   40.87
  13.530  -15.19   61.10   -0.15  -36.49   -0.13  -36.75  -15.00   41.09
  13.595  -15.08   60.55   -0.15  -36.86   -0.14  -37.22  -14.87   41.43
  13.660  -14.92   59.64   -0.16  -37.00   -0.14  -37.14  -14.85   41.38
  13.725  -14.75   59.43   -0.17  -37.29   -0.14  -37.53  -14.67   41.16
  13.790  -14.72   59.27   -0.18  -37.39   -0.15  -37.69  -14.62   41.35
  13.855  -14.54   58.31   -0.18  -37.82   -0.17  -38.04  -14.52   40.98
  13.920  -14.46   58.09   -0.19  -37.95   -0.17  -38.22  -14.32   41.50
  13.985  -14.34   57.35   -0.22  -38.26   -0.18  -38.45  -14.27   41.76
  14.050  -14.15   57.05   -0.19  -38.40   -0.19  -38.62  -14.23   41.06
  14.115  -14.13   56.39   -0.22  -38.70   -0.20  -38.99  -14.00   41.48
  14.180  -14.01   56.07   -0.21  -38.84   -0.20  -39.05  -13.98   41.67
  14.245  -13.92   55.11   -0.23  -39.14   -0.18  -39.35  -13.82   41.86
  14.310  -13.70   54.89   -0.23  -39.37   -0.20  -39.47  -13.77   41.62
  14.375  -13.69   54.51   -0.25  -39.64   -0.21  -39.99  -13.67   41.34
  14.440  -13.56   53.79   -0.24  -39.87   -0.22  -40.25  -13.53   41.25
  14.505  -13.50   53.06   -0.26  -40.06   -0.23  -40.46  -13.39   41.85
  14.570  -13.33   52.43   -0.27  -40.38   -0.24  -40.57  -13.42   41.72
  14.635  -13.34   52.40   -0.27  -40.57   -0.26  -40.93  -13.23   41.16
  14.700  -13.17   51.69   -0.29  -40.85   -0.28  -41.07  -13.18   41.33
  14.765  -13.10   51.08   -0.30  -40.96   -0.29  -41.31  -13.03   40.98
  14.830  -12.99   50.31   -0.30  -41.23   -0.28  -41.47  -12.96   41.55
  14.895  -12.86   49.82   -0.30  -41.48   -0.28  -41.77  -12.87   40.98
  14.960  -12.80   49.19   -0.32  -41.69   -0.28  -42.04  -12.74   40.60
  15.025  -12.77   48.93   -0.32  -41.98   -0.31  -42.50  -12.60   40.22
  15.090  -12.68   47.96   -0.34  -42.30   -0.31  -42.82  -12.57   39.86
  15.155  -12.56   47.16   -0.35  -42.58   -0.33  -43.04  -12.46   38.89
  15.220  -12.43   47.09   -0.37  -42.90   -0.35  -43.27  -12.41   38.89
  15.285  -12.39   46.63   -0.37  -43.12   -0.39  -43.55  -12.43   38.00
  15.350  -12.30   45.11   -0.42  -43.40   -0.41  -43.99  -12.34   37.73
  15.415  -12.17   44.68   -0.44  -43.76   -0.44  -44.19  -12.26   37.67
  15.480  -12.07   43.88   -0.47  -44.08   -0.46  -44.47  -12.22   36.83
  15.545  -11.92   42.57   -0.53  -44.36   -0.51  -44.69  -12.12   35.71
  15.610  -11.86   41.35   -0.59  -44.63   -0.59  -45.15  -12.03   34.96
  15.675  -11.81   39.47   -0.66  -44.81   -0.67  -45.33  -12.10   33.00
  15.740  -11.73   37.03   -0.75  -44.86   -0.72  -45.44  -12.08   31.27
  15.805  -11.74   35.03   -0.83  -44.74   -0.84  -45.19  -12.27   29.10
  15.870  -11.99   32.60   -0.90  -44.19   -0.93  -44.72  -12.61   26.65
  15.935  -12.36   29.88   -0.96  -43.48   -0.96  -44.12  -13.05   25.65
  16.000  -12.86   28.96   -0.92  -42.68   -0.95  -43.28  -13.66   26.29
  16.065  -13.32   29.76   -0.84  -42.15   -0.86  -42.65  -14.33   28.04
  16.130  -13.73   31.96   -0.72  -42.03   -0.75  -42.44  -14.59   31.16
  16.195  -13.94   34.01   -0.64  -42.06   -0.66  -42.60  -14.72   35.05
  16.260  -13.96   36.20   -0.57  -42.30   -0.59  -43.02  -14.62   37.55
  16.325  -13.92   37.86   -0.51  -42.72   -0.53  -43.36  -14.44   39.90
  16.390  -13.79   39.25   -0.47  -43.10   -0.49  -43.60  -14.35   41.20
  16.455  -13.64   40.28   -0.43  -43.34   -0.49  -44.06  -14.11   42.04
  16.520  -13.62   41.06   -0.43  -43.71   -0.49  -44.39  -13.96   43.15
  16.585  -13.48   41.15   -0.40  -44.10   -0.47  -44.70  -13.87   43.71
  16.650  -13.34   41.27   -0.40  -44.37   -0.46  -44.96  -13.69   43.77
  16.715  -13.24   42.23   -0.38  -44.71   -0.45  -45.12  -13.57   44.29
  16.780  -13.20   41.89   -0.41  -45.01   -0.46  -45.37  -13.55   44.43
  16.845  -13.11   41.82   -0.37  -45.20   -0.44  -45.79  -13.31   44.31
  16.910  -13.02   41.96   -0.39  -45.48   -0.43  -46.07  -13.28   44.87
  16.975  -12.96   42.26   -0.39  -45.91   -0.42  -46.26  -13.29   43.87
  17.040  -12.90   42.07   -0.36  -45.87   -0.43  -46.52  -13.03   44.35
  17.105  -12.80   42.32   -0.38  -46.28   -0.44  -46.77  -13.08   44.58
  17.170  -12.80   42.09   -0.39  -46.50   -0.48  -47.08  -13.10   43.76
  17.235  -12.68   41.80   -0.36  -46.69   -0.46  -47.27  -12.88   43.82
  17.300  -12.63   41.93   -0.36  -46.94   -0.46  -47.34  -12.90   44.22
  17.365  -12.56   42.25   -0.37  -47.30   -0.45  -47.42  -12.92   43.27
  17.430  -12.61   41.45   -0.36  -47.34   -0.46  -47.76  -12.74   43.77
  17.495  -12.44   41.78   -0.36  -47.79   -0.43  -48.05  -12.78   43.54
  17.560  -12.41   41.62   -0.36  -48.03   -0.44  -48.28  -12.73   42.53
  17.625  -12.37   41.33   -0.34  -48.12   -0.43  -48.61  -12.62   42.99
