!  American Technical Ceramics   Date:  10/27/06
!  One Norden Lane
!  Huntington Station,  NY.   11746-2102
!  Tel:  (631) 622-4700               Fax:  (631) 622-4748
!  Part Number  600L0R5		Mounting Orientation:  Horizontal
!  Description: Ultra Low ESR Microwave capacitors
!  Application: Coupling, Bypass, Tuning, DC Block
!               Filters, Matching
# GHZ S DB R 50
! Freq   |S11|   S11 Ph  |S21|   S21 Ph  |S12|   S12 Ph  |S22|   S22 Ph
    0.00    0.00    0.00 -999.00   90.00  -999.00  90.00    0.00    0.00
   0.400   -0.06   -7.67  -18.47   81.63  -18.48   81.62   -0.10   -7.51
   0.499   -0.10   -9.58  -16.61   79.82  -16.61   79.79   -0.13   -9.25
   0.598   -0.15  -11.41  -15.09   78.00  -15.09   77.93   -0.17  -11.06
   0.697   -0.20  -13.20  -13.82   76.22  -13.83   76.15   -0.22  -12.85
   0.796   -0.25  -14.98  -12.74   74.43  -12.75   74.40   -0.28  -14.62
   0.895   -0.32  -16.72  -11.80   72.70  -11.80   72.64   -0.35  -16.36
   0.994   -0.39  -18.42  -10.97   71.00  -10.97   70.94   -0.41  -18.10
   1.093   -0.46  -20.07  -10.23   69.33  -10.24   69.28   -0.49  -19.85
   1.192   -0.53  -21.72   -9.56   67.68   -9.57   67.66   -0.56  -21.52
   1.291   -0.62  -23.32   -8.96   66.06   -8.97   66.03   -0.65  -23.19
   1.390   -0.70  -24.87   -8.41   64.48   -8.43   64.45   -0.73  -24.87
   1.489   -0.79  -26.39   -7.92   62.91   -7.93   62.89   -0.83  -26.53
   1.588   -0.89  -27.88   -7.46   61.36   -7.47   61.35   -0.92  -28.13
   1.687   -0.98  -29.31   -7.04   59.85   -7.05   59.83   -1.03  -29.76
   1.786   -1.09  -30.76   -6.66   58.39   -6.67   58.38   -1.13  -31.26
   1.885   -1.19  -32.07   -6.29   56.97   -6.30   56.97   -1.23  -32.87
   1.984   -1.30  -33.41   -5.96   55.52   -5.97   55.51   -1.34  -34.41
   2.083   -1.41  -34.73   -5.65   54.09   -5.66   54.09   -1.46  -35.93
   2.182   -1.52  -35.99   -5.36   52.73   -5.37   52.73   -1.57  -37.43
   2.281   -1.64  -37.23   -5.09   51.37   -5.10   51.36   -1.69  -38.92
   2.380   -1.76  -38.41   -4.84   50.02   -4.86   50.02   -1.81  -40.36
   2.479   -1.89  -39.58   -4.61   48.68   -4.62   48.69   -1.94  -41.82
   2.578   -2.02  -40.66   -4.39   47.42   -4.40   47.42   -2.06  -43.29
   2.677   -2.14  -41.76   -4.18   46.16   -4.19   46.17   -2.19  -44.71
   2.776   -2.28  -42.81   -3.97   44.88   -3.99   44.89   -2.31  -46.24
   2.875   -2.42  -43.75   -3.79   43.52   -3.80   43.53   -2.47  -47.85
   2.974   -2.71  -46.62   -3.51   40.97   -3.52   40.99   -2.78  -49.09
   3.073   -2.85  -47.74   -3.36   39.80   -3.37   39.82   -2.92  -50.16
   3.172   -2.98  -48.86   -3.22   38.69   -3.23   38.73   -3.06  -51.22
   3.271   -3.12  -50.01   -3.08   37.61   -3.09   37.66   -3.19  -52.33
   3.370   -3.26  -51.08   -2.95   36.52   -2.96   36.54   -3.32  -53.42
   3.469   -3.40  -52.13   -2.82   35.43   -2.83   35.46   -3.46  -54.53
   3.568   -3.55  -53.20   -2.70   34.38   -2.71   34.41   -3.60  -55.66
   3.667   -3.70  -54.20   -2.59   33.31   -2.60   33.34   -3.75  -56.68
   3.766   -3.85  -55.10   -2.50   32.31   -2.50   32.34   -3.89  -57.68
   3.865   -3.98  -56.03   -2.40   31.36   -2.41   31.39   -4.03  -58.72
   3.964   -4.12  -56.94   -2.30   30.38   -2.31   30.43   -4.18  -59.75
   4.063   -4.26  -57.81   -2.21   29.44   -2.22   29.49   -4.33  -60.70
   4.162   -4.40  -58.70   -2.13   28.49   -2.13   28.53   -4.47  -61.62
   4.261   -4.54  -59.56   -2.05   27.56   -2.05   27.60   -4.61  -62.56
   4.360   -4.68  -60.45   -1.97   26.67   -1.98   26.71   -4.76  -63.46
   4.459   -4.83  -61.27   -1.90   25.80   -1.90   25.86   -4.90  -64.25
   4.558   -4.97  -62.02   -1.82   24.92   -1.83   24.98   -5.03  -65.12
   4.657   -5.11  -62.79   -1.76   24.00   -1.76   24.06   -5.15  -66.03
   4.756   -5.25  -63.58   -1.71   23.16   -1.71   23.22   -5.30  -66.95
   4.855   -5.40  -64.31   -1.65   22.35   -1.66   22.41   -5.45  -67.75
   4.954   -5.54  -65.04   -1.59   21.55   -1.60   21.61   -5.59  -68.56
   5.053   -5.68  -65.79   -1.54   20.75   -1.55   20.82   -5.73  -69.38
   5.152   -5.83  -66.47   -1.49   19.97   -1.50   20.03   -5.87  -70.17
   5.251   -5.97  -67.11   -1.45   19.21   -1.45   19.27   -6.02  -70.88
   5.350   -6.11  -67.81   -1.40   18.46   -1.41   18.54   -6.15  -71.63
   5.449   -6.25  -68.50   -1.36   17.71   -1.37   17.79   -6.29  -72.39
   5.548   -6.40  -69.14   -1.33   17.00   -1.33   17.07   -6.44  -73.12
   5.647   -6.54  -69.74   -1.30   16.31   -1.30   16.39   -6.59  -73.74
   5.746   -6.68  -70.44   -1.26   15.69   -1.26   15.76   -6.73  -74.33
   5.845   -6.84  -71.09   -1.21   15.06   -1.22   15.14   -6.86  -74.91
   5.944   -6.99  -71.66   -1.17   14.38   -1.17   14.47   -6.99  -75.47
   6.043   -7.13  -72.21   -1.13   13.70   -1.13   13.79   -7.11  -76.10
   6.142   -7.27  -72.80   -1.09   13.02   -1.10   13.10   -7.24  -76.76
   6.241   -7.42  -73.36   -1.06   12.35   -1.07   12.43   -7.38  -77.38
   6.340   -7.56  -73.89   -1.04   11.73   -1.04   11.81   -7.52  -77.94
   6.439   -7.69  -74.51   -1.01   11.11   -1.01   11.20   -7.65  -78.53
   6.538   -7.84  -75.14   -0.97   10.49   -0.98   10.57   -7.79  -79.13
   6.637   -8.00  -75.71   -0.95    9.87   -0.95    9.95   -7.94  -79.70
   6.736   -8.15  -76.25   -0.92    9.26   -0.92    9.35   -8.08  -80.19
   6.835   -8.29  -76.81   -0.89    8.67   -0.89    8.76   -8.21  -80.70
   6.934   -8.44  -77.39   -0.87    8.07   -0.86    8.15   -8.36  -81.30
   7.033   -8.60  -77.94   -0.84    7.47   -0.84    7.57   -8.51  -81.76
   7.132   -8.75  -78.45   -0.82    6.89   -0.82    6.99   -8.66  -82.21
   7.231   -8.90  -78.96   -0.79    6.32   -0.79    6.41   -8.80  -82.62
   7.330   -9.05  -79.45   -0.77    5.76   -0.77    5.84   -8.95  -83.12
   7.429   -9.20  -79.97   -0.75    5.17   -0.75    5.28   -9.10  -83.46
   7.528   -9.36  -80.52   -0.73    4.63   -0.73    4.73   -9.24  -83.92
   7.627   -9.52  -81.01   -0.71    4.10   -0.71    4.19   -9.38  -84.36
   7.726   -9.68  -81.47   -0.69    3.58   -0.69    3.68   -9.54  -84.89
   7.825   -9.84  -81.87   -0.67    3.01   -0.67    3.13   -9.70  -85.22
   7.924   -9.99  -82.33   -0.66    2.49   -0.65    2.59   -9.85  -85.67
   8.023  -10.14  -82.78   -0.64    1.97   -0.64    2.07  -10.00  -86.08
   8.122  -10.31  -83.29   -0.63    1.46   -0.62    1.56  -10.17  -86.62
   8.221  -10.47  -83.67   -0.61    0.95   -0.60    1.05  -10.34  -86.92
   8.320  -10.61  -84.22   -0.58    0.32   -0.57    0.42  -10.49  -87.54
   8.419  -10.78  -84.78   -0.57   -0.16   -0.56   -0.06  -10.65  -87.92
   8.518  -10.96  -85.20   -0.55   -0.62   -0.54   -0.51  -10.83  -88.29
   8.617  -11.11  -85.60   -0.53   -1.14   -0.52   -1.04  -10.99  -88.59
   8.716  -11.26  -86.27   -0.51   -1.72   -0.50   -1.62  -11.15  -88.82
   8.815  -11.47  -87.05   -0.51   -2.22   -0.50   -2.12  -11.28  -89.30
   8.914  -11.71  -87.48   -0.51   -2.66   -0.50   -2.55  -11.44  -89.88
   9.013  -11.94  -87.65   -0.50   -3.08   -0.49   -2.97  -11.62  -90.52
   9.112  -12.15  -87.63   -0.48   -3.49   -0.47   -3.38  -11.84  -91.02
   9.211  -12.32  -87.67   -0.46   -3.91   -0.45   -3.80  -12.05  -91.30
   9.310  -12.50  -87.64   -0.44   -4.37   -0.43   -4.26  -12.25  -91.60
   9.409  -12.63  -87.76   -0.42   -4.86   -0.41   -4.74  -12.42  -91.94
   9.508  -12.77  -88.14   -0.40   -5.35   -0.39   -5.24  -12.64  -92.31
   9.607  -12.95  -88.58   -0.39   -5.81   -0.38   -5.71  -12.83  -92.51
   9.706  -13.14  -88.84   -0.38   -6.29   -0.37   -6.20  -13.03  -92.73
   9.805  -13.33  -89.08   -0.36   -6.79   -0.35   -6.68  -13.18  -93.02
   9.904  -13.51  -89.28   -0.36   -7.24   -0.35   -7.16  -13.36  -93.67
  10.003  -13.68  -89.38   -0.35   -7.72   -0.34   -7.63  -13.58  -94.11
  10.102  -13.83  -89.72   -0.34   -8.20   -0.33   -8.11  -13.81  -94.52
  10.201  -14.01  -90.24   -0.34   -8.67   -0.33   -8.60  -14.02  -94.88
  10.300  -14.23  -90.72   -0.33   -9.10   -0.32   -9.03  -14.24  -95.28
  10.399  -14.47  -90.92   -0.33   -9.53   -0.32   -9.46  -14.48  -95.52
  10.498  -14.70  -90.87   -0.32   -9.98   -0.31   -9.91  -14.68  -95.64
  10.597  -14.91  -90.89   -0.32  -10.40   -0.32  -10.38  -14.88  -95.99
  10.696  -15.12  -90.75   -0.32  -10.81   -0.32  -10.78  -15.09  -96.40
  10.795  -15.29  -90.49   -0.31  -11.19   -0.31  -11.15  -15.30  -96.59
  10.894  -15.42  -90.44   -0.30  -11.58   -0.30  -11.53  -15.45  -96.92
  10.993  -15.56  -90.83   -0.30  -11.95   -0.29  -11.92  -15.65  -97.73
  11.092  -15.75  -91.12   -0.28  -12.35   -0.28  -12.30  -15.90  -98.38
  11.191  -15.95  -91.35   -0.27  -12.77   -0.27  -12.74  -16.15  -98.67
  11.290  -16.13  -91.39   -0.26  -13.22   -0.26  -13.19  -16.32  -98.93
  11.389  -16.32  -91.70   -0.25  -13.65   -0.25  -13.63  -16.54  -99.71
  11.488  -16.52  -91.73   -0.25  -14.06   -0.25  -14.03  -16.80 -100.20
  11.587  -16.70  -92.02   -0.24  -14.49   -0.24  -14.45  -17.02 -100.44
  11.686  -16.88  -92.11   -0.23  -14.92   -0.23  -14.90  -17.17 -100.90
  11.785  -17.09  -92.46   -0.23  -15.35   -0.22  -15.32  -17.40 -101.99
  11.884  -17.29  -92.53   -0.22  -15.77   -0.22  -15.74  -17.68 -102.55
  11.983  -17.50  -92.77   -0.22  -16.18   -0.21  -16.17  -17.91 -102.80
  12.082  -17.70  -92.91   -0.22  -16.61   -0.21  -16.59  -18.10 -103.52
  12.181  -17.91  -93.22   -0.22  -17.01   -0.21  -16.99  -18.38 -104.60
  12.280  -18.10  -93.30   -0.21  -17.42   -0.21  -17.40  -18.70 -104.90
  12.379  -18.32  -93.68   -0.21  -17.80   -0.21  -17.79  -18.92 -104.94
  12.478  -18.53  -93.83   -0.21  -18.22   -0.21  -18.20  -19.10 -105.77
  12.577  -18.75  -94.05   -0.21  -18.61   -0.20  -18.59  -19.40 -106.51
  12.676  -18.95  -94.44   -0.21  -18.99   -0.20  -18.99  -19.69 -106.81
  12.775  -19.19  -94.77   -0.20  -19.40   -0.20  -19.36  -19.90 -106.64
  12.874  -19.39  -95.13   -0.20  -19.77   -0.20  -19.76  -20.07 -107.81
  12.973  -19.62  -95.47   -0.20  -20.17   -0.19  -20.15  -20.43 -108.52
  13.072  -19.83  -96.02   -0.20  -20.57   -0.19  -20.55  -20.70 -108.58
  13.171  -20.10  -96.54   -0.20  -20.96   -0.19  -20.93  -20.89 -108.71
  13.270  -20.34  -97.16   -0.19  -21.33   -0.19  -21.32  -21.04 -109.98
  13.369  -20.67  -97.65   -0.19  -21.72   -0.19  -21.70  -21.47 -110.61
  13.468  -20.99  -98.10   -0.19  -22.10   -0.18  -22.08  -21.68 -110.29
  13.567  -21.37  -98.32   -0.18  -22.52   -0.18  -22.49  -21.85 -110.71
  13.666  -21.64  -98.06   -0.18  -22.92   -0.18  -22.92  -22.08 -112.13
  13.765  -21.90  -98.11   -0.18  -23.33   -0.18  -23.32  -22.57 -112.70
  13.864  -22.11  -98.39   -0.19  -23.72   -0.18  -23.70  -22.85 -111.63
  13.963  -22.38  -99.03   -0.19  -24.09   -0.19  -24.07  -23.04 -112.13
  14.062  -22.64  -99.94   -0.19  -24.43   -0.19  -24.40  -23.36 -112.48
  14.161  -23.04 -101.03   -0.19  -24.78   -0.18  -24.77  -23.70 -112.30
  14.260  -23.42 -101.50   -0.18  -25.20   -0.18  -25.16  -23.91 -111.42
  14.359  -23.79 -102.29   -0.19  -25.57   -0.18  -25.53  -24.10 -112.48
  14.458  -24.18 -103.13   -0.19  -25.94   -0.18  -25.93  -24.69 -112.81
  14.557  -24.64 -104.22   -0.19  -26.30   -0.17  -26.29  -25.04 -110.67
  14.656  -25.19 -105.24   -0.18  -26.68   -0.17  -26.68  -25.23 -109.21
  14.755  -25.70 -105.77   -0.18  -27.10   -0.17  -27.09  -25.24 -109.87
  14.854  -26.25 -106.60   -0.18  -27.47   -0.17  -27.47  -25.87 -110.18
  14.953  -26.79 -107.84   -0.18  -27.87   -0.17  -27.86  -26.15 -107.98
  15.052  -27.42 -109.38   -0.19  -28.26   -0.17  -28.26  -26.37 -107.14
  15.151  -28.11 -110.32   -0.18  -28.63   -0.17  -28.66  -26.60 -106.69
  15.250  -28.84 -112.45   -0.19  -29.01   -0.18  -29.04  -27.31 -106.90
  15.349  -29.71 -113.63   -0.19  -29.37   -0.18  -29.41  -27.53 -102.93
  15.448  -30.68 -115.97   -0.19  -29.76   -0.19  -29.79  -27.67 -102.39
  15.547  -31.60 -117.44   -0.19  -30.14   -0.19  -30.17  -28.07 -101.58
  15.646  -32.74 -121.31   -0.20  -30.54   -0.19  -30.57  -28.67 -100.62
  15.745  -34.15 -125.64   -0.20  -30.90   -0.19  -30.93  -29.00  -95.85
  15.844  -35.74 -131.14   -0.21  -31.29   -0.20  -31.36  -29.15  -96.09
  15.943  -37.61 -139.79   -0.22  -31.68   -0.21  -31.68  -29.98  -94.20
  16.042  -39.53 -154.33   -0.22  -32.04   -0.22  -32.06  -30.61  -89.66
  16.141  -41.49 -175.26   -0.23  -32.39   -0.22  -32.40  -30.91  -84.75
  16.240  -41.71  157.32   -0.24  -32.74   -0.23  -32.76  -31.20  -82.00
  16.339  -40.26  130.79   -0.25  -33.07   -0.23  -33.10  -32.38  -77.54
  16.438  -38.04  111.98   -0.25  -33.40   -0.24  -33.43  -32.68  -65.79
  16.537  -35.98  101.12   -0.25  -33.72   -0.24  -33.76  -32.62  -60.68
  16.636  -34.22   92.34   -0.25  -34.05   -0.25  -34.13  -32.74  -53.14
  16.735  -32.73   87.46   -0.26  -34.42   -0.25  -34.45  -33.10  -43.45
  16.834  -31.38   83.22   -0.26  -34.76   -0.25  -34.77  -32.05  -31.54
  16.933  -30.26   80.57   -0.26  -35.12   -0.25  -35.15  -31.41  -29.48
  17.032  -29.08   78.14   -0.27  -35.45   -0.26  -35.46  -31.26  -21.56
  17.131  -28.18   76.76   -0.28  -35.77   -0.27  -35.80  -30.67  -14.57
  17.230  -27.08   74.59   -0.28  -36.10   -0.27  -36.12  -29.46   -7.61
  17.329  -26.24   72.03   -0.28  -36.38   -0.27  -36.44  -28.67   -7.19
  17.428  -25.36   69.38   -0.28  -36.75   -0.26  -36.80  -28.13   -0.92
  17.527  -24.77   66.92   -0.28  -37.10   -0.26  -37.13  -27.06    1.33
  17.626  -24.09   64.54   -0.27  -37.47   -0.26  -37.53  -26.23    2.88
  17.725  -23.66   62.08   -0.27  -37.84   -0.26  -37.90  -25.65    2.57
  17.824  -23.15   60.57   -0.28  -38.23   -0.26  -38.29  -25.32    5.80
  17.923  -22.74   59.14   -0.28  -38.61   -0.27  -38.65  -24.49    7.06
  18.022  -22.29   57.47   -0.29  -38.96   -0.28  -39.03  -24.04    7.07
  18.121  -21.89   55.91   -0.30  -39.35   -0.29  -39.40  -23.51    8.14
  18.220  -21.55   54.45   -0.32  -39.67   -0.30  -39.73  -23.15    9.46
  18.319  -21.23   53.04   -0.33  -39.99   -0.32  -40.05  -22.41   10.33
  18.418  -20.95   51.98   -0.33  -40.25   -0.32  -40.30  -22.16    9.15
  18.517  -20.65   51.32   -0.33  -40.55   -0.32  -40.62  -21.88   10.99
  18.616  -20.31   50.38   -0.33  -40.89   -0.32  -40.96  -21.52   11.86
  18.715  -19.99   49.38   -0.33  -41.25   -0.32  -41.32  -21.04   13.16
  18.814  -19.71   48.04   -0.34  -41.60   -0.33  -41.69  -20.77   12.44
  18.913  -19.44   47.21   -0.34  -41.96   -0.34  -42.03  -20.55   14.73
  19.012  -19.19   46.07   -0.36  -42.30   -0.35  -42.39  -20.08   15.38
  19.111  -18.94   45.06   -0.36  -42.63   -0.35  -42.70  -19.72   16.11
  19.210  -18.69   43.92   -0.37  -42.96   -0.35  -43.04  -19.42   16.34
  19.309  -18.48   42.79   -0.37  -43.29   -0.36  -43.38  -19.20   18.04
  19.408  -18.25   41.68   -0.38  -43.68   -0.36  -43.73  -18.69   18.61
  19.507  -18.06   40.17   -0.39  -43.99   -0.38  -44.08  -18.44   18.13
  19.606  -17.88   38.73   -0.40  -44.32   -0.39  -44.41  -18.20   18.87
  19.705  -17.79   37.44   -0.41  -44.65   -0.39  -44.75  -17.99   19.51
  19.804  -17.65   36.19   -0.42  -44.97   -0.40  -45.08  -17.58   20.29
  19.903  -17.60   34.74   -0.42  -45.29   -0.41  -45.39  -17.37   19.51
  20.002  -17.53   33.53   -0.43  -45.62   -0.42  -45.70  -17.21   20.76
  20.101  -17.52   32.35   -0.44  -45.96   -0.43  -46.06  -16.92   20.90
  20.200  -17.51   31.26   -0.45  -46.30   -0.44  -46.42  -16.66   21.25
  20.299  -17.54   30.18   -0.46  -46.65   -0.44  -46.74  -16.49   20.45
  20.398  -17.60   29.45   -0.46  -46.98   -0.45  -47.08  -16.40   21.46
  20.497  -17.68   28.78   -0.48  -47.33   -0.47  -47.44  -16.11   21.46
  20.596  -17.78   28.22   -0.49  -47.64   -0.48  -47.74  -16.00   21.41
  20.695  -17.90   28.11   -0.51  -47.94   -0.50  -48.03  -15.90   21.18
  20.794  -18.06   28.14   -0.52  -48.23   -0.51  -48.30  -15.88   21.69
  20.893  -18.17   28.75   -0.53  -48.48   -0.52  -48.58  -15.69   22.05
  20.992  -18.33   29.49   -0.54  -48.70   -0.53  -48.82  -15.73   21.59
  21.091  -18.45   30.79   -0.53  -48.93   -0.52  -49.03  -15.82   22.82
  21.190  -18.50   32.84   -0.52  -49.25   -0.51  -49.36  -15.85   24.75
  21.289  -18.41   34.49   -0.51  -49.67   -0.50  -49.81  -15.67   27.42
  21.388  -18.32   35.61   -0.51  -50.17   -0.50  -50.24  -15.45   28.56
  21.487  -18.20   36.87   -0.52  -50.61   -0.51  -50.69  -15.24   30.75
  21.586  -18.09   37.97   -0.54  -51.03   -0.53  -51.14  -14.81   31.57
  21.685  -17.99   39.00   -0.57  -51.36   -0.56  -51.48  -14.55   31.98
  21.784  -17.85   40.43   -0.59  -51.69   -0.58  -51.81  -14.26   31.61
  21.883  -17.72   41.57   -0.61  -51.97   -0.60  -52.11  -14.19   32.08
  21.982  -17.49   42.78   -0.63  -52.27   -0.62  -52.41  -13.85   32.33
  22.081  -17.30   43.67   -0.65  -52.52   -0.64  -52.63  -13.77   31.98
  22.180  -17.08   44.92   -0.65  -52.80   -0.65  -52.92  -13.56   32.06
  22.279  -16.87   45.96   -0.66  -53.06   -0.66  -53.17  -13.53   31.98
  22.378  -16.58   47.01   -0.67  -53.34   -0.66  -53.49  -13.27   32.54
  22.477  -16.32   47.51   -0.68  -53.62   -0.67  -53.76  -13.22   31.73
  22.576  -16.00   48.36   -0.69  -53.92   -0.68  -54.04  -13.11   32.27
  22.675  -15.71   48.83   -0.69  -54.19   -0.69  -54.34  -13.04   32.04
  22.774  -15.35   49.26   -0.70  -54.50   -0.69  -54.60  -12.85   32.45
  22.873  -15.03   49.23   -0.71  -54.77   -0.70  -54.92  -12.77   31.66
  22.972  -14.70   49.05   -0.72  -55.04   -0.71  -55.19  -12.73   31.98
  23.071  -14.40   48.74   -0.72  -55.32   -0.71  -55.48  -12.61   31.81
  23.170  -14.12   48.49   -0.72  -55.53   -0.72  -55.72  -12.56   31.61
  23.269  -13.83   48.08   -0.72  -55.85   -0.72  -56.00  -12.50   31.38
  23.368  -13.57   47.57   -0.72  -56.15   -0.71  -56.27  -12.50   31.39
  23.467  -13.30   47.04   -0.72  -56.41   -0.71  -56.56  -12.38   31.72
  23.566  -13.05   46.44   -0.71  -56.70   -0.70  -56.88  -12.31   31.10
  23.665  -12.77   45.94   -0.70  -57.04   -0.69  -57.18  -12.26   31.27
  23.764  -12.52   45.10   -0.70  -57.36   -0.69  -57.54  -12.23   30.91
  23.863  -12.27   44.16   -0.70  -57.70   -0.68  -57.89  -12.15   31.41
  23.962  -12.04   43.08   -0.69  -58.09   -0.68  -58.23  -12.06   30.35
  24.061  -11.84   42.07   -0.68  -58.45   -0.68  -58.62  -12.09   30.55
  24.160  -11.64   40.92   -0.68  -58.88   -0.67  -59.03  -11.99   30.12
  24.259  -11.49   39.85   -0.68  -59.29   -0.67  -59.44  -11.96   30.19
  24.358  -11.35   38.79   -0.69  -59.67   -0.68  -59.84  -11.86   29.48
  24.457  -11.22   37.70   -0.69  -60.06   -0.69  -60.20  -11.93   29.26
  24.556  -11.08   36.73   -0.70  -60.40   -0.69  -60.58  -11.82   29.03
  24.655  -10.99   35.69   -0.71  -60.77   -0.69  -60.90  -11.81   28.49
  24.754  -10.87   34.75   -0.70  -61.14   -0.70  -61.28  -11.75   27.92
  24.853  -10.80   33.85   -0.70  -61.45   -0.69  -61.63  -11.80   27.30
  24.952  -10.69   33.00   -0.70  -61.82   -0.70  -62.01  -11.73   27.25
  25.051  -10.62   32.13   -0.71  -62.21   -0.70  -62.35  -11.70   26.26
  25.150  -10.56   31.32   -0.71  -62.61   -0.70  -62.76  -11.72   25.95
  25.249  -10.49   30.56   -0.71  -63.00   -0.70  -63.17  -11.70   25.36
  25.348  -10.41   29.79   -0.71  -63.43   -0.70  -63.56  -11.70   25.16
  25.447  -10.34   28.88   -0.71  -63.85   -0.71  -64.00  -11.59   24.43
  25.546  -10.30   28.09   -0.71  -64.21   -0.71  -64.33  -11.67   23.73
  25.645  -10.26   27.26   -0.71  -64.63   -0.71  -64.78  -11.58   23.31
  25.744  -10.25   26.46   -0.71  -65.05   -0.70  -65.22  -11.63   22.54
  25.843  -10.24   25.89   -0.71  -65.51   -0.71  -65.68  -11.56   22.04
  25.942  -10.25   25.32   -0.72  -66.01   -0.71  -66.12  -11.67   21.26
  26.041  -10.24   24.99   -0.72  -66.48   -0.72  -66.63  -11.59   21.49
  26.140  -10.23   24.60   -0.73  -67.00   -0.73  -67.17  -11.58   20.59
  26.239  -10.21   24.26   -0.75  -67.54   -0.75  -67.70  -11.53   20.45
  26.338  -10.20   23.94   -0.78  -68.05   -0.77  -68.21  -11.57   19.71
  26.437  -10.20   23.88   -0.81  -68.57   -0.80  -68.73  -11.52   20.20
  26.536  -10.17   23.86   -0.87  -68.94   -0.85  -69.16  -11.43   19.64
  26.635  -10.09   23.88   -0.91  -69.26   -0.90  -69.43  -11.33   19.75
