!  American Technical Ceramics   Date:  6/18/2004
!  One Norden Lane
!  Huntington Station,  NY.   11746-2102
!  Tel:  (631) 622-4700               Fax:  (631) 622-4748
!  Part Number  600L240         Mounting Orientation: Horizontal
!  Description: Ultra Low ESR Microwave capacitors
!  Application: Coupling, Bypass, Tuning, DC Block
!               Filters, Matching
# GHZ S DB R 50
! Freq   |S11|   S11 Ph  |S21|   S21 Ph  |S12|   S12 Ph  |S22|   S22 Ph
    0.00    0.00    0.00 -999.00   90.00 -999.00   90.00    0.00    0.00
   0.400  -15.41  -80.33   -0.14    8.78   -0.14    8.71  -15.40  -80.09
   0.423  -15.88  -80.82   -0.13    8.20   -0.12    8.13  -15.87  -80.51
   0.445  -16.30  -81.28   -0.11    7.68   -0.11    7.58  -16.31  -81.06
   0.468  -16.73  -81.77   -0.11    7.19   -0.10    7.11  -16.74  -81.48
   0.490  -17.15  -82.23   -0.10    6.74   -0.10    6.68  -17.16  -81.78
   0.513  -17.56  -82.64   -0.09    6.34   -0.09    6.27  -17.55  -82.09
   0.535  -17.93  -82.82   -0.09    5.95   -0.08    5.85  -17.92  -82.54
   0.558  -18.26  -83.27   -0.07    5.59   -0.07    5.52  -18.29  -82.98
   0.580  -18.62  -83.76   -0.07    5.25   -0.06    5.19  -18.63  -83.14
   0.603  -18.97  -83.89   -0.07    4.93   -0.06    4.85  -18.98  -83.38
   0.625  -19.28  -84.01   -0.06    4.67   -0.06    4.55  -19.30  -83.68
   0.648  -19.58  -84.30   -0.06    4.38   -0.06    4.29  -19.61  -83.87
   0.670  -19.91  -84.68   -0.06    4.08   -0.05    4.03  -19.93  -84.07
   0.693  -20.21  -84.80   -0.05    3.85   -0.05    3.75  -20.23  -84.27
   0.715  -20.50  -84.89   -0.05    3.58   -0.04    3.52  -20.51  -84.51
   0.738  -20.76  -85.23   -0.05    3.35   -0.04    3.30  -20.79  -84.68
   0.760  -21.04  -85.59   -0.05    3.14   -0.04    3.07  -21.06  -84.84
   0.783  -21.31  -85.66   -0.04    2.93   -0.03    2.84  -21.33  -84.98
   0.805  -21.57  -85.66   -0.04    2.69   -0.04    2.64  -21.61  -85.06
   0.828  -21.79  -85.93   -0.04    2.53   -0.04    2.46  -21.85  -85.28
   0.850  -22.05  -86.22   -0.04    2.34   -0.03    2.29  -22.12  -85.37
   0.873  -22.32  -86.30   -0.04    2.15   -0.03    2.09  -22.38  -85.49
   0.895  -22.55  -86.25   -0.04    1.99   -0.03    1.92  -22.61  -85.79
   0.918  -22.78  -86.62   -0.04    1.80   -0.03    1.73  -22.84  -85.95
   0.940  -23.01  -86.96   -0.03    1.62   -0.03    1.54  -23.07  -86.01
   0.963  -23.24  -86.97   -0.03    1.45   -0.03    1.41  -23.30  -86.19
   0.985  -23.45  -87.06   -0.03    1.30   -0.02    1.24  -23.51  -86.22
   1.008  -23.66  -87.25   -0.03    1.15   -0.03    1.08  -23.73  -86.27
   1.030  -23.89  -87.39   -0.03    0.99   -0.02    0.93  -23.97  -86.35
   1.053  -24.11  -87.45   -0.03    0.85   -0.02    0.78  -24.20  -86.46
   1.075  -24.32  -87.55   -0.03    0.72   -0.02    0.65  -24.41  -86.50
   1.098  -24.53  -87.73   -0.03    0.59   -0.02    0.50  -24.61  -86.57
   1.120  -24.73  -87.84   -0.03    0.44   -0.02    0.35  -24.81  -86.81
   1.143  -24.93  -87.98   -0.03    0.30   -0.02    0.23  -25.00  -86.99
   1.165  -25.14  -88.12   -0.03    0.17   -0.02    0.11  -25.21  -86.98
   1.188  -25.32  -88.25   -0.02    0.05   -0.02   -0.03  -25.41  -86.86
   1.210  -25.53  -88.29   -0.02   -0.08   -0.02   -0.15  -25.59  -87.00
   1.233  -25.73  -88.51   -0.02   -0.20   -0.02   -0.26  -25.80  -86.98
   1.255  -25.96  -88.56   -0.02   -0.32   -0.02   -0.39  -26.03  -87.10
   1.278  -26.13  -88.53   -0.02   -0.44   -0.02   -0.51  -26.22  -87.09
   1.300  -26.30  -88.65   -0.02   -0.56   -0.01   -0.63  -26.41  -87.27
   1.323  -26.50  -89.04   -0.02   -0.68   -0.02   -0.75  -26.61  -87.13
   1.345  -26.71  -89.10   -0.02   -0.78   -0.01   -0.86  -26.77  -87.23
   1.368  -26.90  -89.05   -0.02   -0.91   -0.01   -0.98  -26.96  -87.33
   1.390  -27.08  -89.18   -0.02   -1.01   -0.01   -1.08  -27.18  -87.28
   1.413  -27.30  -89.33   -0.02   -1.13   -0.01   -1.19  -27.36  -87.18
   1.435  -27.50  -89.21   -0.02   -1.24   -0.02   -1.30  -27.54  -87.15
   1.458  -27.68  -89.18   -0.02   -1.36   -0.01   -1.41  -27.73  -87.20
   1.480  -27.88  -89.41   -0.02   -1.45   -0.02   -1.51  -27.93  -87.44
   1.503  -28.08  -89.60   -0.02   -1.53   -0.02   -1.63  -28.11  -87.29
   1.525  -28.27  -89.56   -0.02   -1.64   -0.01   -1.72  -28.30  -87.27
   1.548  -28.45  -89.52   -0.02   -1.76   -0.01   -1.81  -28.49  -87.43
   1.570  -28.61  -89.77   -0.02   -1.85   -0.01   -1.91  -28.70  -87.58
   1.593  -28.84  -89.84   -0.02   -1.95   -0.02   -2.02  -28.93  -87.04
   1.615  -29.06  -89.78   -0.02   -2.05   -0.02   -2.11  -29.12  -86.82
   1.638  -29.25  -89.44   -0.02   -2.15   -0.01   -2.22  -29.25  -87.20
   1.660  -29.39  -89.53   -0.02   -2.25   -0.01   -2.32  -29.49  -87.21
   1.683  -29.57  -89.93   -0.02   -2.34   -0.01   -2.43  -29.72  -86.86
   1.705  -29.83  -90.05   -0.02   -2.44   -0.01   -2.51  -29.88  -86.53
   1.728  -30.02  -89.94   -0.02   -2.53   -0.01   -2.63  -30.07  -86.77
   1.750  -30.23  -90.31   -0.02   -2.63   -0.01   -2.72  -30.29  -86.90
   1.773  -30.45  -90.40   -0.02   -2.72   -0.01   -2.80  -30.56  -86.67
   1.795  -30.67  -90.23   -0.02   -2.81   -0.01   -2.88  -30.78  -86.38
   1.818  -30.87  -90.12   -0.02   -2.91   -0.01   -3.00  -30.97  -86.18
   1.840  -31.08  -90.42   -0.02   -2.99   -0.02   -3.07  -31.19  -86.16
   1.863  -31.34  -90.51   -0.02   -3.09   -0.01   -3.16  -31.42  -85.95
   1.885  -31.60  -90.24   -0.02   -3.17   -0.01   -3.24  -31.63  -85.70
   1.908  -31.77  -90.07   -0.02   -3.27   -0.02   -3.31  -31.85  -85.41
   1.930  -31.99  -90.37   -0.02   -3.36   -0.02   -3.43  -32.09  -85.32
   1.953  -32.24  -90.49   -0.02   -3.46   -0.02   -3.49  -32.36  -85.42
   1.975  -32.53  -90.51   -0.02   -3.53   -0.01   -3.61  -32.63  -85.06
   1.998  -32.78  -90.45   -0.02   -3.62   -0.01   -3.69  -32.88  -84.52
   2.020  -33.00  -90.28   -0.02   -3.69   -0.01   -3.77  -33.05  -84.43
   2.043  -33.27  -90.14   -0.02   -3.79   -0.01   -3.85  -33.33  -84.45
   2.065  -33.47  -90.04   -0.02   -3.89   -0.01   -3.94  -33.64  -83.89
   2.088  -33.76  -89.81   -0.02   -3.96   -0.01   -4.02  -33.89  -82.99
   2.110  -33.97  -89.71   -0.02   -4.05   -0.01   -4.13  -34.16  -82.63
   2.133  -34.25  -90.22   -0.02   -4.13   -0.01   -4.21  -34.48  -83.08
   2.155  -34.64  -90.43   -0.02   -4.23   -0.01   -4.30  -34.80  -82.60
   2.178  -34.93  -90.03   -0.02   -4.30   -0.02   -4.37  -35.16  -81.77
   2.200  -35.15  -89.51   -0.02   -4.41   -0.01   -4.46  -35.39  -81.30
   2.223  -35.40  -89.92   -0.02   -4.48   -0.01   -4.56  -35.64  -81.10
   2.245  -35.80  -90.18   -0.02   -4.56   -0.01   -4.62  -36.03  -80.59
   2.268  -36.24  -89.63   -0.02   -4.64   -0.01   -4.71  -36.39  -79.54
   2.290  -36.47  -88.73   -0.02   -4.73   -0.01   -4.80  -36.75  -78.47
   2.313  -36.71  -88.98   -0.02   -4.81   -0.01   -4.88  -37.08  -78.46
   2.335  -37.17  -90.34   -0.02   -4.88   -0.01   -4.98  -37.47  -77.66
   2.358  -37.76  -89.72   -0.02   -4.96   -0.01   -5.05  -37.97  -77.36
   2.380  -38.04  -88.59   -0.02   -5.05   -0.02   -5.11  -38.34  -76.90
   2.403  -38.31  -88.62   -0.02   -5.12   -0.01   -5.22  -38.75  -76.10
   2.425  -38.81  -89.31   -0.02   -5.24   -0.01   -5.28  -39.15  -74.81
   2.448  -39.41  -88.43   -0.02   -5.32   -0.01   -5.37  -39.62  -73.02
   2.470  -39.90  -87.29   -0.02   -5.38   -0.01   -5.45  -40.19  -71.55
   2.493  -40.31  -87.82   -0.02   -5.46   -0.01   -5.54  -40.73  -70.21
   2.515  -41.03  -88.07   -0.02   -5.55   -0.01   -5.65  -41.46  -68.88
   2.538  -41.88  -86.81   -0.02   -5.62   -0.01   -5.70  -42.06  -66.43
   2.560  -42.40  -84.90   -0.02   -5.69   -0.02   -5.79  -42.77  -65.02
   2.583  -42.64  -84.65   -0.02   -5.79   -0.02   -5.88  -43.41  -62.82
   2.605  -43.36  -85.27   -0.02   -5.88   -0.02   -5.95  -43.96  -59.93
   2.628  -44.29  -83.58   -0.02   -5.95   -0.02   -6.05  -44.67  -55.29
   2.650  -45.36  -80.51   -0.03   -6.04   -0.02   -6.12  -45.33  -48.26
   2.673  -45.83  -77.76   -0.02   -6.12   -0.02   -6.20  -46.19  -42.48
   2.695  -46.81  -79.33   -0.03   -6.20   -0.02   -6.29  -46.78  -34.16
   2.718  -48.54  -78.85   -0.03   -6.29   -0.02   -6.35  -47.32  -25.05
   2.740  -50.45  -76.38   -0.03   -6.37   -0.02   -6.44  -47.62  -15.47
   2.763  -51.62  -71.45   -0.03   -6.45   -0.02   -6.54  -47.43   -5.98
   2.785  -53.41  -72.33   -0.03   -6.52   -0.02   -6.59  -47.12    1.48
   2.808  -55.96  -66.03   -0.03   -6.58   -0.02   -6.68  -46.57    7.62
   2.830  -59.72  -40.48   -0.03   -6.67   -0.02   -6.74  -45.90   15.05
   2.853  -59.77   -2.18   -0.03   -6.77   -0.02   -6.79  -45.08   22.36
   2.875  -60.18   28.57   -0.03   -6.80   -0.03   -6.90  -44.26   27.85
   2.898  -57.79   66.31   -0.03   -6.90   -0.03   -6.97  -43.52   30.66
   2.920  -53.54   78.67   -0.03   -6.95   -0.03   -7.04  -42.93   34.68
   2.943  -50.92   81.23   -0.03   -7.01   -0.02   -7.12  -42.35   37.94
   2.965  -49.16   84.66   -0.03   -7.11   -0.02   -7.21  -41.78   40.23
   2.988  -47.11   88.16   -0.03   -7.19   -0.02   -7.26  -41.26   40.98
   3.010  -45.44   85.45   -0.03   -7.26   -0.02   -7.34  -40.55   42.44
   3.033  -43.94   83.81   -0.03   -7.35   -0.02   -7.42  -40.02   44.27
   3.055  -44.09   78.76   -0.03   -7.42   -0.02   -7.50  -41.02   44.38
   3.078  -43.16   79.75   -0.03   -7.51   -0.02   -7.57  -40.66   46.88
   3.100  -42.16   79.90   -0.02   -7.59   -0.02   -7.68  -40.15   49.89
   3.123  -41.48   78.96   -0.02   -7.67   -0.02   -7.76  -39.70   50.88
   3.145  -41.05   78.31   -0.03   -7.75   -0.02   -7.84  -39.45   51.84
   3.168  -40.41   78.90   -0.02   -7.84   -0.02   -7.94  -39.06   53.13
   3.190  -39.79   77.62   -0.03   -7.92   -0.02   -8.01  -38.67   53.99
   3.213  -39.24   76.54   -0.03   -8.02   -0.02   -8.11  -38.15   54.75
   3.235  -38.79   75.87   -0.03   -8.09   -0.02   -8.20  -37.69   55.15
   3.258  -38.27   75.98   -0.03   -8.19   -0.03   -8.27  -37.26   56.15
   3.280  -37.76   75.56   -0.03   -8.28   -0.03   -8.37  -36.85   56.86
   3.303  -37.42   74.99   -0.03   -8.36   -0.03   -8.43  -36.50   57.74
   3.325  -37.14   74.42   -0.03   -8.42   -0.03   -8.52  -36.19   57.98
   3.348  -36.84   75.26   -0.04   -8.51   -0.03   -8.61  -35.85   58.41
   3.370  -36.40   75.25   -0.04   -8.59   -0.03   -8.70  -35.57   58.62
   3.393  -36.01   74.63   -0.04   -8.68   -0.03   -8.76  -35.32   58.40
   3.415  -35.72   74.26   -0.04   -8.74   -0.03   -8.86  -35.02   59.18
   3.438  -35.36   74.60   -0.04   -8.85   -0.03   -8.93  -34.65   59.85
   3.460  -34.81   74.99   -0.04   -8.94   -0.03   -9.04  -34.30   60.72
   3.483  -34.37   74.17   -0.04   -9.04   -0.04   -9.13  -33.89   61.05
   3.505  -34.08   73.19   -0.04   -9.12   -0.04   -9.22  -33.58   61.47
   3.528  -33.80   73.16   -0.04   -9.20   -0.04   -9.31  -33.25   61.70
   3.550  -33.38   73.39   -0.05   -9.31   -0.04   -9.43  -32.91   61.78
   3.573  -32.93   72.25   -0.05   -9.41   -0.05   -9.50  -32.56   61.96
   3.595  -32.55   70.63   -0.06   -9.53   -0.05   -9.61  -32.16   61.38
   3.618  -32.24   69.93   -0.06   -9.61   -0.05   -9.74  -31.75   60.97
   3.640  -31.80   69.49   -0.06   -9.73   -0.06   -9.82  -31.35   60.36
   3.663  -31.33   67.87   -0.07   -9.80   -0.07   -9.93  -30.96   59.60
   3.685  -30.97   65.58   -0.08   -9.93   -0.08  -10.03  -30.54   58.75
   3.708  -30.68   63.91   -0.09  -10.04   -0.09  -10.14  -30.17   57.28
   3.730  -30.25   62.11   -0.11  -10.15   -0.11  -10.27  -29.75   55.29
   3.753  -29.82   59.04   -0.12  -10.24   -0.12  -10.34  -29.39   53.00
   3.775  -29.47   54.69   -0.15  -10.28   -0.15  -10.42  -29.06   49.78
   3.798  -29.31   50.16   -0.17  -10.32   -0.17  -10.43  -28.79   45.74
   3.820  -29.27   45.35   -0.19  -10.26   -0.19  -10.38  -28.63   41.20
   3.843  -29.36   39.89   -0.21  -10.17   -0.21  -10.29  -28.72   36.03
   3.865  -29.74   33.77   -0.23  -10.04   -0.23  -10.12  -29.05   30.63
   3.888  -30.57   28.63   -0.23   -9.86   -0.22   -9.97  -29.71   26.04
   3.910  -31.67   25.85   -0.21   -9.71   -0.21   -9.84  -30.57   23.28
   3.933  -32.77   26.32   -0.19   -9.67   -0.19   -9.77  -31.56   22.48
   3.955  -33.71   28.51   -0.16   -9.65   -0.16   -9.75  -32.49   24.41
   3.978  -34.61   32.27   -0.15   -9.66   -0.14   -9.81  -33.31   27.70
   4.000  -35.28   38.48   -0.13   -9.75   -0.12   -9.86  -33.84   32.22
   4.023  -35.40   45.57   -0.11   -9.82   -0.11   -9.96  -34.18   37.65
   4.045  -35.26   50.70   -0.10   -9.92   -0.10  -10.04  -34.28   42.40
   4.068  -35.07   54.61   -0.10  -10.03   -0.09  -10.14  -34.22   46.99
   4.090  -34.85   58.48   -0.09  -10.13   -0.08  -10.24  -34.03   50.87
   4.113  -34.44   62.21   -0.08  -10.23   -0.08  -10.35  -33.73   54.19
   4.135  -33.92   64.19   -0.07  -10.33   -0.08  -10.44  -33.44   56.77
   4.158  -33.58   65.45   -0.07  -10.42   -0.07  -10.52  -33.13   59.08
   4.180  -33.35   67.09   -0.07  -10.51   -0.07  -10.62  -32.73   60.83
   4.203  -32.97   68.92   -0.07  -10.60   -0.07  -10.74  -32.44   62.29
   4.225  -32.57   69.75   -0.06  -10.70   -0.06  -10.82  -32.13   63.14
   4.248  -32.30   69.63   -0.06  -10.79   -0.06  -10.92  -31.86   63.81
   4.270  -32.13   70.31   -0.06  -10.86   -0.06  -11.00  -31.61   64.85
   4.293  -31.83   71.51   -0.06  -10.96   -0.05  -11.09  -31.37   65.50
   4.315  -31.40   72.07   -0.06  -11.05   -0.06  -11.17  -31.05   65.86
   4.338  -31.12   71.48   -0.06  -11.13   -0.06  -11.26  -30.80   66.44
   4.360  -30.98   71.74   -0.06  -11.22   -0.06  -11.35  -30.59   66.66
   4.383  -30.74   72.61   -0.06  -11.30   -0.06  -11.44  -30.40   66.96
   4.405  -30.43   72.89   -0.06  -11.38   -0.06  -11.52  -30.19   67.26
   4.428  -30.22   72.31   -0.06  -11.48   -0.05  -11.61  -30.03   67.50
   4.450  -30.08   72.17   -0.05  -11.57   -0.06  -11.70  -29.84   67.61
   4.473  -29.88   72.78   -0.05  -11.66   -0.06  -11.79  -29.67   67.77
   4.495  -29.61   72.70   -0.05  -11.75   -0.06  -11.87  -29.48   68.19
   4.518  -29.41   71.93   -0.05  -11.83   -0.06  -11.97  -29.28   68.58
   4.540  -29.32   72.12   -0.06  -11.93   -0.06  -12.05  -29.12   68.73
   4.563  -29.18   72.94   -0.06  -12.01   -0.06  -12.14  -28.96   69.20
   4.585  -28.97   73.33   -0.06  -12.11   -0.06  -12.24  -28.81   69.96
   4.608  -28.79   73.47   -0.07  -12.18   -0.07  -12.31  -28.57   70.51
   4.630  -28.59   74.35   -0.07  -12.24   -0.07  -12.36  -28.30   71.14
   4.653  -28.28   75.11   -0.07  -12.25   -0.07  -12.39  -27.99   70.91
   4.675  -27.88   74.44   -0.07  -12.31   -0.07  -12.45  -27.71   70.27
   4.698  -27.59   73.12   -0.06  -12.40   -0.07  -12.53  -27.51   69.60
   4.720  -27.47   72.09   -0.06  -12.50   -0.07  -12.62  -27.36   68.91
   4.743  -27.34   71.77   -0.06  -12.58   -0.06  -12.69  -27.28   68.58
   4.765  -27.18   71.71   -0.06  -12.67   -0.07  -12.81  -27.17   68.66
   4.788  -27.02   71.11   -0.06  -12.77   -0.06  -12.89  -27.06   68.76
   4.810  -26.92   70.67   -0.06  -12.84   -0.06  -12.98  -26.91   68.66
   4.833  -26.87   70.49   -0.06  -12.95   -0.07  -13.08  -26.77   68.56
   4.855  -26.68   70.56   -0.07  -13.06   -0.07  -13.18  -26.65   68.41
   4.878  -26.47   70.04   -0.06  -13.14   -0.07  -13.29  -26.51   68.35
   4.900  -26.35   69.54   -0.06  -13.23   -0.07  -13.35  -26.36   68.47
   4.923  -26.27   69.54   -0.06  -13.30   -0.08  -13.45  -26.17   68.51
   4.945  -26.08   69.88   -0.07  -13.41   -0.08  -13.54  -26.04   68.37
   4.968  -25.87   69.69   -0.07  -13.49   -0.08  -13.62  -25.91   68.35
   4.990  -25.76   68.97   -0.07  -13.60   -0.08  -13.69  -25.78   68.42
   5.013  -25.70   68.80   -0.07  -13.68   -0.08  -13.82  -25.62   68.42
   5.035  -25.53   68.95   -0.07  -13.76   -0.09  -13.90  -25.47   68.14
   5.058  -25.29   68.62   -0.08  -13.83   -0.09  -13.97  -25.33   67.91
   5.080  -25.15   67.85   -0.08  -13.95   -0.09  -14.07  -25.17   67.84
   5.103  -25.06   67.62   -0.08  -14.05   -0.09  -14.17  -25.02   67.72
   5.125  -24.89   67.98   -0.09  -14.13   -0.10  -14.29  -24.87   67.56
   5.148  -24.69   67.61   -0.09  -14.21   -0.10  -14.34  -24.74   67.45
   5.170  -24.56   66.95   -0.09  -14.32   -0.11  -14.45  -24.58   67.39
   5.193  -24.48   66.55   -0.10  -14.43   -0.11  -14.55  -24.42   67.26
   5.215  -24.32   66.75   -0.10  -14.51   -0.11  -14.65  -24.27   66.81
   5.238  -24.09   66.38   -0.11  -14.64   -0.11  -14.76  -24.12   66.58
   5.260  -23.91   65.33   -0.11  -14.73   -0.12  -14.88  -23.96   66.37
   5.283  -23.80   64.94   -0.11  -14.83   -0.13  -14.96  -23.80   66.11
   5.305  -23.65   64.94   -0.12  -14.94   -0.13  -15.07  -23.62   65.67
   5.328  -23.43   64.67   -0.12  -15.04   -0.14  -15.16  -23.46   65.33
   5.350  -23.24   63.75   -0.13  -15.17   -0.15  -15.30  -23.32   64.97
   5.373  -23.13   63.12   -0.14  -15.27   -0.16  -15.38  -23.16   64.54
   5.395  -22.99   62.98   -0.14  -15.37   -0.16  -15.50  -22.99   64.12
   5.418  -22.75   62.31   -0.15  -15.49   -0.17  -15.61  -22.79   63.51
   5.440  -22.54   61.25   -0.16  -15.60   -0.18  -15.73  -22.61   62.85
   5.463  -22.41   60.36   -0.18  -15.73   -0.20  -15.85  -22.46   62.09
   5.485  -22.25   59.77   -0.19  -15.87   -0.20  -15.98  -22.27   61.48
   5.508  -22.02   59.26   -0.20  -15.95   -0.22  -16.08  -22.07   60.75
   5.530  -21.82   58.04   -0.21  -16.09   -0.24  -16.18  -21.90   59.88
   5.553  -21.65   56.69   -0.23  -16.20   -0.25  -16.30  -21.72   58.65
   5.575  -21.51   55.76   -0.25  -16.32   -0.27  -16.37  -21.55   57.73
   5.598  -21.29   54.72   -0.27  -16.43   -0.30  -16.50  -21.35   56.53
   5.620  -21.03   53.06   -0.29  -16.54   -0.32  -16.61  -21.17   55.07
   5.643  -20.88   51.07   -0.32  -16.61   -0.35  -16.67  -20.98   53.44
   5.665  -20.76   49.45   -0.35  -16.71   -0.37  -16.77  -20.81   51.72
   5.688  -20.59   47.93   -0.38  -16.77   -0.41  -16.80  -20.64   49.83
   5.710  -20.37   45.78   -0.42  -16.80   -0.44  -16.83  -20.51   47.64
   5.733  -20.24   42.85   -0.45  -16.81   -0.48  -16.83  -20.39   45.31
   5.755  -20.21   40.14   -0.48  -16.79   -0.52  -16.83  -20.29   42.82
   5.778  -20.15   37.88   -0.53  -16.68   -0.56  -16.68  -20.23   40.11
   5.800  -20.07   34.91   -0.57  -16.54   -0.60  -16.52  -20.24   37.06
   5.823  -20.10   31.31   -0.60  -16.35   -0.63  -16.32  -20.27   33.89
   5.845  -20.28   27.81   -0.63  -16.10   -0.66  -16.09  -20.40   30.50
   5.868  -20.49   24.96   -0.66  -15.81   -0.68  -15.80  -20.60   27.08
   5.890  -20.68   21.87   -0.67  -15.44   -0.69  -15.43  -20.88   23.87
   5.913  -21.02   18.28   -0.67  -15.14   -0.69  -15.08  -21.25   20.83
   5.935  -21.52   15.31   -0.65  -14.79   -0.68  -14.75  -21.68   18.17
   5.958  -22.07   13.41   -0.63  -14.53   -0.65  -14.48  -22.22   15.72
   5.980  -22.56   12.02   -0.60  -14.28   -0.62  -14.20  -22.80   14.11
   6.003  -23.10   10.20   -0.56  -14.09   -0.58  -14.05  -23.42   12.84
   6.025  -23.84    9.07   -0.52  -13.97   -0.55  -13.91  -24.11   12.23
   6.048  -24.58    9.83   -0.48  -13.92   -0.51  -13.83  -24.75   12.38
   6.070  -25.13   11.42   -0.44  -13.89   -0.47  -13.80  -25.39   13.19
   6.093  -25.61   12.28   -0.41  -13.92   -0.43  -13.80  -26.01   14.70
   6.115  -26.19   13.71   -0.37  -13.95   -0.40  -13.82  -26.55   17.10
   6.138  -26.76   16.75   -0.34  -14.01   -0.37  -13.90  -27.06   19.74
   6.160  -27.05   20.23   -0.32  -14.08   -0.34  -13.96  -27.47   22.85
   6.183  -27.24   22.55   -0.29  -14.19   -0.31  -14.04  -27.83   26.30
   6.205  -27.60   25.35   -0.27  -14.31   -0.29  -14.12  -28.07   29.94
   6.228  -27.82   29.45   -0.25  -14.40   -0.27  -14.23  -28.20   32.88
   6.250  -27.76   33.11   -0.24  -14.51   -0.25  -14.35  -28.29   35.98
   6.273  -27.67   34.81   -0.22  -14.66   -0.23  -14.45  -28.31   39.01
   6.295  -27.77   36.68   -0.20  -14.76   -0.21  -14.57  -28.23   42.07
   6.318  -27.78   40.16   -0.20  -14.88   -0.20  -14.68  -28.08   44.94
   6.340  -27.53   42.96   -0.18  -14.99   -0.19  -14.79  -27.95   47.62
   6.363  -27.29   44.29   -0.18  -15.10   -0.18  -14.90  -27.85   49.97
