!Murata Part Number: LQG15HN4N3S02
!These Parameters are Measured in Series Mode Connection
!       o--[Z]--o
!Port1              Port2
!       o-------o
!
!Freq. Start=50[MHz] Stop=20[GHz], 401[Steps]
# Hz S RI R 50
!Freq.(Hz) S11(Real) S11(Imag) S21(Real) S21(Imag) S12(Real) S12(Imag) S22(Real) S22(Imag)
5.0E7 0.0018420887465193658 0.012743517252080411 0.9981579112534806 -0.012743517252080411 0.9981579112534806 -0.012743517252080411 0.0018420887465193658 0.012743517252080411
5.0754570186123446E7 0.0018580498039691086 0.01292819925653025 0.9981419501960309 -0.01292819925653025 0.9981419501960309 -0.01292819925653025 0.0018580498039691086 0.01292819925653025
5.152052789556263E7 0.0018743158699650372 0.013115501197027766 0.998125684130035 -0.013115501197027766 0.998125684130035 -0.013115501197027766 0.0018743158699650372 0.013115501197027766
5.229804498202928E7 0.0018908910306065796 0.013305458856217285 0.9981091089693934 -0.013305458856217282 0.9981091089693934 -0.013305458856217282 0.0018908910306065796 0.013305458856217285
5.308729589274893E7 0.0019077793371834874 0.013498108574717085 0.9980922206628163 -0.013498108574717085 0.9980922206628163 -0.013498108574717085 0.0019077793371834874 0.013498108574717085
5.388845770760058E7 0.0019249848062728066 0.013693487266936403 0.998075015193727 -0.013693487266936403 0.998075015193727 -0.013693487266936403 0.0019249848062728066 0.013693487266936403
5.470171017884717E7 0.0019425114202737649 0.01389163243732012 0.9980574885797261 -0.01389163243732012 0.9980574885797261 -0.01389163243732012 0.0019425114202737649 0.01389163243732012
5.5527235771465644E7 0.0019603631284085647 0.014092582197008909 0.9980396368715916 -0.014092582197008909 0.9980396368715916 -0.014092582197008909 0.0019603631284085647 0.014092582197008909
5.6365219704085544E7 0.001978543848216836 0.014296375280900752 0.9980214561517833 -0.014296375280900752 0.9980214561517833 -0.014296375280900752 0.001978543848216836 0.014296375280900752
5.721584999054556E7 0.0019970574675711 0.014503051065097753 0.998002942532429 -0.014503051065097753 0.998002942532429 -0.014503051065097753 0.0019970574675711 0.014503051065097753
5.807931748207712E7 0.0020159078472399795 0.01471264958471983 0.9979840921527601 -0.01471264958471983 0.9979840921527601 -0.01471264958471983 0.0020159078472399795 0.01471264958471983
5.8955815910124585E7 0.0020350988240252247 0.014925211552065427 0.9979649011759747 -0.014925211552065427 0.9979649011759747 -0.014925211552065427 0.0020350988240252247 0.014925211552065427
5.984554192981184E7 0.0020546342144976315 0.015140778375096897 0.9979453657855023 -0.015140778375096897 0.9979453657855023 -0.015140778375096897 0.0020546342144976315 0.015140778375096897
6.074869516406457E7 0.0020745178193558498 0.015359392176226293 0.997925482180644 -0.01535939217622629 0.997925482180644 -0.01535939217622629 0.0020745178193558498 0.015359392176226293
6.166547824839868E7 0.00209475342843086 0.015581095811375931 0.9979052465715691 -0.015581095811375928 0.9979052465715691 -0.015581095811375928 0.00209475342843086 0.015581095811375931
6.2596096876384385E7 0.0021153448263573184 0.015805932889285307 0.9978846551736428 -0.015805932889285307 0.9978846551736428 -0.015805932889285307 0.0021153448263573184 0.015805932889285307
6.354075984579668E7 0.0021362957989315015 0.01603394779103531 0.9978637042010686 -0.01603394779103531 0.9978637042010686 -0.01603394779103531 0.0021362957989315015 0.01603394779103531
6.449967910546205E7 0.0021576101401736135 0.016265185689757926 0.9978423898598264 -0.016265185689757926 0.9978423898598264 -0.016265185689757926 0.0021576101401736135 0.016265185689757926
6.547306980281226E7 0.002179291660110403 0.016499692570499106 0.9978207083398896 -0.016499692570499106 0.9978207083398896 -0.016499692570499106 0.002179291660110403 0.016499692570499106
6.646115033215589E7 0.0022013441932917928 0.016737515250200296 0.997798655806708 -0.0167375152502003 0.997798655806708 -0.0167375152502003 0.0022013441932917928 0.016737515250200296
6.746414238367817E7 0.002223771608053058 0.01697870139776347 0.997776228391947 -0.016978701397763467 0.997776228391947 -0.016978701397763467 0.002223771608053058 0.01697870139776347
6.848227099318038E7 0.002246577816531623 0.017223299554163116 0.9977534221834683 -0.017223299554163116 0.9977534221834683 -0.017223299554163116 0.002246577816531623 0.017223299554163116
6.951576459256999E7 0.0022697667854450626 0.01747135915256805 0.9977302332145549 -0.01747135915256805 0.9977302332145549 -0.01747135915256805 0.0022697667854450626 0.01747135915256805
7.056485506111258E7 0.0022933425476342265 0.017722930538434847 0.9977066574523656 -0.017722930538434847 0.9977066574523656 -0.017722930538434847 0.0022933425476342265 0.017722930538434847
7.162977777745734E7 0.002317309214372834 0.01797806498953505 0.9976826907856272 -0.017978064989535053 0.9976826907856272 -0.017978064989535053 0.002317309214372834 0.01797806498953505
7.271077167244768E7 0.002341670988441851 0.01823681473587696 0.9976583290115582 -0.018236814735876957 0.9976583290115582 -0.018236814735876957 0.002341670988441851 0.01823681473587696
7.380807928272885E7 0.002366432177964494 0.01849923297948412 0.9976335678220356 -0.01849923297948412 0.9976335678220356 -0.01849923297948412 0.002366432177964494 0.01849923297948412
7.492194680516452E7 0.002391597210994537 0.018765373913991856 0.9976084027890055 -0.01876537391399186 0.9976084027890055 -0.01876537391399186 0.002391597210994537 0.018765373913991856
7.60526241520746E7 0.0024171706508479725 0.019035292744024362 0.997582829349152 -0.019035292744024362 0.997582829349152 -0.019035292744024362 0.0024171706508479725 0.019035292744024362
7.720036500730675E7 0.002443157212165199 0.019309045704315436 0.9975568427878347 -0.019309045704315433 0.9975568427878347 -0.019309045704315433 0.002443157212165199 0.019309045704315436
7.836542688315398E7 0.0024695617776880744 0.019586690078536886 0.9975304382223119 -0.019586690078536886 0.9975304382223119 -0.019586690078536886 0.0024695617776880744 0.019586690078536886
7.954807117813127E7 0.0024963894157336154 0.01986828421780021 0.9975036105842663 -0.01986828421780021 0.9975036105842663 -0.01986828421780021 0.0024963894157336154 0.01986828421780021
8.074856323562416E7 0.0025236453983433957 0.02015388755879838 0.9974763546016565 -0.02015388755879838 0.9974763546016565 -0.02015388755879838 0.0025236453983433957 0.02015388755879838
8.196717240342227E7 0.002551335220085306 0.02044356064155655 0.9974486647799149 -0.02044356064155655 0.9974486647799149 -0.02044356064155655 0.002551335220085306 0.02044356064155655
8.320417209415154E7 0.0025794646174819554 0.02073736512676242 0.9974205353825181 -0.020737365126762417 0.9974205353825181 -0.020737365126762417 0.0025794646174819554 0.02073736512676242
8.445983984661816E7 0.0026080395890379017 0.02103536381264932 0.9973919604109621 -0.02103536381264932 0.9973919604109621 -0.02103536381264932 0.0026080395890379017 0.02103536381264932
8.573445738807854E7 0.00263706641583582 0.021337620651407253 0.9973629335841642 -0.021337620651407253 0.9973629335841642 -0.021337620651407253 0.00263706641583582 0.021337620651407253
8.702831069744885E7 0.0026665516826700616 0.021644200765100062 0.9973334483173301 -0.021644200765100062 0.9973334483173301 -0.021644200765100062 0.0026665516826700616 0.021644200765100062
8.834169006946853E7 0.002696502299684468 0.021955170461069422 0.9973034977003156 -0.021955170461069422 0.9973034977003156 -0.021955170461069422 0.002696502299684468 0.021955170461069422
8.96748901798321E7 0.002726925524480009 0.022270597246809472 0.9972730744755202 -0.02227059724680947 0.9972730744755202 -0.02227059724680947 0.002726925524480009 0.022270597246809472
9.1028210151304E7 0.002757828984656789 0.022590549844298626 0.9972421710153432 -0.022590549844298622 0.9972421710153432 -0.022590549844298622 0.002757828984656789 0.022590549844298626
9.240195362083109E7 0.0027892207007542405 0.02291509820377876 0.997210779299246 -0.022915098203778763 0.997210779299246 -0.022915098203778763 0.0027892207007542405 0.02291509820377876
9.379642880766791E7 0.002821109109552726 0.023244313516974445 0.9971788908904473 -0.023244313516974445 0.9971788908904473 -0.023244313516974445 0.002821109109552726 0.023244313516974445
9.521194858253023E7 0.0028535030876997197 0.02357826822974889 0.9971464969123003 -0.02357826822974889 0.9971464969123003 -0.02357826822974889 0.0028535030876997197 0.02357826822974889
9.664883053779216E7 0.0028864119756237066 0.02391703605419619 0.9971135880243763 -0.023917036054196185 0.9971135880243763 -0.023917036054196185 0.0028864119756237066 0.02391703605419619
9.810739705874248E7 0.002919845601699322 0.024260691980172354 0.9970801543983008 -0.02426069198017235 0.9970801543983008 -0.02426069198017235 0.002919845601699322 0.024260691980172354
9.958797539591652E7 0.0029538143066279916 0.024609312286271678 0.9970461856933721 -0.024609312286271678 0.9970461856933721 -0.024609312286271678 0.0029538143066279916 0.024609312286271678
1.0109089773851961E8 0.002988328967999184 0.024962974550257366 0.9970116710320007 -0.024962974550257366 0.9970116710320007 -0.024962974550257366 0.002988328967999184 0.024962974550257366
1.0261650128895843E8 0.003023401024998628 0.025321757658958742 0.9969765989750012 -0.025321757658958746 0.9969765989750012 -0.025321757658958746 0.003023401024998628 0.025321757658958742
1.0416512833849736E8 0.003059042503231349 0.02568574181765047 0.9969409574967687 -0.02568574181765047 0.9969409574967687 -0.02568574181765047 0.003059042503231349 0.02568574181765047
1.0573712634405641E8 0.0030952660396290368 0.026055008558931468 0.996904733960371 -0.026055008558931468 0.996904733960371 -0.026055008558931468 0.0030952660396290368 0.026055008558931468
1.0733284800616828E8 0.003132084907413303 0.02642964075112472 0.9968679150925867 -0.02642964075112472 0.9968679150925867 -0.02642964075112472 0.003132084907413303 0.02642964075112472
1.0895265134811176E8 0.0031695130410884513 0.026809722606220682 0.9968304869589115 -0.026809722606220682 0.9968304869589115 -0.026809722606220682 0.0031695130410884513 0.026809722606220682
1.1059689979623953E8 0.0032075650614398514 0.027195339687390088 0.9967924349385602 -0.027195339687390088 0.9967924349385602 -0.027195339687390088 0.0032075650614398514 0.027195339687390088
1.1226596226151802E8 0.0032462563005165104 0.027586578916093576 0.9967537436994833 -0.027586578916093576 0.9967537436994833 -0.027586578916093576 0.0032462563005165104 0.027586578916093576
1.1396021322229806E8 0.0032856028265790863 0.027983528578817383 0.9967143971734208 -0.027983528578817383 0.9967143971734208 -0.027983528578817383 0.0032856028265790863 0.027983528578817383
1.1568003280833441E8 0.0033256214689975443 0.028386278333466266 0.9966743785310024 -0.02838627833346626 0.9966743785310024 -0.02838627833346626 0.0033256214689975443 0.028386278333466266
1.1742580688607343E8 0.003366329843085466 0.02879491921544593 0.9966336701569145 -0.02879491921544593 0.9966336701569145 -0.02879491921544593 0.003366329843085466 0.02879491921544593
1.1919792714522783E8 0.0034077463748611063 0.029209543643468273 0.9965922536251388 -0.029209543643468273 0.9965922536251388 -0.029209543643468273 0.0034077463748611063 0.029209543643468273
1.2099679118665792E8 0.003449890325728404 0.029630245425113978 0.9965501096742716 -0.029630245425113978 0.9965501096742716 -0.029630245425113978 0.003449890325728404 0.029630245425113978
1.2282280261157903E8 0.003492781817074174 0.030057119762187143 0.9965072181829259 -0.03005711976218714 0.9965072181829259 -0.03005711976218714 0.003492781817074174 0.030057119762187143
1.2467637111211549E8 0.003536441854780943 0.030490263255897408 0.9964635581452189 -0.030490263255897408 0.9964635581452189 -0.030490263255897408 0.003536441854780943 0.030490263255897408
1.265579125632208E8 0.003580892353657902 0.03092977391190474 0.996419107646342 -0.03092977391190474 0.996419107646342 -0.03092977391190474 0.003580892353657902 0.03092977391190474
1.284678491159853E8 0.0036261561617956612 0.0313757511452624 0.9963738438382043 -0.0313757511452624 0.9963738438382043 -0.0313757511452624 0.0036261561617956612 0.0313757511452624
1.3040660929235186E8 0.003672257084853344 0.03182829578529264 0.9963277429151467 -0.03182829578529264 0.9963277429151467 -0.03182829578529264 0.003672257084853344 0.03182829578529264
1.3237462808126101E8 0.003719219910289733 0.03228751008042993 0.9962807800897102 -0.03228751008042993 0.9962807800897102 -0.03228751008042993 0.003719219910289733 0.03228751008042993
1.3437234703624701E8 0.003767070431552804 0.03275349770306472 0.9962329295684473 -0.032753497703064724 0.9962329295684473 -0.032753497703064724 0.003767070431552804 0.03275349770306472
1.364002143745067E8 0.0038158354722449784 0.033226363754420715 0.9961841645277549 -0.033226363754420715 0.9961841645277549 -0.033226363754420715 0.0038158354722449784 0.033226363754420715
1.3845868507746372E8 0.0038655429102838635 0.033706214769497 0.9961344570897163 -0.033706214769497 0.9961344570897163 -0.033706214769497 0.0038655429102838635 0.033706214769497
1.405482209928499E8 0.003916221702080901 0.03419315872210504 0.9960837782979192 -0.03419315872210504 0.9960837782979192 -0.03419315872210504 0.003916221702080901 0.03419315872210504
1.426692909383278E8 0.0039679019067626435 0.034687305030029404 0.9960320980932372 -0.0346873050300294 0.9960320980932372 -0.0346873050300294 0.0039679019067626435 0.034687305030029404
1.4482237080667645E8 0.004020614710461578 0.03518876456033927 0.9959793852895384 -0.03518876456033927 0.9959793852895384 -0.03518876456033927 0.004020614710461578 0.03518876456033927
1.4700794367256513E8 0.004074392450705539 0.035697649634876136 0.9959256075492946 -0.03569764963487614 0.9959256075492946 -0.03569764963487614 0.004074392450705539 0.035697649634876136
1.492264999009378E8 0.004129268640936614 0.03621407403594154 0.9958707313590633 -0.03621407403594153 0.9958707313590633 -0.03621407403594153 0.004129268640936614 0.03621407403594154
1.5147853725703382E8 0.004185277995192194 0.03673815301220671 0.9958147220048079 -0.03673815301220672 0.9958147220048079 -0.03673815301220672 0.004185277995192194 0.03673815301220671
1.5376456101806876E8 0.004242456452982385 0.03727000328486395 0.9957575435470177 -0.03727000328486395 0.9957575435470177 -0.03727000328486395 0.004242456452982385 0.03727000328486395
1.5608508408660066E8 0.0043008412043995 0.037809743054038135 0.9956991587956004 -0.03780974305403813 0.9956991587956004 -0.03780974305403813 0.0043008412043995 0.037809743054038135
1.5844062710560706E8 0.00436047071549652 0.03835749200547449 0.9956395292845035 -0.03835749200547449 0.9956395292845035 -0.03835749200547449 0.00436047071549652 0.03835749200547449
1.6083171857529896E8 0.004421384753972577 0.03891337131751663 0.9955786152460274 -0.038913371317516626 0.9955786152460274 -0.038913371317516626 0.004421384753972577 0.03891337131751663
1.632588949716973E8 0.004483624415204591 0.03947750366838773 0.9955163755847954 -0.03947750366838774 0.9955163755847954 -0.03947750366838774 0.004483624415204591 0.03947750366838773
1.6572270086699936E8 0.004547232148664864 0.04005001324378511 0.995452767851335 -0.04005001324378511 0.995452767851335 -0.04005001324378511 0.004547232148664864 0.04005001324378511
1.6822368905176118E8 0.004612251784765344 0.04063102574479676 0.9953877482152347 -0.04063102574479675 0.9953877482152347 -0.04063102574479675 0.004612251784765344 0.04063102574479676
1.7076242065892437E8 0.00467872856216979 0.041220668396147186 0.9953212714378302 -0.041220668396147186 0.9953212714378302 -0.041220668396147186 0.00467872856216979 0.041220668396147186
1.7333946528971428E8 0.004746709155615635 0.0418190699547774 0.9952532908443845 -0.04181906995477741 0.9952532908443845 -0.04181906995477741 0.004746709155615635 0.0418190699547774
1.7595540114143828E8 0.0048162417042878075 0.042426360718762914 0.9951837582957123 -0.042426360718762914 0.9951837582957123 -0.042426360718762914 0.0048162417042878075 0.042426360718762914
1.786108151372127E8 0.004887375840787057 0.04304267253657159 0.9951126241592129 -0.04304267253657159 0.9951126241592129 -0.04304267253657159 0.004887375840787057 0.04304267253657159
1.8130630305764765E8 0.004960162720735808 0.04366813881666231 0.9950398372792641 -0.04366813881666231 0.9950398372792641 -0.04366813881666231 0.004960162720735808 0.04366813881666231
1.840424696745189E8 0.005034655053064622 0.044302894537423185 0.9949653449469356 -0.044302894537423185 0.9949653449469356 -0.044302894537423185 0.005034655053064622 0.044302894537423185
1.8681992888645732E8 0.0051109071310228085 0.04494707625744758 0.9948890928689772 -0.04494707625744759 0.9948890928689772 -0.04494707625744759 0.0051109071310228085 0.04494707625744758
1.8963930385668582E8 0.0051889748639568425 0.045600822126144955 0.9948110251360431 -0.045600822126144955 0.9948110251360431 -0.045600822126144955 0.0051889748639568425 0.045600822126144955
1.92501227152835E8 0.00526891580990049 0.04626427189468149 0.9947310841900995 -0.046264271894681484 0.9947310841900995 -0.046264271894681484 0.00526891580990049 0.04626427189468149
1.9540634088886917E8 0.005350789209020849 0.04693756692724599 0.9946492107909791 -0.04693756692724599 0.9946492107909791 -0.04693756692724599 0.005350789209020849 0.04693756692724599
1.983552968691535E8 0.005434656017964777 0.04762085021263423 0.9945653439820353 -0.047620850212634236 0.9945653439820353 -0.047620850212634236 0.005434656017964777 0.04762085021263423
2.0134875673469606E8 0.005520578945150536 0.04831426637614524 0.9944794210548493 -0.04831426637614525 0.9944794210548493 -0.04831426637614525 0.005520578945150536 0.04831426637614524
2.0438739211159652E8 0.005608622487049896 0.04901796169178137 0.99439137751295 -0.04901796169178137 0.99439137751295 -0.04901796169178137 0.005608622487049896 0.04901796169178137
2.074718847617352E8 0.005698852965506331 0.049732084094743716 0.9943011470344936 -0.049732084094743716 0.9943011470344936 -0.049732084094743716 0.005698852965506331 0.049732084094743716
2.106029267357361E8 0.0057913385661356774 0.050456783194214226 0.9942086614338641 -0.050456783194214226 0.9942086614338641 -0.050456783194214226 0.0057913385661356774 0.050456783194214226
2.1378122052823865E8 0.005886149377856195 0.051192210286414574 0.9941138506221437 -0.05119221028641459 0.9941138506221437 -0.05119221028641459 0.005886149377856195 0.051192210286414574
2.1700747923551247E8 0.00598335743359569 0.051938518367931674 0.9940166425664041 -0.051938518367931674 0.9940166425664041 -0.051938518367931674 0.00598335743359569 0.051938518367931674
2.2028242671545094E8 0.006083036752224449 0.0526958621492995 0.9939169632477755 -0.0526958621492995 0.9939169632477755 -0.0526958621492995 0.006083036752224449 0.0526958621492995
2.23606797749979E8 0.006185263381763645 0.05346439806882593 0.9938147366182365 -0.05346439806882593 0.9938147366182365 -0.05346439806882593 0.006185263381763645 0.05346439806882593
2.2698133820991236E8 0.006290115443920102 0.05424428430665337 0.99370988455608 -0.05424428430665337 0.99370988455608 -0.05424428430665337 0.006290115443920102 0.05424428430665337
2.3040680522230446E8 0.0063976731799996345 0.055035680799040795 0.9936023268200003 -0.05503568079904079 0.9936023268200003 -0.05503568079904079 0.0063976731799996345 0.055035680799040795
2.338839673403185E8 0.006508018998252794 0.05583874925285516 0.9934919810017473 -0.05583874925285516 0.9934919810017473 -0.05583874925285516 0.006508018998252794 0.05583874925285516
2.37413604715664E8 0.0066212375227082875 0.05665365316025884 0.9933787624772917 -0.05665365316025884 0.9933787624772917 -0.05665365316025884 0.0066212375227082875 0.05665365316025884
2.4099650927363476E8 0.006737415643551423 0.05748055781357961 0.9932625843564487 -0.05748055781357961 0.9932625843564487 -0.05748055781357961 0.006737415643551423 0.05748055781357961
