!Murata Part Number: LQG15HN3N6C02
!These Parameters are Measured in Series Mode Connection
!       o--[Z]--o
!Port1              Port2
!       o-------o
!
!Freq. Start=50[MHz] Stop=20[GHz], 401[Steps]
# Hz S RI R 50
!Freq.(Hz) S11(Real) S11(Imag) S21(Real) S21(Imag) S12(Real) S12(Imag) S22(Real) S22(Imag)
5.0E7 0.0015806400690467244 0.01046767564840252 0.9984193599309532 -0.010467675648402518 0.9984193599309532 -0.010467675648402518 0.0015806400690467244 0.01046767564840252
5.0754570186123446E7 0.0015920863461516674 0.010619358698604501 0.9984079136538484 -0.0106193586986045 0.9984079136538484 -0.0106193586986045 0.0015920863461516674 0.010619358698604501
5.152052789556263E7 0.0016037303278492226 0.010773226682494337 0.9983962696721508 -0.010773226682494337 0.9983962696721508 -0.010773226682494337 0.0016037303278492226 0.010773226682494337
5.229804498202928E7 0.0016155752100651967 0.01092931053194422 0.9983844247899349 -0.010929310531944222 0.9983844247899349 -0.010929310531944222 0.0016155752100651967 0.01092931053194422
5.308729589274893E7 0.0016276241917710925 0.011087641635514553 0.9983723758082289 -0.011087641635514553 0.9983723758082289 -0.011087641635514553 0.0016276241917710925 0.011087641635514553
5.388845770760058E7 0.0016398804745497123 0.011248251849766659 0.9983601195254505 -0.011248251849766659 0.9983601195254505 -0.011248251849766659 0.0016398804745497123 0.011248251849766659
5.470171017884717E7 0.001652347262437335 0.011411173510914991 0.9983476527375627 -0.011411173510914991 0.9983476527375627 -0.011411173510914991 0.001652347262437335 0.011411173510914991
5.5527235771465644E7 0.001665027762062552 0.011576439446811403 0.9983349722379374 -0.011576439446811403 0.9983349722379374 -0.011576439446811403 0.001665027762062552 0.011576439446811403
5.6365219704085544E7 0.0016779251831016255 0.011744082989252622 0.9983220748168984 -0.011744082989252622 0.9983220748168984 -0.011744082989252622 0.0016779251831016255 0.011744082989252622
5.721584999054556E7 0.001691042739070006 0.011914137986600844 0.99830895726093 -0.011914137986600844 0.99830895726093 -0.011914137986600844 0.001691042739070006 0.011914137986600844
5.807931748207712E7 0.001704383648469231 0.01208663881670598 0.998295616351531 -0.01208663881670598 0.998295616351531 -0.01208663881670598 0.001704383648469231 0.01208663881670598
5.8955815910124585E7 0.0017179511363079663 0.012261620400116705 0.9982820488636921 -0.012261620400116706 0.9982820488636921 -0.012261620400116706 0.0017179511363079663 0.012261620400116705
5.984554192981184E7 0.0017317484360153859 0.012439118213566332 0.9982682515639847 -0.012439118213566332 0.9982682515639847 -0.012439118213566332 0.0017317484360153859 0.012439118213566332
6.074869516406457E7 0.0017457787917643352 0.012619168303717808 0.9982542212082358 -0.012619168303717808 0.9982542212082358 -0.012619168303717808 0.0017457787917643352 0.012619168303717808
6.166547824839868E7 0.0017600454612209807 0.01280180730115147 0.9982399545387791 -0.01280180730115147 0.9982399545387791 -0.01280180730115147 0.0017600454612209807 0.01280180730115147
6.2596096876384385E7 0.0017745517187366688 0.012987072434577284 0.9982254482812633 -0.012987072434577284 0.9982254482812633 -0.012987072434577284 0.0017745517187366688 0.012987072434577284
6.354075984579668E7 0.0017893008589967164 0.013175001545252701 0.9982106991410031 -0.013175001545252701 0.9982106991410031 -0.013175001545252701 0.0017893008589967164 0.013175001545252701
6.449967910546205E7 0.0018042962011396999 0.01336563310158561 0.9981957037988602 -0.01336563310158561 0.9981957037988602 -0.01336563310158561 0.0018042962011396999 0.01336563310158561
6.547306980281226E7 0.0018195410933595749 0.013559006213901308 0.9981804589066405 -0.013559006213901312 0.9981804589066405 -0.013559006213901312 0.0018195410933595749 0.013559006213901308
6.646115033215589E7 0.0018350389180015684 0.01375516064935101 0.9981649610819986 -0.013755160649351013 0.9981649610819986 -0.013755160649351013 0.0018350389180015684 0.01375516064935101
6.746414238367817E7 0.0018507930971613765 0.013954136846938813 0.9981492069028386 -0.013954136846938813 0.9981492069028386 -0.013954136846938813 0.0018507930971613765 0.013954136846938813
6.848227099318038E7 0.001866807098795638 0.014155975932643198 0.9981331929012044 -0.014155975932643202 0.9981331929012044 -0.014155975932643202 0.001866807098795638 0.014155975932643198
6.951576459256999E7 0.0018830844433500025 0.014360719734608332 0.9981169155566497 -0.014360719734608332 0.9981169155566497 -0.014360719734608332 0.0018830844433500025 0.014360719734608332
7.056485506111258E7 0.001899628710909475 0.01456841079838026 0.9981003712890907 -0.01456841079838026 0.9981003712890907 -0.01456841079838026 0.001899628710909475 0.01456841079838026
7.162977777745734E7 0.001916443548873866 0.014779092402162172 0.9980835564511261 -0.01477909240216217 0.9980835564511261 -0.01477909240216217 0.001916443548873866 0.014779092402162172
7.271077167244768E7 0.0019335326801594574 0.014992808572063343 0.9980664673198405 -0.014992808572063341 0.9980664673198405 -0.014992808572063341 0.0019335326801594574 0.014992808572063343
7.380807928272885E7 0.00195089991192602 0.015209604097315409 0.9980491000880741 -0.015209604097315409 0.9980491000880741 -0.015209604097315409 0.00195089991192602 0.015209604097315409
7.492194680516452E7 0.0019685491448265396 0.015429524545430584 0.9980314508551734 -0.015429524545430584 0.9980314508551734 -0.015429524545430584 0.0019685491448265396 0.015429524545430584
7.60526241520746E7 0.001986484382775028 0.015652616277275846 0.998013515617225 -0.015652616277275842 0.998013515617225 -0.015652616277275842 0.001986484382775028 0.015652616277275846
7.720036500730675E7 0.0020047097432259508 0.015878926462038107 0.997995290256774 -0.015878926462038107 0.997995290256774 -0.015878926462038107 0.0020047097432259508 0.015878926462038107
7.836542688315398E7 0.0020232294679568496 0.0161085030920555 0.9979767705320431 -0.0161085030920555 0.9979767705320431 -0.0161085030920555 0.0020232294679568496 0.0161085030920555
7.954807117813127E7 0.0020420479343439763 0.016341394997490863 0.997957952065656 -0.016341394997490863 0.997957952065656 -0.016341394997490863 0.0020420479343439763 0.016341394997490863
8.074856323562416E7 0.0020611696671188565 0.016577651860824286 0.9979388303328811 -0.016577651860824286 0.9979388303328811 -0.016577651860824286 0.0020611696671188565 0.016577651860824286
8.196717240342227E7 0.0020805993505920283 0.016817324231142603 0.9979194006494081 -0.016817324231142603 0.9979194006494081 -0.016817324231142603 0.0020805993505920283 0.016817324231142603
8.320417209415154E7 0.0021003418413285055 0.017060463538205024 0.9978996581586713 -0.017060463538205024 0.9978996581586713 -0.017060463538205024 0.0021003418413285055 0.017060463538205024
8.445983984661816E7 0.002120402181257941 0.017307122106265234 0.9978795978187421 -0.017307122106265234 0.9978795978187421 -0.017307122106265234 0.002120402181257941 0.017307122106265234
8.573445738807854E7 0.0021407856112010317 0.017557353167631986 0.997859214388799 -0.017557353167631986 0.997859214388799 -0.017557353167631986 0.0021407856112010317 0.017557353167631986
8.702831069744885E7 0.0021614975847923396 0.017811210875951736 0.9978385024152077 -0.017811210875951736 0.9978385024152077 -0.017811210875951736 0.0021614975847923396 0.017811210875951736
8.834169006946853E7 0.0021825437827785164 0.018068750319198502 0.9978174562172215 -0.018068750319198502 0.9978174562172215 -0.018068750319198502 0.0021825437827785164 0.018068750319198502
8.96748901798321E7 0.002203930127669872 0.018330027532358264 0.99779606987233 -0.01833002753235826 0.99779606987233 -0.01833002753235826 0.002203930127669872 0.018330027532358264
9.1028210151304E7 0.002225662798722317 0.01859509950979694 0.9977743372012778 -0.01859509950979694 0.9977743372012778 -0.01859509950979694 0.002225662798722317 0.01859509950979694
9.240195362083109E7 0.0022477482472259623 0.018864024217302926 0.997752251752774 -0.018864024217302926 0.997752251752774 -0.018864024217302926 0.0022477482472259623 0.018864024217302926
9.379642880766791E7 0.0022701932120761654 0.0191368606037977 0.9977298067879237 -0.0191368606037977 0.9977298067879237 -0.0191368606037977 0.0022701932120761654 0.0191368606037977
9.521194858253023E7 0.0022930047356023602 0.01941366861270958 0.9977069952643977 -0.01941366861270958 0.9977069952643977 -0.01941366861270958 0.0022930047356023602 0.01941366861270958
9.664883053779216E7 0.0023161901796298853 0.01969450919300842 0.99768380982037 -0.01969450919300842 0.99768380982037 -0.01969450919300842 0.0023161901796298853 0.01969450919300842
9.810739705874248E7 0.0023397572417499604 0.019979444309900837 0.9976602427582499 -0.019979444309900837 0.9976602427582499 -0.019979444309900837 0.0023397572417499604 0.019979444309900837
9.958797539591652E7 0.002363713971773234 0.020268536955188 0.9976362860282267 -0.020268536955188 0.9976362860282267 -0.020268536955188 0.002363713971773234 0.020268536955188
1.0109089773851961E8 0.002388068788342585 0.020561851157290104 0.9976119312116575 -0.020561851157290104 0.9976119312116575 -0.020561851157290104 0.002388068788342585 0.020561851157290104
1.0261650128895843E8 0.002412830495681512 0.020859451990943727 0.9975871695043186 -0.020859451990943727 0.9975871695043186 -0.020859451990943727 0.002412830495681512 0.020859451990943727
1.0416512833849736E8 0.002438008300455137 0.021161405586580504 0.9975619916995448 -0.021161405586580508 0.9975619916995448 -0.021161405586580508 0.002438008300455137 0.021161405586580504
1.0573712634405641E8 0.0024636118287217575 0.021467779139397455 0.9975363881712781 -0.021467779139397455 0.9975363881712781 -0.021467779139397455 0.0024636118287217575 0.021467779139397455
1.0733284800616828E8 0.0024896511429539567 0.02177864091813129 0.997510348857046 -0.02177864091813129 0.997510348857046 -0.02177864091813129 0.0024896511429539567 0.02177864091813129
1.0895265134811176E8 0.002516136759109493 0.022094060273550733 0.9974838632408904 -0.02209406027355073 0.9974838632408904 -0.02209406027355073 0.002516136759109493 0.022094060273550733
1.1059689979623953E8 0.0025430796637336164 0.02241410764668304 0.9974569203362665 -0.02241410764668304 0.9974569203362665 -0.02241410764668304 0.0025430796637336164 0.02241410764668304
1.1226596226151802E8 0.002570491331075839 0.02273885457679179 0.9974295086689242 -0.02273885457679179 0.9974295086689242 -0.02273885457679179 0.002570491331075839 0.02273885457679179
1.1396021322229806E8 0.002598383740205936 0.02306837370912523 0.9974016162597942 -0.02306837370912523 0.9974016162597942 -0.02306837370912523 0.002598383740205936 0.02306837370912523
1.1568003280833441E8 0.0026267693921155962 0.023402738802455317 0.9973732306078844 -0.023402738802455317 0.9973732306078844 -0.023402738802455317 0.0026267693921155962 0.023402738802455317
1.1742580688607343E8 0.002655661326793946 0.02374202473642899 0.9973443386732059 -0.02374202473642899 0.9973443386732059 -0.02374202473642899 0.002655661326793946 0.02374202473642899
1.1919792714522783E8 0.0026850731402671252 0.02408630751875423 0.9973149268597329 -0.02408630751875423 0.9973149268597329 -0.02408630751875423 0.0026850731402671252 0.02408630751875423
1.2099679118665792E8 0.0027150190015939255 0.02443566429224415 0.997284980998406 -0.02443566429224415 0.997284980998406 -0.02443566429224415 0.0027150190015939255 0.02443566429224415
1.2282280261157903E8 0.002745513669811608 0.02479017334174354 0.9972544863301883 -0.024790173341743542 0.9972544863301883 -0.024790173341743542 0.002745513669811608 0.02479017334174354
1.2467637111211549E8 0.002776572510827932 0.025149914100962272 0.9972234274891721 -0.025149914100962272 0.9972234274891721 -0.025149914100962272 0.002776572510827932 0.025149914100962272
1.265579125632208E8 0.0028082115142574957 0.025514967159240773 0.9971917884857425 -0.025514967159240773 0.9971917884857425 -0.025514967159240773 0.0028082115142574957 0.025514967159240773
1.284678491159853E8 0.0028404473102025363 0.02588541426827314 0.9971595526897976 -0.02588541426827314 0.9971595526897976 -0.02588541426827314 0.0028404473102025363 0.02588541426827314
1.3040660929235186E8 0.0028732971859802875 0.026261338348813057 0.9971267028140196 -0.026261338348813057 0.9971267028140196 -0.026261338348813057 0.0028732971859802875 0.026261338348813057
1.3237462808126101E8 0.0029067791028010337 0.026642823497388265 0.9970932208971988 -0.026642823497388265 0.9970932208971988 -0.026642823497388265 0.0029067791028010337 0.026642823497388265
1.3437234703624701E8 0.002940911712402895 0.027029954993048683 0.997059088287597 -0.027029954993048683 0.997059088287597 -0.027029954993048683 0.002940911712402895 0.027029954993048683
1.364002143745067E8 0.0029757143736512995 0.02742281930417336 0.9970242856263487 -0.02742281930417336 0.9970242856263487 -0.02742281930417336 0.0029757143736512995 0.02742281930417336
1.3845868507746372E8 0.0030112071691129312 0.02782150409536087 0.996988792830887 -0.02782150409536087 0.996988792830887 -0.02782150409536087 0.0030112071691129312 0.02782150409536087
1.405482209928499E8 0.0030474109216156483 0.028226098234427132 0.9969525890783844 -0.028226098234427132 0.9969525890783844 -0.028226098234427132 0.0030474109216156483 0.028226098234427132
1.426692909383278E8 0.0030843472108076655 0.028636691799534413 0.9969156527891925 -0.028636691799534417 0.9969156527891925 -0.028636691799534417 0.0030843472108076655 0.028636691799534413
1.4482237080667645E8 0.0031220383897307413 0.029053376086474104 0.9968779616102692 -0.029053376086474104 0.9968779616102692 -0.029053376086474104 0.0031220383897307413 0.029053376086474104
1.4700794367256513E8 0.003160507601423807 0.02947624361612562 0.9968394923985762 -0.02947624361612562 0.9968394923985762 -0.02947624361612562 0.003160507601423807 0.02947624361612562
1.492264999009378E8 0.003199778795574736 0.02990538814211248 0.9968002212044254 -0.02990538814211248 0.9968002212044254 -0.02990538814211248 0.003199778795574736 0.02990538814211248
1.5147853725703382E8 0.0032398767452394522 0.03034090465867623 0.9967601232547607 -0.03034090465867623 0.9967601232547607 -0.03034090465867623 0.0032398767452394522 0.03034090465867623
1.5376456101806876E8 0.003280827063648666 0.030782889408787557 0.9967191729363515 -0.030782889408787557 0.9967191729363515 -0.030782889408787557 0.003280827063648666 0.030782889408787557
1.5608508408660066E8 0.003322656221123818 0.03123143989251325 0.9966773437788762 -0.03123143989251325 0.9966773437788762 -0.03123143989251325 0.003322656221123818 0.03123143989251325
1.5844062710560706E8 0.0033653915621248694 0.031686654875656896 0.9966346084378752 -0.031686654875656896 0.9966346084378752 -0.031686654875656896 0.0033653915621248694 0.031686654875656896
1.6083171857529896E8 0.003409061322453477 0.03214863439868988 0.9965909386775464 -0.03214863439868988 0.9965909386775464 -0.03214863439868988 0.003409061322453477 0.03214863439868988
1.632588949716973E8 0.003453694646636115 0.032617479785988564 0.9965463053533639 -0.03261747978598857 0.9965463053533639 -0.03261747978598857 0.003453694646636115 0.032617479785988564
1.6572270086699936E8 0.0034993216055125534 0.03309329365539285 0.9965006783944875 -0.03309329365539285 0.9965006783944875 -0.03309329365539285 0.0034993216055125534 0.03309329365539285
1.6822368905176118E8 0.0035459732140557627 0.03357617992809978 0.9964540267859442 -0.033576179928099775 0.9964540267859442 -0.033576179928099775 0.0035459732140557627 0.03357617992809978
1.7076242065892437E8 0.003593681449450255 0.03406624383890606 0.9964063185505496 -0.03406624383890606 0.9964063185505496 -0.03406624383890606 0.003593681449450255 0.03406624383890606
1.7333946528971428E8 0.0036424792694563133 0.03456359194681129 0.9963575207305436 -0.03456359194681129 0.9963575207305436 -0.03456359194681129 0.0036424792694563133 0.03456359194681129
1.7595540114143828E8 0.0036924006310884118 0.03506833214599413 0.9963075993689116 -0.03506833214599413 0.9963075993689116 -0.03506833214599413 0.0036924006310884118 0.03506833214599413
1.786108151372127E8 0.0037434805096366653 0.03558057367717232 0.9962565194903633 -0.03558057367717232 0.9962565194903633 -0.03558057367717232 0.0037434805096366653 0.03558057367717232
1.8130630305764765E8 0.003795754918060651 0.036100427139356746 0.9962042450819395 -0.03610042713935674 0.9962042450819395 -0.03610042713935674 0.003795754918060651 0.036100427139356746
1.840424696745189E8 0.0038492609267857755 0.036628004502009516 0.9961507390732142 -0.036628004502009516 0.9961507390732142 -0.036628004502009516 0.0038492609267857755 0.036628004502009516
1.8681992888645732E8 0.003904036683932742 0.03716341911761567 0.9960959633160672 -0.03716341911761567 0.9960959633160672 -0.03716341911761567 0.003904036683932742 0.03716341911761567
1.8963930385668582E8 0.003960121436011361 0.03770678573467657 0.9960398785639886 -0.03770678573467657 0.9960398785639886 -0.03770678573467657 0.003960121436011361 0.03770678573467657
1.92501227152835E8 0.004017555549110662 0.03825822051113425 0.9959824444508895 -0.03825822051113425 0.9959824444508895 -0.03825822051113425 0.004017555549110662 0.03825822051113425
1.9540634088886917E8 0.0040763805306178545 0.03881784102823432 0.995923619469382 -0.03881784102823432 0.995923619469382 -0.03881784102823432 0.0040763805306178545 0.03881784102823432
1.983552968691535E8 0.004136639051499461 0.0393857663048354 0.9958633609485005 -0.03938576630483541 0.9958633609485005 -0.03938576630483541 0.004136639051499461 0.0393857663048354
2.0134875673469606E8 0.004198374969178725 0.03996211681217256 0.9958016250308211 -0.03996211681217256 0.9958016250308211 -0.03996211681217256 0.004198374969178725 0.03996211681217256
2.0438739211159652E8 0.004261633351044314 0.040547014489082205 0.9957383666489558 -0.040547014489082205 0.9957383666489558 -0.040547014489082205 0.004261633351044314 0.040547014489082205
2.074718847617352E8 0.004326460498626175 0.04114058275769552 0.9956735395013737 -0.041140582757695526 0.9956735395013737 -0.041140582757695526 0.004326460498626175 0.04114058275769552
2.106029267357361E8 0.004392903972475578 0.04174294653960764 0.9956070960275244 -0.041742946539607646 0.9956070960275244 -0.041742946539607646 0.004392903972475578 0.04174294653960764
2.1378122052823865E8 0.004461012617787385 0.0423542322725292 0.9955389873822125 -0.0423542322725292 0.9955389873822125 -0.0423542322725292 0.004461012617787385 0.0423542322725292
2.1700747923551247E8 0.004530836590803941 0.04297456792742747 0.9954691634091961 -0.04297456792742747 0.9954691634091961 -0.04297456792742747 0.004530836590803941 0.04297456792742747
2.2028242671545094E8 0.00460242738604124 0.04360408302616336 0.9953975726139589 -0.04360408302616335 0.9953975726139589 -0.04360408302616335 0.00460242738604124 0.04360408302616336
2.23606797749979E8 0.0046758378643796065 0.044242908659631174 0.9953241621356204 -0.04424290865963117 0.9953241621356204 -0.04424290865963117 0.0046758378643796065 0.044242908659631174
2.2698133820991236E8 0.004751122282062646 0.04489117750640747 0.9952488777179374 -0.04489117750640747 0.9952488777179374 -0.04489117750640747 0.004751122282062646 0.04489117750640747
2.3040680522230446E8 0.00482833632065002 0.04554902385191501 0.9951716636793501 -0.04554902385191501 0.9951716636793501 -0.04554902385191501 0.00482833632065002 0.04554902385191501
2.338839673403185E8 0.004907537117971473 0.04621658360810804 0.9950924628820286 -0.04621658360810804 0.9950924628820286 -0.04621658360810804 0.004907537117971473 0.04621658360810804
2.37413604715664E8 0.004988783300131517 0.046893994333684484 0.9950112166998684 -0.046893994333684484 0.9950112166998684 -0.046893994333684484 0.004988783300131517 0.046893994333684484
2.4099650927363476E8 0.005072135014616411 0.047581395254830315 0.9949278649853834 -0.047581395254830315 0.9949278649853834 -0.047581395254830315 0.005072135014616411 0.047581395254830315
