!Murata Part Number: LQG15HN2N0B02
!These Parameters are Measured in Series Mode Connection
!       o--[Z]--o
!Port1              Port2
!       o-------o
!
!Freq. Start=50[MHz] Stop=20[GHz], 401[Steps]
# Hz S RI R 50
!Freq.(Hz) S11(Real) S11(Imag) S21(Real) S21(Imag) S12(Real) S12(Imag) S22(Real) S22(Imag)
5.0E7 8.160096052268162E-4 0.0054398621586152045 0.999183990394773 -0.0054398621586152045 0.999183990394773 -0.0054398621586152045 8.160096052268162E-4 0.0054398621586152045
5.0754570186123446E7 8.212339050973179E-4 0.005519255499828008 0.9991787660949026 -0.005519255499828009 0.9991787660949026 -0.005519255499828009 8.212339050973179E-4 0.005519255499828008
5.152052789556263E7 8.26546646812184E-4 0.0055997801975108405 0.9991734533531876 -0.0055997801975108405 0.9991734533531876 -0.0055997801975108405 8.26546646812184E-4 0.0055997801975108405
5.229804498202928E7 8.319485307179643E-4 0.005681452191340391 0.9991680514692821 -0.005681452191340391 0.9991680514692821 -0.005681452191340391 8.319485307179643E-4 0.005681452191340391
5.308729589274893E7 8.374402342248119E-4 0.005764287667838058 0.9991625597657753 -0.005764287667838058 0.9991625597657753 -0.005764287667838058 8.374402342248119E-4 0.005764287667838058
5.388845770760058E7 8.430224110713026E-4 0.005848303066101623 0.9991569775889286 -0.005848303066101623 0.9991569775889286 -0.005848303066101623 8.430224110713026E-4 0.005848303066101623
5.470171017884717E7 8.486956906796538E-4 0.005933515083719234 0.9991513043093204 -0.005933515083719234 0.9991513043093204 -0.005933515083719234 8.486956906796538E-4 0.005933515083719234
5.5527235771465644E7 8.544606776118644E-4 0.006019940682864998 0.9991455393223879 -0.006019940682864998 0.9991455393223879 -0.006019940682864998 8.544606776118644E-4 0.006019940682864998
5.6365219704085544E7 8.603179511373995E-4 0.006107597096574717 0.9991396820488625 -0.006107597096574717 0.9991396820488625 -0.006107597096574717 8.603179511373995E-4 0.006107597096574717
5.721584999054556E7 8.662680649231025E-4 0.0061965018351993785 0.999133731935077 -0.006196501835199379 0.999133731935077 -0.006196501835199379 8.662680649231025E-4 0.0061965018351993785
5.807931748207712E7 8.723115468560358E-4 0.006286672693033414 0.9991276884531439 -0.006286672693033414 0.9991276884531439 -0.006286672693033414 8.723115468560358E-4 0.006286672693033414
5.8955815910124585E7 8.784488990098513E-4 0.006378127755113763 0.99912155110099 -0.006378127755113763 0.99912155110099 -0.006378127755113763 8.784488990098513E-4 0.006378127755113763
5.984554192981184E7 8.846805977651761E-4 0.0064708854041850405 0.9991153194022349 -0.0064708854041850405 0.9991153194022349 -0.0064708854041850405 8.846805977651761E-4 0.0064708854041850405
6.074869516406457E7 8.91007094094291E-4 0.0065649643278252266 0.9991089929059057 -0.0065649643278252266 0.9991089929059057 -0.0065649643278252266 8.91007094094291E-4 0.0065649643278252266
6.166547824839868E7 8.974288140200692E-4 0.006660383525725517 0.9991025711859798 -0.006660383525725517 0.9991025711859798 -0.006660383525725517 8.974288140200692E-4 0.006660383525725517
6.2596096876384385E7 9.039461592588204E-4 0.0067571623171171335 0.9990960538407414 -0.006757162317117135 0.9990960538407414 -0.006757162317117135 9.039461592588204E-4 0.0067571623171171335
6.354075984579668E7 9.105595080562455E-4 0.006855320348337096 0.9990894404919437 -0.006855320348337096 0.9990894404919437 -0.006855320348337096 9.105595080562455E-4 0.006855320348337096
6.449967910546205E7 9.172692162251902E-4 0.0069548776005242 0.9990827307837747 -0.0069548776005242 0.9990827307837747 -0.0069548776005242 9.172692162251902E-4 0.0069548776005242
6.547306980281226E7 9.240756183933222E-4 0.007055854397435694 0.9990759243816066 -0.007055854397435692 0.9990759243816066 -0.007055854397435692 9.240756183933222E-4 0.007055854397435694
6.646115033215589E7 9.309790294682205E-4 0.007158271413374463 0.9990690209705317 -0.007158271413374463 0.9990690209705317 -0.007158271413374463 9.309790294682205E-4 0.007158271413374463
6.746414238367817E7 9.379797463266149E-4 0.007262149681215811 0.9990620202536734 -0.00726214968121581 0.9990620202536734 -0.00726214968121581 9.379797463266149E-4 0.007262149681215811
6.848227099318038E7 9.450780497337818E-4 0.007367510600522442 0.9990549219502662 -0.007367510600522442 0.9990549219502662 -0.007367510600522442 9.450780497337818E-4 0.007367510600522442
6.951576459256999E7 9.522742064982028E-4 0.007474375945735557 0.9990477257935017 -0.007474375945735557 0.9990477257935017 -0.007474375945735557 9.522742064982028E-4 0.007474375945735557
7.056485506111258E7 9.595684718657501E-4 0.007582767874429623 0.9990404315281344 -0.007582767874429623 0.9990404315281344 -0.007582767874429623 9.595684718657501E-4 0.007582767874429623
7.162977777745734E7 9.669610921566593E-4 0.007692708935617878 0.9990330389078432 -0.007692708935617878 0.9990330389078432 -0.007692708935617878 9.669610921566593E-4 0.007692708935617878
7.271077167244768E7 9.744523076475898E-4 0.00780422207809538 0.9990255476923524 -0.00780422207809538 0.9990255476923524 -0.00780422207809538 9.744523076475898E-4 0.00780422207809538
7.380807928272885E7 9.82042355700011E-4 0.007917330658806062 0.9990179576442999 -0.007917330658806062 0.9990179576442999 -0.007917330658806062 9.82042355700011E-4 0.007917330658806062
7.492194680516452E7 9.897314741350962E-4 0.008032058451220207 0.9990102685258648 -0.008032058451220207 0.9990102685258648 -0.008032058451220207 9.897314741350962E-4 0.008032058451220207
7.60526241520746E7 9.975199048542173E-4 0.00814842965370863 0.9990024800951457 -0.00814842965370863 0.9990024800951457 -0.00814842965370863 9.975199048542173E-4 0.00814842965370863
7.720036500730675E7 0.001005407897702988 0.00826646889789981 0.9989945921022969 -0.00826646889789981 0.9989945921022969 -0.00826646889789981 0.001005407897702988 0.00826646889789981
7.836542688315398E7 0.0010133957145757471 0.008386201257006547 0.9989866042854241 -0.008386201257006547 0.9989866042854241 -0.008386201257006547 0.0010133957145757471 0.008386201257006547
7.954807117813127E7 0.0010214836337561948 0.008507652254108653 0.9989785163662437 -0.008507652254108652 0.9989785163662437 -0.008507652254108652 0.0010214836337561948 0.008507652254108653
8.074856323562416E7 0.0010296719544888356 0.00863084787037877 0.998970328045511 -0.00863084787037877 0.998970328045511 -0.00863084787037877 0.0010296719544888356 0.00863084787037877
8.196717240342227E7 0.0010379610017747674 0.008755814553238657 0.9989620389982252 -0.008755814553238655 0.9989620389982252 -0.008755814553238655 0.0010379610017747674 0.008755814553238657
8.320417209415154E7 0.0010463511313843236 0.00888257922443389 0.9989536488686156 -0.008882579224433888 0.9989536488686156 -0.008882579224433888 0.0010463511313843236 0.00888257922443389
8.445983984661816E7 0.0010548427350780439 0.00901116928801547 0.9989451572649217 -0.00901116928801547 0.9989451572649217 -0.00901116928801547 0.0010548427350780439 0.00901116928801547
8.573445738807854E7 0.0010634362460264857 0.009141612638217604 0.9989365637539734 -0.009141612638217606 0.9989365637539734 -0.009141612638217606 0.0010634362460264857 0.009141612638217604
8.702831069744885E7 0.0010721321444184756 0.009273937667221618 0.9989278678555814 -0.009273937667221618 0.9989278678555814 -0.009273937667221618 0.0010721321444184756 0.009273937667221618
8.834169006946853E7 0.0010809309632465655 0.00940817327279698 0.9989190690367533 -0.009408173272796978 0.9989190690367533 -0.009408173272796978 0.0010809309632465655 0.00940817327279698
8.96748901798321E7 0.0010898332942576633 0.009544348865811196 0.9989101667057423 -0.009544348865811195 0.9989101667057423 -0.009544348865811195 0.0010898332942576633 0.009544348865811196
9.1028210151304E7 0.0010988397940561389 0.009682494377601507 0.998901160205944 -0.009682494377601507 0.998901160205944 -0.009682494377601507 0.0010988397940561389 0.009682494377601507
9.240195362083109E7 0.0011079511903460864 0.00982264026720225 0.9988920488096539 -0.009822640267202249 0.9988920488096539 -0.009822640267202249 0.0011079511903460864 0.00982264026720225
9.379642880766791E7 0.0011171682882989123 0.009964817528423082 0.998882831711701 -0.009964817528423082 0.998882831711701 -0.009964817528423082 0.0011171682882989123 0.009964817528423082
9.521194858253023E7 0.0011264919770320107 0.010109057696774148 0.9988735080229681 -0.010109057696774148 0.9988735080229681 -0.010109057696774148 0.0011264919770320107 0.010109057696774148
9.664883053779216E7 0.0011359232361839722 0.010255392856235907 0.998864076763816 -0.010255392856235909 0.998864076763816 -0.010255392856235909 0.0011359232361839722 0.010255392856235907
9.810739705874248E7 0.0011454631425715563 0.010403855645872095 0.9988545368574285 -0.010403855645872095 0.9988545368574285 -0.010403855645872095 0.0011454631425715563 0.010403855645872095
9.958797539591652E7 0.0011551128769135659 0.010554479266285981 0.9988448871230867 -0.010554479266285981 0.9988448871230867 -0.010554479266285981 0.0011551128769135659 0.010554479266285981
1.0109089773851961E8 0.0011648737306067575 0.010707297485921075 0.9988351262693933 -0.010707297485921075 0.9988351262693933 -0.010707297485921075 0.0011648737306067575 0.010707297485921075
1.0261650128895843E8 0.0011747471125390504 0.010862344647208805 0.9988252528874608 -0.010862344647208803 0.9988252528874608 -0.010862344647208803 0.0011747471125390504 0.010862344647208805
1.0416512833849736E8 0.0011847345559254869 0.01101965567256694 0.9988152654440743 -0.011019655672566938 0.9988152654440743 -0.011019655672566938 0.0011847345559254869 0.01101965567256694
1.0573712634405641E8 0.0011948377251527545 0.011179266070253697 0.9988051622748473 -0.011179266070253697 0.9988051622748473 -0.011179266070253697 0.0011948377251527545 0.011179266070253697
1.0733284800616828E8 0.001205058422618467 0.011341211940083713 0.9987949415773815 -0.011341211940083713 0.9987949415773815 -0.011341211940083713 0.001205058422618467 0.011341211940083713
1.0895265134811176E8 0.001215398595551957 0.011505529979013222 0.998784601404448 -0.01150552997901322 0.998784601404448 -0.01150552997901322 0.001215398595551957 0.011505529979013222
1.1059689979623953E8 0.001225860342803905 0.01167225748660277 0.9987741396571962 -0.01167225748660277 0.9987741396571962 -0.01167225748660277 0.001225860342803905 0.01167225748660277
1.1226596226151802E8 0.001236445921592854 0.011841432370367019 0.9987635540784072 -0.01184143237036702 0.9987635540784072 -0.01184143237036702 0.001236445921592854 0.011841432370367019
1.1396021322229806E8 0.001247157754197416 0.012013093151021942 0.9987528422458026 -0.012013093151021942 0.9987528422458026 -0.012013093151021942 0.001247157754197416 0.012013093151021942
1.1568003280833441E8 0.0012579984345838283 0.01218727896764083 0.9987420015654163 -0.01218727896764083 0.9987420015654163 -0.01218727896764083 0.0012579984345838283 0.01218727896764083
1.1742580688607343E8 0.0012689707349594196 0.012364029582731202 0.9987310292650404 -0.012364029582731202 0.9987310292650404 -0.012364029582731202 0.0012689707349594196 0.012364029582731202
1.1919792714522783E8 0.0012800776122435045 0.012543385387245495 0.9987199223877564 -0.012543385387245495 0.9987199223877564 -0.012543385387245495 0.0012800776122435045 0.012543385387245495
1.2099679118665792E8 0.0012913222144482414 0.012725387405539045 0.9987086777855518 -0.012725387405539043 0.9987086777855518 -0.012725387405539043 0.0012913222144482414 0.012725387405539045
1.2282280261157903E8 0.0013027078869630496 0.01291007730028965 0.9986972921130369 -0.01291007730028965 0.9986972921130369 -0.01291007730028965 0.0013027078869630496 0.01291007730028965
1.2467637111211549E8 0.0013142381787371858 0.013097497377392988 0.9986857618212628 -0.013097497377392988 0.9986857618212628 -0.013097497377392988 0.0013142381787371858 0.013097497377392988
1.265579125632208E8 0.0013259168483562857 0.013287690590849176 0.9986740831516437 -0.013287690590849176 0.9986740831516437 -0.013287690590849176 0.0013259168483562857 0.013287690590849176
1.284678491159853E8 0.0013377478700096572 0.01348070054765552 0.9986622521299905 -0.01348070054765552 0.9986622521299905 -0.01348070054765552 0.0013377478700096572 0.01348070054765552
1.3040660929235186E8 0.00134973543934632 0.013676571512721083 0.9986502645606535 -0.013676571512721083 0.9986502645606535 -0.013676571512721083 0.00134973543934632 0.013676571512721083
1.3237462808126101E8 0.0013618839792188247 0.013875348413818706 0.9986381160207815 -0.013875348413818706 0.9986381160207815 -0.013875348413818706 0.0013618839792188247 0.013875348413818706
1.3437234703624701E8 0.001374198145314962 0.014077076846589879 0.9986258018546851 -0.014077076846589879 0.9986258018546851 -0.014077076846589879 0.001374198145314962 0.014077076846589879
1.364002143745067E8 0.0013866828316786066 0.01428180307961851 0.9986133171683211 -0.01428180307961851 0.9986133171683211 -0.01428180307961851 0.0013866828316786066 0.01428180307961851
1.3845868507746372E8 0.001399343176121877 0.014489574059588702 0.9986006568238782 -0.014489574059588702 0.9986006568238782 -0.014489574059588702 0.001399343176121877 0.014489574059588702
1.405482209928499E8 0.0014121845655318708 0.0147004374165421 0.9985878154344683 -0.0147004374165421 0.9985878154344683 -0.0147004374165421 0.0014121845655318708 0.0147004374165421
1.426692909383278E8 0.001425212641076149 0.014914441469249818 0.9985747873589239 -0.014914441469249818 0.9985747873589239 -0.014914441469249818 0.001425212641076149 0.014914441469249818
1.4482237080667645E8 0.0014384333033120743 0.015131635230713727 0.998561566696688 -0.015131635230713723 0.998561566696688 -0.015131635230713723 0.0014384333033120743 0.015131635230713727
1.4700794367256513E8 0.0014518527172059789 0.015352068413811513 0.9985481472827941 -0.015352068413811513 0.9985481472827941 -0.015352068413811513 0.0014518527172059789 0.015352068413811513
1.492264999009378E8 0.0014654773170689173 0.015575791437099595 0.998534522682931 -0.015575791437099593 0.998534522682931 -0.015575791437099593 0.0014654773170689173 0.015575791437099595
1.5147853725703382E8 0.0014793138114165666 0.015802855430787365 0.9985206861885834 -0.015802855430787365 0.9985206861885834 -0.015802855430787365 0.0014793138114165666 0.015802855430787365
1.5376456101806876E8 0.0014933691877614954 0.01603331224289603 0.9985066308122386 -0.01603331224289603 0.9985066308122386 -0.01603331224289603 0.0014933691877614954 0.01603331224289603
1.5608508408660066E8 0.0015076507173466887 0.016267214445614544 0.9984923492826533 -0.016267214445614544 0.9984923492826533 -0.016267214445614544 0.0015076507173466887 0.016267214445614544
1.5844062710560706E8 0.0015221659598297747 0.01650461534186472 0.9984778340401703 -0.01650461534186472 0.9984778340401703 -0.01650461534186472 0.0015221659598297747 0.01650461534186472
1.6083171857529896E8 0.0015369227679279853 0.016745568972087344 0.9984630772320723 -0.016745568972087347 0.9984630772320723 -0.016745568972087347 0.0015369227679279853 0.016745568972087344
1.632588949716973E8 0.001551929292034264 0.016990130121259984 0.9984480707079658 -0.016990130121259984 0.9984480707079658 -0.016990130121259984 0.001551929292034264 0.016990130121259984
1.6572270086699936E8 0.0015671939848154429 0.01723835432615738 0.9984328060151844 -0.01723835432615738 0.9984328060151844 -0.01723835432615738 0.0015671939848154429 0.01723835432615738
1.6822368905176118E8 0.0015827256058037146 0.017490297882864225 0.9984172743941964 -0.017490297882864228 0.9984172743941964 -0.017490297882864228 0.0015827256058037146 0.017490297882864225
1.7076242065892437E8 0.0015985332259929547 0.017746017854549878 0.9984014667740072 -0.017746017854549878 0.9984014667740072 -0.017746017854549878 0.0015985332259929547 0.017746017854549878
1.7333946528971428E8 0.0016146262324517485 0.018005572079514195 0.9983853737675483 -0.018005572079514198 0.9983853737675483 -0.018005572079514198 0.0016146262324517485 0.018005572079514195
1.7595540114143828E8 0.001631014332965152 0.018269019179512812 0.9983689856670348 -0.01826901917951281 0.9983689856670348 -0.01826901917951281 0.001631014332965152 0.018269019179512812
1.786108151372127E8 0.0016477075607174607 0.018536418568370232 0.9983522924392827 -0.018536418568370235 0.9983522924392827 -0.018536418568370235 0.0016477075607174607 0.018536418568370232
1.8130630305764765E8 0.0016647162790283812 0.018807830460888363 0.9983352837209716 -0.018807830460888363 0.9983352837209716 -0.018807830460888363 0.0016647162790283812 0.018807830460888363
1.840424696745189E8 0.001682051186155153 0.01908331588205786 0.9983179488138448 -0.01908331588205786 0.9983179488138448 -0.01908331588205786 0.001682051186155153 0.01908331588205786
1.8681992888645732E8 0.0016997233201732568 0.019362936676579443 0.9983002766798268 -0.019362936676579443 0.9983002766798268 -0.019362936676579443 0.0016997233201732568 0.019362936676579443
1.8963930385668582E8 0.0017177440639484542 0.019646755518701715 0.9982822559360516 -0.019646755518701712 0.9982822559360516 -0.019646755518701712 0.0017177440639484542 0.019646755518701715
1.92501227152835E8 0.0017361251502129673 0.01993483592238229 0.9982638748497868 -0.01993483592238229 0.9982638748497868 -0.01993483592238229 0.0017361251502129673 0.01993483592238229
1.9540634088886917E8 0.0017548786667586943 0.020227242251778278 0.9982451213332413 -0.020227242251778275 0.9982451213332413 -0.020227242251778275 0.0017548786667586943 0.020227242251778278
1.983552968691535E8 0.0017740170617604111 0.02052403973207239 0.9982259829382395 -0.02052403973207239 0.9982259829382395 -0.02052403973207239 0.0017740170617604111 0.02052403973207239
2.0134875673469606E8 0.0017935531492419918 0.020825294460640683 0.998206446850758 -0.02082529446064068 0.998206446850758 -0.02082529446064068 0.0017935531492419918 0.020825294460640683
2.0438739211159652E8 0.00181350011469878 0.021131073418567802 0.9981864998853011 -0.021131073418567802 0.9981864998853011 -0.021131073418567802 0.00181350011469878 0.021131073418567802
2.074718847617352E8 0.0018338715208893245 0.021441444482515715 0.9981661284791108 -0.021441444482515715 0.9981661284791108 -0.021441444482515715 0.0018338715208893245 0.021441444482515715
2.106029267357361E8 0.0018546813138098168 0.02175647643695171 0.9981453186861903 -0.02175647643695171 0.9981453186861903 -0.02175647643695171 0.0018546813138098168 0.02175647643695171
2.1378122052823865E8 0.0018759438288647576 0.022076238986741818 0.9981240561711352 -0.022076238986741818 0.9981240561711352 -0.022076238986741818 0.0018759438288647576 0.022076238986741818
2.1700747923551247E8 0.0018976737972474715 0.022400802770115323 0.9981023262027525 -0.022400802770115323 0.9981023262027525 -0.022400802770115323 0.0018976737972474715 0.022400802770115323
2.2028242671545094E8 0.0019198863525444027 0.022730239372006786 0.9980801136474554 -0.022730239372006786 0.9980801136474554 -0.022730239372006786 0.0019198863525444027 0.022730239372006786
2.23606797749979E8 0.0019425970375773175 0.02306462133778166 0.9980574029624226 -0.023064621337781657 0.9980574029624226 -0.023064621337781657 0.0019425970375773175 0.02306462133778166
2.2698133820991236E8 0.001965821811497838 0.023404022187351874 0.9980341781885022 -0.02340402218735187 0.9980341781885022 -0.02340402218735187 0.001965821811497838 0.023404022187351874
2.3040680522230446E8 0.0019895770571491164 0.023748516429688137 0.9980104229428509 -0.023748516429688137 0.9980104229428509 -0.023748516429688137 0.0019895770571491164 0.023748516429688137
2.338839673403185E8 0.002013879588709791 0.024098179577735367 0.9979861204112903 -0.024098179577735367 0.9979861204112903 -0.024098179577735367 0.002013879588709791 0.024098179577735367
2.37413604715664E8 0.002038746659635898 0.024453088163738736 0.997961253340364 -0.02445308816373874 0.997961253340364 -0.02445308816373874 0.002038746659635898 0.024453088163738736
