!Murata Part Number: LQG15HN6N8J02
!These Parameters are Measured in Series Mode Connection
!       o--[Z]--o
!Port1              Port2
!       o-------o
!
!Freq. Start=50[MHz] Stop=20[GHz], 401[Steps]
# Hz S RI R 50
!Freq.(Hz) S11(Real) S11(Imag) S21(Real) S21(Imag) S12(Real) S12(Imag) S22(Real) S22(Imag)
5.0E7 0.0030218916418185597 0.02044742387207466 0.9969781083581813 -0.020447423872074655 0.9969781083581813 -0.020447423872074655 0.0030218916418185597 0.02044742387207466
5.0754570186123446E7 0.003052686815069485 0.020741515991706896 0.9969473131849306 -0.020741515991706896 0.9969473131849306 -0.020741515991706896 0.003052686815069485 0.020741515991706896
5.152052789556263E7 0.0030840400781102237 0.021039751231727417 0.9969159599218899 -0.021039751231727417 0.9969159599218899 -0.021039751231727417 0.0030840400781102237 0.021039751231727417
5.229804498202928E7 0.003115958951292618 0.02134218864594469 0.9968840410487075 -0.02134218864594469 0.9968840410487075 -0.02134218864594469 0.003115958951292618 0.02134218864594469
5.308729589274893E7 0.003148451069198166 0.021648888348132056 0.9968515489308017 -0.021648888348132056 0.9968515489308017 -0.021648888348132056 0.003148451069198166 0.021648888348132056
5.388845770760058E7 0.003181524195213516 0.021959911537377003 0.9968184758047866 -0.021959911537377003 0.9968184758047866 -0.021959911537377003 0.003181524195213516 0.021959911537377003
5.470171017884717E7 0.0032151862371744278 0.02227532052343791 0.9967848137628256 -0.02227532052343791 0.9967848137628256 -0.02227532052343791 0.0032151862371744278 0.02227532052343791
5.5527235771465644E7 0.0032494452640868155 0.022595178752056695 0.9967505547359132 -0.022595178752056695 0.9967505547359132 -0.022595178752056695 0.0032494452640868155 0.022595178752056695
5.6365219704085544E7 0.0032843095239297668 0.022919550830174305 0.9967156904760703 -0.022919550830174305 0.9967156904760703 -0.022919550830174305 0.0032843095239297668 0.022919550830174305
5.721584999054556E7 0.0033197874625419906 0.023248502550996284 0.996680212537458 -0.023248502550996284 0.996680212537458 -0.023248502550996284 0.0033197874625419906 0.023248502550996284
5.807931748207712E7 0.0033558877435893573 0.023582100918855143 0.9966441122564107 -0.023582100918855143 0.9966441122564107 -0.023582100918855143 0.0033558877435893573 0.023582100918855143
5.8955815910124585E7 0.0033926192696074535 0.023920414173816316 0.9966073807303926 -0.023920414173816316 0.9966073807303926 -0.023920414173816316 0.0033926192696074535 0.023920414173816316
5.984554192981184E7 0.003429991204109347 0.024263511815975317 0.9965700087958907 -0.024263511815975317 0.9965700087958907 -0.024263511815975317 0.003429991204109347 0.024263511815975317
6.074869516406457E7 0.003468012994745045 0.0246114646293943 0.9965319870052549 -0.0246114646293943 0.9965319870052549 -0.0246114646293943 0.003468012994745045 0.0246114646293943
6.166547824839868E7 0.003506694397495386 0.024964344705627466 0.9964933056025046 -0.024964344705627466 0.9964933056025046 -0.024964344705627466 0.003506694397495386 0.024964344705627466
6.2596096876384385E7 0.003546045501879537 0.025322225466786127 0.9964539544981205 -0.025322225466786127 0.9964539544981205 -0.025322225466786127 0.003546045501879537 0.025322225466786127
6.354075984579668E7 0.003586076757151789 0.025685181688096335 0.9964139232428483 -0.02568518168809634 0.9964139232428483 -0.02568518168809634 0.003586076757151789 0.025685181688096335
6.449967910546205E7 0.003626798999459996 0.026053289519903863 0.9963732010005399 -0.026053289519903863 0.9963732010005399 -0.026053289519903863 0.003626798999459996 0.026053289519903863
6.547306980281226E7 0.0036682234799347738 0.026426626509083707 0.9963317765200653 -0.026426626509083714 0.9963317765200653 -0.026426626509083714 0.0036682234799347738 0.026426626509083707
6.646115033215589E7 0.0037103618936757195 0.02680527161981443 0.9962896381063242 -0.02680527161981443 0.9962896381063242 -0.02680527161981443 0.0037103618936757195 0.02680527161981443
6.746414238367817E7 0.003753226409598121 0.027189305253680067 0.9962467735904017 -0.027189305253680067 0.9962467735904017 -0.027189305253680067 0.003753226409598121 0.027189305253680067
6.848227099318038E7 0.003796829701101161 0.02757880926906611 0.9962031702988988 -0.027578809269066102 0.9962031702988988 -0.027578809269066102 0.003796829701101161 0.02757880926906611
6.951576459256999E7 0.0038411849775165084 0.027973866999819293 0.9961588150224836 -0.027973866999819293 0.9961588150224836 -0.027973866999819293 0.0038411849775165084 0.027973866999819293
7.056485506111258E7 0.0038863060162942224 0.028374563273144474 0.9961136939837058 -0.028374563273144467 0.9961136939837058 -0.028374563273144467 0.0038863060162942224 0.028374563273144474
7.162977777745734E7 0.003932207195881522 0.02878098442671619 0.9960677928041185 -0.028780984426716193 0.9960677928041185 -0.028780984426716193 0.003932207195881522 0.02878098442671619
7.271077167244768E7 0.0039789035292486135 0.029193218324985972 0.9960210964707512 -0.029193218324985972 0.9960210964707512 -0.029193218324985972 0.0039789035292486135 0.029193218324985972
7.380807928272885E7 0.004026410698015092 0.02961135437467088 0.995973589301985 -0.02961135437467088 0.995973589301985 -0.02961135437467088 0.004026410698015092 0.02961135437467088
7.492194680516452E7 0.004074745087129859 0.030035483539412745 0.9959252549128701 -0.030035483539412745 0.9959252549128701 -0.030035483539412745 0.004074745087129859 0.030035483539412745
7.60526241520746E7 0.004123923820057559 0.030465698353602178 0.9958760761799423 -0.030465698353602178 0.9958760761799423 -0.030465698353602178 0.004123923820057559 0.030465698353602178
7.720036500730675E7 0.0041739647944246845 0.030902092935364937 0.9958260352055752 -0.030902092935364937 0.9958260352055752 -0.030902092935364937 0.0041739647944246845 0.030902092935364937
7.836542688315398E7 0.004224886718079297 0.03134476299871298 0.9957751132819209 -0.031344762998712986 0.9957751132819209 -0.031344762998712986 0.004224886718079297 0.03134476299871298
7.954807117813127E7 0.004276709145519311 0.03179380586486662 0.9957232908544807 -0.031793805864866624 0.9957232908544807 -0.031793805864866624 0.004276709145519311 0.03179380586486662
8.074856323562416E7 0.004329452514645706 0.03224932047275777 0.9956705474853543 -0.03224932047275776 0.9956705474853543 -0.03224932047275776 0.004329452514645706 0.03224932047275777
8.196717240342227E7 0.0043831381837987965 0.03271140738872854 0.9956168618162012 -0.03271140738872855 0.9956168618162012 -0.03271140738872855 0.0043831381837987965 0.03271140738872854
8.320417209415154E7 0.004437788469037791 0.03318016881544301 0.9955622115309624 -0.03318016881544301 0.9955622115309624 -0.03318016881544301 0.004437788469037791 0.03318016881544301
8.445983984661816E7 0.004493426681626294 0.03365570860003336 0.9955065733183738 -0.03365570860003336 0.9955065733183738 -0.03365570860003336 0.004493426681626294 0.03365570860003336
8.573445738807854E7 0.004550077165689103 0.03413813224150519 0.9954499228343109 -0.03413813224150519 0.9954499228343109 -0.03413813224150519 0.004550077165689103 0.03413813224150519
8.702831069744885E7 0.004607765336008618 0.03462754689742918 0.9953922346639914 -0.03462754689742918 0.9953922346639914 -0.03462754689742918 0.004607765336008618 0.03462754689742918
8.834169006946853E7 0.004666517715932436 0.03512406138994981 0.9953334822840674 -0.035124061389949814 0.9953334822840674 -0.035124061389949814 0.004666517715932436 0.03512406138994981
8.96748901798321E7 0.004726361975367126 0.035627786211143736 0.995273638024633 -0.035627786211143736 0.995273638024633 -0.035627786211143736 0.004726361975367126 0.035627786211143736
9.1028210151304E7 0.004787326968836762 0.03613883352776268 0.9952126730311631 -0.03613883352776268 0.9952126730311631 -0.03613883352776268 0.004787326968836762 0.03613883352776268
9.240195362083109E7 0.004849442773588654 0.0366573171853977 0.9951505572264112 -0.0366573171853977 0.9951505572264112 -0.0366573171853977 0.004849442773588654 0.0366573171853977
9.379642880766791E7 0.0049127407277325015 0.03718335271210287 0.9950872592722675 -0.03718335271210287 0.9950872592722675 -0.03718335271210287 0.0049127407277325015 0.03718335271210287
9.521194858253023E7 0.0049772534684032555 0.037717057321517894 0.9950227465315968 -0.037717057321517894 0.9950227465315968 -0.037717057321517894 0.0049772534684032555 0.037717057321517894
9.664883053779216E7 0.005043014969942007 0.038258549915529724 0.994956985030058 -0.03825854991552973 0.994956985030058 -0.03825854991552973 0.005043014969942007 0.038258549915529724
9.810739705874248E7 0.0051100605820932595 0.038807951086514095 0.9948899394179066 -0.038807951086514095 0.9948899394179066 -0.038807951086514095 0.0051100605820932595 0.038807951086514095
9.958797539591652E7 0.005178427068220996 0.03936538311919737 0.9948215729317791 -0.03936538311919738 0.9948215729317791 -0.03936538311919738 0.005178427068220996 0.03936538311919737
1.0109089773851961E8 0.005248152643550029 0.039930969992179884 0.9947518473564501 -0.03993096999217989 0.9947518473564501 -0.03993096999217989 0.005248152643550029 0.039930969992179884
1.0261650128895843E8 0.005319277013443022 0.04050483737916057 0.9946807229865571 -0.04050483737916057 0.9946807229865571 -0.04050483737916057 0.005319277013443022 0.04050483737916057
1.0416512833849736E8 0.005391841411727495 0.04108711264990267 0.9946081585882722 -0.04108711264990267 0.9946081585882722 -0.04108711264990267 0.005391841411727495 0.04108711264990267
1.0573712634405641E8 0.005465888639090816 0.04167792487097856 0.9945341113609091 -0.04167792487097856 0.9945341113609091 -0.04167792487097856 0.005465888639090816 0.04167792487097856
1.0733284800616828E8 0.005541463101564879 0.04227740480633106 0.994458536898435 -0.04227740480633106 0.994458536898435 -0.04227740480633106 0.005541463101564879 0.04227740480633106
1.0895265134811176E8 0.005618610849125577 0.04288568491768661 0.9943813891508747 -0.042885684917686615 0.9943813891508747 -0.042885684917686615 0.005618610849125577 0.04288568491768661
1.1059689979623953E8 0.0056973796144354875 0.04350289936485415 0.9943026203855646 -0.04350289936485415 0.9943026203855646 -0.04350289936485415 0.0056973796144354875 0.04350289936485415
1.1226596226151802E8 0.005777818851761279 0.04412918400594147 0.9942221811482387 -0.04412918400594147 0.9942221811482387 -0.04412918400594147 0.005777818851761279 0.04412918400594147
1.1396021322229806E8 0.0058599797761002955 0.04476467639751883 0.9941400202238997 -0.04476467639751883 0.9941400202238997 -0.04476467639751883 0.0058599797761002955 0.04476467639751883
1.1568003280833441E8 0.005943915402553388 0.0454095157947569 0.9940560845974467 -0.0454095157947569 0.9940560845974467 -0.0454095157947569 0.005943915402553388 0.0454095157947569
1.1742580688607343E8 0.006029680585983657 0.04606384315156461 0.9939703194140163 -0.04606384315156461 0.9939703194140163 -0.04606384315156461 0.006029680585983657 0.04606384315156461
1.1919792714522783E8 0.006117332061002875 0.046727801120748584 0.9938826679389972 -0.04672780112074858 0.9938826679389972 -0.04672780112074858 0.006117332061002875 0.046727801120748584
1.2099679118665792E8 0.006206928482329626 0.04740153405421495 0.9937930715176703 -0.047401534054214954 0.9937930715176703 -0.047401534054214954 0.006206928482329626 0.04740153405421495
1.2282280261157903E8 0.006298530465564784 0.04808518800323008 0.9937014695344352 -0.048085188003230084 0.9937014695344352 -0.048085188003230084 0.006298530465564784 0.04808518800323008
1.2467637111211549E8 0.006392200628431792 0.04877891071875539 0.9936077993715682 -0.04877891071875539 0.9936077993715682 -0.04877891071875539 0.006392200628431792 0.04877891071875539
1.265579125632208E8 0.006488003632530431 0.049482851651867846 0.9935119963674696 -0.049482851651867846 0.9935119963674696 -0.049482851651867846 0.006488003632530431 0.049482851651867846
1.284678491159853E8 0.006586006225654182 0.050197161954275954 0.9934139937743459 -0.050197161954275954 0.9934139937743459 -0.050197161954275954 0.006586006225654182 0.050197161954275954
1.3040660929235186E8 0.006686277284722107 0.05092199447893756 0.9933137227152778 -0.05092199447893755 0.9933137227152778 -0.05092199447893755 0.006686277284722107 0.05092199447893756
1.3237462808126101E8 0.006788887859377266 0.05165750378078411 0.9932111121406227 -0.05165750378078411 0.9932111121406227 -0.05165750378078411 0.006788887859377266 0.05165750378078411
1.3437234703624701E8 0.006893911216304199 0.05240384611755287 0.9931060887836958 -0.05240384611755287 0.9931060887836958 -0.05240384611755287 0.006893911216304199 0.05240384611755287
1.364002143745067E8 0.007001422884318716 0.05316117945072667 0.9929985771156811 -0.05316117945072665 0.9929985771156811 -0.05316117945072665 0.007001422884318716 0.05316117945072667
1.3845868507746372E8 0.007111500700283626 0.05392966344657847 0.9928884992997162 -0.05392966344657846 0.9928884992997162 -0.05392966344657846 0.007111500700283626 0.05392966344657847
1.405482209928499E8 0.007224224855904367 0.05470945947731542 0.9927757751440958 -0.05470945947731542 0.9927757751440958 -0.05470945947731542 0.007224224855904367 0.05470945947731542
1.426692909383278E8 0.007339677945458883 0.05550073062231586 0.992660322054541 -0.05550073062231587 0.992660322054541 -0.05550073062231587 0.007339677945458883 0.05550073062231586
1.4482237080667645E8 0.007457945014516066 0.05630364166944995 0.992542054985484 -0.05630364166944995 0.992542054985484 -0.05630364166944995 0.007457945014516066 0.05630364166944995
1.4700794367256513E8 0.0075791136096975175 0.057118359116473574 0.9924208863903023 -0.057118359116473574 0.9924208863903023 -0.057118359116473574 0.0075791136096975175 0.057118359116473574
1.492264999009378E8 0.007703273829537342 0.057945051172483164 0.9922967261704625 -0.057945051172483164 0.9922967261704625 -0.057945051172483164 0.007703273829537342 0.057945051172483164
1.5147853725703382E8 0.007830518376494892 0.05878388775941767 0.9921694816235052 -0.05878388775941767 0.9921694816235052 -0.05878388775941767 0.007830518376494892 0.05878388775941767
1.5376456101806876E8 0.007960942610175515 0.0596350405135926 0.9920390573898245 -0.0596350405135926 0.9920390573898245 -0.0596350405135926 0.007960942610175515 0.0596350405135926
1.5608508408660066E8 0.008094644601814721 0.060498682787250145 0.9919053553981853 -0.060498682787250145 0.9919053553981853 -0.060498682787250145 0.008094644601814721 0.060498682787250145
1.5844062710560706E8 0.008231725190081184 0.06137498965010741 0.991768274809919 -0.06137498965010741 0.991768274809919 -0.06137498965010741 0.008231725190081184 0.06137498965010741
1.6083171857529896E8 0.008372288038254756 0.06226413789088535 0.9916277119617455 -0.06226413789088535 0.9916277119617455 -0.06226413789088535 0.008372288038254756 0.06226413789088535
1.632588949716973E8 0.00851643969283572 0.06316630601879837 0.9914835603071642 -0.06316630601879837 0.9914835603071642 -0.06316630601879837 0.00851643969283572 0.06316630601879837
1.6572270086699936E8 0.00866428964364264 0.06408167426498586 0.9913357103563574 -0.06408167426498586 0.9913357103563574 -0.06408167426498586 0.00866428964364264 0.06408167426498586
1.6822368905176118E8 0.008815950385456343 0.06501042458386379 0.9911840496145436 -0.06501042458386379 0.9911840496145436 -0.06501042458386379 0.008815950385456343 0.06501042458386379
1.7076242065892437E8 0.00897153748126921 0.06595274065437708 0.9910284625187308 -0.06595274065437708 0.9910284625187308 -0.06595274065437708 0.00897153748126921 0.06595274065437708
1.7333946528971428E8 0.009131169627199367 0.06690880788112967 0.9908688303728005 -0.06690880788112968 0.9908688303728005 -0.06690880788112968 0.009131169627199367 0.06690880788112967
1.7595540114143828E8 0.009294968719131312 0.06787881339537136 0.9907050312808686 -0.06787881339537136 0.9907050312808686 -0.06787881339537136 0.009294968719131312 0.06787881339537136
1.786108151372127E8 0.009463059921145805 0.06886294605581868 0.9905369400788542 -0.06886294605581868 0.9905369400788542 -0.06886294605581868 0.009463059921145805 0.06886294605581868
1.8130630305764765E8 0.009635571735803605 0.06986139644928704 0.9903644282641964 -0.06986139644928704 0.9903644282641964 -0.06986139644928704 0.009635571735803605 0.06986139644928704
1.840424696745189E8 0.009812636076349966 0.07087435689111098 0.9901873639236501 -0.07087435689111098 0.9901873639236501 -0.07087435689111098 0.009812636076349966 0.07087435689111098
1.8681992888645732E8 0.009994388340908876 0.0719020214253287 0.9900056116590912 -0.0719020214253287 0.9900056116590912 -0.0719020214253287 0.009994388340908876 0.0719020214253287
1.8963930385668582E8 0.010180967488738804 0.0729445858246065 0.9898190325112612 -0.0729445858246065 0.9898190325112612 -0.0729445858246065 0.010180967488738804 0.0729445858246065
1.92501227152835E8 0.01037251611862461 0.0740022475898785 0.9896274838813753 -0.0740022475898785 0.9896274838813753 -0.0740022475898785 0.01037251611862461 0.0740022475898785
1.9540634088886917E8 0.010569180549483437 0.07507520594967536 0.9894308194505166 -0.07507520594967536 0.9894308194505166 -0.07507520594967536 0.010569180549483437 0.07507520594967536
1.983552968691535E8 0.010771110903265883 0.0761636618591154 0.9892288890967339 -0.07616366185911538 0.9892288890967339 -0.07616366185911538 0.010771110903265883 0.0761636618591154
2.0134875673469606E8 0.01097846119023776 0.07726781799853043 0.9890215388097623 -0.07726781799853043 0.9890215388097623 -0.07726781799853043 0.01097846119023776 0.07726781799853043
2.0438739211159652E8 0.011191389396731616 0.07838787877169641 0.9888086106032685 -0.07838787877169642 0.9888086106032685 -0.07838787877169642 0.011191389396731616 0.07838787877169641
2.074718847617352E8 0.01141005757546179 0.07952405030363822 0.9885899424245385 -0.07952405030363822 0.9885899424245385 -0.07952405030363822 0.01141005757546179 0.07952405030363822
2.106029267357361E8 0.011634631938501673 0.08067654043797569 0.9883653680614983 -0.08067654043797569 0.9883653680614983 -0.08067654043797569 0.011634631938501673 0.08067654043797569
2.1378122052823865E8 0.011865282953026399 0.0818455587337747 0.9881347170469735 -0.08184555873377472 0.9881347170469735 -0.08184555873377472 0.011865282953026399 0.0818455587337747
2.1700747923551247E8 0.012102185439930193 0.08303131646186633 0.9878978145600696 -0.08303131646186633 0.9878978145600696 -0.08303131646186633 0.012102185439930193 0.08303131646186633
2.2028242671545094E8 0.0123455186754327 0.08423402660059177 0.9876544813245676 -0.08423402660059177 0.9876544813245676 -0.08423402660059177 0.0123455186754327 0.08423402660059177
2.23606797749979E8 0.012595466495794792 0.08545390383092877 0.9874045335042052 -0.08545390383092877 0.9874045335042052 -0.08545390383092877 0.012595466495794792 0.08545390383092877
2.2698133820991236E8 0.012852217405270473 0.08669116453095065 0.9871477825947294 -0.08669116453095065 0.9871477825947294 -0.08669116453095065 0.012852217405270473 0.08669116453095065
2.3040680522230446E8 0.013115964687427725 0.08794602676956362 0.9868840353125723 -0.08794602676956362 0.9868840353125723 -0.08794602676956362 0.013115964687427725 0.08794602676956362
2.338839673403185E8 0.013386906519977924 0.08921871029946392 0.9866130934800221 -0.08921871029946392 0.9866130934800221 -0.08921871029946392 0.013386906519977924 0.08921871029946392
2.37413604715664E8 0.013665246093260119 0.09050943654925005 0.9863347539067399 -0.09050943654925005 0.9863347539067399 -0.09050943654925005 0.013665246093260119 0.09050943654925005
2.4099650927363476E8 0.013951191732533261 0.09181842861461813 0.9860488082674668 -0.09181842861461813 0.9860488082674668 -0.09181842861461813 0.013951191732533261 0.09181842861461813
2.446334848907889E8 0.014244957024236749 0.09314591124856218 0.9857550429757633 -0.0931459112485622 0.9857550429757633 -0.0931459112485622 0.014244957024236749 0.09314591124856218
