!Murata Part Number: LQG15HN2N7B02
!These Parameters are Measured in Series Mode Connection
!       o--[Z]--o
!Port1              Port2
!       o-------o
!
!Freq. Start=50[MHz] Stop=20[GHz], 401[Steps]
# Hz S RI R 50
!Freq.(Hz) S11(Real) S11(Imag) S21(Real) S21(Imag) S12(Real) S12(Imag) S22(Real) S22(Imag)
5.0E7 8.540939548891008E-4 0.007649856244597206 0.999145906045111 -0.007649856244597207 0.999145906045111 -0.007649856244597207 8.540939548891008E-4 0.007649856244597206
5.0754570186123446E7 8.615580093020952E-4 0.007760917095841356 0.9991384419906979 -0.007760917095841356 0.9991384419906979 -0.007760917095841356 8.615580093020952E-4 0.007760917095841356
5.152052789556263E7 8.691458632365906E-4 0.007873587813717862 0.9991308541367635 -0.007873587813717864 0.9991308541367635 -0.007873587813717864 8.691458632365906E-4 0.007873587813717862
5.229804498202928E7 8.768595871177351E-4 0.007987891333422393 0.9991231404128823 -0.007987891333422393 0.9991231404128823 -0.007987891333422393 8.768595871177351E-4 0.007987891333422393
5.308729589274893E7 8.847012498548206E-4 0.008103850920720343 0.9991152987501452 -0.008103850920720343 0.9991152987501452 -0.008103850920720343 8.847012498548206E-4 0.008103850920720343
5.388845770760058E7 8.926729179495922E-4 0.008221490179739718 0.9991073270820506 -0.008221490179739718 0.9991073270820506 -0.008221490179739718 8.926729179495922E-4 0.008221490179739718
5.470171017884717E7 9.007766547607043E-4 0.008340833061013447 0.9990992233452394 -0.008340833061013447 0.9990992233452394 -0.008340833061013447 9.007766547607043E-4 0.008340833061013447
5.5527235771465644E7 9.090145199377442E-4 0.008461903869767957 0.9990909854800623 -0.008461903869767957 0.9990909854800623 -0.008461903869767957 9.090145199377442E-4 0.008461903869767957
5.6365219704085544E7 9.173885690382311E-4 0.008584727274453825 0.9990826114309617 -0.008584727274453825 0.9990826114309617 -0.008584727274453825 9.173885690382311E-4 0.008584727274453825
5.721584999054556E7 9.259008533409351E-4 0.00870932831551357 0.9990740991466592 -0.008709328315513569 0.9990740991466592 -0.008709328315513569 9.259008533409351E-4 0.00870932831551357
5.807931748207712E7 9.345534198687537E-4 0.008835732414380737 0.9990654465801312 -0.008835732414380737 0.9990654465801312 -0.008835732414380737 9.345534198687537E-4 0.008835732414380737
5.8955815910124585E7 9.433483116341546E-4 0.008963965382703512 0.9990566516883661 -0.008963965382703512 0.9990566516883661 -0.008963965382703512 9.433483116341546E-4 0.008963965382703512
5.984554192981184E7 9.522875681199787E-4 0.009094053431785265 0.9990477124318801 -0.009094053431785265 0.9990477124318801 -0.009094053431785265 9.522875681199787E-4 0.009094053431785265
6.074869516406457E7 9.61373226008034E-4 0.00922602318223349 0.9990386267739922 -0.00922602318223349 0.9990386267739922 -0.00922602318223349 9.61373226008034E-4 0.00922602318223349
6.166547824839868E7 9.706073201675285E-4 0.00935990167380776 0.9990293926798325 -0.00935990167380776 0.9990293926798325 -0.00935990167380776 9.706073201675285E-4 0.00935990167380776
6.2596096876384385E7 9.799918849148967E-4 0.009495716375456369 0.9990200081150852 -0.009495716375456369 0.9990200081150852 -0.009495716375456369 9.799918849148967E-4 0.009495716375456369
6.354075984579668E7 9.89528955556034E-4 0.009633495195530554 0.999010471044444 -0.009633495195530556 0.999010471044444 -0.009633495195530556 9.89528955556034E-4 0.009633495195530554
6.449967910546205E7 9.992205702213112E-4 0.009773266492164336 0.9990007794297787 -0.009773266492164336 0.9990007794297787 -0.009773266492164336 9.992205702213112E-4 0.009773266492164336
6.547306980281226E7 0.0010090687720030367 0.00991505908380713 0.9989909312279969 -0.009915059083807128 0.9989909312279969 -0.009915059083807128 0.0010090687720030367 0.00991505908380713
6.646115033215589E7 0.0010190756114042518 0.010058902259895704 0.9989809243885959 -0.010058902259895704 0.9989809243885959 -0.010058902259895704 0.0010190756114042518 0.010058902259895704
6.746414238367817E7 0.0010292431491068837 0.010204825791651143 0.9989707568508931 -0.010204825791651145 0.9989707568508931 -0.010204825791651145 0.0010292431491068837 0.010204825791651143
6.848227099318038E7 0.0010395734590663579 0.010352859942985987 0.9989604265409336 -0.010352859942985985 0.9989604265409336 -0.010352859942985985 0.0010395734590663579 0.010352859942985987
6.951576459256999E7 0.0010500686319387614 0.010503035481505992 0.9989499313680611 -0.010503035481505992 0.9989499313680611 -0.010503035481505992 0.0010500686319387614 0.010503035481505992
7.056485506111258E7 0.0010607307788456013 0.010655383689590597 0.9989392692211545 -0.010655383689590599 0.9989392692211545 -0.010655383689590599 0.0010607307788456013 0.010655383689590597
7.162977777745734E7 0.001071562035480073 0.01080993637553551 0.9989284379645199 -0.01080993637553551 0.9989284379645199 -0.01080993637553551 0.001071562035480073 0.01080993637553551
7.271077167244768E7 0.001082564566557588 0.010966725884740762 0.9989174354334424 -0.010966725884740763 0.9989174354334424 -0.010966725884740763 0.001082564566557588 0.010966725884740762
7.380807928272885E7 0.0010937405706120703 0.011125785110926984 0.9989062594293879 -0.011125785110926984 0.9989062594293879 -0.011125785110926984 0.0010937405706120703 0.011125785110926984
7.492194680516452E7 0.0011050922851383097 0.011287147507362809 0.9988949077148614 -0.011287147507362809 0.9988949077148614 -0.011287147507362809 0.0011050922851383097 0.011287147507362809
7.60526241520746E7 0.0011166219920793348 0.011450847098086041 0.9988833780079208 -0.011450847098086043 0.9988833780079208 -0.011450847098086043 0.0011166219920793348 0.011450847098086041
7.720036500730675E7 0.001128332023656471 0.011616918489101239 0.9988716679763436 -0.011616918489101239 0.9988716679763436 -0.011616918489101239 0.001128332023656471 0.011616918489101239
7.836542688315398E7 0.0011402247685384378 0.011785396879536746 0.9988597752314615 -0.011785396879536744 0.9988597752314615 -0.011785396879536744 0.0011402247685384378 0.011785396879536746
7.954807117813127E7 0.0011523026783444954 0.011956318072744212 0.9988476973216555 -0.01195631807274421 0.9988476973216555 -0.01195631807274421 0.0011523026783444954 0.011956318072744212
8.074856323562416E7 0.00116456827447534 0.012129718487324127 0.9988354317255247 -0.012129718487324127 0.9988354317255247 -0.012129718487324127 0.00116456827447534 0.012129718487324127
8.196717240342227E7 0.0011770241552641581 0.01230563516806145 0.9988229758447358 -0.012305635168061449 0.9988229758447358 -0.012305635168061449 0.0011770241552641581 0.01230563516806145
8.320417209415154E7 0.001189673003438967 0.012484105796755934 0.9988103269965611 -0.012484105796755934 0.9988103269965611 -0.012484105796755934 0.001189673003438967 0.012484105796755934
8.445983984661816E7 0.001202517593886139 0.012665168702932439 0.9987974824061139 -0.012665168702932439 0.9987974824061139 -0.012665168702932439 0.001202517593886139 0.012665168702932439
8.573445738807854E7 0.0012155608017038488 0.01284886287441752 0.9987844391982962 -0.01284886287441752 0.9987844391982962 -0.01284886287441752 0.0012155608017038488 0.01284886287441752
8.702831069744885E7 0.001228805610533033 0.013035227967769326 0.9987711943894669 -0.01303522796776933 0.9987711943894669 -0.01303522796776933 0.001228805610533033 0.013035227967769326
8.834169006946853E7 0.0012422551211524328 0.013224304318548964 0.9987577448788476 -0.013224304318548964 0.9987577448788476 -0.013224304318548964 0.0012422551211524328 0.013224304318548964
8.96748901798321E7 0.0012559125603233189 0.013416132951422704 0.9987440874396768 -0.0134161329514227 0.9987440874396768 -0.0134161329514227 0.0012559125603233189 0.013416132951422704
9.1028210151304E7 0.0012697812898686063 0.013610755590085418 0.9987302187101315 -0.013610755590085417 0.9987302187101315 -0.013610755590085417 0.0012697812898686063 0.013610755590085418
9.240195362083109E7 0.0012838648159703174 0.01380821466699722 0.9987161351840299 -0.01380821466699722 0.9987161351840299 -0.01380821466699722 0.0012838648159703174 0.01380821466699722
9.379642880766791E7 0.0012981667986686567 0.014008553332926317 0.9987018332013312 -0.014008553332926317 0.9987018332013312 -0.014008553332926317 0.0012981667986686567 0.014008553332926317
9.521194858253023E7 0.0013126910615454184 0.014211815466292865 0.9986873089384545 -0.014211815466292865 0.9986873089384545 -0.014211815466292865 0.0013126910615454184 0.014211815466292865
9.664883053779216E7 0.0013274416015739928 0.014418045682309822 0.9986725583984261 -0.014418045682309822 0.9986725583984261 -0.014418045682309822 0.0013274416015739928 0.014418045682309822
9.810739705874248E7 0.0013424225991179324 0.014627289341918485 0.9986575774008821 -0.014627289341918485 0.9986575774008821 -0.014627289341918485 0.0013424225991179324 0.014627289341918485
9.958797539591652E7 0.0013576384280598484 0.014839592560517985 0.99864236157194 -0.014839592560517988 0.99864236157194 -0.014839592560517988 0.0013576384280598484 0.014839592560517985
1.0109089773851961E8 0.001373093666042302 0.015055002216489281 0.9986269063339578 -0.015055002216489283 0.9986269063339578 -0.015055002216489283 0.001373093666042302 0.015055002216489281
1.0261650128895843E8 0.001388793104802489 0.015273565959516257 0.9986112068951976 -0.015273565959516257 0.9986112068951976 -0.015273565959516257 0.001388793104802489 0.015273565959516257
1.0416512833849736E8 0.001404741760582635 0.015495332218707688 0.9985952582394173 -0.015495332218707691 0.9985952582394173 -0.015495332218707691 0.001404741760582635 0.015495332218707688
1.0573712634405641E8 0.00142094488459837 0.0157203502105256 0.9985790551154018 -0.0157203502105256 0.9985790551154018 -0.0157203502105256 0.00142094488459837 0.0157203502105256
1.0733284800616828E8 0.0014374079735477887 0.015948669946526967 0.9985625920264524 -0.01594866994652697 0.9985625920264524 -0.01594866994652697 0.0014374079735477887 0.015948669946526967
1.0895265134811176E8 0.001454136780144446 0.016180342240927303 0.9985458632198556 -0.016180342240927303 0.9985458632198556 -0.016180342240927303 0.001454136780144446 0.016180342240927303
1.1059689979623953E8 0.0014711373236582232 0.01641541871799609 0.9985288626763417 -0.016415418717996094 0.9985288626763417 -0.016415418717996094 0.0014711373236582232 0.01641541871799609
1.1226596226151802E8 0.0014884159004487606 0.016653951819295253 0.9985115840995512 -0.016653951819295253 0.9985115840995512 -0.016653951819295253 0.0014884159004487606 0.016653951819295253
1.1396021322229806E8 0.0015059790944770433 0.016895994810773328 0.9984940209055229 -0.016895994810773328 0.9984940209055229 -0.016895994810773328 0.0015059790944770433 0.016895994810773328
1.1568003280833441E8 0.0015238337877817025 0.01714160178972927 0.9984761662122182 -0.01714160178972927 0.9984761662122182 -0.01714160178972927 0.0015238337877817025 0.01714160178972927
1.1742580688607343E8 0.0015419871709076278 0.017390827691660782 0.9984580128290924 -0.017390827691660782 0.9984580128290924 -0.017390827691660782 0.0015419871709076278 0.017390827691660782
1.1919792714522783E8 0.0015604467532756353 0.017643728297013297 0.9984395532467245 -0.017643728297013297 0.9984395532467245 -0.017643728297013297 0.0015604467532756353 0.017643728297013297
1.2099679118665792E8 0.001579220373483119 0.017900360237846653 0.9984207796265169 -0.01790036023784665 0.9984207796265169 -0.01790036023784665 0.001579220373483119 0.017900360237846653
1.2282280261157903E8 0.0015983162095268755 0.01816078100443741 0.9984016837904732 -0.018160781004437413 0.9984016837904732 -0.018160781004437413 0.0015983162095268755 0.01816078100443741
1.2467637111211549E8 0.001617742788940556 0.01842504895183546 0.9983822572110593 -0.018425048951835464 0.9983822572110593 -0.018425048951835464 0.001617742788940556 0.01842504895183546
1.265579125632208E8 0.0016375089988405573 0.018693223306394325 0.9983624910011594 -0.01869322330639432 0.9983624910011594 -0.01869322330639432 0.0016375089988405573 0.018693223306394325
1.284678491159853E8 0.0016576240958755236 0.018965364172295163 0.9983423759041244 -0.018965364172295166 0.9983423759041244 -0.018965364172295166 0.0016576240958755236 0.018965364172295163
1.3040660929235186E8 0.0016780977160759404 0.019241532538084912 0.9983219022839243 -0.019241532538084912 0.9983219022839243 -0.019241532538084912 0.0016780977160759404 0.019241532538084912
1.3237462808126101E8 0.0016989398846017582 0.019521790283249376 0.9983010601153982 -0.019521790283249376 0.9983010601153982 -0.019521790283249376 0.0016989398846017582 0.019521790283249376
1.3437234703624701E8 0.0017201610253872747 0.019806200184842384 0.9982798389746128 -0.019806200184842384 0.9982798389746128 -0.019806200184842384 0.0017201610253872747 0.019806200184842384
1.364002143745067E8 0.0017417719706839265 0.020094825924192455 0.9982582280293162 -0.020094825924192455 0.9982582280293162 -0.020094825924192455 0.0017417719706839265 0.020094825924192455
1.3845868507746372E8 0.0017637839705029212 0.02038773209370833 0.9982362160294973 -0.02038773209370833 0.9982362160294973 -0.02038773209370833 0.0017637839705029212 0.02038773209370833
1.405482209928499E8 0.0017862087019610122 0.020684984203804973 0.9982137912980391 -0.020684984203804976 0.9982137912980391 -0.020684984203804976 0.0017862087019610122 0.020684984203804973
1.426692909383278E8 0.0018090582785339267 0.020986648689971462 0.9981909417214662 -0.020986648689971462 0.9981909417214662 -0.020986648689971462 0.0018090582785339267 0.020986648689971462
1.4482237080667645E8 0.001832345259223266 0.021292792920002173 0.9981676547407765 -0.02129279292000217 0.9981676547407765 -0.02129279292000217 0.001832345259223266 0.021292792920002173
1.4700794367256513E8 0.001856082657643855 0.021603485201412673 0.998143917342356 -0.021603485201412673 0.998143917342356 -0.021603485201412673 0.001856082657643855 0.021603485201412673
1.492264999009378E8 0.0018802839510396578 0.02191879478906111 0.9981197160489603 -0.02191879478906111 0.9981197160489603 -0.02191879478906111 0.0018802839510396578 0.02191879478906111
1.5147853725703382E8 0.0019049630892375414 0.02223879189299616 0.9980950369107624 -0.02223879189299616 0.9980950369107624 -0.02223879189299616 0.0019049630892375414 0.02223879189299616
1.5376456101806876E8 0.0019301345035491486 0.022563547686552055 0.9980698654964509 -0.022563547686552055 0.9980698654964509 -0.022563547686552055 0.0019301345035491486 0.022563547686552055
1.5608508408660066E8 0.0019558131156322068 0.022893134314710933 0.9980441868843677 -0.022893134314710933 0.9980441868843677 -0.022893134314710933 0.0019558131156322068 0.022893134314710933
1.5844062710560706E8 0.0019820143463235096 0.023227624902752413 0.9980179856536765 -0.023227624902752413 0.9980179856536765 -0.023227624902752413 0.0019820143463235096 0.023227624902752413
1.6083171857529896E8 0.0020087541244567584 0.02356709356521024 0.9979912458755434 -0.023567093565210244 0.9979912458755434 -0.023567093565210244 0.0020087541244567584 0.02356709356521024
1.632588949716973E8 0.002036048895679288 0.02391161541515514 0.9979639511043207 -0.023911615415155144 0.9979639511043207 -0.023911615415155144 0.002036048895679288 0.02391161541515514
1.6572270086699936E8 0.002063915631282531 0.024261266573823118 0.9979360843687175 -0.024261266573823118 0.9979360843687175 -0.024261266573823118 0.002063915631282531 0.024261266573823118
1.6822368905176118E8 0.0020923718370618625 0.0246161241806077 0.997907628162938 -0.024616124180607695 0.997907628162938 -0.024616124180607695 0.0020923718370618625 0.0246161241806077
1.7076242065892437E8 0.0021214355622222103 0.024976266403434783 0.9978785644377779 -0.024976266403434783 0.9978785644377779 -0.024976266403434783 0.0021214355622222103 0.024976266403434783
1.7333946528971428E8 0.0021511254083465586 0.025341772449538145 0.9978488745916534 -0.025341772449538145 0.9978488745916534 -0.025341772449538145 0.0021511254083465586 0.025341772449538145
1.7595540114143828E8 0.0021814605384451757 0.025712722576653767 0.9978185394615549 -0.025712722576653767 0.9978185394615549 -0.025712722576653767 0.0021814605384451757 0.025712722576653767
1.786108151372127E8 0.00221246068610405 0.026089198104650487 0.9977875393138961 -0.026089198104650487 0.9977875393138961 -0.026089198104650487 0.00221246068610405 0.026089198104650487
1.8130630305764765E8 0.002244146164751765 0.026471281427614877 0.9977558538352482 -0.026471281427614877 0.9977558538352482 -0.026471281427614877 0.002244146164751765 0.026471281427614877
1.840424696745189E8 0.002276537877064672 0.02685905602640768 0.9977234621229354 -0.02685905602640768 0.9977234621229354 -0.02685905602640768 0.002276537877064672 0.02685905602640768
1.8681992888645732E8 0.0023096573245309495 0.027252606481709313 0.997690342675469 -0.027252606481709307 0.997690342675469 -0.027252606481709307 0.0023096573245309495 0.027252606481709313
1.8963930385668582E8 0.002343526617194818 0.027652018487571775 0.9976564733828052 -0.027652018487571775 0.9976564733828052 -0.027652018487571775 0.002343526617194818 0.027652018487571775
1.92501227152835E8 0.0023781684836029333 0.02805737886549445 0.9976218315163973 -0.028057378865494458 0.9976218315163973 -0.028057378865494458 0.0023781684836029333 0.02805737886549445
1.9540634088886917E8 0.002413606280975721 0.028468775579041063 0.9975863937190244 -0.02846877557904106 0.9975863937190244 -0.02846877557904106 0.002413606280975721 0.028468775579041063
1.983552968691535E8 0.002449864005627248 0.028886297749015452 0.997550135994373 -0.028886297749015452 0.997550135994373 -0.028886297749015452 0.002449864005627248 0.028886297749015452
2.0134875673469606E8 0.0024869663036580607 0.02931003566921382 0.997513033696342 -0.029310035669213818 0.997513033696342 -0.029310035669213818 0.0024869663036580607 0.02931003566921382
2.0438739211159652E8 0.0025249384819463062 0.029740080822771017 0.9974750615180538 -0.029740080822771024 0.9974750615180538 -0.029740080822771024 0.0025249384819463062 0.029740080822771017
2.074718847617352E8 0.0025638065194634697 0.03017652589911905 0.9974361934805366 -0.03017652589911905 0.9974361934805366 -0.03017652589911905 0.0025638065194634697 0.03017652589911905
2.106029267357361E8 0.0026035970789420586 0.030619464811575715 0.9973964029210578 -0.03061946481157572 0.9973964029210578 -0.03061946481157572 0.0026035970789420586 0.030619464811575715
2.1378122052823865E8 0.00264433751892367 0.031068992715581906 0.9973556624810763 -0.031068992715581903 0.9973556624810763 -0.031068992715581903 0.00264433751892367 0.031068992715581906
2.1700747923551247E8 0.0026860559062171475 0.031525206027606015 0.9973139440937829 -0.031525206027606015 0.9973139440937829 -0.031525206027606015 0.0026860559062171475 0.031525206027606015
2.2028242671545094E8 0.002728781028797694 0.03198820244473425 0.9972712189712022 -0.03198820244473425 0.9972712189712022 -0.03198820244473425 0.002728781028797694 0.03198820244473425
2.23606797749979E8 0.0027725424091792957 0.03245808096496589 0.9972274575908208 -0.03245808096496589 0.9972274575908208 -0.03245808096496589 0.0027725424091792957 0.03245808096496589
2.2698133820991236E8 0.0028173703182941905 0.03293494190823243 0.9971826296817057 -0.03293494190823243 0.9971826296817057 -0.03293494190823243 0.0028173703182941905 0.03293494190823243
2.3040680522230446E8 0.002863295789914762 0.03341888693816036 0.9971367042100852 -0.03341888693816035 0.9971367042100852 -0.03341888693816035 0.002863295789914762 0.03341888693816036
2.338839673403185E8 0.002910350635654823 0.033910019084596704 0.9970896493643453 -0.033910019084596704 0.9970896493643453 -0.033910019084596704 0.002910350635654823 0.033910019084596704
2.37413604715664E8 0.0029585674605890643 0.03440844276691697 0.9970414325394108 -0.03440844276691697 0.9970414325394108 -0.03440844276691697 0.0029585674605890643 0.03440844276691697
