!Murata Part Number: LQG15HN10NH02
!These Parameters are Measured in Series Mode Connection
!       o--[Z]--o
!Port1              Port2
!       o-------o
!
!Freq. Start=50[MHz] Stop=20[GHz], 401[Steps]
# Hz S RI R 50
!Freq.(Hz) S11(Real) S11(Imag) S21(Real) S21(Imag) S12(Real) S12(Imag) S22(Real) S22(Imag)
5.0E7 0.005002851158496277 0.031172147672849343 0.9949971488415037 -0.031172147672849343 0.9949971488415037 -0.031172147672849343 0.005002851158496277 0.031172147672849343
5.0754570186123446E7 0.0050624646691708386 0.031614869545459494 0.9949375353308293 -0.031614869545459494 0.9949375353308293 -0.031614869545459494 0.0050624646691708386 0.031614869545459494
5.152052789556263E7 0.005123196922771009 0.03206376102976438 0.9948768030772289 -0.032063761029764375 0.9948768030772289 -0.032063761029764375 0.005123196922771009 0.03206376102976438
5.229804498202928E7 0.005185065784512621 0.03251890862380399 0.9948149342154875 -0.03251890862380399 0.9948149342154875 -0.03251890862380399 0.005185065784512621 0.03251890862380399
5.308729589274893E7 0.005248089465359917 0.032980400408283796 0.9947519105346402 -0.032980400408283796 0.9947519105346402 -0.032980400408283796 0.005248089465359917 0.032980400408283796
5.388845770760058E7 0.005312286553122072 0.033448326085114374 0.994687713446878 -0.033448326085114374 0.994687713446878 -0.033448326085114374 0.005312286553122072 0.033448326085114374
5.470171017884717E7 0.0053776760455371275 0.03392277701571078 0.9946223239544628 -0.03392277701571078 0.9946223239544628 -0.03392277701571078 0.0053776760455371275 0.03392277701571078
5.5527235771465644E7 0.005444277385354155 0.034403846258955234 0.994555722614646 -0.03440384625895524 0.994555722614646 -0.03440384625895524 0.005444277385354155 0.034403846258955234
5.6365219704085544E7 0.005512110497418262 0.03489162860872597 0.9944878895025818 -0.034891628608725966 0.9944878895025818 -0.034891628608725966 0.005512110497418262 0.03489162860872597
5.721584999054556E7 0.005581195827756631 0.035386220630893965 0.9944188041722434 -0.03538622063089397 0.9944188041722434 -0.03538622063089397 0.005581195827756631 0.035386220630893965
5.807931748207712E7 0.005651554384657429 0.03588772069969019 0.9943484456153426 -0.03588772069969019 0.9943484456153426 -0.03588772069969019 0.005651554384657429 0.03588772069969019
5.8955815910124585E7 0.005723207781727029 0.03639622903334603 0.9942767922182728 -0.03639622903334603 0.9942767922182728 -0.03639622903334603 0.005723207781727029 0.03639622903334603
5.984554192981184E7 0.00579617828290435 0.036911847728910756 0.9942038217170958 -0.036911847728910756 0.9942038217170958 -0.036911847728910756 0.00579617828290435 0.036911847728910756
6.074869516406457E7 0.00587048884940512 0.037434680796152295 0.994129511150595 -0.0374346807961523 0.994129511150595 -0.0374346807961523 0.00587048884940512 0.037434680796152295
6.166547824839868E7 0.005946163188562288 0.03796483419044899 0.9940538368114378 -0.03796483419044899 0.9940538368114378 -0.03796483419044899 0.005946163188562288 0.03796483419044899
6.2596096876384385E7 0.006023225804523102 0.03850241584458337 0.9939767741954769 -0.03850241584458337 0.9939767741954769 -0.03850241584458337 0.006023225804523102 0.03850241584458337
6.354075984579668E7 0.006101702050757487 0.03904753569935277 0.9938982979492423 -0.03904753569935278 0.9938982979492423 -0.03904753569935278 0.006101702050757487 0.03904753569935277
6.449967910546205E7 0.006181618184326868 0.03960030573291466 0.9938183818156731 -0.03960030573291466 0.9938183818156731 -0.03960030573291466 0.006181618184326868 0.03960030573291466
6.547306980281226E7 0.006263001421857511 0.04016083998878956 0.9937369985781426 -0.04016083998878957 0.9937369985781426 -0.04016083998878957 0.006263001421857511 0.04016083998878956
6.646115033215589E7 0.006345879997157873 0.040729254602449624 0.9936541200028421 -0.040729254602449624 0.9936541200028421 -0.040729254602449624 0.006345879997157873 0.040729254602449624
6.746414238367817E7 0.006430283220414941 0.04130566782642517 0.9935697167795849 -0.04130566782642517 0.9935697167795849 -0.04130566782642517 0.006430283220414941 0.04130566782642517
6.848227099318038E7 0.006516241538901123 0.04189020005386863 0.9934837584610989 -0.04189020005386863 0.9934837584610989 -0.04189020005386863 0.006516241538901123 0.04189020005386863
6.951576459256999E7 0.006603786599119768 0.04248297384051993 0.9933962134008802 -0.04248297384051993 0.9933962134008802 -0.04248297384051993 0.006603786599119768 0.04248297384051993
7.056485506111258E7 0.0066929513103148605 0.04308411392502476 0.9933070486896852 -0.043084113925024765 0.9933070486896852 -0.043084113925024765 0.0066929513103148605 0.04308411392502476
7.162977777745734E7 0.006783769909268502 0.043693747247563336 0.9932162300907316 -0.043693747247563336 0.9932162300907316 -0.043693747247563336 0.006783769909268502 0.043693747247563336
7.271077167244768E7 0.006876278026308086 0.04431200296675355 0.9931237219736918 -0.04431200296675355 0.9931237219736918 -0.04431200296675355 0.006876278026308086 0.04431200296675355
7.380807928272885E7 0.006970512752444569 0.04493901247480007 0.9930294872475555 -0.04493901247480007 0.9930294872475555 -0.04493901247480007 0.006970512752444569 0.04493901247480007
7.492194680516452E7 0.007066512707562942 0.04557490941086714 0.9929334872924369 -0.04557490941086714 0.9929334872924369 -0.04557490941086714 0.007066512707562942 0.04557490941086714
7.60526241520746E7 0.007164318109586543 0.046219829672659835 0.9928356818904137 -0.04621982967265984 0.9928356818904137 -0.04621982967265984 0.007164318109586543 0.046219829672659835
7.720036500730675E7 0.007263970844538057 0.046873911426205596 0.9927360291554619 -0.046873911426205596 0.9927360291554619 -0.046873911426205596 0.007263970844538057 0.046873911426205596
7.836542688315398E7 0.007365514537421733 0.04753729511383416 0.992634485462578 -0.04753729511383416 0.992634485462578 -0.04753729511383416 0.007365514537421733 0.04753729511383416
7.954807117813127E7 0.007468994623853981 0.04821012346036057 0.9925310053761459 -0.04821012346036057 0.9925310053761459 -0.04821012346036057 0.007468994623853981 0.04821012346036057
8.074856323562416E7 0.007574458422372185 0.04889254147748199 0.9924255415776279 -0.048892541477481996 0.9924255415776279 -0.048892541477481996 0.007574458422372185 0.04889254147748199
8.196717240342227E7 0.00768195520735556 0.04958469646640522 0.9923180447926443 -0.04958469646640522 0.9923180447926443 -0.04958469646640522 0.00768195520735556 0.04958469646640522
8.320417209415154E7 0.007791536282495718 0.050286738018727115 0.9922084637175043 -0.050286738018727115 0.9922084637175043 -0.050286738018727115 0.007791536282495718 0.050286738018727115
8.445983984661816E7 0.0079032550547593 0.05099881801559466 0.9920967449452407 -0.05099881801559467 0.9920967449452407 -0.05099881801559467 0.0079032550547593 0.05099881801559466
8.573445738807854E7 0.008017167108790219 0.051721090625177345 0.9919828328912097 -0.051721090625177345 0.9919828328912097 -0.051721090625177345 0.008017167108790219 0.051721090625177345
8.702831069744885E7 0.00813333028170443 0.052453712298486874 0.9918666697182954 -0.052453712298486874 0.9918666697182954 -0.052453712298486874 0.00813333028170443 0.052453712298486874
8.834169006946853E7 0.008251804738236057 0.05319684176358465 0.9917481952617638 -0.05319684176358464 0.9917481952617638 -0.05319684176358464 0.008251804738236057 0.05319684176358465
8.96748901798321E7 0.008372653046199783 0.053950640018218456 0.9916273469538003 -0.053950640018218456 0.9916273469538003 -0.053950640018218456 0.008372653046199783 0.053950640018218456
9.1028210151304E7 0.008495940252241003 0.05471527032093452 0.9915040597477589 -0.05471527032093452 0.9915040597477589 -0.05471527032093452 0.008495940252241003 0.05471527032093452
9.240195362083109E7 0.008621733957851577 0.05549089818071052 0.9913782660421484 -0.05549089818071052 0.9913782660421484 -0.05549089818071052 0.008621733957851577 0.05549089818071052
9.379642880766791E7 0.008750104395635836 0.05627769134515809 0.9912498956043644 -0.056277691345158094 0.9912498956043644 -0.056277691345158094 0.008750104395635836 0.05627769134515809
9.521194858253023E7 0.008881124505818554 0.0570758197873432 0.9911188754941817 -0.0570758197873432 0.9911188754941817 -0.0570758197873432 0.008881124505818554 0.0570758197873432
9.664883053779216E7 0.009014870012992941 0.05788545569127311 0.9909851299870069 -0.05788545569127311 0.9909851299870069 -0.05788545569127311 0.009014870012992941 0.05788545569127311
9.810739705874248E7 0.00915141950311387 0.058706773436097176 0.9908485804968861 -0.05870677343609717 0.9908485804968861 -0.05870677343609717 0.00915141950311387 0.058706773436097176
9.958797539591652E7 0.0092908545007482 0.05953994957906882 0.9907091454992517 -0.05953994957906882 0.9907091454992517 -0.05953994957906882 0.0092908545007482 0.05953994957906882
1.0109089773851961E8 0.009433259546600436 0.06038516283731314 0.9905667404533995 -0.06038516283731314 0.9905667404533995 -0.06038516283731314 0.009433259546600436 0.06038516283731314
1.0261650128895843E8 0.009578722275338463 0.06124259406844247 0.9904212777246616 -0.06124259406844247 0.9904212777246616 -0.06124259406844247 0.009578722275338463 0.06124259406844247
1.0416512833849736E8 0.009727333493750278 0.06211242625005994 0.9902726665062497 -0.06211242625005996 0.9902726665062497 -0.06211242625005996 0.009727333493750278 0.06211242625005994
1.0573712634405641E8 0.00987918725926835 0.06299484445818694 0.9901208127407315 -0.06299484445818694 0.9901208127407315 -0.06299484445818694 0.00987918725926835 0.06299484445818694
1.0733284800616828E8 0.010034380958903872 0.06389003584464686 0.9899656190410963 -0.06389003584464686 0.9899656190410963 -0.06389003584464686 0.010034380958903872 0.06389003584464686
1.0895265134811176E8 0.010193015388638406 0.06479818961343344 0.9898069846113614 -0.06479818961343344 0.9898069846113614 -0.06479818961343344 0.010193015388638406 0.06479818961343344
1.1059689979623953E8 0.010355194833325133 0.06571949699608713 0.989644805166675 -0.06571949699608713 0.989644805166675 -0.06571949699608713 0.010355194833325133 0.06571949699608713
1.1226596226151802E8 0.01052102714715647 0.06665415122609793 0.9894789728528436 -0.06665415122609793 0.9894789728528436 -0.06665415122609793 0.01052102714715647 0.06665415122609793
1.1396021322229806E8 0.010690623834758791 0.06760234751234809 0.9893093761652412 -0.06760234751234809 0.9893093761652412 -0.06760234751234809 0.010690623834758791 0.06760234751234809
1.1568003280833441E8 0.010864100132978482 0.06856428301160215 0.9891358998670216 -0.06856428301160215 0.9891358998670216 -0.06856428301160215 0.010864100132978482 0.06856428301160215
1.1742580688607343E8 0.011041575093426972 0.06954015680004665 0.988958424906573 -0.06954015680004665 0.988958424906573 -0.06954015680004665 0.011041575093426972 0.06954015680004665
1.1919792714522783E8 0.01122317166585477 0.07053016984387504 0.9887768283341452 -0.07053016984387503 0.9887768283341452 -0.07053016984387503 0.01122317166585477 0.07053016984387504
1.2099679118665792E8 0.011409016782427039 0.07153452496890834 0.9885909832175729 -0.07153452496890834 0.9885909832175729 -0.07153452496890834 0.011409016782427039 0.07153452496890834
1.2282280261157903E8 0.011599241442974985 0.07255342682923475 0.988400758557025 -0.07255342682923475 0.988400758557025 -0.07255342682923475 0.011599241442974985 0.07255342682923475
1.2467637111211549E8 0.01179398080129874 0.07358708187484644 0.9882060191987012 -0.07358708187484644 0.9882060191987012 -0.07358708187484644 0.01179398080129874 0.07358708187484644
1.265579125632208E8 0.011993374252598436 0.07463569831824457 0.9880066257474015 -0.07463569831824457 0.9880066257474015 -0.07463569831824457 0.011993374252598436 0.07463569831824457
1.284678491159853E8 0.012197565522110678 0.07569948609997812 0.9878024344778893 -0.07569948609997812 0.9878024344778893 -0.07569948609997812 0.012197565522110678 0.07569948609997812
1.3040660929235186E8 0.012406702755027848 0.07677865685307488 0.9875932972449721 -0.07677865685307488 0.9875932972449721 -0.07677865685307488 0.012406702755027848 0.07677865685307488
1.3237462808126101E8 0.012620938607777606 0.07787342386631907 0.9873790613922225 -0.07787342386631907 0.9873790613922225 -0.07787342386631907 0.012620938607777606 0.07787342386631907
1.3437234703624701E8 0.012840430340739133 0.07898400204632096 0.987159569659261 -0.07898400204632096 0.987159569659261 -0.07898400204632096 0.012840430340739133 0.07898400204632096
1.364002143745067E8 0.013065339912472248 0.08011060787832121 0.9869346600875278 -0.08011060787832121 0.9869346600875278 -0.08011060787832121 0.013065339912472248 0.08011060787832121
1.3845868507746372E8 0.013295834075534068 0.081253459385665 0.9867041659244659 -0.081253459385665 0.9867041659244659 -0.081253459385665 0.013295834075534068 0.081253459385665
1.405482209928499E8 0.013532084473956596 0.08241277608787587 0.9864679155260433 -0.08241277608787587 0.9864679155260433 -0.08241277608787587 0.013532084473956596 0.08241277608787587
1.426692909383278E8 0.013774267742457113 0.08358877895725472 0.9862257322575431 -0.08358877895725472 0.9862257322575431 -0.08358877895725472 0.013774267742457113 0.08358877895725472
1.4482237080667645E8 0.014022565607451184 0.08478169037392304 0.9859774343925489 -0.08478169037392304 0.9859774343925489 -0.08478169037392304 0.014022565607451184 0.08478169037392304
1.4700794367256513E8 0.014277164989936524 0.08599173407922608 0.9857228350100634 -0.08599173407922608 0.9857228350100634 -0.08599173407922608 0.014277164989936524 0.08599173407922608
1.492264999009378E8 0.014538258110313153 0.08721913512740481 0.9854617418896868 -0.08721913512740483 0.9854617418896868 -0.08721913512740483 0.014538258110313153 0.08721913512740481
1.5147853725703382E8 0.01480604259520385 0.08846411983544356 0.9851939574047961 -0.08846411983544356 0.9851939574047961 -0.08846411983544356 0.01480604259520385 0.08846411983544356
1.5376456101806876E8 0.01508072158633603 0.08972691573099416 0.9849192784136641 -0.08972691573099417 0.9849192784136641 -0.08972691573099417 0.01508072158633603 0.08972691573099416
1.5608508408660066E8 0.015362503851543741 0.09100775149827306 0.9846374961484563 -0.09100775149827307 0.9846374961484563 -0.09100775149827307 0.015362503851543741 0.09100775149827306
1.5844062710560706E8 0.015651603897946755 0.09230685692182604 0.9843483961020533 -0.09230685692182604 0.9843483961020533 -0.09230685692182604 0.015651603897946755 0.09230685692182604
1.6083171857529896E8 0.015948242087360665 0.09362446282804932 0.9840517579126394 -0.09362446282804933 0.9840517579126394 -0.09362446282804933 0.015948242087360665 0.09362446282804932
1.632588949716973E8 0.016252644753989586 0.0949608010243521 0.9837473552460104 -0.0949608010243521 0.9837473552460104 -0.0949608010243521 0.016252644753989586 0.0949608010243521
1.6572270086699936E8 0.016565044324451765 0.09631610423584548 0.9834349556755484 -0.09631610423584548 0.9834349556755484 -0.09631610423584548 0.016565044324451765 0.09631610423584548
1.6822368905176118E8 0.016885679440184567 0.09769060603943376 0.9831143205598154 -0.09769060603943376 0.9831143205598154 -0.09769060603943376 0.016885679440184567 0.09769060603943376
1.7076242065892437E8 0.017214795082274977 0.09908454079518676 0.982785204917725 -0.09908454079518678 0.982785204917725 -0.09908454079518678 0.017214795082274977 0.09908454079518676
1.7333946528971428E8 0.017552642698758426 0.1004981435748638 0.9824473573012416 -0.1004981435748638 0.9824473573012416 -0.1004981435748638 0.017552642698758426 0.1004981435748638
1.7595540114143828E8 0.017899480334427998 0.10193165008746015 0.982100519665572 -0.10193165008746015 0.982100519665572 -0.10193165008746015 0.017899480334427998 0.10193165008746015
1.786108151372127E8 0.018255572763193853 0.103385296601642 0.9817444272368061 -0.10338529660164203 0.9817444272368061 -0.10338529660164203 0.018255572763193853 0.103385296601642
1.8130630305764765E8 0.018621191623031386 0.10485931986493294 0.9813788083769688 -0.10485931986493296 0.9813788083769688 -0.10485931986493296 0.018621191623031386 0.10485931986493294
1.840424696745189E8 0.01899661555355577 0.10635395701951182 0.9810033844464442 -0.10635395701951182 0.9810033844464442 -0.10635395701951182 0.01899661555355577 0.10635395701951182
1.8681992888645732E8 0.01938213033625903 0.10786944551447941 0.9806178696637411 -0.10786944551447941 0.9806178696637411 -0.10786944551447941 0.01938213033625903 0.10786944551447941
1.8963930385668582E8 0.01977802903744542 0.10940602301444621 0.9802219709625544 -0.10940602301444621 0.9802219709625544 -0.10940602301444621 0.01977802903744542 0.10940602301444621
1.92501227152835E8 0.02018461215389993 0.11096392730429105 0.9798153878461001 -0.11096392730429105 0.9798153878461001 -0.11096392730429105 0.02018461215389993 0.11096392730429105
1.9540634088886917E8 0.020602187761324636 0.11254339618993592 0.9793978122386754 -0.11254339618993593 0.9793978122386754 -0.11254339618993593 0.020602187761324636 0.11254339618993592
1.983552968691535E8 0.021031071665577297 0.11414466739497828 0.9789689283344224 -0.11414466739497826 0.9789689283344224 -0.11414466739497826 0.021031071665577297 0.11414466739497828
2.0134875673469606E8 0.021471587556746927 0.1157679784530181 0.978528412443253 -0.11576797845301809 0.978528412443253 -0.11576797845301809 0.021471587556746927 0.1157679784530181
2.0438739211159652E8 0.021924067166100736 0.11741356659551026 0.9780759328338993 -0.11741356659551024 0.9780759328338993 -0.11741356659551024 0.021924067166100736 0.11741356659551026
2.074718847617352E8 0.022388850425937742 0.1190816686349691 0.9776111495740623 -0.1190816686349691 0.9776111495740623 -0.1190816686349691 0.022388850425937742 0.1190816686349691
2.106029267357361E8 0.022866285632385006 0.12077252084334669 0.9771337143676152 -0.12077252084334669 0.9771337143676152 -0.12077252084334669 0.022866285632385006 0.12077252084334669
2.1378122052823865E8 0.02335672961117222 0.12248635882539612 0.9766432703888279 -0.12248635882539612 0.9766432703888279 -0.12248635882539612 0.02335672961117222 0.12248635882539612
2.1700747923551247E8 0.023860547886422452 0.12422341738682953 0.9761394521135776 -0.12422341738682953 0.9761394521135776 -0.12422341738682953 0.023860547886422452 0.12422341738682953
2.2028242671545094E8 0.024378114852496583 0.12598393039706823 0.9756218851475035 -0.12598393039706823 0.9756218851475035 -0.12598393039706823 0.024378114852496583 0.12598393039706823
2.23606797749979E8 0.024909813948930007 0.12776813064637554 0.97509018605107 -0.12776813064637554 0.97509018605107 -0.12776813064637554 0.024909813948930007 0.12776813064637554
2.2698133820991236E8 0.02545603783850161 0.12957624969715506 0.9745439621614982 -0.12957624969715503 0.9745439621614982 -0.12957624969715503 0.02545603783850161 0.12957624969715506
2.3040680522230446E8 0.026017188588474655 0.13140851772918427 0.9739828114115254 -0.13140851772918427 0.9739828114115254 -0.13140851772918427 0.026017188588474655 0.13140851772918427
2.338839673403185E8 0.02659367785505018 0.13326516337854383 0.9734063221449499 -0.13326516337854383 0.9734063221449499 -0.13326516337854383 0.02659367785505018 0.13326516337854383
2.37413604715664E8 0.027185927071073864 0.13514641356999155 0.9728140729289262 -0.13514641356999155 0.9728140729289262 -0.13514641356999155 0.027185927071073864 0.13514641356999155
2.4099650927363476E8 0.027794367637036924 0.13705249334251596 0.9722056323629631 -0.13705249334251596 0.9722056323629631 -0.13705249334251596 0.027794367637036924 0.13705249334251596
2.446334848907889E8 0.028419441115411184 0.1389836256677912 0.9715805588845888 -0.1389836256677912 0.9715805588845888 -0.1389836256677912 0.028419441115411184 0.1389836256677912
2.4832534757531032E8 0.029061599428356705 0.14094003126123772 0.9709384005716432 -0.14094003126123772 0.9709384005716432 -0.14094003126123772 0.029061599428356705 0.14094003126123772
