!Murata Part Number: LQG15HN5N1S02
!These Parameters are Measured in Series Mode Connection
!       o--[Z]--o
!Port1              Port2
!       o-------o
!
!Freq. Start=50[MHz] Stop=20[GHz], 401[Steps]
# Hz S RI R 50
!Freq.(Hz) S11(Real) S11(Imag) S21(Real) S21(Imag) S12(Real) S12(Imag) S22(Real) S22(Imag)
5.0E7 0.002269750477707491 0.015308894627088133 0.9977302495222926 -0.015308894627088135 0.9977302495222926 -0.015308894627088135 0.002269750477707491 0.015308894627088133
5.0754570186123446E7 0.0022897000404059316 0.01553069546729201 0.997710299959594 -0.015530695467292013 0.997710299959594 -0.015530695467292013 0.0022897000404059316 0.01553069546729201
5.152052789556263E7 0.002310034944209315 0.015755646318423504 0.9976899650557906 -0.015755646318423504 0.9976899650557906 -0.015755646318423504 0.002310034944209315 0.015755646318423504
5.229804498202928E7 0.0023307607430296047 0.01598379061307283 0.9976692392569705 -0.01598379061307283 0.9976692392569705 -0.01598379061307283 0.0023307607430296047 0.01598379061307283
5.308729589274893E7 0.002351882988351701 0.01621517247753293 0.9976481170116482 -0.01621517247753293 0.9976481170116482 -0.01621517247753293 0.002351882988351701 0.01621517247753293
5.388845770760058E7 0.002373407231741818 0.016449836750878497 0.9976265927682583 -0.016449836750878497 0.9976265927682583 -0.016449836750878497 0.002373407231741818 0.016449836750878497
5.470171017884717E7 0.0023953390279602194 0.01668782900447326 0.9976046609720396 -0.01668782900447326 0.9976046609720396 -0.01668782900447326 0.0023953390279602194 0.01668782900447326
5.5527235771465644E7 0.002417683938708865 0.016929195561885203 0.9975823160612911 -0.0169291955618852 0.9975823160612911 -0.0169291955618852 0.002417683938708865 0.016929195561885203
5.6365219704085544E7 0.0024404475370437616 0.01717398351918715 0.9975595524629564 -0.01717398351918715 0.9975595524629564 -0.01717398351918715 0.0024404475370437616 0.01717398351918715
5.721584999054556E7 0.002463635412480811 0.017422240765617877 0.9975363645875193 -0.017422240765617877 0.9975363645875193 -0.017422240765617877 0.002463635412480811 0.017422240765617877
5.807931748207712E7 0.0024872531768227596 0.01767401600457676 0.9975127468231771 -0.01767401600457676 0.9975127468231771 -0.01767401600457676 0.0024872531768227596 0.01767401600457676
5.8955815910124585E7 0.002511306470733499 0.017929358774922764 0.9974886935292666 -0.017929358774922764 0.9974886935292666 -0.017929358774922764 0.002511306470733499 0.017929358774922764
5.984554192981184E7 0.0025358009710844047 0.018188319472546666 0.9974641990289155 -0.018188319472546663 0.9974641990289155 -0.018188319472546663 0.0025358009710844047 0.018188319472546666
6.074869516406457E7 0.0025607423990956224 0.01845094937218335 0.9974392576009046 -0.01845094937218335 0.9974392576009046 -0.01845094937218335 0.0025607423990956224 0.01845094937218335
6.166547824839868E7 0.0025861365292932327 0.01871730064942902 0.9974138634707068 -0.01871730064942902 0.9974138634707068 -0.01871730064942902 0.0025861365292932327 0.01871730064942902
6.2596096876384385E7 0.0026119891993011853 0.018987426402926815 0.9973880108006986 -0.018987426402926815 0.9973880108006986 -0.018987426402926815 0.0026119891993011853 0.018987426402926815
6.354075984579668E7 0.0026383063204844692 0.019261380676682448 0.9973616936795155 -0.019261380676682448 0.9973616936795155 -0.019261380676682448 0.0026383063204844692 0.019261380676682448
6.449967910546205E7 0.002665093889457597 0.019539218482470058 0.9973349061105423 -0.019539218482470058 0.9973349061105423 -0.019539218482470058 0.002665093889457597 0.019539218482470058
6.547306980281226E7 0.0026923580004698717 0.019820995822287763 0.9973076419995301 -0.019820995822287767 0.9973076419995301 -0.019820995822287767 0.0026923580004698717 0.019820995822287763
6.646115033215589E7 0.002720104858676059 0.020106769710820562 0.997279895141324 -0.020106769710820566 0.997279895141324 -0.020106769710820566 0.002720104858676059 0.020106769710820562
6.746414238367817E7 0.0027483407942983634 0.02039659819786831 0.9972516592057016 -0.02039659819786831 0.9972516592057016 -0.02039659819786831 0.0027483407942983634 0.02039659819786831
6.848227099318038E7 0.002777072277682549 0.02069054039069552 0.9972229277223172 -0.02069054039069552 0.9972229277223172 -0.02069054039069552 0.002777072277682549 0.02069054039069552
6.951576459256999E7 0.002806305935248032 0.020988656476259436 0.9971936940647519 -0.020988656476259436 0.9971936940647519 -0.020988656476259436 0.002806305935248032 0.020988656476259436
7.056485506111258E7 0.0028360485663286726 0.021291007743272916 0.9971639514336713 -0.02129100774327292 0.9971639514336713 -0.02129100774327292 0.0028360485663286726 0.021291007743272916
7.162977777745734E7 0.0028663071608979636 0.02159765660405908 0.997133692839102 -0.02159765660405908 0.997133692839102 -0.02159765660405908 0.0028663071608979636 0.02159765660405908
7.271077167244768E7 0.0028970889181690316 0.02190866661615477 0.9971029110818308 -0.02190866661615477 0.9971029110818308 -0.02190866661615477 0.0028970889181690316 0.02190866661615477
7.380807928272885E7 0.002928401266056951 0.02222410250362109 0.9970715987339431 -0.022224102503621092 0.9970715987339431 -0.022224102503621092 0.002928401266056951 0.02222410250362109
7.492194680516452E7 0.0029602518814876777 0.02254403017802013 0.9970397481185121 -0.02254403017802013 0.9970397481185121 -0.02254403017802013 0.0029602518814876777 0.02254403017802013
7.60526241520746E7 0.0029926487115350515 0.02286851675901845 0.9970073512884651 -0.02286851675901845 0.9970073512884651 -0.02286851675901845 0.0029926487115350515 0.02286851675901845
7.720036500730675E7 0.003025599995364376 0.02319763059457943 0.9969744000046354 -0.02319763059457943 0.9969744000046354 -0.02319763059457943 0.003025599995364376 0.02319763059457943
7.836542688315398E7 0.0030591142869583975 0.02353144128070866 0.9969408857130415 -0.02353144128070866 0.9969408857130415 -0.02353144128070866 0.0030591142869583975 0.02353144128070866
7.954807117813127E7 0.003093200478598903 0.023870019680718384 0.9969067995214012 -0.02387001968071838 0.9969067995214012 -0.02387001968071838 0.003093200478598903 0.023870019680718384
8.074856323562416E7 0.0031278678250748065 0.024213437943979798 0.9968721321749253 -0.024213437943979798 0.9968721321749253 -0.024213437943979798 0.0031278678250748065 0.024213437943979798
8.196717240342227E7 0.003163125968585314 0.024561769524134164 0.9968368740314145 -0.024561769524134164 0.9968368740314145 -0.024561769524134164 0.003163125968585314 0.024561769524134164
8.320417209415154E7 0.0031989849643049785 0.024915089196737118 0.996801015035695 -0.024915089196737118 0.996801015035695 -0.024915089196737118 0.0031989849643049785 0.024915089196737118
8.445983984661816E7 0.0032354553065754746 0.025273473076312617 0.9967645446934245 -0.025273473076312617 0.9967645446934245 -0.025273473076312617 0.0032354553065754746 0.025273473076312617
8.573445738807854E7 0.0032725479556878143 0.02563699863279731 0.9967274520443122 -0.02563699863279731 0.9967274520443122 -0.02563699863279731 0.0032725479556878143 0.02563699863279731
8.702831069744885E7 0.0033102743652172538 0.026005744707358287 0.9966897256347828 -0.026005744707358287 0.9966897256347828 -0.026005744707358287 0.0033102743652172538 0.026005744707358287
8.834169006946853E7 0.003348646509872514 0.02637979152757144 0.9966513534901276 -0.02637979152757144 0.9966513534901276 -0.02637979152757144 0.003348646509872514 0.02637979152757144
8.96748901798321E7 0.0033876769138202166 0.026759220721950337 0.9966123230861796 -0.026759220721950337 0.9966123230861796 -0.026759220721950337 0.0033876769138202166 0.026759220721950337
9.1028210151304E7 0.003427378679445347 0.027144115333820072 0.9965726213205547 -0.027144115333820072 0.9965726213205547 -0.027144115333820072 0.003427378679445347 0.027144115333820072
9.240195362083109E7 0.00346776551650846 0.027534559834532894 0.9965322344834916 -0.027534559834532894 0.9965322344834916 -0.027534559834532894 0.00346776551650846 0.027534559834532894
9.379642880766791E7 0.0035088517716608952 0.027930640136026936 0.996491148228339 -0.027930640136026936 0.996491148228339 -0.027930640136026936 0.0035088517716608952 0.027930640136026936
9.521194858253023E7 0.003550652458279848 0.02833244360273239 0.9964493475417202 -0.02833244360273239 0.9964493475417202 -0.02833244360273239 0.003550652458279848 0.02833244360273239
9.664883053779216E7 0.003593183286586302 0.028740059062833116 0.9964068167134138 -0.028740059062833116 0.9964068167134138 -0.028740059062833116 0.003593183286586302 0.028740059062833116
9.810739705874248E7 0.0036364606940099617 0.029153576818894716 0.9963635393059901 -0.029153576818894723 0.9963635393059901 -0.029153576818894723 0.0036364606940099617 0.029153576818894716
9.958797539591652E7 0.003680501875767144 0.029573088657873767 0.9963194981242329 -0.029573088657873767 0.9963194981242329 -0.029573088657873767 0.003680501875767144 0.029573088657873767
1.0109089773851961E8 0.003725324815619289 0.029998687860525387 0.9962746751843807 -0.029998687860525387 0.9962746751843807 -0.029998687860525387 0.003725324815619289 0.029998687860525387
1.0261650128895843E8 0.0037709483167820677 0.03043046921022996 0.996229051683218 -0.030430469210229967 0.996229051683218 -0.030430469210229967 0.0037709483167820677 0.03043046921022996
1.0416512833849736E8 0.0038173920329572803 0.030868529001261632 0.9961826079670427 -0.030868529001261632 0.9961826079670427 -0.030868529001261632 0.0038173920329572803 0.030868529001261632
1.0573712634405641E8 0.0038646764994625235 0.03131296504652445 0.9961353235005374 -0.03131296504652445 0.9961353235005374 -0.03131296504652445 0.0038646764994625235 0.03131296504652445
1.0733284800616828E8 0.003912823164436269 0.03176387668478375 0.9960871768355639 -0.03176387668478375 0.9960871768355639 -0.03176387668478375 0.003912823164436269 0.03176387668478375
1.0895265134811176E8 0.003961854420099044 0.03222136478742258 0.9960381455799009 -0.03222136478742258 0.9960381455799009 -0.03222136478742258 0.003961854420099044 0.03222136478742258
1.1059689979623953E8 0.004011793634054539 0.03268553176475475 0.9959882063659455 -0.03268553176475475 0.9959882063659455 -0.03268553176475475 0.004011793634054539 0.03268553176475475
1.1226596226151802E8 0.004062665180617676 0.03315648157192724 0.9959373348193824 -0.03315648157192724 0.9959373348193824 -0.03315648157192724 0.004062665180617676 0.03315648157192724
1.1396021322229806E8 0.004114494472160015 0.03363431971444624 0.9958855055278399 -0.03363431971444624 0.9958855055278399 -0.03363431971444624 0.004114494472160015 0.03363431971444624
1.1568003280833441E8 0.004167307990466327 0.03411915325336169 0.9958326920095336 -0.0341191532533617 0.9958326920095336 -0.0341191532533617 0.004167307990466327 0.03411915325336169
1.1742580688607343E8 0.0042211333180996015 0.03461109081014619 0.9957788666819004 -0.03461109081014619 0.9957788666819004 -0.03461109081014619 0.0042211333180996015 0.03461109081014619
1.1919792714522783E8 0.004275999169775091 0.03511024257130375 0.9957240008302248 -0.03511024257130375 0.9957240008302248 -0.03511024257130375 0.004275999169775091 0.03511024257130375
1.2099679118665792E8 0.004331935423747685 0.035616720292744805 0.9956680645762522 -0.03561672029274481 0.9956680645762522 -0.03561672029274481 0.004331935423747685 0.035616720292744805
1.2282280261157903E8 0.00438897315322012 0.03613063730396324 0.9956110268467798 -0.03613063730396324 0.9956110268467798 -0.03613063730396324 0.00438897315322012 0.03613063730396324
1.2467637111211549E8 0.004447144657782929 0.03665210851205033 0.9955528553422169 -0.03665210851205033 0.9955528553422169 -0.03665210851205033 0.004447144657782929 0.03665210851205033
1.265579125632208E8 0.0045064834949004005 0.03718125040558087 0.9954935165050995 -0.03718125040558087 0.9954935165050995 -0.03718125040558087 0.0045064834949004005 0.03718125040558087
1.284678491159853E8 0.004567024511459864 0.03771818105840459 0.99543297548854 -0.03771818105840459 0.99543297548854 -0.03771818105840459 0.004567024511459864 0.03771818105840459
1.3040660929235186E8 0.0046288038754047885 0.038263020133375736 0.9953711961245952 -0.038263020133375736 0.9953711961245952 -0.038263020133375736 0.0046288038754047885 0.038263020133375736
1.3237462808126101E8 0.004691859107474968 0.03881588888605176 0.995308140892525 -0.03881588888605176 0.995308140892525 -0.03881588888605176 0.004691859107474968 0.03881588888605176
1.3437234703624701E8 0.0047562291130800625 0.039376910168391004 0.99524377088692 -0.039376910168391004 0.99524377088692 -0.039376910168391004 0.0047562291130800625 0.039376910168391004
1.364002143745067E8 0.004821954214335089 0.0399462084324771 0.9951780457856648 -0.03994620843247711 0.9951780457856648 -0.03994620843247711 0.004821954214335089 0.0399462084324771
1.3845868507746372E8 0.004889076182289163 0.04052390973429632 0.9951109238177107 -0.04052390973429632 0.9951109238177107 -0.04052390973429632 0.004889076182289163 0.04052390973429632
1.405482209928499E8 0.004957638269380958 0.041110141737592074 0.995042361730619 -0.041110141737592074 0.995042361730619 -0.041110141737592074 0.004957638269380958 0.041110141737592074
1.426692909383278E8 0.005027685242156399 0.04170503371781861 0.9949723147578434 -0.04170503371781861 0.9949723147578434 -0.04170503371781861 0.005027685242156399 0.04170503371781861
1.4482237080667645E8 0.0050992634142861685 0.042308716566214134 0.994900736585714 -0.04230871656621413 0.994900736585714 -0.04230871656621413 0.0050992634142861685 0.042308716566214134
1.4700794367256513E8 0.005172420679922174 0.04292132279401077 0.9948275793200776 -0.042921322794010765 0.9948275793200776 -0.042921322794010765 0.005172420679922174 0.04292132279401077
1.492264999009378E8 0.005247206547433835 0.04354298653679751 0.9947527934525662 -0.04354298653679751 0.9947527934525662 -0.04354298653679751 0.005247206547433835 0.04354298653679751
1.5147853725703382E8 0.00532367217356634 0.04417384355904912 0.9946763278264337 -0.04417384355904912 0.9946763278264337 -0.04417384355904912 0.00532367217356634 0.04417384355904912
1.5376456101806876E8 0.0054018703980642626 0.04481403125883227 0.9945981296019359 -0.04481403125883227 0.9945981296019359 -0.04481403125883227 0.0054018703980642626 0.04481403125883227
1.5608508408660066E8 0.005481855778805097 0.04546368867269812 0.9945181442211949 -0.04546368867269812 0.9945181442211949 -0.04546368867269812 0.005481855778805097 0.04546368867269812
1.5844062710560706E8 0.0055636846274879454 0.046122956480767544 0.9944363153725122 -0.046122956480767544 0.9944363153725122 -0.046122956480767544 0.0055636846274879454 0.046122956480767544
1.6083171857529896E8 0.005647415045923681 0.046791977012014124 0.9943525849540763 -0.04679197701201413 0.9943525849540763 -0.04679197701201413 0.005647415045923681 0.046791977012014124
1.632588949716973E8 0.005733106962973275 0.04747089424974722 0.9942668930370269 -0.04747089424974722 0.9942668930370269 -0.04747089424974722 0.005733106962973275 0.04747089424974722
1.6572270086699936E8 0.005820822172181753 0.04815985383729576 0.9941791778278181 -0.04815985383729576 0.9941791778278181 -0.04815985383729576 0.005820822172181753 0.04815985383729576
1.6822368905176118E8 0.005910624370155497 0.04885900308389126 0.9940893756298448 -0.04885900308389127 0.9940893756298448 -0.04885900308389127 0.005910624370155497 0.04885900308389126
1.7076242065892437E8 0.006002579195731138 0.04956849097074709 0.993997420804269 -0.04956849097074709 0.993997420804269 -0.04956849097074709 0.006002579195731138 0.04956849097074709
1.7333946528971428E8 0.006096754269984452 0.05028846815732881 0.9939032457300155 -0.05028846815732881 0.9939032457300155 -0.05028846815732881 0.006096754269984452 0.05028846815732881
1.7595540114143828E8 0.00619321923712805 0.05101908698780935 0.993806780762872 -0.05101908698780935 0.993806780762872 -0.05101908698780935 0.00619321923712805 0.05101908698780935
1.786108151372127E8 0.006292045806346749 0.051760501497700624 0.9937079541936533 -0.051760501497700624 0.9937079541936533 -0.051760501497700624 0.006292045806346749 0.051760501497700624
1.8130630305764765E8 0.006393307794619851 0.05251286742065245 0.9936066922053801 -0.05251286742065245 0.9936066922053801 -0.05251286742065245 0.006393307794619851 0.05251286742065245
1.840424696745189E8 0.006497081170579663 0.053276342195407875 0.9935029188294204 -0.05327634219540788 0.9935029188294204 -0.05327634219540788 0.006497081170579663 0.053276342195407875
1.8681992888645732E8 0.006603444099455901 0.05405108497290288 0.9933965559005441 -0.05405108497290288 0.9933965559005441 -0.05405108497290288 0.006603444099455901 0.05405108497290288
1.8963930385668582E8 0.00671247698915587 0.05483725662349769 0.9932875230108441 -0.05483725662349769 0.9932875230108441 -0.05483725662349769 0.00671247698915587 0.05483725662349769
1.92501227152835E8 0.006824262537530669 0.05563501974432527 0.9931757374624692 -0.055635019744325255 0.9931757374624692 -0.055635019744325255 0.006824262537530669 0.05563501974432527
1.9540634088886917E8 0.006938885780878061 0.05644453866674275 0.993061114219122 -0.05644453866674275 0.993061114219122 -0.05644453866674275 0.006938885780878061 0.05644453866674275
1.983552968691535E8 0.007056434143733108 0.05726597946386912 0.9929435658562669 -0.057265979463869104 0.9929435658562669 -0.057265979463869104 0.007056434143733108 0.05726597946386912
2.0134875673469606E8 0.007176997489998504 0.0580995099581939 0.9928230025100016 -0.0580995099581939 0.9928230025100016 -0.0580995099581939 0.007176997489998504 0.0580995099581939
2.0438739211159652E8 0.00730066817546683 0.058945299729238586 0.9926993318245333 -0.058945299729238586 0.9926993318245333 -0.058945299729238586 0.00730066817546683 0.058945299729238586
2.074718847617352E8 0.007427541101788381 0.059803520121253825 0.9925724588982118 -0.05980352012125383 0.9925724588982118 -0.05980352012125383 0.007427541101788381 0.059803520121253825
2.106029267357361E8 0.007557713771938732 0.0606743442509338 0.9924422862280613 -0.0606743442509338 0.9924422862280613 -0.0606743442509338 0.007557713771938732 0.0606743442509338
2.1378122052823865E8 0.007691286347241733 0.06155794701512871 0.9923087136527581 -0.06155794701512872 0.9923087136527581 -0.06155794701512872 0.007691286347241733 0.06155794701512871
2.1700747923551247E8 0.00782836170600484 0.06245450509853656 0.9921716382939951 -0.06245450509853656 0.9921716382939951 -0.06245450509853656 0.00782836170600484 0.06245450509853656
2.2028242671545094E8 0.007969045503825257 0.06336419698135327 0.9920309544961747 -0.06336419698135327 0.9920309544961747 -0.06336419698135327 0.007969045503825257 0.06336419698135327
2.23606797749979E8 0.00811344623562707 0.06428720294686141 0.991886553764373 -0.06428720294686141 0.991886553764373 -0.06428720294686141 0.00811344623562707 0.06428720294686141
2.2698133820991236E8 0.008261675299491731 0.06522370508893602 0.9917383247005083 -0.06522370508893602 0.9917383247005083 -0.06522370508893602 0.008261675299491731 0.06522370508893602
2.3040680522230446E8 0.008413847062345946 0.06617388731944503 0.9915861529376541 -0.06617388731944503 0.9915861529376541 -0.06617388731944503 0.008413847062345946 0.06617388731944503
2.338839673403185E8 0.008570078927573992 0.06713793537552218 0.991429921072426 -0.06713793537552218 0.991429921072426 -0.06713793537552218 0.008570078927573992 0.06713793537552218
2.37413604715664E8 0.008730491404623614 0.06811603682668839 0.9912695085953764 -0.06811603682668839 0.9912695085953764 -0.06811603682668839 0.008730491404623614 0.06811603682668839
2.4099650927363476E8 0.008895208180677773 0.06910838108179648 0.9911047918193223 -0.06910838108179648 0.9911047918193223 -0.06910838108179648 0.008895208180677773 0.06910838108179648
2.446334848907889E8 0.009064356194467403 0.0701151593957735 0.9909356438055325 -0.0701151593957735 0.9909356438055325 -0.0701151593957735 0.009064356194467403 0.0701151593957735
