!Murata Part Number: LQG15HN2N4C02
!These Parameters are Measured in Series Mode Connection
!       o--[Z]--o
!Port1              Port2
!       o-------o
!
!Freq. Start=50[MHz] Stop=20[GHz], 401[Steps]
# Hz S RI R 50
!Freq.(Hz) S11(Real) S11(Imag) S21(Real) S21(Imag) S12(Real) S12(Imag) S22(Real) S22(Imag)
5.0E7 7.96551367890685E-4 0.006911631939037586 0.9992034486321095 -0.006911631939037586 0.9992034486321095 -0.006911631939037586 7.96551367890685E-4 0.006911631939037586
5.0754570186123446E7 8.038597300225065E-4 0.007011400601817212 0.9991961402699775 -0.0070114006018172125 0.9991961402699775 -0.0070114006018172125 8.038597300225065E-4 0.007011400601817212
5.152052789556263E7 8.112747053801951E-4 0.0071125995684621045 0.9991887252946196 -0.0071125995684621045 0.9991887252946196 -0.0071125995684621045 8.112747053801951E-4 0.0071125995684621045
5.229804498202928E7 8.187976072070401E-4 0.007215249430403807 0.9991812023927928 -0.007215249430403807 0.9991812023927928 -0.007215249430403807 8.187976072070401E-4 0.007215249430403807
5.308729589274893E7 8.264297443711108E-4 0.007319371082697945 0.999173570255629 -0.007319371082697945 0.999173570255629 -0.007319371082697945 8.264297443711108E-4 0.007319371082697945
5.388845770760058E7 8.341724202667773E-4 0.007424985730766804 0.9991658275797333 -0.007424985730766803 0.9991658275797333 -0.007424985730766803 8.341724202667773E-4 0.007424985730766804
5.470171017884717E7 8.420269318301297E-4 0.007532114897397764 0.9991579730681699 -0.007532114897397764 0.9991579730681699 -0.007532114897397764 8.420269318301297E-4 0.007532114897397764
5.5527235771465644E7 8.499945686833193E-4 0.007640780429995843 0.9991500054313167 -0.007640780429995843 0.9991500054313167 -0.007640780429995843 8.499945686833193E-4 0.007640780429995843
5.6365219704085544E7 8.580766124228977E-4 0.0077510045080878606 0.9991419233875772 -0.0077510045080878606 0.9991419233875772 -0.0077510045080878606 8.580766124228977E-4 0.0077510045080878606
5.721584999054556E7 8.662743360671677E-4 0.007862809651074372 0.9991337256639329 -0.007862809651074372 0.9991337256639329 -0.007862809651074372 8.662743360671677E-4 0.007862809651074372
5.807931748207712E7 8.745890036774599E-4 0.007976218726224725 0.9991254109963225 -0.007976218726224725 0.9991254109963225 -0.007976218726224725 8.745890036774599E-4 0.007976218726224725
5.8955815910124585E7 8.830218701680563E-4 0.008091254956909436 0.9991169781298318 -0.008091254956909436 0.9991169781298318 -0.008091254956909436 8.830218701680563E-4 0.008091254956909436
5.984554192981184E7 8.915741813191653E-4 0.008207941931062933 0.9991084258186809 -0.008207941931062933 0.9991084258186809 -0.008207941931062933 8.915741813191653E-4 0.008207941931062933
6.074869516406457E7 9.002471740070388E-4 0.008326303609868836 0.9990997528259932 -0.008326303609868836 0.9990997528259932 -0.008326303609868836 9.002471740070388E-4 0.008326303609868836
6.166547824839868E7 9.090420766648265E-4 0.008446364336658801 0.9990909579233354 -0.008446364336658803 0.9990909579233354 -0.008446364336658803 9.090420766648265E-4 0.008446364336658801
6.2596096876384385E7 9.179601099872586E-4 0.008568148846014947 0.9990820398900129 -0.008568148846014947 0.9990820398900129 -0.008568148846014947 9.179601099872586E-4 0.008568148846014947
6.354075984579668E7 9.270024878915995E-4 0.008691682273064941 0.9990729975121084 -0.00869168227306494 0.9990729975121084 -0.00869168227306494 9.270024878915995E-4 0.008691682273064941
6.449967910546205E7 9.3617041874664E-4 0.00881699016295785 0.9990638295812534 -0.00881699016295785 0.9990638295812534 -0.00881699016295785 9.3617041874664E-4 0.00881699016295785
6.547306980281226E7 9.454651068806746E-4 0.008944098480507937 0.9990545348931192 -0.008944098480507935 0.9990545348931192 -0.008944098480507935 9.454651068806746E-4 0.008944098480507937
6.646115033215589E7 9.548877543785755E-4 0.009073033619992836 0.9990451122456214 -0.009073033619992836 0.9990451122456214 -0.009073033619992836 9.548877543785755E-4 0.009073033619992836
6.746414238367817E7 9.644395631770986E-4 0.009203822415091623 0.999035560436823 -0.009203822415091623 0.999035560436823 -0.009203822415091623 9.644395631770986E-4 0.009203822415091623
6.848227099318038E7 9.741217374665536E-4 0.009336492148947603 0.9990258782625333 -0.009336492148947603 0.9990258782625333 -0.009336492148947603 9.741217374665536E-4 0.009336492148947603
6.951576459256999E7 9.839354864058937E-4 0.009471070564340184 0.9990160645135941 -0.009471070564340186 0.9990160645135941 -0.009471070564340186 9.839354864058937E-4 0.009471070564340184
7.056485506111258E7 9.938820271570854E-4 0.009607585873949257 0.9990061179728429 -0.009607585873949255 0.9990061179728429 -0.009607585873949255 9.938820271570854E-4 0.009607585873949257
7.162977777745734E7 0.0010039625882434782 0.009746066770695484 0.9989960374117564 -0.009746066770695484 0.9989960374117564 -0.009746066770695484 0.0010039625882434782 0.009746066770695484
7.271077167244768E7 0.001014178413235555 0.009886542438139146 0.9989858215867644 -0.009886542438139146 0.9989858215867644 -0.009886542438139146 0.001014178413235555 0.009886542438139146
7.380807928272885E7 0.001024530764766229 0.010029042560920126 0.9989754692352337 -0.010029042560920126 0.9989754692352337 -0.010029042560920126 0.001024530764766229 0.010029042560920126
7.492194680516452E7 0.0010350209288764321 0.010173597335221406 0.9989649790711237 -0.010173597335221406 0.9989649790711237 -0.010173597335221406 0.0010350209288764321 0.010173597335221406
7.60526241520746E7 0.0010456502196904561 0.010320237479238308 0.9989543497803096 -0.010320237479238308 0.9989543497803096 -0.010320237479238308 0.0010456502196904561 0.010320237479238308
7.720036500730675E7 0.001056419984419084 0.010468994243635952 0.9989435800155809 -0.010468994243635952 0.9989435800155809 -0.010468994243635952 0.001056419984419084 0.010468994243635952
7.836542688315398E7 0.0010673316086871785 0.01061989942197726 0.998932668391313 -0.01061989942197726 0.998932668391313 -0.01061989942197726 0.0010673316086871785 0.01061989942197726
7.954807117813127E7 0.0010783865221810436 0.010772985361104536 0.9989216134778189 -0.010772985361104536 0.9989216134778189 -0.010772985361104536 0.0010783865221810436 0.010772985361104536
8.074856323562416E7 0.0010895862046094809 0.010928284971457656 0.9989104137953906 -0.010928284971457657 0.9989104137953906 -0.010928284971457657 0.0010895862046094809 0.010928284971457656
8.196717240342227E7 0.001100932191971158 0.011085831737312722 0.9988990678080288 -0.01108583173731272 0.9988990678080288 -0.01108583173731272 0.001100932191971158 0.011085831737312722
8.320417209415154E7 0.0011124260831195988 0.011245659726925521 0.9988875739168804 -0.011245659726925521 0.9988875739168804 -0.011245659726925521 0.0011124260831195988 0.011245659726925521
8.445983984661816E7 0.0011240695466158597 0.01140780360256494 0.9988759304533841 -0.011407803602564938 0.9988759304533841 -0.011407803602564938 0.0011240695466158597 0.01140780360256494
8.573445738807854E7 0.0011358643278577846 0.011572298630422334 0.9988641356721419 -0.011572298630422334 0.9988641356721419 -0.011572298630422334 0.0011358643278577846 0.011572298630422334
8.702831069744885E7 0.0011478122564735854 0.011739180690383823 0.9988521877435266 -0.011739180690383823 0.9988521877435266 -0.011739180690383823 0.0011478122564735854 0.011739180690383823
8.834169006946853E7 0.0011599152539664911 0.01190848628565357 0.9988400847460335 -0.01190848628565357 0.9988400847460335 -0.01190848628565357 0.0011599152539664911 0.01190848628565357
8.96748901798321E7 0.0011721753415962453 0.012080252552217249 0.9988278246584038 -0.012080252552217249 0.9988278246584038 -0.012080252552217249 0.0011721753415962453 0.012080252552217249
9.1028210151304E7 0.0011845946484823663 0.012254517268136143 0.9988154053515177 -0.012254517268136141 0.9988154053515177 -0.012254517268136141 0.0011845946484823663 0.012254517268136143
9.240195362083109E7 0.0011971754199133716 0.012431318862663627 0.9988028245800866 -0.012431318862663625 0.9988028245800866 -0.012431318862663625 0.0011971754199133716 0.012431318862663627
9.379642880766791E7 0.0012099200258455045 0.012610696425177221 0.9987900799741546 -0.01261069642517722 0.9987900799741546 -0.01261069642517722 0.0012099200258455045 0.012610696425177221
9.521194858253023E7 0.001222830969574008 0.01279268971392079 0.998777169030426 -0.01279268971392079 0.998777169030426 -0.01279268971392079 0.001222830969574008 0.01279268971392079
9.664883053779216E7 0.0012359108965595688 0.012977339164552943 0.9987640891034404 -0.012977339164552942 0.9987640891034404 -0.012977339164552942 0.0012359108965595688 0.012977339164552943
9.810739705874248E7 0.0012491626033923331 0.013164685898499257 0.9987508373966077 -0.013164685898499257 0.9987508373966077 -0.013164685898499257 0.0012491626033923331 0.013164685898499257
9.958797539591652E7 0.0012625890468757038 0.013354771731107405 0.9987374109531242 -0.013354771731107402 0.9987374109531242 -0.013354771731107402 0.0012625890468757038 0.013354771731107405
1.0109089773851961E8 0.0012761933532121634 0.013547639179605941 0.9987238066467877 -0.013547639179605941 0.9987238066467877 -0.013547639179605941 0.0012761933532121634 0.013547639179605941
1.0261650128895843E8 0.0012899788272734568 0.01374333147086878 0.9987100211727266 -0.013743331470868777 0.9987100211727266 -0.013743331470868777 0.0012899788272734568 0.01374333147086878
1.0416512833849736E8 0.0013039489619377466 0.013941892548989317 0.9986960510380622 -0.013941892548989317 0.9986960510380622 -0.013941892548989317 0.0013039489619377466 0.013941892548989317
1.0573712634405641E8 0.0013181074474766965 0.014143367082669231 0.9986818925525234 -0.014143367082669235 0.9986818925525234 -0.014143367082669235 0.0013181074474766965 0.014143367082669231
1.0733284800616828E8 0.0013324581809759503 0.014347800472428732 0.9986675418190243 -0.014347800472428736 0.9986675418190243 -0.014347800472428736 0.0013324581809759503 0.014347800472428732
1.0895265134811176E8 0.0013470052757730945 0.014555238857646344 0.9986529947242268 -0.014555238857646344 0.9986529947242268 -0.014555238857646344 0.0013470052757730945 0.014555238857646344
1.1059689979623953E8 0.0013617530708978963 0.014765729123437661 0.9986382469291021 -0.014765729123437661 0.9986382469291021 -0.014765729123437661 0.0013617530708978963 0.014765729123437661
1.1226596226151802E8 0.0013767061405004417 0.014979318907383726 0.9986232938594997 -0.014979318907383726 0.9986232938594997 -0.014979318907383726 0.0013767061405004417 0.014979318907383726
1.1396021322229806E8 0.001391869303253737 0.01519605660612111 0.9986081306967464 -0.015196056606121106 0.9986081306967464 -0.015196056606121106 0.001391869303253737 0.01519605660612111
1.1568003280833441E8 0.001407247631718311 0.015415991381806497 0.9985927523682819 -0.015415991381806497 0.9985927523682819 -0.015415991381806497 0.001407247631718311 0.015415991381806497
1.1742580688607343E8 0.0014228464616574785 0.01563917316847009 0.9985771535383425 -0.01563917316847009 0.9985771535383425 -0.01563917316847009 0.0014228464616574785 0.01563917316847009
1.1919792714522783E8 0.0014386714012930614 0.01586565267827269 0.9985613285987068 -0.01586565267827269 0.9985613285987068 -0.01586565267827269 0.0014386714012930614 0.01586565267827269
1.2099679118665792E8 0.0014547283404925519 0.016095481407682157 0.9985452716595073 -0.016095481407682157 0.9985452716595073 -0.016095481407682157 0.0014547283404925519 0.016095481407682157
1.2282280261157903E8 0.0014710234598800265 0.016328711643586145 0.9985289765401202 -0.016328711643586145 0.9985289765401202 -0.016328711643586145 0.0014710234598800265 0.016328711643586145
1.2467637111211549E8 0.001487563239864322 0.016565396469357847 0.9985124367601355 -0.016565396469357847 0.9985124367601355 -0.016565396469357847 0.001487563239864322 0.016565396469357847
1.265579125632208E8 0.0015043544695793917 0.016805589770892804 0.9984956455304206 -0.016805589770892804 0.9984956455304206 -0.016805589770892804 0.0015043544695793917 0.016805589770892804
1.284678491159853E8 0.0015214042557330158 0.017049346242634513 0.998478595744267 -0.017049346242634513 0.998478595744267 -0.017049346242634513 0.0015214042557330158 0.017049346242634513
1.3040660929235186E8 0.0015387200313614494 0.017296721393607547 0.9984612799686386 -0.017296721393607547 0.9984612799686386 -0.017296721393607547 0.0015387200313614494 0.017296721393607547
1.3237462808126101E8 0.0015563095644888548 0.01754777155347648 0.9984436904355112 -0.017547771553476484 0.9984436904355112 -0.017547771553476484 0.0015563095644888548 0.01754777155347648
1.3437234703624701E8 0.001574180966691723 0.01780255387864945 0.9984258190333081 -0.01780255387864945 0.9984258190333081 -0.01780255387864945 0.001574180966691723 0.01780255387864945
1.364002143745067E8 0.0015923427015697802 0.018061126358444955 0.9984076572984301 -0.018061126358444955 0.9984076572984301 -0.018061126358444955 0.0015923427015697802 0.018061126358444955
1.3845868507746372E8 0.0016108035931260989 0.018323547821340543 0.998389196406874 -0.018323547821340543 0.998389196406874 -0.018323547821340543 0.0016108035931260989 0.018323547821340543
1.405482209928499E8 0.0016295728340604042 0.01858987794132177 0.9983704271659395 -0.01858987794132177 0.9983704271659395 -0.01858987794132177 0.0016295728340604042 0.01858987794132177
1.426692909383278E8 0.0016486599939806914 0.01886017724434968 0.9983513400060193 -0.01886017724434968 0.9983513400060193 -0.01886017724434968 0.0016486599939806914 0.01886017724434968
1.4482237080667645E8 0.0016680750275394041 0.01913450711496449 0.9983319249724605 -0.01913450711496449 0.9983319249724605 -0.01913450711496449 0.0016680750275394041 0.01913450711496449
1.4700794367256513E8 0.0016878282825015104 0.01941292980304327 0.9983121717174985 -0.01941292980304327 0.9983121717174985 -0.01941292980304327 0.0016878282825015104 0.01941292980304327
1.492264999009378E8 0.0017079305077527817 0.019695508430728474 0.9982920694922471 -0.019695508430728474 0.9982920694922471 -0.019695508430728474 0.0017079305077527817 0.019695508430728474
1.5147853725703382E8 0.001728392861257509 0.019982306999543977 0.9982716071387426 -0.01998230699954398 0.9982716071387426 -0.01998230699954398 0.001728392861257509 0.019982306999543977
1.5376456101806876E8 0.0017492269179758253 0.020273390397714797 0.9982507730820243 -0.0202733903977148 0.9982507730820243 -0.0202733903977148 0.0017492269179758253 0.020273390397714797
1.5608508408660066E8 0.0017704446777515109 0.02056882440770604 0.9982295553222487 -0.02056882440770604 0.9982295553222487 -0.02056882440770604 0.0017704446777515109 0.02056882440770604
1.5844062710560706E8 0.0017920585731819704 0.020868675713996 0.9982079414268181 -0.020868675713996 0.9982079414268181 -0.020868675713996 0.0017920585731819704 0.020868675713996
1.6083171857529896E8 0.0018140814774826948 0.021173011911098136 0.9981859185225171 -0.021173011911098136 0.9981859185225171 -0.021173011911098136 0.0018140814774826948 0.021173011911098136
1.632588949716973E8 0.0018365267123591443 0.021481901511845494 0.9981634732876408 -0.021481901511845494 0.9981634732876408 -0.021481901511845494 0.0018365267123591443 0.021481901511845494
1.6572270086699936E8 0.0018594080558995204 0.021795413955951328 0.9981405919441005 -0.021795413955951328 0.9981405919441005 -0.021795413955951328 0.0018594080558995204 0.021795413955951328
1.6822368905176118E8 0.001882739750502354 0.022113619618858334 0.9981172602494975 -0.02211361961885833 0.9981172602494975 -0.02211361961885833 0.001882739750502354 0.022113619618858334
1.7076242065892437E8 0.0019065365108533224 0.022436589820889252 0.9980934634891466 -0.022436589820889252 0.9980934634891466 -0.022436589820889252 0.0019065365108533224 0.022436589820889252
1.7333946528971428E8 0.0019308135319659663 0.022764396836710183 0.998069186468034 -0.022764396836710183 0.998069186468034 -0.022764396836710183 0.0019308135319659663 0.022764396836710183
1.7595540114143828E8 0.00195558649730145 0.023097113905118427 0.9980444135026985 -0.02309711390511843 0.9980444135026985 -0.02309711390511843 0.00195558649730145 0.023097113905118427
1.786108151372127E8 0.0019808715869826556 0.023434815239165484 0.9980191284130174 -0.023434815239165487 0.9980191284130174 -0.023434815239165487 0.0019808715869826556 0.023434815239165484
1.8130630305764765E8 0.0020066854861182253 0.02377757603662586 0.9979933145138818 -0.023777576036625864 0.9979933145138818 -0.023777576036625864 0.0020066854861182253 0.02377757603662586
1.840424696745189E8 0.002033045393252388 0.024125472490822097 0.9979669546067476 -0.024125472490822097 0.9979669546067476 -0.024125472490822097 0.002033045393252388 0.024125472490822097
1.8681992888645732E8 0.002059969028956566 0.024478581801815707 0.9979400309710434 -0.024478581801815707 0.9979400309710434 -0.024478581801815707 0.002059969028956566 0.024478581801815707
1.8963930385668582E8 0.0020874746445789924 0.02483698218797417 0.9979125253554211 -0.02483698218797417 0.9979125253554211 -0.02483698218797417 0.0020874746445789924 0.02483698218797417
1.92501227152835E8 0.0021155810311686857 0.025200752897923034 0.9978844189688313 -0.025200752897923034 0.9978844189688313 -0.025200752897923034 0.0021155810311686857 0.025200752897923034
1.9540634088886917E8 0.002144307528590401 0.025569974222893293 0.9978556924714097 -0.025569974222893293 0.9978556924714097 -0.025569974222893293 0.002144307528590401 0.025569974222893293
1.983552968691535E8 0.002173674034847257 0.025944727509472867 0.9978263259651527 -0.025944727509472864 0.9978263259651527 -0.025944727509472864 0.002173674034847257 0.025944727509472867
2.0134875673469606E8 0.002203701015628033 0.026325095172772033 0.9977962989843718 -0.026325095172772026 0.9977962989843718 -0.026325095172772026 0.002203701015628033 0.026325095172772033
2.0438739211159652E8 0.002234409514096304 0.026711160710012234 0.9977655904859037 -0.026711160710012234 0.9977655904859037 -0.026711160710012234 0.002234409514096304 0.026711160710012234
2.074718847617352E8 0.002265821160938858 0.02710300871454785 0.9977341788390612 -0.027103008714547846 0.9977341788390612 -0.027103008714547846 0.002265821160938858 0.02710300871454785
2.106029267357361E8 0.0022979581846911544 0.02750072489033089 0.9977020418153086 -0.027500724890330897 0.9977020418153086 -0.027500724890330897 0.0022979581846911544 0.02750072489033089
2.1378122052823865E8 0.0023308434223578652 0.027904396066828627 0.9976691565776422 -0.027904396066828627 0.9976691565776422 -0.027904396066828627 0.0023308434223578652 0.027904396066828627
2.1700747923551247E8 0.0023645003303470395 0.028314110214404508 0.997635499669653 -0.02831411021440451 0.997635499669653 -0.02831411021440451 0.0023645003303470395 0.028314110214404508
2.2028242671545094E8 0.002398952995736755 0.028729956460173067 0.9976010470042631 -0.028729956460173074 0.9976010470042631 -0.028729956460173074 0.002398952995736755 0.028729956460173067
2.23606797749979E8 0.0024342261478937878 0.029152025104340052 0.9975657738521062 -0.029152025104340052 0.9975657738521062 -0.029152025104340052 0.0024342261478937878 0.029152025104340052
2.2698133820991236E8 0.002470345170464271 0.029580407637038786 0.9975296548295357 -0.029580407637038782 0.9975296548295357 -0.029580407637038782 0.002470345170464271 0.029580407637038786
2.3040680522230446E8 0.0025073361137571367 0.030015196755675336 0.997492663886243 -0.030015196755675336 0.997492663886243 -0.030015196755675336 0.0025073361137571367 0.030015196755675336
2.338839673403185E8 0.002545225707541751 0.030456486382794152 0.9974547742924583 -0.030456486382794152 0.9974547742924583 -0.030456486382794152 0.002545225707541751 0.030456486382794152
2.37413604715664E8 0.002584041374282121 0.030904371684477683 0.9974159586257179 -0.030904371684477683 0.9974159586257179 -0.030904371684477683 0.002584041374282121 0.030904371684477683
