!Murata Part Number: LQG15HN3N0B02
!These Parameters are Measured in Series Mode Connection
!       o--[Z]--o
!Port1              Port2
!       o-------o
!
!Freq. Start=50[MHz] Stop=20[GHz], 401[Steps]
# Hz S RI R 50
!Freq.(Hz) S11(Real) S11(Imag) S21(Real) S21(Imag) S12(Real) S12(Imag) S22(Real) S22(Imag)
5.0E7 0.0011936840428374198 0.008657832977797665 0.9988063159571626 -0.008657832977797665 0.9988063159571626 -0.008657832977797665 0.0011936840428374198 0.008657832977797665
5.0754570186123446E7 0.0012021375739144028 0.008784010680366989 0.9987978624260855 -0.008784010680366989 0.9987978624260855 -0.008784010680366989 0.0012021375739144028 0.008784010680366989
5.152052789556263E7 0.0012107418782293744 0.00891201451268305 0.9987892581217707 -0.00891201451268305 0.9987892581217707 -0.00891201451268305 0.0012107418782293744 0.00891201451268305
5.229804498202928E7 0.0012194994556981738 0.00904187039887991 0.9987805005443019 -0.00904187039887991 0.9987805005443019 -0.00904187039887991 0.0012194994556981738 0.00904187039887991
5.308729589274893E7 0.0012284128096064601 0.009173604640534218 0.9987715871903935 -0.009173604640534216 0.9987715871903935 -0.009173604640534216 0.0012284128096064601 0.009173604640534218
5.388845770760058E7 0.0012374844459936978 0.009307243925436118 0.9987625155540064 -0.00930724392543612 0.9987625155540064 -0.00930724392543612 0.0012374844459936978 0.009307243925436118
5.470171017884717E7 0.0012467168732184695 0.009442815336630335 0.9987532831267815 -0.009442815336630335 0.9987532831267815 -0.009442815336630335 0.0012467168732184695 0.009442815336630335
5.5527235771465644E7 0.0012561126017201804 0.009580346361723646 0.9987438873982798 -0.009580346361723646 0.9987438873982798 -0.009580346361723646 0.0012561126017201804 0.009580346361723646
5.6365219704085544E7 0.001265674143992181 0.009719864902454061 0.9987343258560077 -0.009719864902454061 0.9987343258560077 -0.009719864902454061 0.001265674143992181 0.009719864902454061
5.721584999054556E7 0.0012754040147813154 0.009861399284516 0.9987245959852187 -0.009861399284516 0.9987245959852187 -0.009861399284516 0.0012754040147813154 0.009861399284516
5.807931748207712E7 0.0012853047315287424 0.010004978267634797 0.9987146952684713 -0.010004978267634797 0.9987146952684713 -0.010004978267634797 0.0012853047315287424 0.010004978267634797
5.8955815910124585E7 0.0012953788150666657 0.01015063105588283 0.9987046211849333 -0.01015063105588283 0.9987046211849333 -0.01015063105588283 0.0012953788150666657 0.01015063105588283
5.984554192981184E7 0.0013056287905853334 0.010298387308228555 0.9986943712094147 -0.010298387308228556 0.9986943712094147 -0.010298387308228556 0.0013056287905853334 0.010298387308228555
6.074869516406457E7 0.001316057188884287 0.010448277149308696 0.9986839428111156 -0.010448277149308696 0.9986839428111156 -0.010448277149308696 0.001316057188884287 0.010448277149308696
6.166547824839868E7 0.0013266665479213925 0.01060033118041292 0.9986733334520785 -0.01060033118041292 0.9986733334520785 -0.01060033118041292 0.0013266665479213925 0.01060033118041292
6.2596096876384385E7 0.0013374594146726313 0.0107545804906691 0.9986625405853272 -0.0107545804906691 0.9986625405853272 -0.0107545804906691 0.0013374594146726313 0.0107545804906691
6.354075984579668E7 0.0013484383473150344 0.010911056668416718 0.998651561652685 -0.010911056668416718 0.998651561652685 -0.010911056668416718 0.0013484383473150344 0.010911056668416718
6.449967910546205E7 0.001359605917744379 0.011069791812754403 0.9986403940822556 -0.011069791812754403 0.9986403940822556 -0.011069791812754403 0.001359605917744379 0.011069791812754403
6.547306980281226E7 0.0013709647144385404 0.011230818545247398 0.9986290352855615 -0.011230818545247398 0.9986290352855615 -0.011230818545247398 0.0013709647144385404 0.011230818545247398
6.646115033215589E7 0.0013825173456764013 0.01139417002177921 0.9986174826543237 -0.011394170021779212 0.9986174826543237 -0.011394170021779212 0.0013825173456764013 0.01139417002177921
6.746414238367817E7 0.0013942664431213835 0.011559879944531509 0.9986057335568785 -0.011559879944531509 0.9986057335568785 -0.011559879944531509 0.0013942664431213835 0.011559879944531509
6.848227099318038E7 0.0014062146657774848 0.011727982574075035 0.9985937853342224 -0.011727982574075034 0.9985937853342224 -0.011727982574075034 0.0014062146657774848 0.011727982574075035
6.951576459256999E7 0.001418364704324685 0.01189851274155412 0.9985816352956753 -0.01189851274155412 0.9985816352956753 -0.01189851274155412 0.001418364704324685 0.01189851274155412
7.056485506111258E7 0.001430719285839323 0.012071505860946439 0.9985692807141608 -0.012071505860946439 0.9985692807141608 -0.012071505860946439 0.001430719285839323 0.012071505860946439
7.162977777745734E7 0.0014432811789038282 0.012246997941379394 0.9985567188210961 -0.012246997941379394 0.9985567188210961 -0.012246997941379394 0.0014432811789038282 0.012246997941379394
7.271077167244768E7 0.0014560531991088233 0.012425025599483913 0.9985439468008913 -0.012425025599483913 0.9985439468008913 -0.012425025599483913 0.0014560531991088233 0.012425025599483913
7.380807928272885E7 0.0014690382149493205 0.012605626071766398 0.9985309617850507 -0.012605626071766397 0.9985309617850507 -0.012605626071766397 0.0014690382149493205 0.012605626071766398
7.492194680516452E7 0.001482239154115223 0.012788837226979054 0.9985177608458848 -0.012788837226979054 0.9985177608458848 -0.012788837226979054 0.001482239154115223 0.012788837226979054
7.60526241520746E7 0.001495659010175007 0.012974697578469134 0.9985043409898249 -0.012974697578469134 0.9985043409898249 -0.012974697578469134 0.001495659010175007 0.012974697578469134
7.720036500730675E7 0.0015093008496499124 0.013163246296487342 0.99849069915035 -0.013163246296487343 0.99849069915035 -0.013163246296487343 0.0015093008496499124 0.013163246296487342
7.836542688315398E7 0.0015231678194745305 0.013354523220436029 0.9984768321805256 -0.013354523220436029 0.9984768321805256 -0.013354523220436029 0.0015231678194745305 0.013354523220436029
7.954807117813127E7 0.0015372631548382061 0.013548568871038055 0.998462736845162 -0.013548568871038053 0.998462736845162 -0.013548568871038053 0.0015372631548382061 0.013548568871038055
8.074856323562416E7 0.0015515901874001872 0.01374542446240759 0.9984484098125997 -0.01374542446240759 0.9984484098125997 -0.01374542446240759 0.0015515901874001872 0.01374542446240759
8.196717240342227E7 0.0015661523538700293 0.013945131914004722 0.9984338476461299 -0.013945131914004719 0.9984338476461299 -0.013945131914004719 0.0015661523538700293 0.013945131914004722
8.320417209415154E7 0.0015809532049433476 0.014147733862456397 0.9984190467950566 -0.014147733862456397 0.9984190467950566 -0.014147733862456397 0.0015809532049433476 0.014147733862456397
8.445983984661816E7 0.0015959964145816712 0.014353273673227139 0.9984040035854184 -0.014353273673227139 0.9984040035854184 -0.014353273673227139 0.0015959964145816712 0.014353273673227139
8.573445738807854E7 0.0016112857896238176 0.014561795452123605 0.9983887142103763 -0.014561795452123608 0.9983887142103763 -0.014561795452123608 0.0016112857896238176 0.014561795452123605
8.702831069744885E7 0.0016268252797150327 0.014773344056618643 0.9983731747202852 -0.014773344056618643 0.9983731747202852 -0.014773344056618643 0.0016268252797150327 0.014773344056618643
8.834169006946853E7 0.0016426189875389568 0.014987965106980987 0.9983573810124612 -0.014987965106980987 0.9983573810124612 -0.014987965106980987 0.0016426189875389568 0.014987965106980987
8.96748901798321E7 0.0016586711793364342 0.015205704997198607 0.9983413288206635 -0.015205704997198607 0.9983413288206635 -0.015205704997198607 0.0016586711793364342 0.015205704997198607
9.1028210151304E7 0.001674986295694271 0.015426610905684774 0.9983250137043059 -0.015426610905684774 0.9983250137043059 -0.015426610905684774 0.001674986295694271 0.015426610905684774
9.240195362083109E7 0.0016915689625861463 0.015650730805757206 0.9983084310374141 -0.01565073080575721 0.9983084310374141 -0.01565073080575721 0.0016915689625861463 0.015650730805757206
9.379642880766791E7 0.0017084240026472434 0.015878113475882687 0.9982915759973531 -0.015878113475882687 0.9982915759973531 -0.015878113475882687 0.0017084240026472434 0.015878113475882687
9.521194858253023E7 0.0017255564466635187 0.016108808509680547 0.9982744435533365 -0.016108808509680547 0.9982744435533365 -0.016108808509680547 0.0017255564466635187 0.016108808509680547
9.664883053779216E7 0.0017429715452561044 0.016342866325680456 0.9982570284547437 -0.016342866325680456 0.9982570284547437 -0.016342866325680456 0.0017429715452561044 0.016342866325680456
9.810739705874248E7 0.0017606747807410277 0.016580338176831477 0.9982393252192588 -0.016580338176831473 0.9982393252192588 -0.016580338176831473 0.0017606747807410277 0.016580338176831477
9.958797539591652E7 0.0017786718791442128 0.01682127615976097 0.9982213281208558 -0.016821276159760975 0.9982213281208558 -0.016821276159760975 0.0017786718791442128 0.01682127615976097
1.0109089773851961E8 0.001796968822351768 0.01706573322378392 0.9982030311776482 -0.01706573322378392 0.9982030311776482 -0.01706573322378392 0.001796968822351768 0.01706573322378392
1.0261650128895843E8 0.0018155718603756015 0.017313763179664654 0.9981844281396243 -0.017313763179664654 0.9981844281396243 -0.017313763179664654 0.0018155718603756015 0.017313763179664654
1.0416512833849736E8 0.0018344875237146971 0.017565420708134827 0.9981655124762854 -0.017565420708134827 0.9981655124762854 -0.017565420708134827 0.0018344875237146971 0.017565420708134827
1.0573712634405641E8 0.0018537226357927797 0.017820761368173264 0.9981462773642072 -0.017820761368173264 0.9981462773642072 -0.017820761368173264 0.0018537226357927797 0.017820761368173264
1.0733284800616828E8 0.001873284325453587 0.018079841605054686 0.9981267156745462 -0.018079841605054686 0.9981267156745462 -0.018079841605054686 0.001873284325453587 0.018079841605054686
1.0895265134811176E8 0.001893180039495693 0.01834271875817624 0.9981068199605045 -0.01834271875817624 0.9981068199605045 -0.01834271875817624 0.001893180039495693 0.01834271875817624
1.1059689979623953E8 0.0019134175552295155 0.01860945106867192 0.9980865824447706 -0.01860945106867192 0.9980865824447706 -0.01860945106867192 0.0019134175552295155 0.01860945106867192
1.1226596226151802E8 0.0019340049930401566 0.01888009768682698 0.9980659950069599 -0.018880097686826976 0.9980659950069599 -0.018880097686826976 0.0019340049930401566 0.01888009768682698
1.1396021322229806E8 0.001954950828940613 0.019154718679305054 0.9980450491710596 -0.019154718679305054 0.9980450491710596 -0.019154718679305054 0.001954950828940613 0.019154718679305054
1.1568003280833441E8 0.0019762639071011206 0.019433375036202846 0.998023736092899 -0.01943337503620285 0.998023736092899 -0.01943337503620285 0.0019762639071011206 0.019433375036202846
1.1742580688607343E8 0.0019979534523415178 0.019716128677947812 0.9980020465476585 -0.019716128677947812 0.9980020465476585 -0.019716128677947812 0.0019979534523415178 0.019716128677947812
1.1919792714522783E8 0.0020200290825748233 0.02000304246205564 0.9979799709174253 -0.02000304246205564 0.9979799709174253 -0.02000304246205564 0.0020200290825748233 0.02000304246205564
1.2099679118665792E8 0.002042500821191583 0.020294180189765296 0.9979574991788084 -0.020294180189765296 0.9979574991788084 -0.020294180189765296 0.002042500821191583 0.020294180189765296
1.2282280261157903E8 0.0020653791093759363 0.02058960661257029 0.9979346208906241 -0.020589606612570293 0.9979346208906241 -0.020589606612570293 0.0020653791093759363 0.02058960661257029
1.2467637111211549E8 0.002088674818345801 0.02088938743866548 0.997911325181654 -0.02088938743866548 0.997911325181654 -0.02088938743866548 0.002088674818345801 0.02088938743866548
1.265579125632208E8 0.0021123992615110993 0.021193589339329615 0.9978876007384889 -0.021193589339329615 0.9978876007384889 -0.021193589339329615 0.0021123992615110993 0.021193589339329615
1.284678491159853E8 0.002136564206545408 0.021502279955263975 0.9978634357934547 -0.021502279955263975 0.9978634357934547 -0.021502279955263975 0.002136564206545408 0.021502279955263975
1.3040660929235186E8 0.002161181887367994 0.02181552790290848 0.9978388181126321 -0.02181552790290848 0.9978388181126321 -0.02181552790290848 0.002161181887367994 0.02181552790290848
1.3237462808126101E8 0.0021862650160346985 0.022133402780756314 0.9978137349839655 -0.022133402780756317 0.9978137349839655 -0.022133402780756317 0.0021862650160346985 0.022133402780756314
1.3437234703624701E8 0.0022118267945376536 0.022455975175688765 0.9977881732054623 -0.02245597517568877 0.9977881732054623 -0.02245597517568877 0.0022118267945376536 0.022455975175688765
1.364002143745067E8 0.002237880926515329 0.022783316669351933 0.9977621190734847 -0.02278331666935193 0.9977621190734847 -0.02278331666935193 0.002237880926515329 0.022783316669351933
1.3845868507746372E8 0.0022644416288758917 0.023115499844597067 0.997735558371124 -0.023115499844597067 0.997735558371124 -0.023115499844597067 0.0022644416288758917 0.023115499844597067
1.405482209928499E8 0.0022915236433382743 0.02345259829200602 0.9977084763566617 -0.02345259829200602 0.9977084763566617 -0.02345259829200602 0.0022915236433382743 0.02345259829200602
1.426692909383278E8 0.0023191422478968087 0.023794686616523446 0.9976808577521032 -0.023794686616523446 0.9976808577521032 -0.023794686616523446 0.0023191422478968087 0.023794686616523446
1.4482237080667645E8 0.002347313268216593 0.024141840444216887 0.9976526867317836 -0.024141840444216887 0.9976526867317836 -0.024141840444216887 0.002347313268216593 0.024141840444216887
1.4700794367256513E8 0.0023760530889680945 0.024494136429185805 0.997623946911032 -0.024494136429185808 0.997623946911032 -0.024494136429185808 0.0023760530889680945 0.024494136429185805
1.492264999009378E8 0.0024053786651107526 0.024851652260640015 0.9975946213348893 -0.024851652260640015 0.9975946213348893 -0.024851652260640015 0.0024053786651107526 0.024851652260640015
1.5147853725703382E8 0.0024353075331365387 0.025214466670167912 0.9975646924668635 -0.025214466670167916 0.9975646924668635 -0.025214466670167916 0.0024353075331365387 0.025214466670167912
1.5376456101806876E8 0.0024658578222855852 0.025582659439214225 0.9975341421777142 -0.025582659439214218 0.9975341421777142 -0.025582659439214218 0.0024658578222855852 0.025582659439214225
1.5608508408660066E8 0.002497048265747076 0.025956311406786548 0.9975029517342529 -0.025956311406786548 0.9975029517342529 -0.025956311406786548 0.002497048265747076 0.025956311406786548
1.5844062710560706E8 0.002528898211859624 0.02633550447740951 0.9974711017881405 -0.02633550447740951 0.9974711017881405 -0.02633550447740951 0.002528898211859624 0.02633550447740951
1.6083171857529896E8 0.0025614276353263543 0.026720321629345012 0.9974385723646735 -0.026720321629345012 0.9974385723646735 -0.026720321629345012 0.0025614276353263543 0.026720321629345012
1.632588949716973E8 0.0025946571484608176 0.027110846923096187 0.9974053428515393 -0.027110846923096187 0.9974053428515393 -0.027110846923096187 0.0025946571484608176 0.027110846923096187
1.6572270086699936E8 0.0026286080124807683 0.027507165510212706 0.9973713919875191 -0.027507165510212706 0.9973713919875191 -0.027507165510212706 0.0026286080124807683 0.027507165510212706
1.6822368905176118E8 0.0026633021488676185 0.027909363642413795 0.9973366978511323 -0.027909363642413795 0.9973366978511323 -0.027909363642413795 0.0026633021488676185 0.027909363642413795
1.7076242065892437E8 0.002698762150810268 0.028317528681045787 0.9973012378491896 -0.028317528681045787 0.9973012378491896 -0.028317528681045787 0.002698762150810268 0.028317528681045787
1.7333946528971428E8 0.002735011294752716 0.028731749106889963 0.9972649887052474 -0.028731749106889963 0.9972649887052474 -0.028731749106889963 0.002735011294752716 0.028731749106889963
1.7595540114143828E8 0.0027720735520655924 0.02915211453033583 0.9972279264479345 -0.02915211453033583 0.9972279264479345 -0.02915211453033583 0.0027720735520655924 0.02915211453033583
1.786108151372127E8 0.00280997360086255 0.02957871570193555 0.9971900263991376 -0.02957871570193555 0.9971900263991376 -0.02957871570193555 0.00280997360086255 0.02957871570193555
1.8130630305764765E8 0.002848736837983096 0.030011644523353493 0.9971512631620167 -0.030011644523353493 0.9971512631620167 -0.030011644523353493 0.002848736837983096 0.030011644523353493
1.840424696745189E8 0.0028883893911642146 0.030450994058725894 0.9971116106088358 -0.030450994058725894 0.9971116106088358 -0.030450994058725894 0.0028883893911642146 0.030450994058725894
1.8681992888645732E8 0.002928958131423824 0.030896858546444136 0.9970710418685763 -0.030896858546444143 0.9970710418685763 -0.030896858546444143 0.002928958131423824 0.030896858546444136
1.8963930385668582E8 0.002970470685679889 0.03134933341137596 0.99702952931432 -0.03134933341137596 0.99702952931432 -0.03134933341137596 0.002970470685679889 0.03134933341137596
1.92501227152835E8 0.0030129554496297352 0.03180851527753768 0.9969870445503703 -0.03180851527753768 0.9969870445503703 -0.03180851527753768 0.0030129554496297352 0.03180851527753768
1.9540634088886917E8 0.0030564416009149615 0.03227450198123116 0.996943558399085 -0.03227450198123116 0.996943558399085 -0.03227450198123116 0.0030564416009149615 0.03227450198123116
1.983552968691535E8 0.003100959112598116 0.03274739258465839 0.9968990408874019 -0.0327473925846584 0.9968990408874019 -0.0327473925846584 0.003100959112598116 0.03274739258465839
2.0134875673469606E8 0.00314653876697832 0.033227287390027054 0.996853461233022 -0.033227287390027054 0.996853461233022 -0.033227287390027054 0.00314653876697832 0.033227287390027054
2.0438739211159652E8 0.003193212169773806 0.033714287954159566 0.9968067878302261 -0.03371428795415957 0.9968067878302261 -0.03371428795415957 0.003193212169773806 0.033714287954159566
2.074718847617352E8 0.0032410117647005167 0.03420849710361893 0.9967589882352996 -0.03420849710361893 0.9967589882352996 -0.03420849710361893 0.0032410117647005167 0.03420849710361893
2.106029267357361E8 0.003289970848476894 0.03471001895036346 0.9967100291515232 -0.03471001895036346 0.9967100291515232 -0.03471001895036346 0.003289970848476894 0.03471001895036346
2.1378122052823865E8 0.003340123586286191 0.03521895890794353 0.9966598764137137 -0.03521895890794353 0.9966598764137137 -0.03521895890794353 0.003340123586286191 0.03521895890794353
2.1700747923551247E8 0.0033915050277289307 0.03573542370825249 0.996608494972271 -0.03573542370825249 0.996608494972271 -0.03573542370825249 0.0033915050277289307 0.03573542370825249
2.2028242671545094E8 0.0034441511232993637 0.03625952141884398 0.9965558488767007 -0.03625952141884399 0.9965558488767007 -0.03625952141884399 0.0034441511232993637 0.03625952141884398
2.23606797749979E8 0.003498098741421411 0.03679136146082837 0.9965019012585787 -0.03679136146082837 0.9965019012585787 -0.03679136146082837 0.003498098741421411 0.03679136146082837
2.2698133820991236E8 0.0035533856860808875 0.03733105462735953 0.996446614313919 -0.03733105462735953 0.996446614313919 -0.03733105462735953 0.0035533856860808875 0.03733105462735953
2.3040680522230446E8 0.0036100507150926132 0.03787871310272424 0.9963899492849074 -0.03787871310272424 0.9963899492849074 -0.03787871310272424 0.0036100507150926132 0.03787871310272424
2.338839673403185E8 0.0036681335590426486 0.038434450482045246 0.9963318664409571 -0.038434450482045246 0.9963318664409571 -0.038434450482045246 0.0036681335590426486 0.038434450482045246
2.37413604715664E8 0.0037276749409478104 0.038998381791609305 0.9962723250590522 -0.038998381791609305 0.9962723250590522 -0.038998381791609305 0.0037276749409478104 0.038998381791609305
