!Murata Part Number: LQG15HN8N2G02
!These Parameters are Measured in Series Mode Connection
!       o--[Z]--o
!Port1              Port2
!       o-------o
!
!Freq. Start=50[MHz] Stop=20[GHz], 401[Steps]
# Hz S RI R 50
!Freq.(Hz) S11(Real) S11(Imag) S21(Real) S21(Imag) S12(Real) S12(Imag) S22(Real) S22(Imag)
5.0E7 0.0039922820410001085 0.02572811191595347 0.996007717959 -0.025728111915953464 0.996007717959 -0.025728111915953464 0.0039922820410001085 0.02572811191595347
5.0754570186123446E7 0.0040380219861141506 0.026094444144357364 0.9959619780138859 -0.026094444144357357 0.9959619780138859 -0.026094444144357357 0.0040380219861141506 0.026094444144357364
5.152052789556263E7 0.004084582099979315 0.026465868359137897 0.9959154179000207 -0.026465868359137897 0.9959154179000207 -0.026465868359137897 0.004084582099979315 0.026465868359137897
5.229804498202928E7 0.0041319732709185686 0.0268424564844391 0.9958680267290815 -0.0268424564844391 0.9958680267290815 -0.0268424564844391 0.0041319732709185686 0.0268424564844391
5.308729589274893E7 0.004180206567275979 0.02722428179576471 0.995819793432724 -0.02722428179576471 0.995819793432724 -0.02722428179576471 0.004180206567275979 0.02722428179576471
5.388845770760058E7 0.0042292932605842186 0.027611418953480633 0.9957707067394158 -0.027611418953480633 0.9957707067394158 -0.027611418953480633 0.0042292932605842186 0.027611418953480633
5.470171017884717E7 0.004279244850316194 0.02800394403617087 0.9957207551496838 -0.02800394403617087 0.9957207551496838 -0.02800394403617087 0.004279244850316194 0.02800394403617087
5.5527235771465644E7 0.0043300730902275765 0.028401934573768765 0.9956699269097724 -0.028401934573768765 0.9956699269097724 -0.028401934573768765 0.0043300730902275765 0.028401934573768765
5.6365219704085544E7 0.004381790016291529 0.02880546958038399 0.9956182099837084 -0.028805469580383998 0.9956182099837084 -0.028805469580383998 0.004381790016291529 0.02880546958038399
5.721584999054556E7 0.004434407976221616 0.029214629586745953 0.9955655920237781 -0.029214629586745953 0.9955655920237781 -0.029214629586745953 0.004434407976221616 0.029214629586745953
5.807931748207712E7 0.00448793966057336 0.029629496672184136 0.9955120603394266 -0.029629496672184133 0.9955120603394266 -0.029629496672184133 0.00448793966057336 0.029629496672184136
5.8955815910124585E7 0.004542398135409511 0.03005015449606721 0.9954576018645904 -0.030050154496067218 0.9954576018645904 -0.030050154496067218 0.004542398135409511 0.03005015449606721
5.984554192981184E7 0.004597796876508542 0.030476688328623408 0.9954022031234914 -0.030476688328623408 0.9954022031234914 -0.030476688328623408 0.004597796876508542 0.030476688328623408
6.074869516406457E7 0.004654149805090618 0.030909185081066413 0.9953458501949094 -0.030909185081066413 0.9953458501949094 -0.030909185081066413 0.004654149805090618 0.030909185081066413
6.166547824839868E7 0.00471147132503003 0.031347733334953845 0.9952885286749701 -0.031347733334953845 0.9952885286749701 -0.031347733334953845 0.00471147132503003 0.031347733334953845
6.2596096876384385E7 0.0047697763615178876 0.031792423370706833 0.995230223638482 -0.03179242337070684 0.995230223638482 -0.03179242337070684 0.0047697763615178876 0.031792423370706833
6.354075984579668E7 0.004829080401134373 0.03224334719522408 0.9951709195988658 -0.03224334719522408 0.9951709195988658 -0.03224334719522408 0.004829080401134373 0.03224334719522408
6.449967910546205E7 0.004889399533284743 0.03270059856852496 0.9951106004667152 -0.03270059856852496 0.9951106004667152 -0.03270059856852496 0.004889399533284743 0.03270059856852496
6.547306980281226E7 0.004950750492949564 0.0331642730293629 0.9950492495070503 -0.0331642730293629 0.9950492495070503 -0.0331642730293629 0.004950750492949564 0.0331642730293629
6.646115033215589E7 0.005013150704695366 0.03363446791975227 0.9949868492953047 -0.033634467919752276 0.9949868492953047 -0.033634467919752276 0.005013150704695366 0.03363446791975227
6.746414238367817E7 0.005076618327888548 0.03411128240835831 0.9949233816721116 -0.03411128240835831 0.9949233816721116 -0.03411128240835831 0.005076618327888548 0.03411128240835831
6.848227099318038E7 0.005141172303052248 0.034594817512703865 0.9948588276969478 -0.03459481751270387 0.9948588276969478 -0.03459481751270387 0.005141172303052248 0.034594817512703865
6.951576459256999E7 0.005206832399303282 0.035085176120152356 0.9947931676006968 -0.035085176120152356 0.9947931676006968 -0.035085176120152356 0.005206832399303282 0.035085176120152356
7.056485506111258E7 0.005273619262804092 0.03558246300763186 0.994726380737196 -0.03558246300763186 0.994726380737196 -0.03558246300763186 0.005273619262804092 0.03558246300763186
7.162977777745734E7 0.005341554466162996 0.036086784860070935 0.9946584455338371 -0.03608678486007094 0.9946584455338371 -0.03608678486007094 0.005341554466162996 0.036086784860070935
7.271077167244768E7 0.005410660558715081 0.036598250287522824 0.9945893394412849 -0.036598250287522824 0.9945893394412849 -0.036598250287522824 0.005410660558715081 0.036598250287522824
7.380807928272885E7 0.005480961117615318 0.03711696984096043 0.9945190388823846 -0.03711696984096043 0.9945190388823846 -0.03711696984096043 0.005480961117615318 0.03711696984096043
7.492194680516452E7 0.00555248079967569 0.037643056026730834 0.9944475192003245 -0.037643056026730834 0.9944475192003245 -0.037643056026730834 0.00555248079967569 0.037643056026730834
7.60526241520746E7 0.005625245393878562 0.03817662331966358 0.9943747546061215 -0.03817662331966358 0.9943747546061215 -0.03817662331966358 0.005625245393878562 0.03817662331966358
7.720036500730675E7 0.005699281874499699 0.03871778817483375 0.9943007181255002 -0.038717788174833755 0.9943007181255002 -0.038717788174833755 0.005699281874499699 0.03871778817483375
7.836542688315398E7 0.005774618454775948 0.03926666903798548 0.994225381545224 -0.03926666903798548 0.994225381545224 -0.03926666903798548 0.005774618454775948 0.03926666903798548
7.954807117813127E7 0.005851284641054921 0.039823386354628565 0.9941487153589449 -0.039823386354628565 0.9941487153589449 -0.039823386354628565 0.005851284641054921 0.039823386354628565
8.074856323562416E7 0.005929311287366476 0.04038806257782495 0.9940706887126335 -0.04038806257782495 0.9940706887126335 -0.04038806257782495 0.005929311287366476 0.04038806257782495
8.196717240342227E7 0.006008730650359254 0.04096082217468789 0.9939912693496408 -0.0409608221746879 0.9939912693496408 -0.0409608221746879 0.006008730650359254 0.04096082217468789
8.320417209415154E7 0.006089576444549025 0.04154179163162136 0.993910423555451 -0.041541791631621354 0.993910423555451 -0.041541791631621354 0.006089576444549025 0.04154179163162136
8.445983984661816E7 0.006171883897829629 0.0421310994583309 0.9938281161021703 -0.042131099458330906 0.9938281161021703 -0.042131099458330906 0.006171883897829629 0.0421310994583309
8.573445738807854E7 0.006255689807201921 0.042728876190642674 0.9937443101927983 -0.04272887619064268 0.9937443101927983 -0.04272887619064268 0.006255689807201921 0.042728876190642674
8.702831069744885E7 0.006341032594680736 0.043335254392169516 0.9936589674053193 -0.043335254392169516 0.9936589674053193 -0.043335254392169516 0.006341032594680736 0.043335254392169516
8.834169006946853E7 0.00642795236334517 0.043950368654867386 0.993572047636655 -0.04395036865486739 0.993572047636655 -0.04395036865486739 0.00642795236334517 0.043950368654867386
8.96748901798321E7 0.006516490953502706 0.044574355598527446 0.9934835090464974 -0.044574355598527446 0.9934835090464974 -0.044574355598527446 0.006516490953502706 0.044574355598527446
9.1028210151304E7 0.006606691998943436 0.04520735386925186 0.9933933080010565 -0.04520735386925186 0.9933933080010565 -0.04520735386925186 0.006606691998943436 0.04520735386925186
9.240195362083109E7 0.0066986009832661255 0.04584950413696228 0.9933013990167338 -0.04584950413696228 0.9933013990167338 -0.04584950413696228 0.0066986009832661255 0.04584950413696228
9.379642880766791E7 0.006792265296264091 0.04650094909199267 0.9932077347037358 -0.04650094909199267 0.9932077347037358 -0.04650094909199267 0.006792265296264091 0.04650094909199267
9.521194858253023E7 0.006887734290364384 0.047161833440817084 0.9931122657096357 -0.047161833440817084 0.9931122657096357 -0.047161833440817084 0.006887734290364384 0.047161833440817084
9.664883053779216E7 0.006985059337120032 0.047832303900964754 0.9930149406628799 -0.047832303900964754 0.9930149406628799 -0.047832303900964754 0.006985059337120032 0.047832303900964754
9.810739705874248E7 0.007084293883760877 0.04851250919517372 0.9929157061162391 -0.04851250919517371 0.9929157061162391 -0.04851250919517371 0.007084293883760877 0.04851250919517372
9.958797539591652E7 0.007185493509814233 0.04920260004483311 0.9928145064901858 -0.04920260004483311 0.9928145064901858 -0.04920260004483311 0.007185493509814233 0.04920260004483311
1.0109089773851961E8 0.007288715983812722 0.049902729162764455 0.9927112840161874 -0.04990272916276447 0.9927112840161874 -0.04990272916276447 0.007288715983812722 0.049902729162764455
1.0261650128895843E8 0.007394021320111793 0.050613051245388674 0.9926059786798882 -0.050613051245388674 0.9926059786798882 -0.050613051245388674 0.007394021320111793 0.050613051245388674
1.0416512833849736E8 0.007501471835844981 0.05133372296432463 0.9924985281641551 -0.051333722964324646 0.9924985281641551 -0.051333722964324646 0.007501471835844981 0.05133372296432463
1.0573712634405641E8 0.007611132208050272 0.0520649029574622 0.9923888677919499 -0.0520649029574622 0.9923888677919499 -0.0520649029574622 0.007611132208050272 0.0520649029574622
1.0733284800616828E8 0.007723069531005463 0.05280675181954947 0.9922769304689946 -0.05280675181954948 0.9922769304689946 -0.05280675181954948 0.007723069531005463 0.05280675181954947
1.0895265134811176E8 0.007837353373815477 0.05355943209233129 0.9921626466261845 -0.05355943209233128 0.9921626466261845 -0.05355943209233128 0.007837353373815477 0.05355943209233129
1.1059689979623953E8 0.00795405583829845 0.05432310825427136 0.9920459441617016 -0.05432310825427136 0.9920459441617016 -0.05432310825427136 0.00795405583829845 0.05432310825427136
1.1226596226151802E8 0.008073251617221748 0.05509794670988795 0.9919267483827783 -0.05509794670988795 0.9919267483827783 -0.05509794670988795 0.008073251617221748 0.05509794670988795
1.1396021322229806E8 0.008195018052942543 0.05588411577872759 0.9918049819470577 -0.055884115778727594 0.9918049819470577 -0.055884115778727594 0.008195018052942543 0.05588411577872759
1.1568003280833441E8 0.008319435196510796 0.056681785683997565 0.9916805648034891 -0.05668178568399758 0.9916805648034891 -0.05668178568399758 0.008319435196510796 0.056681785683997565
1.1742580688607343E8 0.008446585867295695 0.057491128540873876 0.9915534141327043 -0.057491128540873876 0.9915534141327043 -0.057491128540873876 0.008446585867295695 0.057491128540873876
1.1919792714522783E8 0.008576555713198852 0.058312318344495316 0.9914234442868013 -0.05831231834449533 0.9914234442868013 -0.05831231834449533 0.008576555713198852 0.058312318344495316
1.2099679118665792E8 0.008709433271519998 0.059145530957651446 0.99129056672848 -0.059145530957651446 0.99129056672848 -0.059145530957651446 0.008709433271519998 0.059145530957651446
1.2282280261157903E8 0.008845310030542697 0.059990944098165785 0.9911546899694574 -0.059990944098165785 0.9911546899694574 -0.059990944098165785 0.008845310030542697 0.059990944098165785
1.2467637111211549E8 0.008984280491909021 0.06084873732597165 0.9910157195080909 -0.06084873732597165 0.9910157195080909 -0.06084873732597165 0.008984280491909021 0.06084873732597165
1.265579125632208E8 0.009126442233853456 0.0617190920298731 0.9908735577661466 -0.0617190920298731 0.9908735577661466 -0.0617190920298731 0.009126442233853456 0.0617190920298731
1.284678491159853E8 0.009271895975367022 0.06260219141397838 0.9907281040246331 -0.06260219141397838 0.9907281040246331 -0.06260219141397838 0.009271895975367022 0.06260219141397838
1.3040660929235186E8 0.009420745641363061 0.06349822048378866 0.990579254358637 -0.06349822048378864 0.990579254358637 -0.06349822048378864 0.009420745641363061 0.06349822048378866
1.3237462808126101E8 0.0095730984289166 0.06440736603192028 0.9904269015710835 -0.06440736603192028 0.9904269015710835 -0.06440736603192028 0.0095730984289166 0.06440736603192028
1.3437234703624701E8 0.009729064874648924 0.06532981662343437 0.9902709351253511 -0.06532981662343437 0.9902709351253511 -0.06532981662343437 0.009729064874648924 0.06532981662343437
1.364002143745067E8 0.009888758923328645 0.06626576258074222 0.9901112410766713 -0.06626576258074222 0.9901112410766713 -0.06626576258074222 0.009888758923328645 0.06626576258074222
1.3845868507746372E8 0.010052297997760478 0.06721539596805252 0.9899477020022394 -0.06721539596805252 0.9899477020022394 -0.06721539596805252 0.010052297997760478 0.06721539596805252
1.405482209928499E8 0.010219803070031482 0.06817891057531997 0.9897801969299685 -0.06817891057531995 0.9897801969299685 -0.06817891057531995 0.010219803070031482 0.06817891057531997
1.426692909383278E8 0.01039139873418422 0.06915650190165291 0.9896086012658158 -0.06915650190165291 0.9896086012658158 -0.06915650190165291 0.01039139873418422 0.06915650190165291
1.4482237080667645E8 0.010567213280384992 0.07014836713813301 0.989432786719615 -0.07014836713813301 0.989432786719615 -0.07014836713813301 0.010567213280384992 0.07014836713813301
1.4700794367256513E8 0.010747378770653942 0.07115470514999601 0.9892526212293461 -0.07115470514999601 0.9892526212293461 -0.07115470514999601 0.010747378770653942 0.07115470514999601
1.492264999009378E8 0.010932031116222814 0.07217571645812028 0.9890679688837772 -0.07217571645812028 0.9890679688837772 -0.07217571645812028 0.010932031116222814 0.07217571645812028
1.5147853725703382E8 0.011121310156584538 0.07321160321976548 0.9888786898434154 -0.07321160321976548 0.9888786898434154 -0.07321160321976548 0.011121310156584538 0.07321160321976548
1.5376456101806876E8 0.011315359740297497 0.07426256920850205 0.9886846402597024 -0.07426256920850205 0.9886846402597024 -0.07426256920850205 0.011315359740297497 0.07426256920850205
1.5608508408660066E8 0.011514327807605978 0.07532881979326825 0.9884856721923939 -0.07532881979326825 0.9884856721923939 -0.07532881979326825 0.011514327807605978 0.07532881979326825
1.5844062710560706E8 0.011718366474936437 0.07641056191648923 0.9882816335250635 -0.07641056191648922 0.9882816335250635 -0.07641056191648922 0.011718366474936437 0.07641056191648923
1.6083171857529896E8 0.011927632121328495 0.07750800407119099 0.9880723678786715 -0.07750800407119099 0.9880723678786715 -0.07750800407119099 0.011927632121328495 0.07750800407119099
1.632588949716973E8 0.01214228547685759 0.07862135627703871 0.9878577145231425 -0.07862135627703871 0.9878577145231425 -0.07862135627703871 0.01214228547685759 0.07862135627703871
1.6572270086699936E8 0.012362491713105172 0.07975083005522736 0.9876375082868948 -0.07975083005522736 0.9876375082868948 -0.07975083005522736 0.012362491713105172 0.07975083005522736
1.6822368905176118E8 0.01258842053573135 0.08089663840215124 0.9874115794642688 -0.08089663840215124 0.9874115794642688 -0.08089663840215124 0.01258842053573135 0.08089663840215124
1.7076242065892437E8 0.012820246279203473 0.08205899576177571 0.9871797537207965 -0.08205899576177571 0.9871797537207965 -0.08205899576177571 0.012820246279203473 0.08205899576177571
1.7333946528971428E8 0.013058148003733562 0.08323811799663494 0.9869418519962665 -0.08323811799663496 0.9869418519962665 -0.08323811799663496 0.013058148003733562 0.08323811799663494
1.7595540114143828E8 0.013302309594476616 0.08443422235737566 0.9866976904055236 -0.08443422235737566 0.9866976904055236 -0.08443422235737566 0.013302309594476616 0.08443422235737566
1.786108151372127E8 0.013552919863041319 0.08564752745076701 0.9864470801369585 -0.08564752745076701 0.9864470801369585 -0.08564752745076701 0.013552919863041319 0.08564752745076701
1.8130630305764765E8 0.013810172651364415 0.08687825320609498 0.9861898273486355 -0.08687825320609498 0.9861898273486355 -0.08687825320609498 0.013810172651364415 0.08687825320609498
1.840424696745189E8 0.014074266937999718 0.088126620839857 0.9859257330620004 -0.088126620839857 0.9859257330620004 -0.088126620839857 0.014074266937999718 0.088126620839857
1.8681992888645732E8 0.01434540694687331 0.08939285281867387 0.9856545930531266 -0.08939285281867387 0.9856545930531266 -0.08939285281867387 0.01434540694687331 0.08939285281867387
1.8963930385668582E8 0.014623802258556268 0.09067717282033126 0.9853761977414435 -0.09067717282033126 0.9853761977414435 -0.09067717282033126 0.014623802258556268 0.09067717282033126
1.92501227152835E8 0.014909667924107459 0.09197980569286429 0.9850903320758925 -0.09197980569286429 0.9850903320758925 -0.09197980569286429 0.014909667924107459 0.09197980569286429
1.9540634088886917E8 0.015203224581539634 0.09330097741159567 0.9847967754184603 -0.09330097741159568 0.9847967754184603 -0.09330097741159568 0.015203224581539634 0.09330097741159567
1.983552968691535E8 0.015504698574963338 0.09464091503403663 0.9844953014250366 -0.09464091503403663 0.9844953014250366 -0.09464091503403663 0.015504698574963338 0.09464091503403663
2.0134875673469606E8 0.015814322076464837 0.0959998466525585 0.9841856779235353 -0.0959998466525585 0.9841856779235353 -0.0959998466525585 0.015814322076464837 0.0959998466525585
2.0438739211159652E8 0.01613233321077569 0.097378001344739 0.9838676667892243 -0.097378001344739 0.9838676667892243 -0.097378001344739 0.01613233321077569 0.097378001344739
2.074718847617352E8 0.016458976182794398 0.09877560912128773 0.9835410238172054 -0.09877560912128772 0.9835410238172054 -0.09877560912128772 0.016458976182794398 0.09877560912128773
2.106029267357361E8 0.01679450140802238 0.10019290087145002 0.9832054985919775 -0.10019290087145002 0.9832054985919775 -0.10019290087145002 0.01679450140802238 0.10019290087145002
2.1378122052823865E8 0.017139165645979504 0.10163010830578675 0.9828608343540205 -0.10163010830578675 0.9828608343540205 -0.10163010830578675 0.017139165645979504 0.10163010830578675
2.1700747923551247E8 0.017493232136667914 0.10308746389622556 0.982506767863332 -0.10308746389622557 0.982506767863332 -0.10308746389622557 0.017493232136667914 0.10308746389622556
2.2028242671545094E8 0.017856970740155083 0.10456520081327135 0.9821430292598448 -0.10456520081327135 0.9821430292598448 -0.10456520081327135 0.017856970740155083 0.10456520081327135
2.23606797749979E8 0.018230658079352167 0.10606355286026518 0.9817693419206477 -0.10606355286026518 0.9817693419206477 -0.10606355286026518 0.018230658079352167 0.10606355286026518
2.2698133820991236E8 0.018614577686066044 0.10758275440457031 0.981385422313934 -0.10758275440457031 0.981385422313934 -0.10758275440457031 0.018614577686066044 0.10758275440457031
2.3040680522230446E8 0.01900902015040893 0.10912304030556412 0.9809909798495912 -0.10912304030556412 0.9809909798495912 -0.10912304030556412 0.01900902015040893 0.10912304030556412
2.338839673403185E8 0.01941428327365245 0.1106846458393035 0.9805857167263475 -0.1106846458393035 0.9805857167263475 -0.1106846458393035 0.01941428327365245 0.1106846458393035
2.37413604715664E8 0.019830672224619008 0.11226780661973 0.9801693277753811 -0.11226780661973 0.9801693277753811 -0.11226780661973 0.019830672224619008 0.11226780661973
2.4099650927363476E8 0.020258499699706264 0.11387275851626841 0.9797415003002938 -0.11387275851626841 0.9797415003002938 -0.11387275851626841 0.020258499699706264 0.11387275851626841
2.446334848907889E8 0.02069808608664696 0.11549973756766886 0.9793019139133531 -0.11549973756766886 0.9793019139133531 -0.11549973756766886 0.02069808608664696 0.11549973756766886
2.4832534757531032E8 0.021149759632109792 0.11714897989193025 0.97885024036789 -0.11714897989193025 0.97885024036789 -0.11714897989193025 0.021149759632109792 0.11714897989193025
