!Murata Part Number: LQG15HN1N2C02
!These Parameters are Measured in Series Mode Connection
!       o--[Z]--o
!Port1              Port2
!       o-------o
!
!Freq. Start=50[MHz] Stop=20[GHz], 401[Steps]
# Hz S RI R 50
!Freq.(Hz) S11(Real) S11(Imag) S21(Real) S21(Imag) S12(Real) S12(Imag) S22(Real) S22(Imag)
5.0E7 2.770425293153402E-4 0.0029918919304209196 0.9997229574706846 -0.0029918919304209196 0.9997229574706846 -0.0029918919304209196 2.770425293153402E-4 0.0029918919304209196
5.0754570186123446E7 2.796664823778127E-4 0.0030355993479685376 0.9997203335176221 -0.0030355993479685376 0.9997203335176221 -0.0030355993479685376 2.796664823778127E-4 0.0030355993479685376
5.152052789556263E7 2.823306409804852E-4 0.0030799265037950016 0.9997176693590195 -0.0030799265037950016 0.9997176693590195 -0.0030799265037950016 2.823306409804852E-4 0.0030799265037950016
5.229804498202928E7 2.850349006592677E-4 0.003124882170823687 0.9997149650993407 -0.0031248821708236866 0.9997149650993407 -0.0031248821708236866 2.850349006592677E-4 0.003124882170823687
5.308729589274893E7 2.8777913081945216E-4 0.003170475274034767 0.9997122208691805 -0.0031704752740347674 0.9997122208691805 -0.0031704752740347674 2.8777913081945216E-4 0.003170475274034767
5.388845770760058E7 2.9056317494509474E-4 0.0032167148943396152 0.9997094368250551 -0.0032167148943396152 0.9997094368250551 -0.0032167148943396152 2.9056317494509474E-4 0.0032167148943396152
5.470171017884717E7 2.9338685090987086E-4 0.00326361027251489 0.9997066131490904 -0.00326361027251489 0.9997066131490904 -0.00326361027251489 2.9338685090987086E-4 0.00326361027251489
5.5527235771465644E7 2.9624995139288147E-4 0.0033111708131912075 0.9997037500486071 -0.0033111708131912075 0.9997037500486071 -0.0033111708131912075 2.9624995139288147E-4 0.0033111708131912075
5.6365219704085544E7 2.9915224440255577E-4 0.0033594060888910474 0.9997008477555974 -0.0033594060888910474 0.9997008477555974 -0.0033594060888910474 2.9915224440255577E-4 0.0033594060888910474
5.721584999054556E7 3.020934739114191E-4 0.00340832584411016 0.9996979065260885 -0.003408325844110159 0.9996979065260885 -0.003408325844110159 3.020934739114191E-4 0.00340832584411016
5.807931748207712E7 3.0507336060409866E-4 0.003457939999436565 0.9996949266393959 -0.003457939999436564 0.9996949266393959 -0.003457939999436564 3.0507336060409866E-4 0.003457939999436565
5.8955815910124585E7 3.080916027404965E-4 0.003508258655700871 0.9996919083972594 -0.003508258655700871 0.9996919083972594 -0.003508258655700871 3.080916027404965E-4 0.003508258655700871
5.984554192981184E7 3.1114787713561496E-4 0.003559292098151579 0.9996888521228643 -0.0035592920981515784 0.9996888521228643 -0.0035592920981515784 3.1114787713561496E-4 0.003559292098151579
6.074869516406457E7 3.1424184025701744E-4 0.0036110508006486656 0.9996857581597428 -0.0036110508006486656 0.9996857581597428 -0.0036110508006486656 3.1424184025701744E-4 0.0036110508006486656
6.166547824839868E7 3.1737312944041897E-4 0.0036635454298688135 0.9996826268705594 -0.0036635454298688144 0.9996826268705594 -0.0036635454298688144 3.1737312944041897E-4 0.0036635454298688135
6.2596096876384385E7 3.205413642233666E-4 0.0037167868495153944 0.9996794586357767 -0.003716786849515395 0.9996794586357767 -0.003716786849515395 3.205413642233666E-4 0.0037167868495153944
6.354075984579668E7 3.237461477964318E-4 0.003770786124526336 0.9996762538522036 -0.003770786124526336 0.9996762538522036 -0.003770786124526336 3.237461477964318E-4 0.003770786124526336
6.449967910546205E7 3.269870685707876E-4 0.0038255545252729663 0.9996730129314293 -0.0038255545252729663 0.9996730129314293 -0.0038255545252729663 3.269870685707876E-4 0.0038255545252729663
6.547306980281226E7 3.302637018604912E-4 0.0038811035317430015 0.9996697362981395 -0.0038811035317430015 0.9996697362981395 -0.0038811035317430015 3.302637018604912E-4 0.0038811035317430015
6.646115033215589E7 3.3357561167722034E-4 0.003937444837700855 0.9996664243883228 -0.003937444837700855 0.9996664243883228 -0.003937444837700855 3.3357561167722034E-4 0.003937444837700855
6.746414238367817E7 3.3692235263466997E-4 0.003994590354818684 0.9996630776473653 -0.003994590354818684 0.9996630776473653 -0.003994590354818684 3.3692235263466997E-4 0.003994590354818684
6.848227099318038E7 3.403034719592501E-4 0.004052552216771677 0.9996596965280408 -0.004052552216771677 0.9996596965280408 -0.004052552216771677 3.403034719592501E-4 0.004052552216771677
6.951576459256999E7 3.437185116031926E-4 0.004111342783291359 0.9996562814883969 -0.004111342783291359 0.9996562814883969 -0.004111342783291359 3.437185116031926E-4 0.004111342783291359
7.056485506111258E7 3.4716701045564926E-4 0.004170974644170996 0.9996528329895442 -0.004170974644170995 0.9996528329895442 -0.004170974644170995 3.4716701045564926E-4 0.004170974644170996
7.162977777745734E7 3.5064850664685734E-4 0.004231460623217437 0.9996493514933533 -0.004231460623217437 0.9996493514933533 -0.004231460623217437 3.5064850664685734E-4 0.004231460623217437
7.271077167244768E7 3.541625399399703E-4 0.0042928137821441805 0.99964583746006 -0.0042928137821441805 0.99964583746006 -0.0042928137821441805 3.541625399399703E-4 0.0042928137821441805
7.380807928272885E7 3.5770865420470173E-4 0.004355047424400819 0.9996422913457953 -0.004355047424400819 0.9996422913457953 -0.004355047424400819 3.5770865420470173E-4 0.004355047424400819
7.492194680516452E7 3.612863999665163E-4 0.004418175098934467 0.9996387136000333 -0.004418175098934467 0.9996387136000333 -0.004418175098934467 3.612863999665163E-4 0.004418175098934467
7.60526241520746E7 3.6489533702471717E-4 0.004482210603879323 0.9996351046629752 -0.004482210603879323 0.9996351046629752 -0.004482210603879323 3.6489533702471717E-4 0.004482210603879323
7.720036500730675E7 3.6853503713244796E-4 0.004547167990170953 0.9996314649628676 -0.0045471679901709534 0.9996314649628676 -0.0045471679901709534 3.6853503713244796E-4 0.004547167990170953
7.836542688315398E7 3.7220508673133296E-4 0.004613061565082563 0.9996277949132687 -0.004613061565082563 0.9996277949132687 -0.004613061565082563 3.7220508673133296E-4 0.004613061565082563
7.954807117813127E7 3.759050897332268E-4 0.004679905895680951 0.9996240949102668 -0.004679905895680951 0.9996240949102668 -0.004679905895680951 3.759050897332268E-4 0.004679905895680951
8.074856323562416E7 3.796346703413644E-4 0.004747715812200618 0.9996203653296587 -0.004747715812200618 0.9996203653296587 -0.004747715812200618 3.796346703413644E-4 0.004747715812200618
8.196717240342227E7 3.833934759030344E-4 0.004816506411334925 0.9996166065240969 -0.004816506411334926 0.9996166065240969 -0.004816506411334926 3.833934759030344E-4 0.004816506411334925
8.320417209415154E7 3.871811797858337E-4 0.00488629305944405 0.9996128188202141 -0.004886293059444051 0.9996128188202141 -0.004886293059444051 3.871811797858337E-4 0.00488629305944405
8.445983984661816E7 3.909974842695048E-4 0.004957091395679915 0.9996090025157304 -0.0049570913956799145 0.9996090025157304 -0.0049570913956799145 3.909974842695048E-4 0.004957091395679915
8.573445738807854E7 3.948421234453809E-4 0.00502891733502905 0.9996051578765546 -0.00502891733502905 0.9996051578765546 -0.00502891733502905 3.948421234453809E-4 0.00502891733502905
8.702831069744885E7 3.987148661155372E-4 0.005101787071274899 0.9996012851338845 -0.005101787071274899 0.9996012851338845 -0.005101787071274899 3.987148661155372E-4 0.005101787071274899
8.834169006946853E7 4.0261551868386956E-4 0.0051757170798817816 0.9995973844813161 -0.005175717079881781 0.9995973844813161 -0.005175717079881781 4.0261551868386956E-4 0.0051757170798817816
8.96748901798321E7 4.0654392803149403E-4 0.005250724120803205 0.9995934560719684 -0.005250724120803205 0.9995934560719684 -0.005250724120803205 4.0654392803149403E-4 0.005250724120803205
9.1028210151304E7 4.104999843691016E-4 0.00532682524121804 0.9995895000156311 -0.005326825241218041 0.9995895000156311 -0.005326825241218041 4.104999843691016E-4 0.00532682524121804
9.240195362083109E7 4.144836240591557E-4 0.005404037778198312 0.9995855163759408 -0.005404037778198311 0.9995855163759408 -0.005404037778198311 4.144836240591557E-4 0.005404037778198312
9.379642880766791E7 4.1849483240116904E-4 0.005482379361313281 0.9995815051675989 -0.00548237936131328 0.9995815051675989 -0.00548237936131328 4.1849483240116904E-4 0.005482379361313281
9.521194858253023E7 4.225336463736286E-4 0.00556186791517464 0.9995774663536262 -0.00556186791517464 0.9995774663536262 -0.00556186791517464 4.225336463736286E-4 0.00556186791517464
9.664883053779216E7 4.2660015732656813E-4 0.005642521661928421 0.9995733998426736 -0.005642521661928421 0.9995733998426736 -0.005642521661928421 4.2660015732656813E-4 0.005642521661928421
9.810739705874248E7 4.306945136192004E-4 0.005724359123699387 0.9995693054863807 -0.005724359123699386 0.9995693054863807 -0.005724359123699386 4.306945136192004E-4 0.005724359123699387
9.958797539591652E7 4.3481692319750995E-4 0.00580739912499433 0.9995651830768026 -0.005807399124994331 0.9995651830768026 -0.005807399124994331 4.3481692319750995E-4 0.00580739912499433
1.0109089773851961E8 4.389676561071758E-4 0.005891660795070791 0.9995610323438928 -0.005891660795070792 0.9995610323438928 -0.005891660795070792 4.389676561071758E-4 0.005891660795070791
1.0261650128895843E8 4.4314704693774033E-4 0.005977163570278241 0.999556852953062 -0.00597716357027824 0.999556852953062 -0.00597716357027824 4.4314704693774033E-4 0.005977163570278241
1.0416512833849736E8 4.4735549719443995E-4 0.00606392719637886 0.9995526445028056 -0.006063927196378861 0.9995526445028056 -0.006063927196378861 4.4735549719443995E-4 0.00606392719637886
1.0573712634405641E8 4.5159347759468485E-4 0.0061519717308553615 0.9995484065224053 -0.0061519717308553615 0.9995484065224053 -0.0061519717308553615 4.5159347759468485E-4 0.0061519717308553615
1.0733284800616828E8 4.5586153028671553E-4 0.006241317545213422 0.9995441384697134 -0.006241317545213422 0.9995441384697134 -0.006241317545213422 4.5586153028671553E-4 0.006241317545213422
1.0895265134811176E8 4.601602709885171E-4 0.006331985327286388 0.9995398397290114 -0.006331985327286388 0.9995398397290114 -0.006331985327286388 4.601602709885171E-4 0.006331985327286388
1.1059689979623953E8 4.644903910456378E-4 0.006423996083550039 0.9995355096089544 -0.006423996083550039 0.9995355096089544 -0.006423996083550039 4.644903910456378E-4 0.006423996083550039
1.1226596226151802E8 4.6885265940709676E-4 0.006517371141455137 0.9995311473405929 -0.0065173711414551385 0.9995311473405929 -0.0065173711414551385 4.6885265940709676E-4 0.006517371141455137
1.1396021322229806E8 4.7324792451910623E-4 0.006612132151785545 0.9995267520754808 -0.006612132151785545 0.9995267520754808 -0.006612132151785545 4.7324792451910623E-4 0.006612132151785545
1.1568003280833441E8 4.7767711613686935E-4 0.006708301091049572 0.9995223228838632 -0.006708301091049572 0.9995223228838632 -0.006708301091049572 4.7767711613686935E-4 0.006708301091049572
1.1742580688607343E8 4.8214124705519776E-4 0.006805900263912121 0.9995178587529447 -0.00680590026391212 0.9995178587529447 -0.00680590026391212 4.8214124705519776E-4 0.006805900263912121
1.1919792714522783E8 4.8664141475921407E-4 0.006904952305675092 0.9995133585852407 -0.006904952305675092 0.9995133585852407 -0.006904952305675092 4.8664141475921407E-4 0.006904952305675092
1.2099679118665792E8 4.911788029968217E-4 0.007005480184813195 0.9995088211970031 -0.007005480184813195 0.9995088211970031 -0.007005480184813195 4.911788029968217E-4 0.007005480184813195
1.2282280261157903E8 4.95754683275107E-4 0.0071075072055723386 0.999504245316725 -0.007107507205572339 0.999504245316725 -0.007107507205572339 4.95754683275107E-4 0.0071075072055723386
1.2467637111211549E8 5.003704162832102E-4 0.0072110570106372765 0.9994996295837166 -0.007211057010637276 0.9994996295837166 -0.007211057010637276 5.003704162832102E-4 0.0072110570106372765
1.265579125632208E8 5.050274532445904E-4 0.007316153583875098 0.9994949725467553 -0.007316153583875098 0.9994949725467553 -0.007316153583875098 5.050274532445904E-4 0.007316153583875098
1.284678491159853E8 5.097273372019523E-4 0.007422821253160743 0.9994902726627979 -0.007422821253160742 0.9994902726627979 -0.007422821253160742 5.097273372019523E-4 0.007422821253160743
1.3040660929235186E8 5.144717042384131E-4 0.007531084693290555 0.9994855282957616 -0.007531084693290555 0.9994855282957616 -0.007531084693290555 5.144717042384131E-4 0.007531084693290555
1.3237462808126101E8 5.192622846387558E-4 0.007640968928989408 0.9994807377153614 -0.007640968928989408 0.9994807377153614 -0.007640968928989408 5.192622846387558E-4 0.007640968928989408
1.3437234703624701E8 5.241009039948603E-4 0.0077524993380167105 0.9994758990960049 -0.0077524993380167105 0.9994758990960049 -0.0077524993380167105 5.241009039948603E-4 0.0077524993380167105
1.364002143745067E8 5.289894842596101E-4 0.00786570165437625 0.9994710105157403 -0.00786570165437625 0.9994710105157403 -0.00786570165437625 5.289894842596101E-4 0.00786570165437625
1.3845868507746372E8 5.339300447537346E-4 0.007980601971634447 0.9994660699552463 -0.007980601971634447 0.9994660699552463 -0.007980601971634447 5.339300447537346E-4 0.007980601971634447
1.405482209928499E8 5.3892470313019E-4 0.008097226746351261 0.9994610752968697 -0.008097226746351261 0.9994610752968697 -0.008097226746351261 5.3892470313019E-4 0.008097226746351261
1.426692909383278E8 5.439756763007831E-4 0.008215602801627713 0.9994560243236991 -0.008215602801627713 0.9994560243236991 -0.008215602801627713 5.439756763007831E-4 0.008215602801627713
1.4482237080667645E8 5.49085281329804E-4 0.008335757330773538 0.9994509147186703 -0.008335757330773536 0.9994509147186703 -0.008335757330773536 5.49085281329804E-4 0.008335757330773538
1.4700794367256513E8 5.542559362994879E-4 0.00845771790109828 0.9994457440637006 -0.00845771790109828 0.9994457440637006 -0.00845771790109828 5.542559362994879E-4 0.00845771790109828
1.492264999009378E8 5.594901611521188E-4 0.008581512457828682 0.9994405098388478 -0.008581512457828682 0.9994405098388478 -0.008581512457828682 5.594901611521188E-4 0.008581512457828682
1.5147853725703382E8 5.647905785135835E-4 0.008707169328155113 0.9994352094214862 -0.008707169328155111 0.9994352094214862 -0.008707169328155111 5.647905785135835E-4 0.008707169328155113
1.5376456101806876E8 5.701599145031324E-4 0.008834717225409256 0.999429840085497 -0.008834717225409256 0.999429840085497 -0.008834717225409256 5.701599145031324E-4 0.008834717225409256
1.5608508408660066E8 5.756009995340343E-4 0.008964185253375207 0.9994243990004661 -0.008964185253375207 0.9994243990004661 -0.008964185253375207 5.756009995340343E-4 0.008964185253375207
1.5844062710560706E8 5.811167691097383E-4 0.009095602910735811 0.9994188832308903 -0.009095602910735811 0.9994188832308903 -0.009095602910735811 5.811167691097383E-4 0.009095602910735811
1.6083171857529896E8 5.867102646200225E-4 0.00922900009565578 0.99941328973538 -0.00922900009565578 0.99941328973538 -0.00922900009565578 5.867102646200225E-4 0.00922900009565578
1.632588949716973E8 5.923846341415073E-4 0.009364407110503032 0.9994076153658585 -0.009364407110503034 0.9994076153658585 -0.009364407110503034 5.923846341415073E-4 0.009364407110503032
1.6572270086699936E8 5.981431332467567E-4 0.00950185466670943 0.9994018568667533 -0.009501854666709431 0.9994018568667533 -0.009501854666709431 5.981431332467567E-4 0.00950185466670943
1.6822368905176118E8 6.039891258260405E-4 0.009641373889771968 0.9993960108741741 -0.009641373889771968 0.9993960108741741 -0.009641373889771968 6.039891258260405E-4 0.009641373889771968
1.7076242065892437E8 6.099260849256776E-4 0.009782996324395355 0.9993900739150744 -0.009782996324395355 0.9993900739150744 -0.009782996324395355 6.099260849256776E-4 0.009782996324395355
1.7333946528971428E8 6.159575936066882E-4 0.009926753939776708 0.9993840424063933 -0.00992675393977671 0.9993840424063933 -0.00992675393977671 6.159575936066882E-4 0.009926753939776708
1.7595540114143828E8 6.220873458273407E-4 0.010072679135033237 0.9993779126541725 -0.010072679135033237 0.9993779126541725 -0.010072679135033237 6.220873458273407E-4 0.010072679135033237
1.786108151372127E8 6.283191473529624E-4 0.010220804744773378 0.9993716808526472 -0.010220804744773378 0.9993716808526472 -0.010220804744773378 6.283191473529624E-4 0.010220804744773378
1.8130630305764765E8 6.346569166962361E-4 0.01037116404481221 0.9993653430833036 -0.01037116404481221 0.9993653430833036 -0.01037116404481221 6.346569166962361E-4 0.01037116404481221
1.840424696745189E8 6.411046860910095E-4 0.010523790758031651 0.9993588953139089 -0.010523790758031651 0.9993588953139089 -0.010523790758031651 6.411046860910095E-4 0.010523790758031651
1.8681992888645732E8 6.476666025024738E-4 0.010678719060386116 0.9993523333974974 -0.010678719060386114 0.9993523333974974 -0.010678719060386114 6.476666025024738E-4 0.010678719060386116
1.8963930385668582E8 6.543469286764046E-4 0.010835983587054393 0.9993456530713236 -0.010835983587054393 0.9993456530713236 -0.010835983587054393 6.543469286764046E-4 0.010835983587054393
1.92501227152835E8 6.611500442299896E-4 0.01099561943873838 0.9993388499557698 -0.01099561943873838 0.9993388499557698 -0.01099561943873838 6.611500442299896E-4 0.01099561943873838
1.9540634088886917E8 6.680804467866244E-4 0.011157662188109669 0.9993319195532133 -0.011157662188109669 0.9993319195532133 -0.011157662188109669 6.680804467866244E-4 0.011157662188109669
1.983552968691535E8 6.751427531569153E-4 0.011322147886404841 0.9993248572468432 -0.011322147886404841 0.9993248572468432 -0.011322147886404841 6.751427531569153E-4 0.011322147886404841
2.0134875673469606E8 6.823417005679945E-4 0.011489113070170639 0.999317658299432 -0.01148911307017064 0.999317658299432 -0.01148911307017064 6.823417005679945E-4 0.011489113070170639
2.0438739211159652E8 6.896821479431644E-4 0.01165859476816031 0.9993103178520569 -0.01165859476816031 0.9993103178520569 -0.01165859476816031 6.896821479431644E-4 0.01165859476816031
2.074718847617352E8 6.971690772337577E-4 0.011830630508382452 0.9993028309227663 -0.01183063050838245 0.9993028309227663 -0.01183063050838245 6.971690772337577E-4 0.011830630508382452
2.106029267357361E8 7.048075948050631E-4 0.012005258325304167 0.9992951924051948 -0.012005258325304167 0.9992951924051948 -0.012005258325304167 7.048075948050631E-4 0.012005258325304167
2.1378122052823865E8 7.126029328780781E-4 0.012182516767210222 0.999287397067122 -0.012182516767210223 0.999287397067122 -0.012182516767210223 7.126029328780781E-4 0.012182516767210222
2.1700747923551247E8 7.205604510288332E-4 0.012362444903720423 0.999279439548971 -0.012362444903720423 0.999279439548971 -0.012362444903720423 7.205604510288332E-4 0.012362444903720423
2.2028242671545094E8 7.28685637747012E-4 0.012545082333467465 0.9992713143622531 -0.012545082333467465 0.9992713143622531 -0.012545082333467465 7.28685637747012E-4 0.012545082333467465
2.23606797749979E8 7.369841120556049E-4 0.012730469191937868 0.9992630158879444 -0.012730469191937868 0.9992630158879444 -0.012730469191937868 7.369841120556049E-4 0.012730469191937868
2.2698133820991236E8 7.45461625193367E-4 0.012918646159478919 0.9992545383748064 -0.012918646159478917 0.9992545383748064 -0.012918646159478917 7.45461625193367E-4 0.012918646159478919
2.3040680522230446E8 7.541240623619167E-4 0.013109654469474666 0.9992458759376383 -0.013109654469474666 0.9992458759376383 -0.013109654469474666 7.541240623619167E-4 0.013109654469474666
2.338839673403185E8 7.629774445393974E-4 0.013303535916694446 0.9992370225554605 -0.013303535916694446 0.9992370225554605 -0.013303535916694446 7.629774445393974E-4 0.013303535916694446
2.37413604715664E8 7.720279303627457E-4 0.013500332865817746 0.9992279720696371 -0.013500332865817744 0.9992279720696371 -0.013500332865817744 7.720279303627457E-4 0.013500332865817746
