!Murata Part Number: LQG15HN15NG02
!These Parameters are Measured in Series Mode Connection
!       o--[Z]--o
!Port1              Port2
!       o-------o
!
!Freq. Start=50[MHz] Stop=20[GHz], 401[Steps]
# Hz S RI R 50
!Freq.(Hz) S11(Real) S11(Imag) S21(Real) S21(Imag) S12(Real) S12(Imag) S22(Real) S22(Imag)
5.0E7 0.00825023138473179 0.04684148683319203 0.9917497686152683 -0.04684148683319203 0.9917497686152683 -0.04684148683319203 0.00825023138473179 0.04684148683319203
5.0754570186123446E7 0.008363291018831752 0.0475009833047441 0.9916367089811682 -0.0475009833047441 0.9916367089811682 -0.0475009833047441 0.008363291018831752 0.0475009833047441
5.152052789556263E7 0.008478716744197142 0.04816957350456417 0.9915212832558027 -0.04816957350456417 0.9915212832558027 -0.04816957350456417 0.008478716744197142 0.04816957350456417
5.229804498202928E7 0.008596554042610801 0.04884737720708314 0.991403445957389 -0.04884737720708313 0.991403445957389 -0.04884737720708313 0.008596554042610801 0.04884737720708314
5.308729589274893E7 0.008716849256681218 0.049534516236575704 0.9912831507433189 -0.049534516236575704 0.9912831507433189 -0.049534516236575704 0.008716849256681218 0.049534516236575704
5.388845770760058E7 0.008839649643386713 0.05023111452120323 0.9911603503566132 -0.050231114521203234 0.9911603503566132 -0.050231114521203234 0.008839649643386713 0.05023111452120323
5.470171017884717E7 0.00896500343112844 0.050937298146815455 0.9910349965688715 -0.050937298146815455 0.9910349965688715 -0.050937298146815455 0.00896500343112844 0.050937298146815455
5.5527235771465644E7 0.00909295988035707 0.05165319541034582 0.9909070401196429 -0.05165319541034583 0.9909070401196429 -0.05165319541034583 0.00909295988035707 0.05165319541034582
5.6365219704085544E7 0.009223569347828888 0.052378936872630004 0.9907764306521711 -0.052378936872630004 0.9907764306521711 -0.052378936872630004 0.009223569347828888 0.052378936872630004
5.721584999054556E7 0.009356883354537498 0.05311465541047085 0.9906431166454626 -0.05311465541047085 0.9906431166454626 -0.05311465541047085 0.009356883354537498 0.05311465541047085
5.807931748207712E7 0.009492954657357573 0.05386048626776999 0.9905070453426426 -0.05386048626776999 0.9905070453426426 -0.05386048626776999 0.009492954657357573 0.05386048626776999
5.8955815910124585E7 0.009631837324426115 0.05461656710554105 0.9903681626755739 -0.05461656710554105 0.9903681626755739 -0.05461656710554105 0.009631837324426115 0.05461656710554105
5.984554192981184E7 0.009773586814276439 0.05538303805061792 0.9902264131857236 -0.05538303805061792 0.9902264131857236 -0.05538303805061792 0.009773586814276439 0.05538303805061792
6.074869516406457E7 0.009918260058728628 0.05616004174286836 0.9900817399412714 -0.05616004174286836 0.9900817399412714 -0.05616004174286836 0.009918260058728628 0.05616004174286836
6.166547824839868E7 0.010065915549529118 0.056947723380723264 0.9899340844504707 -0.056947723380723264 0.9899340844504707 -0.056947723380723264 0.010065915549529118 0.056947723380723264
6.2596096876384385E7 0.010216613428720548 0.057746230764830375 0.9897833865712793 -0.057746230764830375 0.9897833865712793 -0.057746230764830375 0.010216613428720548 0.057746230764830375
6.354075984579668E7 0.010370415582711772 0.058555714339643586 0.989629584417288 -0.058555714339643586 0.989629584417288 -0.058555714339643586 0.010370415582711772 0.058555714339643586
6.449967910546205E7 0.01052738574000641 0.05937632723275908 0.9894726142599936 -0.05937632723275908 0.9894726142599936 -0.05937632723275908 0.01052738574000641 0.05937632723275908
6.547306980281226E7 0.010687589572537246 0.06020822529181354 0.9893124104274628 -0.06020822529181354 0.9893124104274628 -0.06020822529181354 0.010687589572537246 0.06020822529181354
6.646115033215589E7 0.010851094800542884 0.06105156711876257 0.9891489051994573 -0.061051567118762584 0.9891489051994573 -0.061051567118762584 0.010851094800542884 0.06105156711876257
6.746414238367817E7 0.011017971300912435 0.061906514101362047 0.9889820286990875 -0.061906514101362047 0.9889820286990875 -0.061906514101362047 0.011017971300912435 0.061906514101362047
6.848227099318038E7 0.011188291218913989 0.0627732304416809 0.988811708781086 -0.06277323044168089 0.988811708781086 -0.06277323044168089 0.011188291218913989 0.0627732304416809
6.951576459256999E7 0.01136212908321306 0.06365188318147984 0.9886378709167869 -0.06365188318147985 0.9886378709167869 -0.06365188318147985 0.01136212908321306 0.06365188318147984
7.056485506111258E7 0.011539561924078222 0.06454264222429765 0.9884604380759219 -0.06454264222429765 0.9884604380759219 -0.06454264222429765 0.011539561924078222 0.06454264222429765
7.162977777745734E7 0.011720669394662873 0.06544568035409412 0.9882793306053372 -0.06544568035409412 0.9882793306053372 -0.06544568035409412 0.011720669394662873 0.06544568035409412
7.271077167244768E7 0.01190553389524485 0.06636117325030833 0.9880944661047553 -0.06636117325030833 0.9880944661047553 -0.06636117325030833 0.01190553389524485 0.06636117325030833
7.380807928272885E7 0.012094240700298745 0.06728929949919822 0.9879057592997014 -0.06728929949919821 0.9879057592997014 -0.06728929949919821 0.012094240700298745 0.06728929949919822
7.492194680516452E7 0.012286878088270252 0.06823024060133857 0.9877131219117297 -0.06823024060133859 0.9877131219117297 -0.06823024060133859 0.012286878088270252 0.06823024060133857
7.60526241520746E7 0.012483537473917101 0.06918418097516357 0.9875164625260828 -0.06918418097516357 0.9875164625260828 -0.06918418097516357 0.012483537473917101 0.06918418097516357
7.720036500730675E7 0.012684313543077532 0.07015130795645043 0.9873156864569225 -0.07015130795645043 0.9873156864569225 -0.07015130795645043 0.012684313543077532 0.07015130795645043
7.836542688315398E7 0.012889304389724247 0.07113181179365131 0.9871106956102756 -0.07113181179365131 0.9871106956102756 -0.07113181179365131 0.012889304389724247 0.07113181179365131
7.954807117813127E7 0.013098611655160684 0.07212588563899143 0.9869013883448392 -0.07212588563899143 0.9869013883448392 -0.07212588563899143 0.013098611655160684 0.07212588563899143
8.074856323562416E7 0.01331234066921504 0.07313372553526035 0.986687659330785 -0.07313372553526035 0.986687659330785 -0.07313372553526035 0.01331234066921504 0.07313372553526035
8.196717240342227E7 0.013530600593288943 0.07415553039823643 0.9864693994067111 -0.07415553039823643 0.9864693994067111 -0.07415553039823643 0.013530600593288943 0.07415553039823643
8.320417209415154E7 0.013753504565118233 0.07519150199469218 0.9862464954348816 -0.07519150199469218 0.9862464954348816 -0.07519150199469218 0.013753504565118233 0.07519150199469218
8.445983984661816E7 0.013981169845106374 0.07624184491593905 0.9860188301548934 -0.07624184491593905 0.9860188301548934 -0.07624184491593905 0.013981169845106374 0.07624184491593905
8.573445738807854E7 0.014213717964094302 0.07730676654688012 0.9857862820359057 -0.07730676654688011 0.9857862820359057 -0.07730676654688011 0.014213717964094302 0.07730676654688012
8.702831069744885E7 0.014451274872434788 0.07838647703054678 0.9855487251275652 -0.07838647703054678 0.9855487251275652 -0.07838647703054678 0.014451274872434788 0.07838647703054678
8.834169006946853E7 0.014693971090244895 0.07948118922810508 0.985306028909755 -0.07948118922810508 0.985306028909755 -0.07948118922810508 0.014693971090244895 0.07948118922810508
8.96748901798321E7 0.014941941858715871 0.08059111867432367 0.9850580581412841 -0.08059111867432367 0.9850580581412841 -0.08059111867432367 0.014941941858715871 0.08059111867432367
9.1028210151304E7 0.015195327292366825 0.08171648352850343 0.9848046727076332 -0.08171648352850344 0.9848046727076332 -0.08171648352850344 0.015195327292366825 0.08171648352850343
9.240195362083109E7 0.015454272532135575 0.0828575045208732 0.9845457274678644 -0.08285750452087319 0.9845457274678644 -0.08285750452087319 0.015454272532135575 0.0828575045208732
9.379642880766791E7 0.01571892789920844 0.08401440489446244 0.9842810721007917 -0.08401440489446245 0.9842810721007917 -0.08401440489446245 0.01571892789920844 0.08401440489446244
9.521194858253023E7 0.01598944904949854 0.08518741034246452 0.9840105509505015 -0.08518741034246452 0.9840105509505015 -0.08518741034246452 0.01598944904949854 0.08518741034246452
9.664883053779216E7 0.016265997128691718 0.08637674894110886 0.9837340028713083 -0.08637674894110887 0.9837340028713083 -0.08637674894110887 0.016265997128691718 0.08637674894110886
9.810739705874248E7 0.016548738927787045 0.08758265107805989 0.9834512610722129 -0.08758265107805989 0.9834512610722129 -0.08758265107805989 0.016548738927787045 0.08758265107805989
9.958797539591652E7 0.01683784703906921 0.08880534937636426 0.9831621529609308 -0.08880534937636426 0.9831621529609308 -0.08880534937636426 0.01683784703906921 0.08880534937636426
1.0109089773851961E8 0.017133500012458145 0.09004507861396563 0.9828664999875417 -0.09004507861396562 0.9828664999875417 -0.09004507861396562 0.017133500012458145 0.09004507861396563
1.0261650128895843E8 0.017435882512191418 0.09130207563880714 0.9825641174878087 -0.09130207563880714 0.9825641174878087 -0.09130207563880714 0.017435882512191418 0.09130207563880714
1.0416512833849736E8 0.017745185473802605 0.0925765792795367 0.9822548145261975 -0.0925765792795367 0.9822548145261975 -0.0925765792795367 0.017745185473802605 0.0925765792795367
1.0573712634405641E8 0.01806160626136899 0.09386883025183099 0.981938393738631 -0.09386883025183099 0.981938393738631 -0.09386883025183099 0.01806160626136899 0.09386883025183099
1.0733284800616828E8 0.018385348825008932 0.09517907106034583 0.9816146511749911 -0.09517907106034584 0.9816146511749911 -0.09517907106034584 0.018385348825008932 0.09517907106034583
1.0895265134811176E8 0.01871662385861801 0.09650754589629841 0.9812833761413821 -0.09650754589629841 0.9812833761413821 -0.09650754589629841 0.01871662385861801 0.09650754589629841
1.1059689979623953E8 0.019055648957840194 0.09785450053068001 0.9809443510421599 -0.09785450053068001 0.9809443510421599 -0.09785450053068001 0.019055648957840194 0.09785450053068001
1.1226596226151802E8 0.01940264877827681 0.09922018220309005 0.9805973512217232 -0.09922018220309006 0.9805973512217232 -0.09922018220309006 0.01940264877827681 0.09922018220309005
1.1396021322229806E8 0.0197578551939427 0.10060483950617691 0.9802421448060574 -0.10060483950617688 0.9802421448060574 -0.10060483950617688 0.0197578551939427 0.10060483950617691
1.1568003280833441E8 0.020121507455983862 0.10200872226565999 0.9798784925440163 -0.10200872226565999 0.9798784925440163 -0.10200872226565999 0.020121507455983862 0.10200872226565999
1.1742580688607343E8 0.02049385235167583 0.10343208141590175 0.9795061476483241 -0.10343208141590175 0.9795061476483241 -0.10343208141590175 0.02049385235167583 0.10343208141590175
1.1919792714522783E8 0.0208751443637257 0.10487516887098586 0.9791248556362745 -0.10487516887098586 0.9791248556362745 -0.10487516887098586 0.0208751443637257 0.10487516887098586
1.2099679118665792E8 0.0212656458299036 0.10633823739124972 0.9787343541700965 -0.10633823739124972 0.9787343541700965 -0.10633823739124972 0.0212656458299036 0.10633823739124972
1.2282280261157903E8 0.02166562710303159 0.10782154044520938 0.9783343728969685 -0.10782154044520938 0.9783343728969685 -0.10782154044520938 0.02166562710303159 0.10782154044520938
1.2467637111211549E8 0.022075366711359113 0.1093253320668027 0.9779246332886409 -0.1093253320668027 0.9779246332886409 -0.1093253320668027 0.022075366711359113 0.1093253320668027
1.265579125632208E8 0.022495151519354033 0.11084986670786741 0.9775048484806459 -0.11084986670786741 0.9775048484806459 -0.11084986670786741 0.022495151519354033 0.11084986670786741
1.284678491159853E8 0.022925276888938095 0.1123953990857587 0.9770747231110619 -0.1123953990857587 0.9770747231110619 -0.1123953990857587 0.022925276888938095 0.1123953990857587
1.3040660929235186E8 0.023366046841193647 0.11396218402600053 0.9766339531588065 -0.11396218402600053 0.9766339531588065 -0.11396218402600053 0.023366046841193647 0.11396218402600053
1.3237462808126101E8 0.023817774218565953 0.11555047629985314 0.976182225781434 -0.11555047629985313 0.976182225781434 -0.11555047629985313 0.023817774218565953 0.11555047629985314
1.3437234703624701E8 0.024280780847582298 0.11716053045666891 0.9757192191524175 -0.11716053045666888 0.9757192191524175 -0.11716053045666888 0.024280780847582298 0.11716053045666891
1.364002143745067E8 0.024755397702104234 0.11879260065089678 0.9752446022978956 -0.11879260065089678 0.9752446022978956 -0.11879260065089678 0.024755397702104234 0.11879260065089678
1.3845868507746372E8 0.02524196506712507 0.12044694046358699 0.9747580349328749 -0.12044694046358699 0.9747580349328749 -0.12044694046358699 0.02524196506712507 0.12044694046358699
1.405482209928499E8 0.025740832703117344 0.12212380271823317 0.9742591672968828 -0.12212380271823317 0.9742591672968828 -0.12212380271823317 0.025740832703117344 0.12212380271823317
1.426692909383278E8 0.02625236001093016 0.12382343929078458 0.9737476399890698 -0.12382343929078458 0.9737476399890698 -0.12382343929078458 0.02625236001093016 0.12382343929078458
1.4482237080667645E8 0.02677691619722686 0.1255461009136453 0.9732230838027732 -0.12554610091364532 0.9732230838027732 -0.12554610091364532 0.02677691619722686 0.1255461009136453
1.4700794367256513E8 0.027314880440447078 0.1272920369734729 0.9726851195595532 -0.1272920369734729 0.9726851195595532 -0.1272920369734729 0.027314880440447078 0.1272920369734729
1.492264999009378E8 0.027866642057266963 0.12906149530257638 0.9721333579427331 -0.12906149530257635 0.9721333579427331 -0.12906149530257635 0.027866642057266963 0.12906149530257638
1.5147853725703382E8 0.028432600669523408 0.13085472196370707 0.9715673993304768 -0.13085472196370707 0.9715673993304768 -0.13085472196370707 0.028432600669523408 0.13085472196370707
1.5376456101806876E8 0.02901316637155685 0.1326719610280268 0.9709868336284432 -0.13267196102802678 0.9709868336284432 -0.13267196102802678 0.02901316637155685 0.1326719610280268
1.5608508408660066E8 0.029608759897918002 0.13451345434603038 0.970391240102082 -0.13451345434603038 0.970391240102082 -0.13451345434603038 0.029608759897918002 0.13451345434603038
1.5844062710560706E8 0.03021981279137184 0.1363794413111918 0.9697801872086282 -0.13637944131119184 0.9697801872086282 -0.13637944131119184 0.03021981279137184 0.1363794413111918
1.6083171857529896E8 0.03084676757112241 0.1382701586160992 0.9691532324288776 -0.1382701586160992 0.9691532324288776 -0.1382701586160992 0.03084676757112241 0.1382701586160992
1.632588949716973E8 0.03149007790116864 0.14018584000083287 0.9685099220988314 -0.14018584000083287 0.9685099220988314 -0.14018584000083287 0.03149007790116864 0.14018584000083287
1.6572270086699936E8 0.0321502087586914 0.14212671599334137 0.9678497912413085 -0.14212671599334137 0.9678497912413085 -0.14212671599334137 0.0321502087586914 0.14212671599334137
1.6822368905176118E8 0.03282763660235814 0.144093013641559 0.9671723633976418 -0.144093013641559 0.9671723633976418 -0.144093013641559 0.03282763660235814 0.144093013641559
1.7076242065892437E8 0.033522849540420195 0.14608495623700787 0.9664771504595799 -0.14608495623700787 0.9664771504595799 -0.14608495623700787 0.033522849540420195 0.14608495623700787
1.7333946528971428E8 0.034236347498465235 0.14810276302962216 0.9657636525015347 -0.14810276302962216 0.9657636525015347 -0.14810276302962216 0.034236347498465235 0.14810276302962216
1.7595540114143828E8 0.03496864238667414 0.150146648933527 0.9650313576133258 -0.150146648933527 0.9650313576133258 -0.150146648933527 0.03496864238667414 0.150146648933527
1.786108151372127E8 0.03572025826641904 0.1522168242235023 0.9642797417335808 -0.1522168242235023 0.9642797417335808 -0.1522168242235023 0.03572025826641904 0.1522168242235023
1.8130630305764765E8 0.03649173151602688 0.1543134942218591 0.9635082684839732 -0.15431349422185914 0.9635082684839732 -0.15431349422185914 0.03649173151602688 0.1543134942218591
1.840424696745189E8 0.037283610995519086 0.1564368589754506 0.9627163890044811 -0.15643685897545062 0.9627163890044811 -0.15643685897545062 0.037283610995519086 0.1564368589754506
1.8681992888645732E8 0.03809645821012513 0.15858711292253974 0.9619035417898748 -0.15858711292253974 0.9619035417898748 -0.15858711292253974 0.03809645821012513 0.15858711292253974
1.8963930385668582E8 0.038930847472355486 0.16076444454924244 0.9610691525276444 -0.16076444454924244 0.9610691525276444 -0.16076444454924244 0.038930847472355486 0.16076444454924244
1.92501227152835E8 0.03978736606240465 0.16296903603526017 0.9602126339375955 -0.16296903603526017 0.9602126339375955 -0.16296903603526017 0.03978736606240465 0.16296903603526017
1.9540634088886917E8 0.04066661438664406 0.16520106288861913 0.9593333856133558 -0.16520106288861913 0.9593333856133558 -0.16520106288861913 0.04066661438664406 0.16520106288861913
1.983552968691535E8 0.04156920613394817 0.16746069356912271 0.9584307938660518 -0.16746069356912271 0.9584307938660518 -0.16746069356912271 0.04156920613394817 0.16746069356912271
2.0134875673469606E8 0.042495768429587175 0.1697480891002302 0.9575042315704128 -0.1697480891002302 0.9575042315704128 -0.1697480891002302 0.042495768429587175 0.1697480891002302
2.0438739211159652E8 0.04344694198640303 0.17206340266906525 0.9565530580135969 -0.17206340266906522 0.9565530580135969 -0.17206340266906522 0.04344694198640303 0.17206340266906525
2.074718847617352E8 0.044423381252973584 0.17440677921425868 0.9555766187470262 -0.17440677921425868 0.9555766187470262 -0.17440677921425868 0.044423381252973584 0.17440677921425868
2.106029267357361E8 0.045425754558454164 0.1767783550013253 0.9545742454415458 -0.1767783550013253 0.9545742454415458 -0.1767783550013253 0.045425754558454164 0.1767783550013253
2.1378122052823865E8 0.04645474425377309 0.1791782571852734 0.953545255746227 -0.1791782571852734 0.953545255746227 -0.1791782571852734 0.04645474425377309 0.1791782571852734
2.1700747923551247E8 0.04751104684884034 0.1816066033601384 0.9524889531511596 -0.1816066033601384 0.9524889531511596 -0.1816066033601384 0.04751104684884034 0.1816066033601384
2.2028242671545094E8 0.04859537314541551 0.18406350109513242 0.9514046268545843 -0.18406350109513242 0.9514046268545843 -0.18406350109513242 0.04859537314541551 0.18406350109513242
2.23606797749979E8 0.04970844836526365 0.1865490474570932 0.9502915516347363 -0.1865490474570932 0.9502915516347363 -0.1865490474570932 0.04970844836526365 0.1865490474570932
2.2698133820991236E8 0.05085101227321055 0.18906332851891314 0.9491489877267895 -0.18906332851891314 0.9491489877267895 -0.18906332851891314 0.05085101227321055 0.18906332851891314
2.3040680522230446E8 0.052023819294692825 0.19160641885362398 0.9479761807053073 -0.19160641885362398 0.9479761807053073 -0.19160641885362398 0.052023819294692825 0.19160641885362398
2.338839673403185E8 0.0532276386273775 0.1941783810138049 0.9467723613726224 -0.1941783810138049 0.9467723613726224 -0.1941783810138049 0.0532276386273775 0.1941783810138049
2.37413604715664E8 0.05446325434640683 0.19677926499597753 0.9455367456535931 -0.19677926499597753 0.9455367456535931 -0.19677926499597753 0.05446325434640683 0.19677926499597753
2.4099650927363476E8 0.05573146550280273 0.19940910768964243 0.9442685344971973 -0.19940910768964243 0.9442685344971973 -0.19940910768964243 0.05573146550280273 0.19940910768964243
2.446334848907889E8 0.057033086214541936 0.2020679323106062 0.9429669137854582 -0.20206793231060627 0.9429669137854582 -0.20206793231060627 0.057033086214541936 0.2020679323106062
2.4832534757531032E8 0.058368945749788445 0.20475574781823963 0.9416310542502114 -0.20475574781823963 0.9416310542502114 -0.20475574781823963 0.058368945749788445 0.20475574781823963
