!Murata Part Number: LQG15HNR12G02
!These Parameters are Measured in Series Mode Connection
!       o--[Z]--o
!Port1              Port2
!       o-------o
!
!Freq. Start=50[MHz] Stop=20[GHz], 401[Steps]
# Hz S RI R 50
!Freq.(Hz) S11(Real) S11(Imag) S21(Real) S21(Imag) S12(Real) S12(Imag) S22(Real) S22(Imag)
5.0E7 0.1565526981729102 0.3048513461252655 0.8434473018270897 -0.3048513461252655 0.8434473018270897 -0.3048513461252655 0.1565526981729102 0.3048513461252655
5.0754570186123446E7 0.1596007820268564 0.3079573153548008 0.8403992179731437 -0.3079573153548008 0.8403992179731437 -0.3079573153548008 0.1596007820268564 0.3079573153548008
5.152052789556263E7 0.1627083183968435 0.31106939818460055 0.8372916816031566 -0.31106939818460055 0.8372916816031566 -0.31106939818460055 0.1627083183968435 0.31106939818460055
5.229804498202928E7 0.1658760096975405 0.31418660078476884 0.8341239903024593 -0.31418660078476884 0.8341239903024593 -0.31418660078476884 0.1658760096975405 0.31418660078476884
5.308729589274893E7 0.16910454554705973 0.3173078983082951 0.8308954544529402 -0.31730789830829503 0.8308954544529402 -0.31730789830829503 0.16910454554705973 0.3173078983082951
5.388845770760058E7 0.17239460181492203 0.320432234622781 0.827605398185078 -0.320432234622781 0.827605398185078 -0.320432234622781 0.17239460181492203 0.320432234622781
5.470171017884717E7 0.17574683963582283 0.32355852205560187 0.824253160364177 -0.3235585220556019 0.824253160364177 -0.3235585220556019 0.17574683963582283 0.32355852205560187
5.5527235771465644E7 0.17916190438766574 0.3266856411544098 0.8208380956123342 -0.3266856411544098 0.8208380956123342 -0.3266856411544098 0.17916190438766574 0.3266856411544098
5.6365219704085544E7 0.18264042463236638 0.32981244046511327 0.8173595753676336 -0.32981244046511327 0.8173595753676336 -0.32981244046511327 0.18264042463236638 0.32981244046511327
5.721584999054556E7 0.18618301101798398 0.33293773632971235 0.8138169889820159 -0.33293773632971235 0.8138169889820159 -0.33293773632971235 0.18618301101798398 0.33293773632971235
5.807931748207712E7 0.1897902551408191 0.33606031270660747 0.810209744859181 -0.3360603127066074 0.810209744859181 -0.3360603127066074 0.1897902551408191 0.33606031270660747
5.8955815910124585E7 0.1934627283662239 0.33917892101625524 0.806537271633776 -0.33917892101625524 0.806537271633776 -0.33917892101625524 0.1934627283662239 0.33917892101625524
5.984554192981184E7 0.19720098060699798 0.3422922800152972 0.802799019393002 -0.34229228001529727 0.802799019393002 -0.34229228001529727 0.19720098060699798 0.3422922800152972
6.074869516406457E7 0.20100553905841162 0.345399075702539 0.7989944609415885 -0.345399075702539 0.7989944609415885 -0.345399075702539 0.20100553905841162 0.345399075702539
6.166547824839868E7 0.20487690688908583 0.34849796126041416 0.7951230931109141 -0.34849796126041416 0.7951230931109141 -0.34849796126041416 0.20487690688908583 0.34849796126041416
6.2596096876384385E7 0.20881556188717787 0.3515875570358073 0.7911844381128221 -0.3515875570358073 0.7911844381128221 -0.3515875570358073 0.20881556188717787 0.3515875570358073
6.354075984579668E7 0.2128219550615804 0.3546664505643534 0.7871780449384195 -0.3546664505643534 0.7871780449384195 -0.3546664505643534 0.2128219550615804 0.3546664505643534
6.449967910546205E7 0.21689650919811992 0.35773319664255404 0.7831034908018801 -0.35773319664255404 0.7831034908018801 -0.35773319664255404 0.21689650919811992 0.35773319664255404
6.547306980281226E7 0.22103961737106237 0.36078631745226153 0.7789603826289375 -0.36078631745226153 0.7789603826289375 -0.36078631745226153 0.22103961737106237 0.36078631745226153
6.646115033215589E7 0.2252516414105784 0.36382430274227756 0.7747483585894216 -0.36382430274227756 0.7747483585894216 -0.36382430274227756 0.2252516414105784 0.36382430274227756
6.746414238367817E7 0.2295329103272003 0.36684561007197675 0.7704670896727998 -0.36684561007197675 0.7704670896727998 -0.36684561007197675 0.2295329103272003 0.36684561007197675
6.848227099318038E7 0.23388371869470967 0.3698486651220141 0.7661162813052904 -0.3698486651220141 0.7661162813052904 -0.3698486651220141 0.23388371869470967 0.3698486651220141
6.951576459256999E7 0.23830432499333698 0.37283186207728675 0.7616956750066631 -0.3728318620772868 0.7616956750066631 -0.3728318620772868 0.23830432499333698 0.37283186207728675
7.056485506111258E7 0.24279494991560518 0.3757935640873984 0.7572050500843949 -0.37579356408739845 0.7572050500843949 -0.37579356408739845 0.24279494991560518 0.3757935640873984
7.162977777745734E7 0.24735577463765182 0.378732103809922 0.7526442253623481 -0.37873210380992206 0.7526442253623481 -0.37873210380992206 0.24735577463765182 0.378732103809922
7.271077167244768E7 0.2519869390593594 0.3816457840417548 0.7480130609406407 -0.3816457840417548 0.7480130609406407 -0.3816457840417548 0.2519869390593594 0.3816457840417548
7.380807928272885E7 0.25668854001715435 0.3845328784438172 0.7433114599828458 -0.3845328784438172 0.7433114599828458 -0.3845328784438172 0.25668854001715435 0.3845328784438172
7.492194680516452E7 0.2614606294738812 0.3873916323642657 0.7385393705261188 -0.38739163236426566 0.7385393705261188 -0.38739163236426566 0.2614606294738812 0.3873916323642657
7.60526241520746E7 0.2663032126907003 0.3902202637652398 0.7336967873092998 -0.3902202637652398 0.7336967873092998 -0.3902202637652398 0.2663032126907003 0.3902202637652398
7.720036500730675E7 0.27121624638652064 0.39301696425798255 0.7287837536134795 -0.39301696425798255 0.7287837536134795 -0.39301696425798255 0.27121624638652064 0.39301696425798255
7.836542688315398E7 0.2761996368910409 0.39577990025092435 0.7238003631089591 -0.39577990025092435 0.7238003631089591 -0.39577990025092435 0.2761996368910409 0.39577990025092435
7.954807117813127E7 0.28125323829801907 0.3985072142150192 0.718746761701981 -0.3985072142150192 0.718746761701981 -0.3985072142150192 0.28125323829801907 0.3985072142150192
8.074856323562416E7 0.286376850625944 0.4011970260702637 0.7136231493740559 -0.40119702607026364 0.7136231493740559 -0.40119702607026364 0.286376850625944 0.4011970260702637
8.196717240342227E7 0.2915702179938142 0.40384743469691553 0.7084297820061859 -0.40384743469691553 0.7084297820061859 -0.40384743469691553 0.2915702179938142 0.40384743469691553
8.320417209415154E7 0.2968330268202352 0.40645651957445034 0.7031669731797648 -0.4064565195744503 0.7031669731797648 -0.4064565195744503 0.2968330268202352 0.40645651957445034
8.445983984661816E7 0.3021649040545352 0.4090223425507654 0.6978350959454648 -0.4090223425507654 0.6978350959454648 -0.4090223425507654 0.3021649040545352 0.4090223425507654
8.573445738807854E7 0.30756541544905414 0.41154294974355043 0.692434584550946 -0.4115429497435504 0.692434584550946 -0.4115429497435504 0.30756541544905414 0.41154294974355043
8.702831069744885E7 0.31303406388216565 0.4140163735750994 0.6869659361178342 -0.4140163735750994 0.6869659361178342 -0.4140163735750994 0.31303406388216565 0.4140163735750994
8.834169006946853E7 0.3185702877419715 0.41644063494114364 0.6814297122580283 -0.41644063494114364 0.6814297122580283 -0.41644063494114364 0.3185702877419715 0.41644063494114364
8.96748901798321E7 0.3241734593809153 0.4188137455135369 0.6758265406190848 -0.4188137455135369 0.6758265406190848 -0.4188137455135369 0.3241734593809153 0.4188137455135369
9.1028210151304E7 0.3298428836518331 0.42113371017583257 0.6701571163481668 -0.42113371017583257 0.6701571163481668 -0.42113371017583257 0.3298428836518331 0.42113371017583257
9.240195362083109E7 0.3355777965361486 0.42339852958995805 0.6644222034638514 -0.423398529589958 0.6644222034638514 -0.423398529589958 0.3355777965361486 0.42339852958995805
9.379642880766791E7 0.3413773638750573 0.4256062028913166 0.6586226361249428 -0.4256062028913166 0.6586226361249428 -0.4256062028913166 0.3413773638750573 0.4256062028913166
9.521194858253023E7 0.3472406802146015 0.4277547305087509 0.6527593197853985 -0.42775473050875085 0.6527593197853985 -0.42775473050875085 0.3472406802146015 0.4277547305087509
9.664883053779216E7 0.35316676777551814 0.4298421171048656 0.6468332322244819 -0.42984211710486553 0.6468332322244819 -0.42984211710486553 0.35316676777551814 0.4298421171048656
9.810739705874248E7 0.35915457555863806 0.4318663746312657 0.640845424441362 -0.4318663746312657 0.640845424441362 -0.4318663746312657 0.35915457555863806 0.4318663746312657
9.958797539591652E7 0.3652029785964423 0.4338255254923083 0.6347970214035578 -0.4338255254923083 0.6347970214035578 -0.4338255254923083 0.3652029785964423 0.4338255254923083
1.0109089773851961E8 0.37131077736109536 0.4357176058100028 0.6286892226389047 -0.43571760581000274 0.6286892226389047 -0.43571760581000274 0.37131077736109536 0.4357176058100028
1.0261650128895843E8 0.3774766973389241 0.43754066878173803 0.6225233026610757 -0.437540668781738 0.6225233026610757 -0.437540668781738 0.3774766973389241 0.43754066878173803
1.0416512833849736E8 0.3836993887808575 0.4392927881215761 0.6163006112191426 -0.4392927881215761 0.6163006112191426 -0.4392927881215761 0.3836993887808575 0.4392927881215761
1.0573712634405641E8 0.3899774266378004 0.4409720615749242 0.6100225733621994 -0.44097206157492413 0.6100225733621994 -0.44097206157492413 0.3899774266378004 0.4409720615749242
1.0733284800616828E8 0.39630931068928404 0.44257661449551583 0.603690689310716 -0.44257661449551583 0.603690689310716 -0.44257661449551583 0.39630931068928404 0.44257661449551583
1.0895265134811176E8 0.40269346587301597 0.44410460347277275 0.5973065341269841 -0.4441046034727728 0.5973065341269841 -0.4441046034727728 0.40269346587301597 0.44410460347277275
1.1059689979623953E8 0.40912824282214616 0.4455542199968298 0.5908717571778539 -0.4455542199968298 0.5908717571778539 -0.4455542199968298 0.40912824282214616 0.4455542199968298
1.1226596226151802E8 0.4156119186161768 0.44692369414775224 0.5843880813838234 -0.4469236941477523 0.5843880813838234 -0.4469236941477523 0.4156119186161768 0.44692369414775224
1.1396021322229806E8 0.4221426977504783 0.44821129829481043 0.5778573022495217 -0.44821129829481043 0.5778573022495217 -0.44821129829481043 0.4221426977504783 0.44821129829481043
1.1568003280833441E8 0.42871871332833367 0.44941535079106903 0.5712812866716663 -0.4494153507910689 0.5712812866716663 -0.4494153507910689 0.42871871332833367 0.44941535079106903
1.1742580688607343E8 0.4353380284783249 0.4505342196480354 0.5646619715216751 -0.4505342196480354 0.5646619715216751 -0.4505342196480354 0.4353380284783249 0.4505342196480354
1.1919792714522783E8 0.44199863799871675 0.45156632617468956 0.5580013620012833 -0.4515663261746895 0.5580013620012833 -0.4515663261746895 0.44199863799871675 0.45156632617468956
1.2099679118665792E8 0.4486984702292642 0.4525101485648796 0.5513015297707358 -0.4525101485648795 0.5513015297707358 -0.4525101485648795 0.4486984702292642 0.4525101485648796
1.2282280261157903E8 0.4554353891496224 0.4533642254168574 0.5445646108503777 -0.4533642254168574 0.5445646108503777 -0.4533642254168574 0.4554353891496224 0.4533642254168574
1.2467637111211549E8 0.4622071967022395 0.4541271591685994 0.5377928032977605 -0.4541271591685994 0.5377928032977605 -0.4541271591685994 0.4622071967022395 0.4541271591685994
1.265579125632208E8 0.4690116353362946 0.4547976194325624 0.5309883646637054 -0.4547976194325623 0.5309883646637054 -0.4547976194325623 0.4690116353362946 0.4547976194325624
1.284678491159853E8 0.47584639076792234 0.45537434621363526 0.5241536092320777 -0.45537434621363526 0.5241536092320777 -0.45537434621363526 0.47584639076792234 0.45537434621363526
1.3040660929235186E8 0.48270909495062864 0.45585615299428073 0.5172909050493713 -0.45585615299428073 0.5172909050493713 -0.45585615299428073 0.48270909495062864 0.45585615299428073
1.3237462808126101E8 0.4895973292484921 0.4562419296712075 0.5104026707515078 -0.4562419296712075 0.5104026707515078 -0.4562419296712075 0.4895973292484921 0.4562419296712075
1.3437234703624701E8 0.49650862780343874 0.4565306453283876 0.5034913721965614 -0.4565306453283876 0.5034913721965614 -0.4565306453283876 0.49650862780343874 0.4565306453283876
1.364002143745067E8 0.5034404810866238 0.4567213508318181 0.49655951891337624 -0.4567213508318181 0.49655951891337624 -0.4567213508318181 0.5034404810866238 0.4567213508318181
1.3845868507746372E8 0.5103903396227321 0.45681318123213005 0.48960966037726794 -0.4568131812321301 0.48960966037726794 -0.4568131812321301 0.5103903396227321 0.45681318123213005
1.405482209928499E8 0.5173556178748439 0.4568053579619577 0.48264438212515626 -0.4568053579619577 0.48264438212515626 -0.4568053579619577 0.5173556178748439 0.4568053579619577
1.426692909383278E8 0.5243336982764227 0.4566971908159033 0.4756663017235773 -0.4566971908159032 0.4756663017235773 -0.4566971908159032 0.5243336982764227 0.4566971908159033
1.4482237080667645E8 0.5313219353959666 0.4564880797019489 0.46867806460403344 -0.4564880797019489 0.46867806460403344 -0.4564880797019489 0.5313219353959666 0.4564880797019489
1.4700794367256513E8 0.5383176602189256 0.4561775161542795 0.46168233978107437 -0.4561775161542795 0.46168233978107437 -0.4561775161542795 0.5383176602189256 0.4561775161542795
1.492264999009378E8 0.5453181845306674 0.455765084598675 0.4546818154693327 -0.455765084598675 0.4546818154693327 -0.455765084598675 0.5453181845306674 0.455765084598675
1.5147853725703382E8 0.5523208053835376 0.4552504633628982 0.4476791946164623 -0.4552504633628982 0.4476791946164623 -0.4552504633628982 0.5523208053835376 0.4552504633628982
1.5376456101806876E8 0.5593228096304478 0.45463342542584284 0.4406771903695521 -0.45463342542584284 0.4406771903695521 -0.45463342542584284 0.5593228096304478 0.45463342542584284
1.5608508408660066E8 0.566321478506928 0.4539138389005875 0.43367852149307196 -0.45391383890058756 0.43367852149307196 -0.45391383890058756 0.566321478506928 0.4539138389005875
1.5844062710560706E8 0.5733140922431965 0.45309166724793837 0.4266859077568035 -0.45309166724793837 0.4266859077568035 -0.45309166724793837 0.5733140922431965 0.45309166724793837
1.6083171857529896E8 0.5802979346875693 0.4521669692184966 0.4197020653124307 -0.45216696921849653 0.4197020653124307 -0.45216696921849653 0.5802979346875693 0.4521669692184966
1.632588949716973E8 0.5872702979223937 0.45113989852276615 0.4127297020776063 -0.45113989852276615 0.4127297020776063 -0.45113989852276615 0.5872702979223937 0.45113989852276615
1.6572270086699936E8 0.5942284868537125 0.45001070323030234 0.40577151314628745 -0.4500107032303024 0.40577151314628745 -0.4500107032303024 0.5942284868537125 0.45001070323030234
1.6822368905176118E8 0.6011698237560015 0.44877972490037216 0.39883017624399836 -0.44877972490037216 0.39883017624399836 -0.44877972490037216 0.6011698237560015 0.44877972490037216
1.7076242065892437E8 0.6080916527535986 0.4474473974480555 0.39190834724640156 -0.4474473974480555 0.39190834724640156 -0.4474473974480555 0.6080916527535986 0.4474473974480555
1.7333946528971428E8 0.6149913442208264 0.4460142457511399 0.38500865577917376 -0.4460142457511399 0.38500865577917376 -0.4460142457511399 0.6149913442208264 0.4460142457511399
1.7595540114143828E8 0.6218662990833449 0.4444808840045368 0.37813370091665516 -0.4444808840045368 0.37813370091665516 -0.4444808840045368 0.6218662990833449 0.4444808840045368
1.786108151372127E8 0.6287139530038818 0.4428480138302774 0.3712860469961182 -0.4428480138302773 0.3712860469961182 -0.4428480138302773 0.6287139530038818 0.4428480138302774
1.8130630305764765E8 0.6355317804362545 0.4411164221523979 0.36446821956374553 -0.4411164221523979 0.36446821956374553 -0.4411164221523979 0.6355317804362545 0.4411164221523979
1.840424696745189E8 0.6423172985324248 0.4392869788472124 0.3576827014675751 -0.4392869788472125 0.3576827014675751 -0.4392869788472125 0.6423172985324248 0.4392869788472124
1.8681992888645732E8 0.6490680708882813 0.4373606341805663 0.35093192911171867 -0.43736063418056637 0.35093192911171867 -0.43736063418056637 0.6490680708882813 0.4373606341805663
1.8963930385668582E8 0.6557817111148619 0.43533841604466894 0.34421828888513806 -0.43533841604466894 0.34421828888513806 -0.43533841604466894 0.6557817111148619 0.43533841604466894
1.92501227152835E8 0.6624558862228356 0.4332214270080143 0.3375441137771644 -0.4332214270080143 0.3375441137771644 -0.4332214270080143 0.6624558862228356 0.4332214270080143
1.9540634088886917E8 0.6690883198092255 0.43101084119269417 0.33091168019077455 -0.4310108411926942 0.33091168019077455 -0.4310108411926942 0.6690883198092255 0.43101084119269417
1.983552968691535E8 0.6756767950365788 0.42870790099410344 0.3243232049634212 -0.42870790099410344 0.3243232049634212 -0.42870790099410344 0.6756767950365788 0.42870790099410344
2.0134875673469606E8 0.6822191573960519 0.4263139136586132 0.3177808426039481 -0.42631391365861326 0.3177808426039481 -0.42631391365861326 0.6822191573960519 0.4263139136586132
2.0438739211159652E8 0.6887133172471747 0.42383024773525024 0.3112866827528253 -0.42383024773525024 0.3112866827528253 -0.42383024773525024 0.6887133172471747 0.42383024773525024
2.074718847617352E8 0.6951572521283763 0.4212583294177658 0.3048427478716237 -0.42125832941776575 0.3048427478716237 -0.42125832941776575 0.6951572521283763 0.4212583294177658
2.106029267357361E8 0.701549008833682 0.41859963879370526 0.29845099116631796 -0.4185996387937052 0.29845099116631796 -0.4185996387937052 0.701549008833682 0.41859963879370526
2.1378122052823865E8 0.7078867052523089 0.4158557060172059 0.29211329474769115 -0.41585570601720595 0.29211329474769115 -0.41585570601720595 0.7078867052523089 0.4158557060172059
2.1700747923551247E8 0.7141685319692116 0.41302810742224355 0.28583146803078835 -0.41302810742224355 0.28583146803078835 -0.41302810742224355 0.7141685319692116 0.41302810742224355
2.2028242671545094E8 0.7203927536259128 0.4101184615929427 0.2796072463740873 -0.4101184615929427 0.2796072463740873 -0.4101184615929427 0.7203927536259128 0.4101184615929427
2.23606797749979E8 0.7265577100422088 0.407128425407349 0.2734422899577912 -0.40712842540734895 0.2734422899577912 -0.40712842540734895 0.7265577100422088 0.407128425407349
2.2698133820991236E8 0.7326618171005705 0.4040596900707397 0.2673381828994295 -0.40405969007073983 0.2673381828994295 -0.40405969007073983 0.7326618171005705 0.4040596900707397
2.3040680522230446E8 0.7387035673962147 0.40091397715414023 0.26129643260378543 -0.4009139771541401 0.26129643260378543 -0.4009139771541401 0.7387035673962147 0.40091397715414023
2.338839673403185E8 0.7446815306569392 0.39769303465320893 0.25531846934306074 -0.39769303465320904 0.25531846934306074 -0.39769303465320904 0.7446815306569392 0.39769303465320893
2.37413604715664E8 0.7505943539378678 0.3943986330820752 0.24940564606213222 -0.39439863308207523 0.24940564606213222 -0.39439863308207523 0.7505943539378678 0.3943986330820752
2.4099650927363476E8 0.7564407615972158 0.3910325616160487 0.24355923840278418 -0.3910325616160488 0.24355923840278418 -0.3910325616160488 0.7564407615972158 0.3910325616160487
2.446334848907889E8 0.7622195550601094 0.3875966242964045 0.23778044493989056 -0.38759662429640446 0.23778044493989056 -0.38759662429640446 0.7622195550601094 0.3875966242964045
2.4832534757531032E8 0.7679296123783033 0.3840926363096571 0.23207038762169677 -0.38409263630965707 0.23207038762169677 -0.38409263630965707 0.7679296123783033 0.3840926363096571
2.5207292565009177E8 0.7735698875943896 0.3805224203529152 0.22643011240561034 -0.3805224203529152 0.22643011240561034 -0.3805224203529152 0.7735698875943896 0.3805224203529152
2.558770599385812E8 0.7791394099197593 0.3768878030960228 0.22086059008024075 -0.3768878030960228 0.22086059008024075 -0.3768878030960228 0.7791394099197593 0.3768878030960228
2.5973860395343277E8 0.7846372827361311 0.373190611750301 0.21536271726386894 -0.3731906117503011 0.21536271726386894 -0.3731906117503011 0.7846372827361311 0.373190611750301
