!Murata Part Number: LQG15HN1N0C02
!These Parameters are Measured in Series Mode Connection
!       o--[Z]--o
!Port1              Port2
!       o-------o
!
!Freq. Start=50[MHz] Stop=20[GHz], 401[Steps]
# Hz S RI R 50
!Freq.(Hz) S11(Real) S11(Imag) S21(Real) S21(Imag) S12(Real) S12(Imag) S22(Real) S22(Imag)
5.0E7 4.017665962971566E-4 0.0023214688391367056 0.9995982334037028 -0.0023214688391367056 0.9995982334037028 -0.0023214688391367056 4.017665962971566E-4 0.0023214688391367056
5.0754570186123446E7 4.033683880456171E-4 0.0023556715031290937 0.9995966316119544 -0.0023556715031290937 0.9995966316119544 -0.0023556715031290937 4.033683880456171E-4 0.0023556715031290937
5.152052789556263E7 4.0499637422891405E-4 0.002390366732039456 0.999595003625771 -0.002390366732039456 0.999595003625771 -0.002390366732039456 4.0499637422891405E-4 0.002390366732039456
5.229804498202928E7 4.0665057315180666E-4 0.0024255615864763277 0.9995933494268482 -0.0024255615864763277 0.9995933494268482 -0.0024255615864763277 4.0665057315180666E-4 0.0024255615864763277
5.308729589274893E7 4.083309890807976E-4 0.002461263243762119 0.9995916690109192 -0.0024612632437621194 0.9995916690109192 -0.0024612632437621194 4.083309890807976E-4 0.002461263243762119
5.388845770760058E7 4.1003761234480754E-4 0.002497479000617614 0.9995899623876552 -0.0024974790006176144 0.9995899623876552 -0.0024974790006176144 4.1003761234480754E-4 0.002497479000617614
5.470171017884717E7 4.117704194949614E-4 0.002534216275891032 0.9995882295805049 -0.002534216275891032 0.9995882295805049 -0.002534216275891032 4.117704194949614E-4 0.002534216275891032
5.5527235771465644E7 4.1352937352580197E-4 0.002571482613328882 0.9995864706264744 -0.002571482613328882 0.9995864706264744 -0.002571482613328882 4.1352937352580197E-4 0.002571482613328882
5.6365219704085544E7 4.1531442416008126E-4 0.002609285684385712 0.99958468557584 -0.002609285684385712 0.99958468557584 -0.002609285684385712 4.1531442416008126E-4 0.002609285684385712
5.721584999054556E7 4.171255081990676E-4 0.002647633291069611 0.9995828744918009 -0.002647633291069611 0.9995828744918009 -0.002647633291069611 4.171255081990676E-4 0.002647633291069611
5.807931748207712E7 4.189625499401013E-4 0.00268653336882014 0.9995810374500599 -0.00268653336882014 0.9995810374500599 -0.00268653336882014 4.189625499401013E-4 0.00268653336882014
5.8955815910124585E7 4.208254616628871E-4 0.002725993989415226 0.9995791745383373 -0.0027259939894152254 0.9995791745383373 -0.0027259939894152254 4.208254616628871E-4 0.002725993989415226
5.984554192981184E7 4.227141441857624E-4 0.0027660233639033877 0.9995772858558142 -0.0027660233639033877 0.9995772858558142 -0.0027660233639033877 4.227141441857624E-4 0.0027660233639033877
6.074869516406457E7 4.246284874929017E-4 0.0028066298455575104 0.999575371512507 -0.002806629845557511 0.999575371512507 -0.002806629845557511 4.246284874929017E-4 0.0028066298455575104
6.166547824839868E7 4.265683714331431E-4 0.00284782193284631 0.9995734316285667 -0.00284782193284631 0.9995734316285667 -0.00284782193284631 4.265683714331431E-4 0.00284782193284631
6.2596096876384385E7 4.285336664908091E-4 0.0028896082724195094 0.9995714663335091 -0.0028896082724195094 0.9995714663335091 -0.0028896082724195094 4.285336664908091E-4 0.0028896082724195094
6.354075984579668E7 4.3052423462859357E-4 0.002931997662102702 0.9995694757653714 -0.002931997662102702 0.9995694757653714 -0.002931997662102702 4.3052423462859357E-4 0.002931997662102702
6.449967910546205E7 4.3253993020225963E-4 0.00297499905389783 0.9995674600697976 -0.0029749990538978296 0.9995674600697976 -0.0029749990538978296 4.3253993020225963E-4 0.00297499905389783
6.547306980281226E7 4.3458060094656297E-4 0.003018621556985173 0.9995654193990534 -0.003018621556985173 0.9995654193990534 -0.003018621556985173 4.3458060094656297E-4 0.003018621556985173
6.646115033215589E7 4.3664608903149166E-4 0.0030628744407228134 0.9995633539109686 -0.003062874440722813 0.9995633539109686 -0.003062874440722813 4.3664608903149166E-4 0.0030628744407228134
6.746414238367817E7 4.387362321875638E-4 0.0031077671376395126 0.9995612637678123 -0.0031077671376395126 0.9995612637678123 -0.0031077671376395126 4.387362321875638E-4 0.0031077671376395126
6.848227099318038E7 4.4085086489859665E-4 0.003153309246417053 0.9995591491351014 -0.003153309246417053 0.9995591491351014 -0.003153309246417053 4.4085086489859665E-4 0.003153309246417053
6.951576459256999E7 4.429898196600322E-4 0.003199510534858203 0.99955701018034 -0.0031995105348582025 0.99955701018034 -0.0031995105348582025 4.429898196600322E-4 0.003199510534858203
7.056485506111258E7 4.451529283005645E-4 0.0032463809428365576 0.9995548470716995 -0.0032463809428365576 0.9995548470716995 -0.0032463809428365576 4.451529283005645E-4 0.0032463809428365576
7.162977777745734E7 4.473400233645082E-4 0.003293930585224696 0.9995526599766354 -0.003293930585224696 0.9995526599766354 -0.003293930585224696 4.473400233645082E-4 0.003293930585224696
7.271077167244768E7 4.4955093955203275E-4 0.0033421697547972805 0.9995504490604481 -0.0033421697547972797 0.9995504490604481 -0.0033421697547972797 4.4955093955203275E-4 0.0033421697547972805
7.380807928272885E7 4.51785515214095E-4 0.003391108925105904 0.9995482144847859 -0.0033911089251059032 0.9995482144847859 -0.0033911089251059032 4.51785515214095E-4 0.003391108925105904
7.492194680516452E7 4.54043593898634E-4 0.003440758753322807 0.9995459564061014 -0.003440758753322807 0.9995459564061014 -0.003440758753322807 4.54043593898634E-4 0.003440758753322807
7.60526241520746E7 4.5632502594431776E-4 0.0034911300830507462 0.9995436749740556 -0.0034911300830507462 0.9995436749740556 -0.0034911300830507462 4.5632502594431776E-4 0.0034911300830507462
7.720036500730675E7 4.5862967011791385E-4 0.0035422339470966733 0.9995413703298821 -0.003542233947096673 0.9995413703298821 -0.003542233947096673 4.5862967011791385E-4 0.0035422339470966733
7.836542688315398E7 4.609573952911377E-4 0.0035940815702071626 0.9995390426047089 -0.0035940815702071626 0.9995390426047089 -0.0035940815702071626 4.609573952911377E-4 0.0035940815702071626
7.954807117813127E7 4.6330808215263707E-4 0.003646684371763822 0.9995366919178473 -0.0036466843717638227 0.9995366919178473 -0.0036466843717638227 4.6330808215263707E-4 0.003646684371763822
8.074856323562416E7 4.656816249506293E-4 0.003700053968437313 0.9995343183750494 -0.003700053968437313 0.9995343183750494 -0.003700053968437313 4.656816249506293E-4 0.003700053968437313
8.196717240342227E7 4.6807793326156743E-4 0.0037542021767989304 0.9995319220667385 -0.0037542021767989304 0.9995319220667385 -0.0037542021767989304 4.6807793326156743E-4 0.0037542021767989304
8.320417209415154E7 4.7049693378011203E-4 0.0038091410158890685 0.9995295030662198 -0.0038091410158890685 0.9995295030662198 -0.0038091410158890685 4.7049693378011203E-4 0.0038091410158890685
8.445983984661816E7 4.7293857212563225E-4 0.0038648827097422984 0.9995270614278743 -0.0038648827097422984 0.9995270614278743 -0.0038648827097422984 4.7293857212563225E-4 0.0038648827097422984
8.573445738807854E7 4.754028146603952E-4 0.003921439689869091 0.9995245971853395 -0.003921439689869091 0.9995245971853395 -0.003921439689869091 4.754028146603952E-4 0.003921439689869091
8.702831069744885E7 4.7788965031463787E-4 0.003978824597694706 0.9995221103496854 -0.003978824597694706 0.9995221103496854 -0.003978824597694706 4.7788965031463787E-4 0.003978824597694706
8.834169006946853E7 4.8039909241370484E-4 0.0040370502869560435 0.9995196009075863 -0.0040370502869560435 0.9995196009075863 -0.0040370502869560435 4.8039909241370484E-4 0.0040370502869560435
8.96748901798321E7 4.8293118050252946E-4 0.004096129826057708 0.9995170688194975 -0.004096129826057708 0.9995170688194975 -0.004096129826057708 4.8293118050252946E-4 0.004096129826057708
9.1028210151304E7 4.8548598216279865E-4 0.004156076500388849 0.9995145140178373 -0.004156076500388849 0.9995145140178373 -0.004156076500388849 4.8548598216279865E-4 0.004156076500388849
9.240195362083109E7 4.880635948182888E-4 0.004216903814602744 0.9995119364051817 -0.004216903814602744 0.9995119364051817 -0.004216903814602744 4.880635948182888E-4 0.004216903814602744
9.379642880766791E7 4.906641475239897E-4 0.004278625494861383 0.9995093358524759 -0.004278625494861383 0.9995093358524759 -0.004278625494861383 4.906641475239897E-4 0.004278625494861383
9.521194858253023E7 4.932878027348254E-4 0.004341255491047693 0.9995067121972652 -0.004341255491047693 0.9995067121972652 -0.004341255491047693 4.932878027348254E-4 0.004341255491047693
9.664883053779216E7 4.959347580499728E-4 0.004404807978948322 0.9995040652419499 -0.004404807978948322 0.9995040652419499 -0.004404807978948322 4.959347580499728E-4 0.004404807978948322
9.810739705874248E7 4.986052479290178E-4 0.0044692973624101875 0.9995013947520709 -0.0044692973624101875 0.9995013947520709 -0.0044692973624101875 4.986052479290178E-4 0.0044692973624101875
9.958797539591652E7 5.012995453764216E-4 0.004534738275474285 0.9994987004546235 -0.004534738275474284 0.9994987004546235 -0.004534738275474284 5.012995453764216E-4 0.004534738275474285
1.0109089773851961E8 5.040179635910488E-4 0.0046011455844904665 0.9994959820364091 -0.0046011455844904665 0.9994959820364091 -0.0046011455844904665 5.040179635910488E-4 0.0046011455844904665
1.0261650128895843E8 5.067608575777858E-4 0.004668534390217157 0.9994932391424225 -0.004668534390217157 0.9994932391424225 -0.004668534390217157 5.067608575777858E-4 0.004668534390217157
1.0416512833849736E8 5.095286257185627E-4 0.004736920029910087 0.9994904713742814 -0.004736920029910086 0.9994904713742814 -0.004736920029910086 5.095286257185627E-4 0.004736920029910087
1.0573712634405641E8 5.123217113004293E-4 0.004806318079404416 0.9994876782886997 -0.004806318079404416 0.9994876782886997 -0.004806318079404416 5.123217113004293E-4 0.004806318079404416
1.0733284800616828E8 5.15140603998604E-4 0.004876744355194591 0.9994848593960014 -0.004876744355194591 0.9994848593960014 -0.004876744355194591 5.15140603998604E-4 0.004876744355194591
1.0895265134811176E8 5.179858413127791E-4 0.004948214916516559 0.9994820141586873 -0.00494821491651656 0.9994820141586873 -0.00494821491651656 5.179858413127791E-4 0.004948214916516559
1.1059689979623953E8 5.208580099552493E-4 0.005020746067436866 0.999479141990045 -0.005020746067436867 0.999479141990045 -0.005020746067436867 5.208580099552493E-4 0.005020746067436866
1.1226596226151802E8 5.237577471897806E-4 0.0050943543589534 0.9994762422528102 -0.0050943543589534 0.9994762422528102 -0.0050943543589534 5.237577471897806E-4 0.0050943543589534
1.1396021322229806E8 5.266857421204256E-4 0.005169056591112382 0.9994733142578794 -0.005169056591112383 0.9994733142578794 -0.005169056591112383 5.266857421204256E-4 0.005169056591112382
1.1568003280833441E8 5.2964273692983E-4 0.005244869815146351 0.99947035726307 -0.005244869815146351 0.99947035726307 -0.005244869815146351 5.2964273692983E-4 0.005244869815146351
1.1742580688607343E8 5.326295280668525E-4 0.005321811335637769 0.9994673704719331 -0.005321811335637769 0.9994673704719331 -0.005321811335637769 5.326295280668525E-4 0.005321811335637769
1.1919792714522783E8 5.35646967383636E-4 0.005399898712712891 0.9994643530326162 -0.00539989871271289 0.9994643530326162 -0.00539989871271289 5.35646967383636E-4 0.005399898712712891
1.2099679118665792E8 5.386959632225271E-4 0.005479149764270378 0.9994613040367776 -0.005479149764270378 0.9994613040367776 -0.005479149764270378 5.386959632225271E-4 0.005479149764270378
1.2282280261157903E8 5.417774814535213E-4 0.005559582568249146 0.9994582225185463 -0.005559582568249146 0.9994582225185463 -0.005559582568249146 5.417774814535213E-4 0.005559582568249146
1.2467637111211549E8 5.448925464631552E-4 0.005641215464939743 0.9994551074535367 -0.005641215464939743 0.9994551074535367 -0.005641215464939743 5.448925464631552E-4 0.005641215464939743
1.265579125632208E8 5.480422420960004E-4 0.00572406705934346 0.9994519577579042 -0.005724067059343461 0.9994519577579042 -0.005724067059343461 5.480422420960004E-4 0.00572406705934346
1.284678491159853E8 5.512277125501204E-4 0.005808156223583221 0.9994487722874499 -0.00580815622358322 0.9994487722874499 -0.00580815622358322 5.512277125501204E-4 0.005808156223583221
1.3040660929235186E8 5.544501632280676E-4 0.005893502099370161 0.9994455498367719 -0.005893502099370161 0.9994455498367719 -0.005893502099370161 5.544501632280676E-4 0.005893502099370161
1.3237462808126101E8 5.577108615451337E-4 0.005980124100529606 0.9994422891384547 -0.005980124100529607 0.9994422891384547 -0.005980124100529607 5.577108615451337E-4 0.005980124100529606
1.3437234703624701E8 5.610111376967617E-4 0.006068041915589984 0.9994389888623033 -0.006068041915589984 0.9994389888623033 -0.006068041915589984 5.610111376967617E-4 0.006068041915589984
1.364002143745067E8 5.643523853871286E-4 0.006157275510438064 0.999435647614613 -0.006157275510438064 0.999435647614613 -0.006157275510438064 5.643523853871286E-4 0.006157275510438064
1.3845868507746372E8 5.677360625210326E-4 0.006247845131043733 0.9994322639374791 -0.006247845131043732 0.9994322639374791 -0.006247845131043732 5.677360625210326E-4 0.006247845131043733
1.405482209928499E8 5.711636918613023E-4 0.0063397713062572055 0.9994288363081385 -0.0063397713062572055 0.9994288363081385 -0.0063397713062572055 5.711636918613023E-4 0.0063397713062572055
1.426692909383278E8 5.746368616540226E-4 0.006433074850681624 0.999425363138346 -0.006433074850681625 0.999425363138346 -0.006433074850681625 5.746368616540226E-4 0.006433074850681624
1.4482237080667645E8 5.78157226223906E-4 0.006527776867623505 0.999421842773776 -0.006527776867623505 0.999421842773776 -0.006527776867623505 5.78157226223906E-4 0.006527776867623505
1.4700794367256513E8 5.817265065421871E-4 0.006623898752123663 0.9994182734934579 -0.006623898752123663 0.9994182734934579 -0.006623898752123663 5.817265065421871E-4 0.006623898752123663
1.492264999009378E8 5.853464907694052E-4 0.0067214621940707205 0.9994146535092305 -0.0067214621940707205 0.9994146535092305 -0.0067214621940707205 5.853464907694052E-4 0.0067214621940707205
1.5147853725703382E8 5.890190347754608E-4 0.006820489181399451 0.9994109809652245 -0.006820489181399451 0.9994109809652245 -0.006820489181399451 5.890190347754608E-4 0.006820489181399451
1.5376456101806876E8 5.927460626392747E-4 0.006921002003375786 0.9994072539373609 -0.0069210020033757865 0.9994072539373609 -0.0069210020033757865 5.927460626392747E-4 0.006921002003375786
1.5608508408660066E8 5.96529567130377E-4 0.0070230232539704365 0.9994034704328696 -0.0070230232539704365 0.9994034704328696 -0.0070230232539704365 5.96529567130377E-4 0.0070230232539704365
1.5844062710560706E8 6.003716101746643E-4 0.007126575835322662 0.9993996283898257 -0.007126575835322662 0.9993996283898257 -0.007126575835322662 6.003716101746643E-4 0.007126575835322662
1.6083171857529896E8 6.042743233065302E-4 0.007231682961295869 0.9993957256766934 -0.007231682961295869 0.9993957256766934 -0.007231682961295869 6.042743233065302E-4 0.007231682961295869
1.632588949716973E8 6.082399081094723E-4 0.007338368161126441 0.9993917600918907 -0.007338368161126441 0.9993917600918907 -0.007338368161126441 6.082399081094723E-4 0.007338368161126441
1.6572270086699936E8 6.122706366472096E-4 0.007446655283167162 0.9993877293633527 -0.007446655283167162 0.9993877293633527 -0.007446655283167162 6.122706366472096E-4 0.007446655283167162
1.6822368905176118E8 6.163688518872436E-4 0.0075565684987265735 0.9993836311481128 -0.007556568498726572 0.9993836311481128 -0.007556568498726572 6.163688518872436E-4 0.0075565684987265735
1.7076242065892437E8 6.205369681186927E-4 0.0076681323060054365 0.9993794630318814 -0.0076681323060054365 0.9993794630318814 -0.0076681323060054365 6.205369681186927E-4 0.0076681323060054365
1.7333946528971428E8 6.247774713661415E-4 0.0077813715341316205 0.9993752225286339 -0.0077813715341316205 0.9993752225286339 -0.0077813715341316205 6.247774713661415E-4 0.0077813715341316205
1.7595540114143828E8 6.290929198011099E-4 0.007896311347294446 0.9993709070801988 -0.007896311347294446 0.9993709070801988 -0.007896311347294446 6.290929198011099E-4 0.007896311347294446
1.786108151372127E8 6.334859441526662E-4 0.0080129772489798 0.9993665140558472 -0.008012977248979798 0.9993665140558472 -0.008012977248979798 6.334859441526662E-4 0.0080129772489798
1.8130630305764765E8 6.379592481185802E-4 0.008131395086307123 0.9993620407518814 -0.008131395086307123 0.9993620407518814 -0.008131395086307123 6.379592481185802E-4 0.008131395086307123
1.840424696745189E8 6.425156087783156E-4 0.008251591054469577 0.9993574843912217 -0.008251591054469577 0.9993574843912217 -0.008251591054469577 6.425156087783156E-4 0.008251591054469577
1.8681992888645732E8 6.471578770090456E-4 0.00837359170127858 0.999352842122991 -0.008373591701278582 0.999352842122991 -0.008373591701278582 6.471578770090456E-4 0.00837359170127858
1.8963930385668582E8 6.51888977905785E-4 0.008497423931814125 0.9993481110220942 -0.008497423931814125 0.9993481110220942 -0.008497423931814125 6.51888977905785E-4 0.008497423931814125
1.92501227152835E8 6.567119112066411E-4 0.008623115013182293 0.9993432880887934 -0.008623115013182293 0.9993432880887934 -0.008623115013182293 6.567119112066411E-4 0.008623115013182293
1.9540634088886917E8 6.616297517240844E-4 0.008750692579381469 0.999338370248276 -0.008750692579381469 0.999338370248276 -0.008750692579381469 6.616297517240844E-4 0.008750692579381469
1.983552968691535E8 6.666456497830863E-4 0.00888018463627893 0.999333354350217 -0.00888018463627893 0.999333354350217 -0.00888018463627893 6.666456497830863E-4 0.00888018463627893
2.0134875673469606E8 6.717628316668897E-4 0.009011619566699637 0.9993282371683333 -0.009011619566699637 0.9993282371683333 -0.009011619566699637 6.717628316668897E-4 0.009011619566699637
2.0438739211159652E8 6.76984600071126E-4 0.009145026135629019 0.9993230153999288 -0.009145026135629019 0.9993230153999288 -0.009145026135629019 6.76984600071126E-4 0.009145026135629019
2.074718847617352E8 6.823143345669697E-4 0.009280433495532045 0.9993176856654329 -0.009280433495532045 0.9993176856654329 -0.009280433495532045 6.823143345669697E-4 0.009280433495532045
2.106029267357361E8 6.877554920739691E-4 0.009417871191790673 0.9993122445079261 -0.009417871191790673 0.9993122445079261 -0.009417871191790673 6.877554920739691E-4 0.009417871191790673
2.1378122052823865E8 6.933116073432125E-4 0.009557369168262244 0.9993066883926568 -0.009557369168262244 0.9993066883926568 -0.009557369168262244 6.933116073432125E-4 0.009557369168262244
2.1700747923551247E8 6.989862934514752E-4 0.009698957772961458 0.9993010137065486 -0.009698957772961456 0.9993010137065486 -0.009698957772961456 6.989862934514752E-4 0.009698957772961458
2.2028242671545094E8 7.047832423070344E-4 0.00984266776386875 0.9992952167576932 -0.00984266776386875 0.9992952167576932 -0.00984266776386875 7.047832423070344E-4 0.00984266776386875
2.23606797749979E8 7.10706225167878E-4 0.009988530314868242 0.999289293774832 -0.009988530314868242 0.999289293774832 -0.009988530314868242 7.10706225167878E-4 0.009988530314868242
2.2698133820991236E8 7.167590931731108E-4 0.010136577021818532 0.999283240906827 -0.010136577021818532 0.999283240906827 -0.010136577021818532 7.167590931731108E-4 0.010136577021818532
2.3040680522230446E8 7.22945777888432E-4 0.010286839908759839 0.9992770542221114 -0.010286839908759839 0.9992770542221114 -0.010286839908759839 7.22945777888432E-4 0.010286839908759839
2.338839673403185E8 7.292702918666993E-4 0.01043935143426136 0.9992707297081334 -0.010439351434261359 0.9992707297081334 -0.010439351434261359 7.292702918666993E-4 0.01043935143426136
2.37413604715664E8 7.357367292247048E-4 0.010594144497912865 0.9992642632707753 -0.010594144497912865 0.9992642632707753 -0.010594144497912865 7.357367292247048E-4 0.010594144497912865
