!Murata Part Number: LQG15HN3N9C02
!These Parameters are Measured in Series Mode Connection
!       o--[Z]--o
!Port1              Port2
!       o-------o
!
!Freq. Start=50[MHz] Stop=20[GHz], 401[Steps]
# Hz S RI R 50
!Freq.(Hz) S11(Real) S11(Imag) S21(Real) S21(Imag) S12(Real) S12(Imag) S22(Real) S22(Imag)
5.0E7 0.0014851552470015218 0.011764660282187664 0.9985148447529986 -0.011764660282187665 0.9985148447529986 -0.011764660282187665 0.0014851552470015218 0.011764660282187664
5.0754570186123446E7 0.001498657954859015 0.011935850326309878 0.9985013420451412 -0.011935850326309878 0.9985013420451412 -0.011935850326309878 0.001498657954859015 0.011935850326309878
5.152052789556263E7 0.0015124235915500114 0.012109490014940959 0.9984875764084499 -0.012109490014940959 0.9984875764084499 -0.012109490014940959 0.0015124235915500114 0.012109490014940959
5.229804498202928E7 0.001526456057259595 0.012285613188777751 0.9984735439427405 -0.012285613188777753 0.9984735439427405 -0.012285613188777753 0.001526456057259595 0.012285613188777751
5.308729589274893E7 0.0015407592383673999 0.012464254206210877 0.9984592407616327 -0.012464254206210877 0.9984592407616327 -0.012464254206210877 0.0015407592383673999 0.012464254206210877
5.388845770760058E7 0.0015553370076560648 0.012645447957018083 0.998444662992344 -0.012645447957018085 0.998444662992344 -0.012645447957018085 0.0015553370076560648 0.012645447957018083
5.470171017884717E7 0.0015701932248723925 0.01282922987642569 0.9984298067751277 -0.01282922987642569 0.9984298067751277 -0.01282922987642569 0.0015701932248723925 0.01282922987642569
5.5527235771465644E7 0.0015853317376643352 0.013015635959529323 0.9984146682623357 -0.01301563595952932 0.9984146682623357 -0.01301563595952932 0.0015853317376643352 0.013015635959529323
5.6365219704085544E7 0.0016007563829168099 0.013204702776063669 0.9983992436170831 -0.013204702776063669 0.9983992436170831 -0.013204702776063669 0.0016007563829168099 0.013204702776063669
5.721584999054556E7 0.0016164709885091197 0.013396467485509222 0.9983835290114909 -0.013396467485509225 0.9983835290114909 -0.013396467485509225 0.0016164709885091197 0.013396467485509222
5.807931748207712E7 0.001632479375516388 0.013590967852522487 0.9983675206244836 -0.013590967852522487 0.9983675206244836 -0.013590967852522487 0.001632479375516388 0.013590967852522487
5.8955815910124585E7 0.001648785360876881 0.013788242262674156 0.998351214639123 -0.013788242262674154 0.998351214639123 -0.013788242262674154 0.001648785360876881 0.013788242262674156
5.984554192981184E7 0.001665392760546513 0.013988329738478807 0.9983346072394536 -0.013988329738478807 0.9983346072394536 -0.013988329738478807 0.001665392760546513 0.013988329738478807
6.074869516406457E7 0.0016823053931609396 0.014191269955697005 0.9983176946068391 -0.014191269955697005 0.9983176946068391 -0.014191269955697005 0.0016823053931609396 0.014191269955697005
6.166547824839868E7 0.0016995270842248141 0.01439710325989024 0.9983004729157751 -0.01439710325989024 0.9983004729157751 -0.01439710325989024 0.0016995270842248141 0.01439710325989024
6.2596096876384385E7 0.001717061670846586 0.014605870683206588 0.9982829383291535 -0.014605870683206588 0.9982829383291535 -0.014605870683206588 0.001717061670846586 0.014605870683206588
6.354075984579668E7 0.0017349130070361046 0.014817613961374338 0.998265086992964 -0.014817613961374338 0.998265086992964 -0.014817613961374338 0.0017349130070361046 0.014817613961374338
6.449967910546205E7 0.0017530849695807842 0.015032375550878644 0.9982469150304192 -0.015032375550878644 0.9982469150304192 -0.015032375550878644 0.0017530849695807842 0.015032375550878644
6.547306980281226E7 0.0017715814645147235 0.015250198646295671 0.9982284185354854 -0.015250198646295671 0.9982284185354854 -0.015250198646295671 0.0017715814645147235 0.015250198646295671
6.646115033215589E7 0.0017904064341933903 0.015471127197756975 0.9982095935658065 -0.015471127197756975 0.9982095935658065 -0.015471127197756975 0.0017904064341933903 0.015471127197756975
6.746414238367817E7 0.0018095638649847777 0.015695205928515896 0.9981904361350152 -0.015695205928515896 0.9981904361350152 -0.015695205928515896 0.0018095638649847777 0.015695205928515896
6.848227099318038E7 0.0018290577955860528 0.015922480352586987 0.9981709422044139 -0.015922480352586987 0.9981709422044139 -0.015922480352586987 0.0018290577955860528 0.015922480352586987
6.951576459256999E7 0.0018488923259726785 0.016152996792428483 0.9981511076740274 -0.01615299679242848 0.9981511076740274 -0.01615299679242848 0.0018488923259726785 0.016152996792428483
7.056485506111258E7 0.0018690716269849368 0.0163868023966371 0.9981309283730151 -0.0163868023966371 0.9981309283730151 -0.0163868023966371 0.0018690716269849368 0.0163868023966371
7.162977777745734E7 0.0018895999505545704 0.016623945157624283 0.9981104000494456 -0.016623945157624283 0.9981104000494456 -0.016623945157624283 0.0018895999505545704 0.016623945157624283
7.271077167244768E7 0.0019104816405720588 0.01686447392924241 0.998089518359428 -0.016864473929242414 0.998089518359428 -0.016864473929242414 0.0019104816405720588 0.01686447392924241
7.380807928272885E7 0.001931721144392722 0.017108438444329556 0.9980682788556072 -0.017108438444329556 0.9980682788556072 -0.017108438444329556 0.001931721144392722 0.017108438444329556
7.492194680516452E7 0.0019533230249775086 0.01735588933214132 0.9980466769750226 -0.01735588933214132 0.9980466769750226 -0.01735588933214132 0.0019533230249775086 0.01735588933214132
7.60526241520746E7 0.0019752919736620305 0.01760687813563875 0.9980247080263379 -0.01760687813563875 0.9980247080263379 -0.01760687813563875 0.0019752919736620305 0.01760687813563875
7.720036500730675E7 0.00199763282354505 0.017861457328601792 0.9980023671764551 -0.017861457328601792 0.9980023671764551 -0.017861457328601792 0.00199763282354505 0.017861457328601792
7.836542688315398E7 0.002020350563485256 0.018119680332538222 0.997979649436515 -0.018119680332538222 0.997979649436515 -0.018119680332538222 0.002020350563485256 0.018119680332538222
7.954807117813127E7 0.0020434503526929925 0.01838160153335924 0.9979565496473071 -0.01838160153335924 0.9979565496473071 -0.01838160153335924 0.0020434503526929925 0.01838160153335924
8.074856323562416E7 0.0020669375359013416 0.01864727629779398 0.9979330624640986 -0.01864727629779398 0.9979330624640986 -0.01864727629779398 0.0020669375359013416 0.01864727629779398
8.196717240342227E7 0.002090817659098796 0.018916760989516092 0.9979091823409012 -0.01891676098951609 0.9979091823409012 -0.01891676098951609 0.002090817659098796 0.018916760989516092
8.320417209415154E7 0.0021150964858038753 0.019190112984957913 0.9978849035141962 -0.019190112984957913 0.9978849035141962 -0.019190112984957913 0.0021150964858038753 0.019190112984957913
8.445983984661816E7 0.0021397800138599635 0.01946739068878846 0.9978602199861399 -0.019467390688788465 0.9978602199861399 -0.019467390688788465 0.0021397800138599635 0.01946739068878846
8.573445738807854E7 0.0021648744927270577 0.01974865354903435 0.9978351255072728 -0.01974865354903435 0.9978351255072728 -0.01974865354903435 0.0021648744927270577 0.01974865354903435
8.702831069744885E7 0.0021903864412453553 0.020033962071823716 0.9978096135587545 -0.020033962071823716 0.9978096135587545 -0.020033962071823716 0.0021903864412453553 0.020033962071823716
8.834169006946853E7 0.002216322665844389 0.020323377835736803 0.9977836773341555 -0.020323377835736803 0.9977836773341555 -0.020323377835736803 0.002216322665844389 0.020323377835736803
8.96748901798321E7 0.002242690279169945 0.020616963505747647 0.99775730972083 -0.020616963505747647 0.99775730972083 -0.020616963505747647 0.002242690279169945 0.020616963505747647
9.1028210151304E7 0.002269496719100169 0.02091478284674509 0.9977305032808996 -0.02091478284674509 0.9977305032808996 -0.02091478284674509 0.002269496719100169 0.02091478284674509
9.240195362083109E7 0.0022967497681213155 0.021216900736623027 0.9977032502318787 -0.021216900736623027 0.9977032502318787 -0.021216900736623027 0.0022967497681213155 0.021216900736623027
9.379642880766791E7 0.002324457573033072 0.021523383178932844 0.997675542426967 -0.02152338317893284 0.997675542426967 -0.02152338317893284 0.002324457573033072 0.021523383178932844
9.521194858253023E7 0.002352628664952978 0.021834297315093634 0.997647371335047 -0.021834297315093634 0.997647371335047 -0.021834297315093634 0.002352628664952978 0.021834297315093634
9.664883053779216E7 0.0023812719795893137 0.02214971143615835 0.9976187280204105 -0.02214971143615835 0.9976187280204105 -0.02214971143615835 0.0023812719795893137 0.02214971143615835
9.810739705874248E7 0.0024103968777519857 0.02246969499413683 0.997589603122248 -0.02246969499413683 0.997589603122248 -0.02246969499413683 0.0024103968777519857 0.02246969499413683
9.958797539591652E7 0.002440013166071197 0.022794318612879626 0.9975599868339288 -0.022794318612879626 0.9975599868339288 -0.022794318612879626 0.002440013166071197 0.022794318612879626
1.0109089773851961E8 0.002470131117894302 0.023123654098528755 0.9975298688821058 -0.023123654098528755 0.9975298688821058 -0.023123654098528755 0.002470131117894302 0.023123654098528755
1.0261650128895843E8 0.0025007614943320174 0.023457774449544565 0.997499238505668 -0.023457774449544565 0.997499238505668 -0.023457774449544565 0.0025007614943320174 0.023457774449544565
1.0416512833849736E8 0.00253191556542621 0.02379675386632039 0.9974680844345739 -0.023796753866320394 0.9974680844345739 -0.023796753866320394 0.00253191556542621 0.02379675386632039
1.0573712634405641E8 0.0025636051314126447 0.024140667760398936 0.9974363948685874 -0.02414066776039894 0.9974363948685874 -0.02414066776039894 0.0025636051314126447 0.024140667760398936
1.0733284800616828E8 0.002595842544053565 0.02448959276330688 0.9974041574559466 -0.02448959276330688 0.9974041574559466 -0.02448959276330688 0.002595842544053565 0.02448959276330688
1.0895265134811176E8 0.0026286407280165618 0.0248436067350264 0.9973713592719834 -0.024843606735026398 0.9973713592719834 -0.024843606735026398 0.0026286407280165618 0.0248436067350264
1.1059689979623953E8 0.002662013202278016 0.025202788772124573 0.9973379867977218 -0.02520278877212457 0.9973379867977218 -0.02520278877212457 0.002662013202278016 0.025202788772124573
1.1226596226151802E8 0.0026959741015312845 0.025567219215562993 0.9973040258984686 -0.025567219215562986 0.9973040258984686 -0.025567219215562986 0.0026959741015312845 0.025567219215562993
1.1396021322229806E8 0.002730538197581955 0.02593697965821245 0.9972694618024179 -0.02593697965821245 0.9972694618024179 -0.02593697965821245 0.002730538197581955 0.02593697965821245
1.1568003280833441E8 0.002765720920714707 0.02631215295209866 0.9972342790792852 -0.02631215295209866 0.9972342790792852 -0.02631215295209866 0.002765720920714707 0.02631215295209866
1.1742580688607343E8 0.0028015383810185797 0.026692823215406385 0.9971984616189814 -0.026692823215406385 0.9971984616189814 -0.026692823215406385 0.0028015383810185797 0.026692823215406385
1.1919792714522783E8 0.002838007389659928 0.02707907583927086 0.9971619926103402 -0.02707907583927086 0.9971619926103402 -0.02707907583927086 0.002838007389659928 0.02707907583927086
1.2099679118665792E8 0.0028751454800947794 0.027470997494386015 0.9971248545199053 -0.027470997494386015 0.9971248545199053 -0.027470997494386015 0.0028751454800947794 0.027470997494386015
1.2282280261157903E8 0.002912970929214864 0.027868676137460448 0.9970870290707852 -0.027868676137460448 0.9970870290707852 -0.027868676137460448 0.002912970929214864 0.027868676137460448
1.2467637111211549E8 0.002951502778424058 0.028272201017551585 0.997048497221576 -0.028272201017551585 0.997048497221576 -0.028272201017551585 0.002951502778424058 0.028272201017551585
1.265579125632208E8 0.0029907608546446804 0.028681662682310503 0.9970092391453552 -0.02868166268231051 0.9970092391453552 -0.02868166268231051 0.0029907608546446804 0.028681662682310503
1.284678491159853E8 0.003030765791255488 0.029097152984168442 0.9969692342087447 -0.029097152984168442 0.9969692342087447 -0.029097152984168442 0.003030765791255488 0.029097152984168442
1.3040660929235186E8 0.0030715390489658616 0.029518765086497485 0.9969284609510342 -0.029518765086497485 0.9969284609510342 -0.029518765086497485 0.0030715390489658616 0.029518765086497485
1.3237462808126101E8 0.0031131029366330974 0.029946593469777003 0.996886897063367 -0.029946593469777003 0.996886897063367 -0.029946593469777003 0.0031131029366330974 0.029946593469777003
1.3437234703624701E8 0.00315548063203216 0.03038073393779719 0.9968445193679676 -0.030380733937797184 0.9968445193679676 -0.030380733937797184 0.00315548063203216 0.03038073393779719
1.364002143745067E8 0.003198696202589648 0.030821283623931023 0.9968013037974104 -0.030821283623931023 0.9968013037974104 -0.030821283623931023 0.003198696202589648 0.030821283623931023
1.3845868507746372E8 0.0032427746260959957 0.03126834099750515 0.996757225373904 -0.03126834099750515 0.996757225373904 -0.03126834099750515 0.0032427746260959957 0.03126834099750515
1.405482209928499E8 0.0032877418114121027 0.03172200587029929 0.9967122581885878 -0.03172200587029928 0.9967122581885878 -0.03172200587029928 0.0032877418114121027 0.03172200587029929
1.426692909383278E8 0.003333624619188773 0.03218237940320359 0.9966663753808113 -0.03218237940320359 0.9966663753808113 -0.03218237940320359 0.003333624619188773 0.03218237940320359
1.4482237080667645E8 0.003380450882619164 0.032649564113061386 0.9966195491173808 -0.03264956411306138 0.9966195491173808 -0.03264956411306138 0.003380450882619164 0.032649564113061386
1.4700794367256513E8 0.003428249428246611 0.033123663879725276 0.9965717505717535 -0.033123663879725276 0.9965717505717535 -0.033123663879725276 0.003428249428246611 0.033123663879725276
1.492264999009378E8 0.0034770500968516658 0.03360478395335199 0.9965229499031484 -0.03360478395335199 0.9965229499031484 -0.03360478395335199 0.0034770500968516658 0.03360478395335199
1.5147853725703382E8 0.003526883764444087 0.03409303096196114 0.9964731162355558 -0.03409303096196114 0.9964731162355558 -0.03409303096196114 0.003526883764444087 0.03409303096196114
1.5376456101806876E8 0.0035777823633869497 0.03458851291928182 0.9964222176366131 -0.03458851291928182 0.9964222176366131 -0.03458851291928182 0.0035777823633869497 0.03458851291928182
1.5608508408660066E8 0.003629778903681534 0.035091339232909524 0.9963702210963183 -0.035091339232909524 0.9963702210963183 -0.035091339232909524 0.003629778903681534 0.035091339232909524
1.5844062710560706E8 0.003682907494442983 0.03560162071279484 0.9963170925055572 -0.03560162071279484 0.9963170925055572 -0.03560162071279484 0.003682907494442983 0.03560162071279484
1.6083171857529896E8 0.0037372033655979613 0.03611946958008428 0.996262796634402 -0.03611946958008428 0.996262796634402 -0.03611946958008428 0.0037372033655979613 0.03611946958008428
1.632588949716973E8 0.003792702889836665 0.03664499947633226 0.9962072971101634 -0.03664499947633226 0.9962072971101634 -0.03664499947633226 0.003792702889836665 0.03664499947633226
1.6572270086699936E8 0.0038494436048526833 0.037178325473102306 0.9961505563951474 -0.03717832547310231 0.9961505563951474 -0.03717832547310231 0.0038494436048526833 0.037178325473102306
1.6822368905176118E8 0.003907464235905043 0.03771956408197409 0.9960925357640951 -0.0377195640819741 0.9960925357640951 -0.0377195640819741 0.003907464235905043 0.03771956408197409
1.7076242065892437E8 0.003966804718737888 0.03826883326497267 0.9960331952812622 -0.03826883326497268 0.9960331952812622 -0.03826883326497268 0.003966804718737888 0.03826883326497267
1.7333946528971428E8 0.0040275062228939265 0.03882625244543409 0.9959724937771062 -0.03882625244543409 0.9959724937771062 -0.03882625244543409 0.0040275062228939265 0.03882625244543409
1.7595540114143828E8 0.004089611175458732 0.03939194251932177 0.9959103888245413 -0.03939194251932177 0.9959103888245413 -0.03939194251932177 0.004089611175458732 0.03939194251932177
1.786108151372127E8 0.004153163285273715 0.03996602586700648 0.9958468367147263 -0.039966025867006476 0.9958468367147263 -0.039966025867006476 0.004153163285273715 0.03996602586700648
1.8130630305764765E8 0.004218207567656399 0.040548626365522165 0.9957817924323437 -0.04054862636552216 0.9957817924323437 -0.04054862636552216 0.004218207567656399 0.040548626365522165
1.840424696745189E8 0.004284790369667393 0.04113986940130917 0.9957152096303327 -0.04113986940130917 0.9957152096303327 -0.04113986940130917 0.004284790369667393 0.04113986940130917
1.8681992888645732E8 0.00435295939596423 0.04173988188345577 0.9956470406040359 -0.04173988188345577 0.9956470406040359 -0.04173988188345577 0.00435295939596423 0.04173988188345577
1.8963930385668582E8 0.0044227637352831405 0.04234879225744831 0.9955772362647168 -0.04234879225744831 0.9955772362647168 -0.04234879225744831 0.0044227637352831405 0.04234879225744831
1.92501227152835E8 0.004494253887590542 0.0429667305194396 0.9955057461124094 -0.042966730519439604 0.9955057461124094 -0.042966730519439604 0.004494253887590542 0.0429667305194396
1.9540634088886917E8 0.0045674817919470955 0.0435938282310454 0.995432518208053 -0.0435938282310454 0.995432518208053 -0.0435938282310454 0.0045674817919470955 0.0435938282310454
1.983552968691535E8 0.004642500855128026 0.04423021853467728 0.9953574991448718 -0.044230218534677276 0.9953574991448718 -0.044230218534677276 0.004642500855128026 0.04423021853467728
2.0134875673469606E8 0.0047193659810445725 0.04487603616942152 0.9952806340189555 -0.04487603616942151 0.9952806340189555 -0.04487603616942151 0.0047193659810445725 0.04487603616942152
2.0438739211159652E8 0.004798133601012504 0.045531417487471575 0.9952018663989874 -0.045531417487471575 0.9952018663989874 -0.045531417487471575 0.004798133601012504 0.045531417487471575
2.074718847617352E8 0.0048788617049149606 0.04619650047112312 0.9951211382950851 -0.04619650047112312 0.9951211382950851 -0.04619650047112312 0.0048788617049149606 0.04619650047112312
2.106029267357361E8 0.004961609873308221 0.04687142475033931 0.9950383901266917 -0.04687142475033931 0.9950383901266917 -0.04687142475033931 0.004961609873308221 0.04687142475033931
2.1378122052823865E8 0.00504643931052054 0.04755633162089444 0.9949535606894794 -0.04755633162089443 0.9949535606894794 -0.04755633162089443 0.00504643931052054 0.04755633162089444
2.1700747923551247E8 0.005133412878795782 0.04825136406310346 0.9948665871212043 -0.04825136406310346 0.9948665871212043 -0.04825136406310346 0.005133412878795782 0.04825136406310346
2.2028242671545094E8 0.0052225951335355385 0.048956666761145594 0.9947774048664645 -0.048956666761145594 0.9947774048664645 -0.048956666761145594 0.0052225951335355385 0.048956666761145594
2.23606797749979E8 0.005314052359695119 0.04967238612298882 0.9946859476403049 -0.049672386122988826 0.9946859476403049 -0.049672386122988826 0.005314052359695119 0.04967238612298882
2.2698133820991236E8 0.005407852609391203 0.050398670300922974 0.9945921473906087 -0.05039867030092297 0.9945921473906087 -0.05039867030092297 0.005407852609391203 0.050398670300922974
2.3040680522230446E8 0.005504065740781029 0.05113566921270836 0.9944959342592189 -0.05113566921270836 0.9944959342592189 -0.05113566921270836 0.005504065740781029 0.05113566921270836
2.338839673403185E8 0.005602763458275566 0.05188353456334652 0.9943972365417243 -0.05188353456334653 0.9943972365417243 -0.05188353456334653 0.005602763458275566 0.05188353456334652
2.37413604715664E8 0.005704019354151717 0.05264241986747945 0.9942959806458482 -0.05264241986747944 0.9942959806458482 -0.05264241986747944 0.005704019354151717 0.05264241986747945
2.4099650927363476E8 0.0058079089516314825 0.05341248047242314 0.9941920910483686 -0.05341248047242314 0.9941920910483686 -0.05341248047242314 0.0058079089516314825 0.05341248047242314
