!Murata Part Number: LQG15HN1N3B02
!These Parameters are Measured in Series Mode Connection
!       o--[Z]--o
!Port1              Port2
!       o-------o
!
!Freq. Start=50[MHz] Stop=20[GHz], 401[Steps]
# Hz S RI R 50
!Freq.(Hz) S11(Real) S11(Imag) S21(Real) S21(Imag) S12(Real) S12(Imag) S22(Real) S22(Imag)
5.0E7 3.6261612505308124E-4 0.0032552551083764487 0.9996373838749468 -0.0032552551083764487 0.9996373838749468 -0.0032552551083764487 3.6261612505308124E-4 0.0032552551083764487
5.0754570186123446E7 3.6449776491886043E-4 0.003303742186427362 0.9996355022350811 -0.0033037421864273615 0.9996355022350811 -0.0033037421864273615 3.6449776491886043E-4 0.003303742186427362
5.152052789556263E7 3.664224677223145E-4 0.0033529395978619844 0.9996335775322777 -0.0033529395978619844 0.9996335775322777 -0.0033529395978619844 3.664224677223145E-4 0.0033529395978619844
5.229804498202928E7 3.6839098490011374E-4 0.0034028574599098685 0.9996316090151001 -0.0034028574599098685 0.9996316090151001 -0.0034028574599098685 3.6839098490011374E-4 0.0034028574599098685
5.308729589274893E7 3.70404071776978E-4 0.003453506030524669 0.9996295959282232 -0.0034535060305246694 0.9996295959282232 -0.0034535060305246694 3.70404071776978E-4 0.003453506030524669
5.388845770760058E7 3.724624871439442E-4 0.0035048957105363256 0.999627537512856 -0.0035048957105363247 0.999627537512856 -0.0035048957105363247 3.724624871439442E-4 0.0035048957105363256
5.470171017884717E7 3.745669928145386E-4 0.003557037045859545 0.9996254330071853 -0.003557037045859545 0.9996254330071853 -0.003557037045859545 3.745669928145386E-4 0.003557037045859545
5.5527235771465644E7 3.7671835315899354E-4 0.003609940729761436 0.999623281646841 -0.0036099407297614365 0.999623281646841 -0.0036099407297614365 3.7671835315899354E-4 0.003609940729761436
5.6365219704085544E7 3.789173346168025E-4 0.003663617605191265 0.9996210826653833 -0.003663617605191264 0.9996210826653833 -0.003663617605191264 3.789173346168025E-4 0.003663617605191265
5.721584999054556E7 3.8116470518805934E-4 0.003718078667175351 0.999618835294812 -0.003718078667175351 0.999618835294812 -0.003718078667175351 3.8116470518805934E-4 0.003718078667175351
5.807931748207712E7 3.834612339042207E-4 0.003773335065280315 0.9996165387660957 -0.003773335065280315 0.9996165387660957 -0.003773335065280315 3.834612339042207E-4 0.003773335065280315
5.8955815910124585E7 3.858076902791094E-4 0.0038293981061478725 0.9996141923097209 -0.0038293981061478725 0.9996141923097209 -0.0038293981061478725 3.858076902791094E-4 0.0038293981061478725
5.984554192981184E7 3.8820484374119194E-4 0.00388627925610452 0.999611795156259 -0.0038862792561045207 0.999611795156259 -0.0038862792561045207 3.8820484374119194E-4 0.00388627925610452
6.074869516406457E7 3.9065346304836774E-4 0.003943990143849476 0.9996093465369517 -0.003943990143849476 0.9996093465369517 -0.003943990143849476 3.9065346304836774E-4 0.003943990143849476
6.166547824839868E7 3.9315431568675424E-4 0.004002542563224327 0.9996068456843133 -0.004002542563224327 0.9996068456843133 -0.004002542563224327 3.9315431568675424E-4 0.004002542563224327
6.2596096876384385E7 3.957081672551804E-4 0.0040619484760678354 0.9996042918327449 -0.004061948476067836 0.9996042918327449 -0.004061948476067836 3.957081672551804E-4 0.0040619484760678354
6.354075984579668E7 3.9831578083735544E-4 0.00412222001515938 0.9996016842191626 -0.00412222001515938 0.9996016842191626 -0.00412222001515938 3.9831578083735544E-4 0.00412222001515938
6.449967910546205E7 4.0097791636395234E-4 0.004183369487254541 0.9995990220836359 -0.0041833694872545416 0.9995990220836359 -0.0041833694872545416 4.0097791636395234E-4 0.004183369487254541
6.547306980281226E7 4.03695329967098E-4 0.004245409376216274 0.9995963046700329 -0.004245409376216274 0.9995963046700329 -0.004245409376216274 4.03695329967098E-4 0.004245409376216274
6.646115033215589E7 4.064687733300552E-4 0.004308352346245093 0.99959353122667 -0.004308352346245093 0.99959353122667 -0.004308352346245093 4.064687733300552E-4 0.004308352346245093
6.746414238367817E7 4.0929899303515535E-4 0.004372211245211634 0.9995907010069651 -0.004372211245211634 0.9995907010069651 -0.004372211245211634 4.0929899303515535E-4 0.004372211245211634
6.848227099318038E7 4.1218672991332947E-4 0.004436999108094854 0.9995878132700866 -0.004436999108094854 0.9995878132700866 -0.004436999108094854 4.1218672991332947E-4 0.004436999108094854
6.951576459256999E7 4.1513271839887725E-4 0.004502729160529072 0.9995848672816013 -0.004502729160529072 0.9995848672816013 -0.004502729160529072 4.1513271839887725E-4 0.004502729160529072
7.056485506111258E7 4.181376858933919E-4 0.004569414822462792 0.9995818623141066 -0.004569414822462793 0.9995818623141066 -0.004569414822462793 4.181376858933919E-4 0.004569414822462792
7.162977777745734E7 4.212023521430595E-4 0.0046370697119322716 0.9995787976478572 -0.0046370697119322716 0.9995787976478572 -0.0046370697119322716 4.212023521430595E-4 0.0046370697119322716
7.271077167244768E7 4.243274286338157E-4 0.004705707648952428 0.9995756725713663 -0.004705707648952427 0.9995756725713663 -0.004705707648952427 4.243274286338157E-4 0.004705707648952428
7.380807928272885E7 4.2751361800913266E-4 0.004775342659527595 0.9995724863819907 -0.004775342659527594 0.9995724863819907 -0.004775342659527594 4.2751361800913266E-4 0.004775342659527595
7.492194680516452E7 4.3076161351546314E-4 0.004845988979784317 0.9995692383864844 -0.004845988979784317 0.9995692383864844 -0.004845988979784317 4.3076161351546314E-4 0.004845988979784317
7.60526241520746E7 4.3407209848061833E-4 0.004917661060228111 0.9995659279015192 -0.00491766106022811 0.9995659279015192 -0.00491766106022811 4.3407209848061833E-4 0.004917661060228111
7.720036500730675E7 4.374457458306115E-4 0.004990373570125893 0.9995625542541695 -0.004990373570125893 0.9995625542541695 -0.004990373570125893 4.374457458306115E-4 0.004990373570125893
7.836542688315398E7 4.4088321765069465E-4 0.00506414140201534 0.9995591167823493 -0.00506414140201534 0.9995591167823493 -0.00506414140201534 4.4088321765069465E-4 0.00506414140201534
7.954807117813127E7 4.443851647965337E-4 0.005138979676342212 0.9995556148352035 -0.005138979676342212 0.9995556148352035 -0.005138979676342212 4.443851647965337E-4 0.005138979676342212
8.074856323562416E7 4.4795222656162953E-4 0.005214903746226163 0.9995520477734384 -0.005214903746226163 0.9995520477734384 -0.005214903746226163 4.4795222656162953E-4 0.005214903746226163
8.196717240342227E7 4.5158503040725935E-4 0.005291929202355343 0.9995484149695927 -0.005291929202355343 0.9995484149695927 -0.005291929202355343 4.5158503040725935E-4 0.005291929202355343
8.320417209415154E7 4.5528419176131123E-4 0.0053700718780095 0.9995447158082387 -0.005370071878009501 0.9995447158082387 -0.005370071878009501 4.5528419176131123E-4 0.0053700718780095
8.445983984661816E7 4.5905031389249925E-4 0.005449347854210981 0.9995409496861073 -0.00544934785421098 0.9995409496861073 -0.00544934785421098 4.5905031389249925E-4 0.005449347854210981
8.573445738807854E7 4.62883987866484E-4 0.005529773465002511 0.9995371160121335 -0.005529773465002511 0.9995371160121335 -0.005529773465002511 4.62883987866484E-4 0.005529773465002511
8.702831069744885E7 4.6678579259045496E-4 0.005611365302850197 0.9995332142074094 -0.005611365302850197 0.9995332142074094 -0.005611365302850197 4.6678579259045496E-4 0.005611365302850197
8.834169006946853E7 4.707562949527073E-4 0.005694140224169706 0.9995292437050473 -0.005694140224169705 0.9995292437050473 -0.005694140224169705 4.707562949527073E-4 0.005694140224169706
8.96748901798321E7 4.747960500636953E-4 0.005778115354973066 0.9995252039499364 -0.005778115354973066 0.9995252039499364 -0.005778115354973066 4.747960500636953E-4 0.005778115354973066
9.1028210151304E7 4.7890560160493553E-4 0.005863308096633142 0.9995210943983952 -0.005863308096633142 0.9995210943983952 -0.005863308096633142 4.7890560160493553E-4 0.005863308096633142
9.240195362083109E7 4.830854822920032E-4 0.00594973613176215 0.999516914517708 -0.00594973613176215 0.999516914517708 -0.00594973613176215 4.830854822920032E-4 0.00594973613176215
9.379642880766791E7 4.873362144576673E-4 0.00603741743020034 0.9995126637855423 -0.00603741743020034 0.9995126637855423 -0.00603741743020034 4.873362144576673E-4 0.00603741743020034
9.521194858253023E7 4.916583107609846E-4 0.006126370255110241 0.9995083416892391 -0.006126370255110241 0.9995083416892391 -0.006126370255110241 4.916583107609846E-4 0.006126370255110241
9.664883053779216E7 4.960522750279048E-4 0.006216613169171615 0.9995039477249721 -0.006216613169171615 0.9995039477249721 -0.006216613169171615 4.960522750279048E-4 0.006216613169171615
9.810739705874248E7 5.005186032285996E-4 0.006308165040871619 0.9994994813967715 -0.006308165040871618 0.9994994813967715 -0.006308165040871618 5.005186032285996E-4 0.006308165040871619
9.958797539591652E7 5.050577845963865E-4 0.006401045050884378 0.9994949422154035 -0.006401045050884378 0.9994949422154035 -0.006401045050884378 5.050577845963865E-4 0.006401045050884378
1.0109089773851961E8 5.096703028926937E-4 0.006495272698533697 0.9994903296971073 -0.006495272698533695 0.9994903296971073 -0.006495272698533695 5.096703028926937E-4 0.006495272698533697
1.0261650128895843E8 5.143566378220721E-4 0.0065908678083322495 0.9994856433621779 -0.0065908678083322495 0.9994856433621779 -0.0065908678083322495 5.143566378220721E-4 0.0065908678083322495
1.0416512833849736E8 5.191172666007645E-4 0.006687850536590274 0.9994808827333992 -0.006687850536590274 0.9994808827333992 -0.006687850536590274 5.191172666007645E-4 0.006687850536590274
1.0573712634405641E8 5.239526656818255E-4 0.006786241378086414 0.9994760473343182 -0.006786241378086414 0.9994760473343182 -0.006786241378086414 5.239526656818255E-4 0.006786241378086414
1.0733284800616828E8 5.288633126392114E-4 0.006886061172793203 0.9994711366873607 -0.006886061172793203 0.9994711366873607 -0.006886061172793203 5.288633126392114E-4 0.006886061172793203
1.0895265134811176E8 5.338496882126783E-4 0.006987331112649307 0.9994661503117873 -0.006987331112649307 0.9994661503117873 -0.006987331112649307 5.338496882126783E-4 0.006987331112649307
1.1059689979623953E8 5.389122785147022E-4 0.007090072748370583 0.9994610877214852 -0.007090072748370583 0.9994610877214852 -0.007090072748370583 5.389122785147022E-4 0.007090072748370583
1.1226596226151802E8 5.440515773999894E-4 0.00719430799629184 0.9994559484226 -0.007194307996291841 0.9994559484226 -0.007194307996291841 5.440515773999894E-4 0.00719430799629184
1.1396021322229806E8 5.492680889974845E-4 0.007300059145231054 0.9994507319110025 -0.007300059145231054 0.9994507319110025 -0.007300059145231054 5.492680889974845E-4 0.007300059145231054
1.1568003280833441E8 5.545623304041182E-4 0.00740734886336795 0.9994454376695959 -0.00740734886336795 0.9994454376695959 -0.00740734886336795 5.545623304041182E-4 0.00740734886336795
1.1742580688607343E8 5.599348345388307E-4 0.007516200205128698 0.9994400651654611 -0.007516200205128696 0.9994400651654611 -0.007516200205128696 5.599348345388307E-4 0.007516200205128698
1.1919792714522783E8 5.653861531547395E-4 0.007626636618068694 0.9994346138468454 -0.007626636618068694 0.9994346138468454 -0.007626636618068694 5.653861531547395E-4 0.007626636618068694
1.2099679118665792E8 5.709168600066275E-4 0.0077386819497456015 0.9994290831399932 -0.0077386819497456015 0.9994290831399932 -0.0077386819497456015 5.709168600066275E-4 0.0077386819497456015
1.2282280261157903E8 5.765275541702442E-4 0.007852360454574913 0.9994234724458297 -0.007852360454574912 0.9994234724458297 -0.007852360454574912 5.765275541702442E-4 0.007852360454574913
1.2467637111211549E8 5.82218863509261E-4 0.0079676968006607 0.9994177811364908 -0.0079676968006607 0.9994177811364908 -0.0079676968006607 5.82218863509261E-4 0.0079676968006607
1.265579125632208E8 5.87991448285072E-4 0.008084716076594594 0.9994120085517149 -0.008084716076594594 0.9994120085517149 -0.008084716076594594 5.87991448285072E-4 0.008084716076594594
1.284678491159853E8 5.938460049040135E-4 0.008203443798216263 0.9994061539950958 -0.008203443798216263 0.9994061539950958 -0.008203443798216263 5.938460049040135E-4 0.008203443798216263
1.3040660929235186E8 5.997832697959961E-4 0.008323905915329409 0.9994002167302041 -0.008323905915329409 0.9994002167302041 -0.008323905915329409 5.997832697959961E-4 0.008323905915329409
1.3237462808126101E8 6.058040234179856E-4 0.008446128818367492 0.9993941959765821 -0.008446128818367492 0.9993941959765821 -0.008446128818367492 6.058040234179856E-4 0.008446128818367492
1.3437234703624701E8 6.119090943752715E-4 0.00857013934500429 0.9993880909056247 -0.008570139345004292 0.9993880909056247 -0.008570139345004292 6.119090943752715E-4 0.00857013934500429
1.364002143745067E8 6.180993636529991E-4 0.008695964786704771 0.9993819006363472 -0.008695964786704771 0.9993819006363472 -0.008695964786704771 6.180993636529991E-4 0.008695964786704771
1.3845868507746372E8 6.243757689500235E-4 0.008823632895212517 0.99937562423105 -0.008823632895212517 0.99937562423105 -0.008823632895212517 6.243757689500235E-4 0.008823632895212517
1.405482209928499E8 6.307393091068207E-4 0.008953171888970721 0.9993692606908933 -0.008953171888970721 0.9993692606908933 -0.008953171888970721 6.307393091068207E-4 0.008953171888970721
1.426692909383278E8 6.371910486188482E-4 0.00908461045947426 0.9993628089513812 -0.00908461045947426 0.9993628089513812 -0.00908461045947426 6.371910486188482E-4 0.00908461045947426
1.4482237080667645E8 6.437321222265809E-4 0.009217977777551482 0.9993562678777735 -0.00921797777755148 0.9993562678777735 -0.00921797777755148 6.437321222265809E-4 0.009217977777551482
1.4700794367256513E8 6.503637395732135E-4 0.00935330349957465 0.9993496362604267 -0.00935330349957465 0.9993496362604267 -0.00935330349957465 6.503637395732135E-4 0.00935330349957465
1.492264999009378E8 6.570871899209847E-4 0.009490617773599348 0.9993429128100788 -0.00949061777359935 0.9993429128100788 -0.00949061777359935 6.570871899209847E-4 0.009490617773599348
1.5147853725703382E8 6.639038469169903E-4 0.009629951245433392 0.9993360961530832 -0.009629951245433392 0.9993360961530832 -0.009629951245433392 6.639038469169903E-4 0.009629951245433392
1.5376456101806876E8 6.708151733994243E-4 0.009771335064636982 0.9993291848266004 -0.009771335064636982 0.9993291848266004 -0.009771335064636982 6.708151733994243E-4 0.009771335064636982
1.5608508408660066E8 6.778227262352804E-4 0.00991480089045656 0.9993221772737646 -0.009914800890456559 0.9993221772737646 -0.009914800890456559 6.778227262352804E-4 0.00991480089045656
1.5844062710560706E8 6.849281611806992E-4 0.010060380897695472 0.9993150718388192 -0.01006038089769547 0.9993150718388192 -0.01006038089769547 6.849281611806992E-4 0.010060380897695472
1.6083171857529896E8 6.921332377554048E-4 0.010208107782525486 0.9993078667622447 -0.010208107782525486 0.9993078667622447 -0.010208107782525486 6.921332377554048E-4 0.010208107782525486
1.632588949716973E8 6.994398241229554E-4 0.010358014768243929 0.9993005601758771 -0.010358014768243929 0.9993005601758771 -0.010358014768243929 6.994398241229554E-4 0.010358014768243929
1.6572270086699936E8 7.068499019688984E-4 0.010510135610981929 0.9992931500980311 -0.010510135610981929 0.9992931500980311 -0.010510135610981929 7.068499019688984E-4 0.010510135610981929
1.6822368905176118E8 7.143655713693258E-4 0.010664504605369834 0.9992856344286307 -0.010664504605369834 0.9992856344286307 -0.010664504605369834 7.143655713693258E-4 0.010664504605369834
1.7076242065892437E8 7.219890556428015E-4 0.010821156590166813 0.9992780109443573 -0.010821156590166813 0.9992780109443573 -0.010821156590166813 7.219890556428015E-4 0.010821156590166813
1.7333946528971428E8 7.297227061791487E-4 0.01098012695386192 0.9992702772938209 -0.010980126953861922 0.9992702772938209 -0.010980126953861922 7.297227061791487E-4 0.01098012695386192
1.7595540114143828E8 7.375690072391365E-4 0.011141451640254789 0.9992624309927608 -0.011141451640254789 0.9992624309927608 -0.011141451640254789 7.375690072391365E-4 0.011141451640254789
1.786108151372127E8 7.455305807197147E-4 0.01130516715402439 0.9992544694192803 -0.011305167154024392 0.9992544694192803 -0.011305167154024392 7.455305807197147E-4 0.01130516715402439
1.8130630305764765E8 7.53610190880078E-4 0.011471310566294999 0.99924638980912 -0.011471310566294997 0.99924638980912 -0.011471310566294997 7.53610190880078E-4 0.011471310566294999
1.840424696745189E8 7.618107490244957E-4 0.011639919520208672 0.9992381892509756 -0.011639919520208672 0.9992381892509756 -0.011639919520208672 7.618107490244957E-4 0.011639919520208672
1.8681992888645732E8 7.701353181385411E-4 0.011811032236514184 0.9992298646818614 -0.011811032236514182 0.9992298646818614 -0.011811032236514182 7.701353181385411E-4 0.011811032236514184
1.8963930385668582E8 7.785871174760501E-4 0.011984687519182467 0.999221412882524 -0.011984687519182467 0.999221412882524 -0.011984687519182467 7.785871174760501E-4 0.011984687519182467
1.92501227152835E8 7.871695270948545E-4 0.012160924761058903 0.999212830472905 -0.012160924761058903 0.999212830472905 -0.012160924761058903 7.871695270948545E-4 0.012160924761058903
1.9540634088886917E8 7.958860923400684E-4 0.012339783949563171 0.99920411390766 -0.012339783949563171 0.99920411390766 -0.012339783949563171 7.958860923400684E-4 0.012339783949563171
1.983552968691535E8 8.047405282744107E-4 0.012521305672447159 0.9991952594717257 -0.012521305672447159 0.9991952594717257 -0.012521305672447159 8.047405282744107E-4 0.012521305672447159
2.0134875673469606E8 8.137367240557983E-4 0.012705531123622006 0.9991862632759444 -0.012705531123622008 0.9991862632759444 -0.012705531123622008 8.137367240557983E-4 0.012705531123622006
2.0438739211159652E8 8.228787472631205E-4 0.012892502109064908 0.9991771212527367 -0.012892502109064908 0.9991771212527367 -0.012892502109064908 8.228787472631205E-4 0.012892502109064908
2.074718847617352E8 8.321708481718434E-4 0.013082261052816695 0.9991678291518283 -0.013082261052816695 0.9991678291518283 -0.013082261052816695 8.321708481718434E-4 0.013082261052816695
2.106029267357361E8 8.416174639817469E-4 0.013274851003080837 0.9991583825360184 -0.013274851003080838 0.9991583825360184 -0.013274851003080838 8.416174639817469E-4 0.013274851003080837
2.1378122052823865E8 8.512232229997811E-4 0.013470315638434725 0.9991487767770001 -0.013470315638434722 0.9991487767770001 -0.013470315638434722 8.512232229997811E-4 0.013470315638434725
2.1700747923551247E8 8.609929487816603E-4 0.013668699274163695 0.9991390070512183 -0.013668699274163695 0.9991390070512183 -0.013668699274163695 8.609929487816603E-4 0.013668699274163695
2.2028242671545094E8 8.709316642364334E-4 0.013870046868728218 0.9991290683357635 -0.01387004686872822 0.9991290683357635 -0.01387004686872822 8.709316642364334E-4 0.013870046868728218
2.23606797749979E8 8.810445956988498E-4 0.014074404030374518 0.9991189554043013 -0.014074404030374518 0.9991189554043013 -0.014074404030374518 8.810445956988498E-4 0.014074404030374518
2.2698133820991236E8 8.913371769749065E-4 0.014281817023898462 0.9991086628230251 -0.014281817023898462 0.9991086628230251 -0.014281817023898462 8.913371769749065E-4 0.014281817023898462
2.3040680522230446E8 9.018150533664756E-4 0.014492332777572654 0.9990981849466335 -0.014492332777572654 0.9990981849466335 -0.014492332777572654 9.018150533664756E-4 0.014492332777572654
2.338839673403185E8 9.124840856814242E-4 0.014705998890245977 0.9990875159143184 -0.014705998890245977 0.9990875159143184 -0.014705998890245977 9.124840856814242E-4 0.014705998890245977
2.37413604715664E8 9.233503542360737E-4 0.014922863638624917 0.9990766496457638 -0.014922863638624917 0.9990766496457638 -0.014922863638624917 9.233503542360737E-4 0.014922863638624917
