!Murata Part Number: LQG15HN18NJ02
!These Parameters are Measured in Series Mode Connection
!       o--[Z]--o
!Port1              Port2
!       o-------o
!
!Freq. Start=50[MHz] Stop=20[GHz], 401[Steps]
# Hz S RI R 50
!Freq.(Hz) S11(Real) S11(Imag) S21(Real) S21(Imag) S12(Real) S12(Imag) S22(Real) S22(Imag)
5.0E7 0.01048311504258806 0.05604377914338155 0.9895168849574119 -0.05604377914338155 0.9895168849574119 -0.05604377914338155 0.01048311504258806 0.05604377914338155
5.0754570186123446E7 0.010633872437630008 0.056828126746268776 0.98936612756237 -0.056828126746268776 0.98936612756237 -0.056828126746268776 0.010633872437630008 0.056828126746268776
5.152052789556263E7 0.010787799836595051 0.05762320703864262 0.9892122001634049 -0.05762320703864262 0.9892122001634049 -0.05762320703864262 0.010787799836595051 0.05762320703864262
5.229804498202928E7 0.010944962418318533 0.05842916056772709 0.9890550375816815 -0.05842916056772709 0.9890550375816815 -0.05842916056772709 0.010944962418318533 0.05842916056772709
5.308729589274893E7 0.011105426748188485 0.059246130174755315 0.9888945732518114 -0.059246130174755315 0.9888945732518114 -0.059246130174755315 0.011105426748188485 0.059246130174755315
5.388845770760058E7 0.011269260852879107 0.060074261052225235 0.988730739147121 -0.060074261052225235 0.988730739147121 -0.060074261052225235 0.011269260852879107 0.060074261052225235
5.470171017884717E7 0.011436534299593203 0.06091370080033059 0.9885634657004069 -0.06091370080033059 0.9885634657004069 -0.06091370080033059 0.011436534299593203 0.06091370080033059
5.5527235771465644E7 0.011607318279875179 0.06176459948234341 0.9883926817201247 -0.061764599482343426 0.9883926817201247 -0.061764599482343426 0.011607318279875179 0.06176459948234341
5.6365219704085544E7 0.011781685698044374 0.06262710967871815 0.9882183143019555 -0.06262710967871814 0.9882183143019555 -0.06262710967871814 0.011781685698044374 0.06262710967871815
5.721584999054556E7 0.011959711264286054 0.06350138653968257 0.988040288735714 -0.06350138653968258 0.988040288735714 -0.06350138653968258 0.011959711264286054 0.06350138653968257
5.807931748207712E7 0.01214147159242433 0.06438758783607634 0.9878585284075756 -0.06438758783607634 0.9878585284075756 -0.06438758783607634 0.01214147159242433 0.06438758783607634
5.8955815910124585E7 0.012327045302387714 0.06528587400819355 0.9876729546976121 -0.06528587400819354 0.9876729546976121 -0.06528587400819354 0.012327045302387714 0.06528587400819355
5.984554192981184E7 0.012516513127364626 0.06619640821238505 0.9874834868726355 -0.06619640821238507 0.9874834868726355 -0.06619640821238507 0.012516513127364626 0.06619640821238505
6.074869516406457E7 0.012709958025631988 0.06711935636517333 0.9872900419743679 -0.06711935636517333 0.9872900419743679 -0.06711935636517333 0.012709958025631988 0.06711935636517333
6.166547824839868E7 0.012907465297026032 0.06805488718463347 0.9870925347029741 -0.06805488718463347 0.9870925347029741 -0.06805488718463347 0.012907465297026032 0.06805488718463347
6.2596096876384385E7 0.013109122704010412 0.06900317222879393 0.9868908772959897 -0.06900317222879393 0.9868908772959897 -0.06900317222879393 0.013109122704010412 0.06900317222879393
6.354075984579668E7 0.013315020597283131 0.06996438593081421 0.9866849794027168 -0.06996438593081421 0.9866849794027168 -0.06996438593081421 0.013315020597283131 0.06996438593081421
6.449967910546205E7 0.013525252045849302 0.07093870563069743 0.9864747479541507 -0.07093870563069744 0.9864747479541507 -0.07093870563069744 0.013525252045849302 0.07093870563069743
6.547306980281226E7 0.013739912971474214 0.07192631160330226 0.9862600870285261 -0.07192631160330226 0.9862600870285261 -0.07192631160330226 0.013739912971474214 0.07192631160330226
6.646115033215589E7 0.013959102287417634 0.07292738708242211 0.9860408977125825 -0.07292738708242212 0.9860408977125825 -0.07292738708242212 0.013959102287417634 0.07292738708242211
6.746414238367817E7 0.01418292204133829 0.07394211828070772 0.9858170779586618 -0.07394211828070772 0.9858170779586618 -0.07394211828070772 0.01418292204133829 0.07394211828070772
6.848227099318038E7 0.014411477562245105 0.07497069440521352 0.9855885224377547 -0.07497069440521352 0.9855885224377547 -0.07497069440521352 0.014411477562245105 0.07497069440521352
6.951576459256999E7 0.014644877611361717 0.07601330766836055 0.9853551223886384 -0.07601330766836055 0.9853551223886384 -0.07601330766836055 0.014644877611361717 0.07601330766836055
7.056485506111258E7 0.014883234536759478 0.07707015329411288 0.9851167654632403 -0.07707015329411288 0.9851167654632403 -0.07707015329411288 0.014883234536759478 0.07707015329411288
7.162977777745734E7 0.015126664431605956 0.07814142951917853 0.984873335568394 -0.07814142951917853 0.984873335568394 -0.07814142951917853 0.015126664431605956 0.07814142951917853
7.271077167244768E7 0.015375287295866789 0.07922733758905288 0.9846247127041331 -0.07922733758905288 0.9846247127041331 -0.07922733758905288 0.015375287295866789 0.07922733758905288
7.380807928272885E7 0.015629227201292253 0.08032808174873576 0.9843707727987077 -0.08032808174873576 0.9843707727987077 -0.08032808174873576 0.015629227201292253 0.08032808174873576
7.492194680516452E7 0.01588861245951329 0.08144386922796278 0.9841113875404865 -0.08144386922796278 0.9841113875404865 -0.08144386922796278 0.01588861245951329 0.08144386922796278
7.60526241520746E7 0.016153575793067206 0.08257491022080528 0.9838464242069329 -0.08257491022080528 0.9838464242069329 -0.08257491022080528 0.016153575793067206 0.08257491022080528
7.720036500730675E7 0.016424254509169022 0.08372141785950199 0.9835757454908308 -0.08372141785950199 0.9835757454908308 -0.08372141785950199 0.016424254509169022 0.08372141785950199
7.836542688315398E7 0.016700790676042455 0.08488360818240097 0.9832992093239576 -0.08488360818240098 0.9832992093239576 -0.08488360818240098 0.016700790676042455 0.08488360818240097
7.954807117813127E7 0.016983331301622474 0.08606170009589846 0.9830166686983773 -0.08606170009589846 0.9830166686983773 -0.08606170009589846 0.016983331301622474 0.08606170009589846
8.074856323562416E7 0.01727202851444181 0.08725591533027564 0.9827279714855581 -0.08725591533027564 0.9827279714855581 -0.08725591533027564 0.01727202851444181 0.08725591533027564
8.196717240342227E7 0.017567039746514145 0.0884664783893438 0.9824329602534859 -0.0884664783893438 0.9824329602534859 -0.0884664783893438 0.017567039746514145 0.0884664783893438
8.320417209415154E7 0.017868527918029155 0.08969361649381982 0.9821314720819706 -0.08969361649381981 0.9821314720819706 -0.08969361649381981 0.017868527918029155 0.08969361649381982
8.445983984661816E7 0.01817666162367747 0.09093755951836387 0.9818233383763225 -0.09093755951836385 0.9818233383763225 -0.09093755951836385 0.01817666162367747 0.09093755951836387
8.573445738807854E7 0.018491615320427878 0.09219853992222106 0.9815083846795721 -0.09219853992222105 0.9815083846795721 -0.09219853992222105 0.018491615320427878 0.09219853992222106
8.702831069744885E7 0.018813569516583653 0.09347679267341628 0.9811864304834161 -0.0934767926734163 0.9811864304834161 -0.0934767926734163 0.018813569516583653 0.09347679267341628
8.834169006946853E7 0.01914271096195144 0.09477255516646148 0.9808572890380488 -0.09477255516646148 0.9808572890380488 -0.09477255516646148 0.01914271096195144 0.09477255516646148
8.96748901798321E7 0.019479232838961552 0.09608606713353805 0.9805207671610383 -0.09608606713353805 0.9805207671610383 -0.09608606713353805 0.019479232838961552 0.09608606713353805
9.1028210151304E7 0.019823334954587168 0.09741757054912806 0.9801766650454128 -0.09741757054912806 0.9801766650454128 -0.09741757054912806 0.019823334954587168 0.09741757054912806
9.240195362083109E7 0.020175223932915674 0.09876730952806555 0.9798247760670841 -0.09876730952806556 0.9798247760670841 -0.09876730952806556 0.020175223932915674 0.09876730952806555
9.379642880766791E7 0.020535113408235207 0.10013553021699051 0.9794648865917647 -0.10013553021699051 0.9794648865917647 -0.10013553021699051 0.020535113408235207 0.10013553021699051
9.521194858253023E7 0.02090322421850638 0.10152248067918378 0.9790967757814936 -0.10152248067918378 0.9790967757814936 -0.10152248067918378 0.02090322421850638 0.10152248067918378
9.664883053779216E7 0.021279784599098267 0.1029284107727671 0.9787202154009019 -0.10292841077276713 0.9787202154009019 -0.10292841077276713 0.021279784599098267 0.1029284107727671
9.810739705874248E7 0.021665030376675797 0.10435357202224946 0.9783349696233242 -0.10435357202224949 0.9783349696233242 -0.10435357202224949 0.021665030376675797 0.10435357202224946
9.958797539591652E7 0.022059205163133904 0.10579821748340108 0.977940794836866 -0.10579821748340106 0.977940794836866 -0.10579821748340106 0.022059205163133904 0.10579821748340108
1.0109089773851961E8 0.02246256054948199 0.1072626016014331 0.9775374394505179 -0.1072626016014331 0.9775374394505179 -0.1072626016014331 0.02246256054948199 0.1072626016014331
1.0261650128895843E8 0.022875356299589623 0.1087469800624586 0.9771246437004104 -0.10874698006245863 0.9771246437004104 -0.10874698006245863 0.022875356299589623 0.1087469800624586
1.0416512833849736E8 0.02329786054371142 0.1102516096382035 0.9767021394562885 -0.1102516096382035 0.9767021394562885 -0.1102516096382035 0.02329786054371142 0.1102516096382035
1.0573712634405641E8 0.023730349971715897 0.11177674802393267 0.976269650028284 -0.11177674802393267 0.976269650028284 -0.11177674802393267 0.023730349971715897 0.11177674802393267
1.0733284800616828E8 0.024173110025948002 0.11332265366954704 0.975826889974052 -0.11332265366954707 0.975826889974052 -0.11332265366954707 0.024173110025948002 0.11332265366954704
1.0895265134811176E8 0.024626435093661223 0.11488958560380275 0.9753735649063389 -0.11488958560380277 0.9753735649063389 -0.11488958560380277 0.024626435093661223 0.11488958560380275
1.1059689979623953E8 0.025090628698957552 0.11647780325159048 0.9749093713010424 -0.11647780325159046 0.9749093713010424 -0.11647780325159046 0.025090628698957552 0.11647780325159048
1.1226596226151802E8 0.025566003694177924 0.11808756624420792 0.9744339963058222 -0.11808756624420792 0.9744339963058222 -0.11808756624420792 0.025566003694177924 0.11808756624420792
1.1396021322229806E8 0.026052882450686606 0.11971913422254467 0.9739471175493134 -0.11971913422254467 0.9739471175493134 -0.11971913422254467 0.026052882450686606 0.11971913422254467
1.1568003280833441E8 0.026551597048994607 0.12137276663309055 0.9734484029510055 -0.12137276663309052 0.9734484029510055 -0.12137276663309052 0.026551597048994607 0.12137276663309055
1.1742580688607343E8 0.027062489468165717 0.12304872251666454 0.9729375105318344 -0.12304872251666454 0.9729375105318344 -0.12304872251666454 0.027062489468165717 0.12304872251666454
1.1919792714522783E8 0.027585911774448097 0.1247472602897531 0.9724140882255519 -0.12474726028975307 0.9724140882255519 -0.12474726028975307 0.027585911774448097 0.1247472602897531
1.2099679118665792E8 0.028122226309070263 0.1264686375183308 0.9718777736909299 -0.1264686375183308 0.9718777736909299 -0.1264686375183308 0.028122226309070263 0.1264686375183308
1.2282280261157903E8 0.028671805875136788 0.12821311068402746 0.9713281941248632 -0.1282131106840275 0.9713281941248632 -0.1282131106840275 0.028671805875136788 0.12821311068402746
1.2467637111211549E8 0.029235033923553134 0.12998093494249266 0.970764966076447 -0.12998093494249266 0.970764966076447 -0.12998093494249266 0.029235033923553134 0.12998093494249266
1.265579125632208E8 0.029812304737901432 0.1317723638737944 0.9701876952620988 -0.1317723638737944 0.9701876952620988 -0.1317723638737944 0.029812304737901432 0.1317723638737944
1.284678491159853E8 0.030404023618181994 0.13358764922468178 0.9695959763818179 -0.13358764922468178 0.9695959763818179 -0.13358764922468178 0.030404023618181994 0.13358764922468178
1.3040660929235186E8 0.03101060706332413 0.13542704064252364 0.9689893929366759 -0.13542704064252364 0.9689893929366759 -0.13542704064252364 0.03101060706332413 0.13542704064252364
1.3237462808126101E8 0.03163248295236024 0.1372907854007294 0.9683675170476399 -0.1372907854007294 0.9683675170476399 -0.1372907854007294 0.03163248295236024 0.1372907854007294
1.3437234703624701E8 0.03227009072414403 0.13917912811544375 0.967729909275856 -0.13917912811544375 0.967729909275856 -0.13917912811544375 0.03227009072414403 0.13917912811544375
1.364002143745067E8 0.03292388155548088 0.14109231045329976 0.9670761184445191 -0.14109231045329976 0.9670761184445191 -0.14109231045329976 0.03292388155548088 0.14109231045329976
1.3845868507746372E8 0.033594318537523385 0.1430305708300029 0.9664056814624766 -0.1430305708300029 0.9664056814624766 -0.1430305708300029 0.033594318537523385 0.1430305708300029
1.405482209928499E8 0.034281876850269295 0.14499414409951053 0.9657181231497307 -0.14499414409951053 0.9657181231497307 -0.14499414409951053 0.034281876850269295 0.14499414409951053
1.426692909383278E8 0.034987043934982906 0.1469832612335659 0.9650129560650172 -0.1469832612335659 0.9650129560650172 -0.1469832612335659 0.034987043934982906 0.1469832612335659
1.4482237080667645E8 0.035710319664341975 0.14899814899133412 0.964289680335658 -0.14899814899133412 0.964289680335658 -0.14899814899133412 0.035710319664341975 0.14899814899133412
1.4700794367256513E8 0.03645221651009479 0.15103902957888712 0.9635477834899051 -0.15103902957888712 0.9635477834899051 -0.15103902957888712 0.03645221651009479 0.15103902957888712
1.492264999009378E8 0.03721325970799101 0.15310612029827442 0.9627867402920091 -0.15310612029827442 0.9627867402920091 -0.15310612029827442 0.03721325970799101 0.15310612029827442
1.5147853725703382E8 0.03799398741973019 0.15519963318591648 0.9620060125802699 -0.15519963318591648 0.9620060125802699 -0.15519963318591648 0.03799398741973019 0.15519963318591648
1.5376456101806876E8 0.038794950891650776 0.15731977464005414 0.9612050491083493 -0.15731977464005414 0.9612050491083493 -0.15731977464005414 0.038794950891650776 0.15731977464005414
1.5608508408660066E8 0.0396167146098598 0.15946674503698446 0.9603832853901403 -0.15946674503698446 0.9603832853901403 -0.15946674503698446 0.0396167146098598 0.15946674503698446
1.5844062710560706E8 0.040459856451481264 0.16164073833581452 0.9595401435485188 -0.16164073833581455 0.9595401435485188 -0.16164073833581455 0.040459856451481264 0.16164073833581452
1.6083171857529896E8 0.04132496783167891 0.16384194167146696 0.9586750321683211 -0.16384194167146693 0.9586750321683211 -0.16384194167146693 0.04132496783167891 0.16384194167146696
1.632588949716973E8 0.04221265384608415 0.1660705349356699 0.9577873461539157 -0.1660705349356699 0.9577873461539157 -0.1660705349356699 0.04221265384608415 0.1660705349356699
1.6572270086699936E8 0.043123533408238 0.16832669034567252 0.956876466591762 -0.1683266903456725 0.956876466591762 -0.1683266903456725 0.043123533408238 0.16832669034567252
1.6822368905176118E8 0.044058239381629595 0.1706105720004268 0.9559417606183706 -0.17061057200042679 0.9559417606183706 -0.17061057200042679 0.044058239381629595 0.1706105720004268
1.7076242065892437E8 0.04501741870589257 0.17292233542398888 0.9549825812941075 -0.1729223354239889 0.9549825812941075 -0.1729223354239889 0.04501741870589257 0.17292233542398888
1.7333946528971428E8 0.046001732516692255 0.17526212709589437 0.9539982674833076 -0.17526212709589434 0.9539982674833076 -0.17526212709589434 0.046001732516692255 0.17526212709589437
1.7595540114143828E8 0.04701185625881655 0.17763008396827684 0.9529881437411833 -0.17763008396827684 0.9529881437411833 -0.17763008396827684 0.04701185625881655 0.17763008396827684
1.786108151372127E8 0.04804847979195548 0.18002633296950574 0.9519515202080446 -0.18002633296950576 0.9519515202080446 -0.18002633296950576 0.04804847979195548 0.18002633296950574
1.8130630305764765E8 0.04911230748863168 0.18245099049413163 0.9508876925113683 -0.18245099049413163 0.9508876925113683 -0.18245099049413163 0.04911230748863168 0.18245099049413163
1.840424696745189E8 0.050204058323720095 0.18490416187894218 0.9497959416762798 -0.18490416187894215 0.9497959416762798 -0.18490416187894215 0.050204058323720095 0.18490416187894218
1.8681992888645732E8 0.05132446595497049 0.1873859408649437 0.9486755340450296 -0.1873859408649437 0.9486755340450296 -0.1873859408649437 0.05132446595497049 0.1873859408649437
1.8963930385668582E8 0.052474278793922316 0.1898964090450986 0.9475257212060778 -0.1898964090450986 0.9475257212060778 -0.1898964090450986 0.052474278793922316 0.1898964090450986
1.92501227152835E8 0.05365426006658009 0.19243563529766908 0.9463457399334201 -0.19243563529766908 0.9463457399334201 -0.19243563529766908 0.05365426006658009 0.19243563529766908
1.9540634088886917E8 0.054865187863192055 0.19500367520503042 0.945134812136808 -0.19500367520503042 0.945134812136808 -0.19500367520503042 0.054865187863192055 0.19500367520503042
1.983552968691535E8 0.05610785517645358 0.19760057045783955 0.9438921448235463 -0.1976005704578396 0.9438921448235463 -0.1976005704578396 0.05610785517645358 0.19760057045783955
2.0134875673469606E8 0.05738306992743434 0.20022634824446267 0.9426169300725658 -0.20022634824446267 0.9426169300725658 -0.20022634824446267 0.05738306992743434 0.20022634824446267
2.0438739211159652E8 0.058691654978506834 0.20288102062558716 0.9413083450214931 -0.20288102062558713 0.9413083450214931 -0.20288102062558713 0.058691654978506834 0.20288102062558716
2.074718847617352E8 0.06003444813253207 0.2055645838939661 0.9399655518674679 -0.2055645838939661 0.9399655518674679 -0.2055645838939661 0.06003444813253207 0.2055645838939661
2.106029267357361E8 0.061412302117537454 0.2082770179192632 0.9385876978824623 -0.20827701791926323 0.9385876978824623 -0.20827701791926323 0.061412302117537454 0.2082770179192632
2.1378122052823865E8 0.06282608455610261 0.21101828547799403 0.9371739154438975 -0.21101828547799403 0.9371739154438975 -0.21101828547799403 0.06282608455610261 0.21101828547799403
2.1700747923551247E8 0.06427667791864786 0.21378833156857946 0.9357233220813523 -0.21378833156857946 0.9357233220813523 -0.21378833156857946 0.06427667791864786 0.21378833156857946
2.2028242671545094E8 0.06576497945980153 0.21658708271155666 0.9342350205401985 -0.21658708271155666 0.9342350205401985 -0.21658708271155666 0.06576497945980153 0.21658708271155666
2.23606797749979E8 0.06729190113700237 0.21941444623501463 0.9327080988629977 -0.21941444623501463 0.9327080988629977 -0.21941444623501463 0.06729190113700237 0.21941444623501463
2.2698133820991236E8 0.06885836951047711 0.22227030954535248 0.9311416304895228 -0.22227030954535248 0.9311416304895228 -0.22227030954535248 0.06885836951047711 0.22227030954535248
2.3040680522230446E8 0.07046532562371083 0.22515453938348057 0.9295346743762891 -0.22515453938348057 0.9295346743762891 -0.22515453938348057 0.07046532562371083 0.22515453938348057
2.338839673403185E8 0.0721137248635148 0.2280669810666184 0.9278862751364851 -0.2280669810666184 0.9278862751364851 -0.2280669810666184 0.0721137248635148 0.2280669810666184
2.37413604715664E8 0.07380453679877469 0.23100745771586653 0.9261954632012254 -0.23100745771586653 0.9261954632012254 -0.23100745771586653 0.07380453679877469 0.23100745771586653
2.4099650927363476E8 0.07553874499694661 0.23397576946976234 0.9244612550030534 -0.23397576946976234 0.9244612550030534 -0.23397576946976234 0.07553874499694661 0.23397576946976234
2.446334848907889E8 0.0773173468173492 0.2369716926840559 0.9226826531826507 -0.2369716926840559 0.9226826531826507 -0.2369716926840559 0.0773173468173492 0.2369716926840559
2.4832534757531032E8 0.07914135318028438 0.23999497911797749 0.9208586468197156 -0.23999497911797749 0.9208586468197156 -0.23999497911797749 0.07914135318028438 0.23999497911797749
2.5207292565009177E8 0.08101178831099887 0.24304535510729242 0.9189882116890011 -0.24304535510729242 0.9189882116890011 -0.24304535510729242 0.08101178831099887 0.24304535510729242
