!Murata Part Number: LQG15HN56NG02
!These Parameters are Measured in Series Mode Connection
!       o--[Z]--o
!Port1              Port2
!       o-------o
!
!Freq. Start=50[MHz] Stop=20[GHz], 401[Steps]
# Hz S RI R 50
!Freq.(Hz) S11(Real) S11(Imag) S21(Real) S21(Imag) S12(Real) S12(Imag) S22(Real) S22(Imag)
5.0E7 0.052216642757395966 0.16842461966602254 0.947783357242604 -0.16842461966602257 0.947783357242604 -0.16842461966602257 0.052216642757395966 0.16842461966602254
5.0754570186123446E7 0.05321593063695317 0.17060618570252709 0.9467840693630468 -0.17060618570252709 0.9467840693630468 -0.17060618570252709 0.05321593063695317 0.17060618570252709
5.152052789556263E7 0.054238479182583406 0.17281172335946232 0.9457615208174167 -0.17281172335946235 0.9457615208174167 -0.17281172335946235 0.054238479182583406 0.17281172335946232
5.229804498202928E7 0.05528480211849011 0.17504132406042253 0.9447151978815097 -0.17504132406042253 0.9447151978815097 -0.17504132406042253 0.05528480211849011 0.17504132406042253
5.308729589274893E7 0.056355423053469814 0.1772950738842131 0.9436445769465303 -0.1772950738842131 0.9436445769465303 -0.1772950738842131 0.056355423053469814 0.1772950738842131
5.388845770760058E7 0.05745087571827327 0.17957305327367032 0.9425491242817267 -0.17957305327367032 0.9425491242817267 -0.17957305327367032 0.05745087571827327 0.17957305327367032
5.470171017884717E7 0.058571704206095684 0.18187533672403255 0.9414282957939044 -0.18187533672403255 0.9414282957939044 -0.18187533672403255 0.058571704206095684 0.18187533672403255
5.5527235771465644E7 0.059718463215303615 0.18420199244982896 0.9402815367846965 -0.18420199244982896 0.9402815367846965 -0.18420199244982896 0.059718463215303615 0.18420199244982896
5.6365219704085544E7 0.060891718293415234 0.18655308202927293 0.9391082817065847 -0.18655308202927293 0.9391082817065847 -0.18655308202927293 0.060891718293415234 0.18655308202927293
5.721584999054556E7 0.062092046081252926 0.18892866002516742 0.9379079539187472 -0.1889286600251674 0.9379079539187472 -0.1889286600251674 0.062092046081252926 0.18892866002516742
5.807931748207712E7 0.06332003455609399 0.19132877358136235 0.936679965443906 -0.19132877358136233 0.936679965443906 -0.19132877358136233 0.06332003455609399 0.19132877358136235
5.8955815910124585E7 0.0645762832725449 0.19375346199384025 0.9354237167274551 -0.1937534619938403 0.9354237167274551 -0.1937534619938403 0.0645762832725449 0.19375346199384025
5.984554192981184E7 0.06586140359977123 0.19620275625555353 0.9341385964002288 -0.19620275625555353 0.9341385964002288 -0.19620275625555353 0.06586140359977123 0.19620275625555353
6.074869516406457E7 0.06717601895361482 0.19867667857418592 0.9328239810463853 -0.19867667857418592 0.9328239810463853 -0.19867667857418592 0.06717601895361482 0.19867667857418592
6.166547824839868E7 0.0685207650220364 0.20117524186207514 0.9314792349779637 -0.20117524186207517 0.9314792349779637 -0.20117524186207517 0.0685207650220364 0.20117524186207514
6.2596096876384385E7 0.06989628998222719 0.2036984491975996 0.9301037100177728 -0.2036984491975996 0.9301037100177728 -0.2036984491975996 0.06989628998222719 0.2036984491975996
6.354075984579668E7 0.07130325470763908 0.2062462932574072 0.9286967452923608 -0.20624629325740723 0.9286967452923608 -0.20624629325740723 0.07130325470763908 0.2062462932574072
6.449967910546205E7 0.07274233296309571 0.2088187557189518 0.9272576670369042 -0.2088187557189518 0.9272576670369042 -0.2088187557189518 0.07274233296309571 0.2088187557189518
6.547306980281226E7 0.074214211586057 0.2114158066328879 0.9257857884139431 -0.21141580663288795 0.9257857884139431 -0.21141580663288795 0.074214211586057 0.2114158066328879
6.646115033215589E7 0.07571959065203003 0.21403740376498065 0.9242804093479701 -0.21403740376498065 0.9242804093479701 -0.21403740376498065 0.07571959065203003 0.21403740376498065
6.746414238367817E7 0.07725918362203879 0.21668349190728903 0.9227408163779612 -0.21668349190728903 0.9227408163779612 -0.21668349190728903 0.07725918362203879 0.21668349190728903
6.848227099318038E7 0.07883371746999078 0.21935400215849565 0.9211662825300093 -0.21935400215849563 0.9211662825300093 -0.21935400215849563 0.07883371746999078 0.21935400215849565
6.951576459256999E7 0.0804439327877123 0.22204885117337825 0.9195560672122878 -0.22204885117337825 0.9195560672122878 -0.22204885117337825 0.0804439327877123 0.22204885117337825
7.056485506111258E7 0.08209058386536043 0.22476794038154552 0.9179094161346396 -0.22476794038154552 0.9179094161346396 -0.22476794038154552 0.08209058386536043 0.22476794038154552
7.162977777745734E7 0.08377443874486272 0.22751115517569104 0.9162255612551373 -0.22751115517569104 0.9162255612551373 -0.22751115517569104 0.08377443874486272 0.22751115517569104
7.271077167244768E7 0.08549627924398832 0.23027836406976535 0.9145037207560117 -0.23027836406976535 0.9145037207560117 -0.23027836406976535 0.08549627924398832 0.23027836406976535
7.380807928272885E7 0.08725690094861023 0.2330694178276049 0.9127430990513898 -0.2330694178276049 0.9127430990513898 -0.2330694178276049 0.08725690094861023 0.2330694178276049
7.492194680516452E7 0.08905711317068588 0.23588414856271656 0.910942886829314 -0.23588414856271656 0.910942886829314 -0.23588414856271656 0.08905711317068588 0.23588414856271656
7.60526241520746E7 0.09089773886945417 0.23872236881006506 0.9091022611305459 -0.23872236881006506 0.9091022611305459 -0.23872236881006506 0.09089773886945417 0.23872236881006506
7.720036500730675E7 0.09277961453333373 0.24158387057087952 0.9072203854666661 -0.2415838705708795 0.9072203854666661 -0.2415838705708795 0.09277961453333373 0.24158387057087952
7.836542688315398E7 0.09470359001999328 0.24446842433165675 0.9052964099800067 -0.2444684243316568 0.9052964099800067 -0.2444684243316568 0.09470359001999328 0.24446842433165675
7.954807117813127E7 0.09667052835206864 0.2473757780587105 0.9033294716479313 -0.2473757780587105 0.9033294716479313 -0.2473757780587105 0.09667052835206864 0.2473757780587105
8.074856323562416E7 0.09868130546600953 0.2503056561697892 0.9013186945339905 -0.2503056561697892 0.9013186945339905 -0.2503056561697892 0.09868130546600953 0.2503056561697892
8.196717240342227E7 0.10073680991155844 0.25325775848446225 0.8992631900884416 -0.2532577584844622 0.8992631900884416 -0.2532577584844622 0.10073680991155844 0.25325775848446225
8.320417209415154E7 0.10283794249939417 0.25623175915515173 0.8971620575006057 -0.25623175915515173 0.8971620575006057 -0.25623175915515173 0.10283794249939417 0.25623175915515173
8.445983984661816E7 0.10498561589451216 0.2592273055808718 0.8950143841054877 -0.2592273055808718 0.8950143841054877 -0.2592273055808718 0.10498561589451216 0.2592273055808718
8.573445738807854E7 0.10718075415296494 0.26224401730591784 0.892819245847035 -0.26224401730591784 0.892819245847035 -0.26224401730591784 0.10718075415296494 0.26224401730591784
8.702831069744885E7 0.10942429219964539 0.2652814849059329 0.8905757078003546 -0.26528148490593284 0.8905757078003546 -0.26528148490593284 0.10942429219964539 0.2652814849059329
8.834169006946853E7 0.11171717524487325 0.26833926886396764 0.8882828247551268 -0.2683392688639676 0.8882828247551268 -0.2683392688639676 0.11171717524487325 0.26833926886396764
8.96748901798321E7 0.11406035813762302 0.27141689843933203 0.885939641862377 -0.27141689843933203 0.885939641862377 -0.27141689843933203 0.11406035813762302 0.27141689843933203
9.1028210151304E7 0.11645480465333358 0.27451387053222526 0.8835451953466664 -0.2745138705322253 0.8835451953466664 -0.2745138705322253 0.11645480465333358 0.27451387053222526
9.240195362083109E7 0.1189014867143424 0.2776296485473145 0.8810985132856575 -0.2776296485473144 0.8810985132856575 -0.2776296485473144 0.1189014867143424 0.2776296485473145
9.379642880766791E7 0.12140138354111382 0.2807636612596201 0.8785986164588864 -0.2807636612596201 0.8785986164588864 -0.2807636612596201 0.12140138354111382 0.2807636612596201
9.521194858253023E7 0.12395548073255716 0.2839153016862442 0.876044519267443 -0.2839153016862442 0.876044519267443 -0.2839153016862442 0.12395548073255716 0.2839153016862442
9.664883053779216E7 0.12656476927388344 0.28708392596766247 0.8734352307261165 -0.2870839259676625 0.8734352307261165 -0.2870839259676625 0.12656476927388344 0.28708392596766247
9.810739705874248E7 0.12923024447060233 0.29026885226247473 0.8707697555293976 -0.29026885226247473 0.8707697555293976 -0.29026885226247473 0.12923024447060233 0.29026885226247473
9.958797539591652E7 0.13195290480744012 0.2934693596596858 0.8680470951925598 -0.2934693596596858 0.8680470951925598 -0.2934693596596858 0.13195290480744012 0.2934693596596858
1.0109089773851961E8 0.13473375073114074 0.29668468711275525 0.8652662492688592 -0.29668468711275525 0.8652662492688592 -0.29668468711275525 0.13473375073114074 0.29668468711275525
1.0261650128895843E8 0.13757378335631804 0.29991403239982195 0.8624262166436819 -0.29991403239982195 0.8624262166436819 -0.29991403239982195 0.13757378335631804 0.29991403239982195
1.0416512833849736E8 0.14047400309373984 0.3031565511146648 0.8595259969062602 -0.30315655111466483 0.8595259969062602 -0.30315655111466483 0.14047400309373984 0.3031565511146648
1.0573712634405641E8 0.14343540820065437 0.30641135569311323 0.8565645917993455 -0.30641135569311323 0.8565645917993455 -0.30641135569311323 0.14343540820065437 0.30641135569311323
1.0733284800616828E8 0.14645899325301995 0.30967751447976666 0.8535410067469801 -0.30967751447976666 0.8535410067469801 -0.30967751447976666 0.14645899325301995 0.30967751447976666
1.0895265134811176E8 0.14954574753975203 0.31295405084001227 0.8504542524602479 -0.31295405084001227 0.8504542524602479 -0.31295405084001227 0.14954574753975203 0.31295405084001227
1.1059689979623953E8 0.15269665337938376 0.3162399423224577 0.8473033466206163 -0.3162399423224577 0.8473033466206163 -0.3162399423224577 0.15269665337938376 0.3162399423224577
1.1226596226151802E8 0.15591268435982508 0.31953411987700514 0.844087315640175 -0.31953411987700514 0.844087315640175 -0.31953411987700514 0.15591268435982508 0.31953411987700514
1.1396021322229806E8 0.1591948035022112 0.32283546713389444 0.8408051964977887 -0.32283546713389444 0.8408051964977887 -0.32283546713389444 0.1591948035022112 0.32283546713389444
1.1568003280833441E8 0.16254396135015478 0.3261428197491256 0.8374560386498452 -0.32614281974912557 0.8374560386498452 -0.32614281974912557 0.16254396135015478 0.3261428197491256
1.1742580688607343E8 0.1659610939860532 0.32945496482174247 0.8340389060139468 -0.32945496482174236 0.8340389060139468 -0.32945496482174236 0.1659610939860532 0.32945496482174247
1.1919792714522783E8 0.1694471209764519 0.33277064038850696 0.8305528790235481 -0.33277064038850696 0.8305528790235481 -0.33277064038850696 0.1694471209764519 0.33277064038850696
1.2099679118665792E8 0.17300294324883453 0.3360885350015305 0.8269970567511655 -0.3360885350015305 0.8269970567511655 -0.3360885350015305 0.17300294324883453 0.3360885350015305
1.2282280261157903E8 0.17662944090258517 0.3394072873944345 0.8233705590974149 -0.3394072873944345 0.8233705590974149 -0.3394072873944345 0.17662944090258517 0.3394072873944345
1.2467637111211549E8 0.18032747095726565 0.3427254862426042 0.8196725290427344 -0.3427254862426042 0.8196725290427344 -0.3427254862426042 0.18032747095726565 0.3427254862426042
1.265579125632208E8 0.18409786504175077 0.3460416700230642 0.8159021349582493 -0.34604167002306424 0.8159021349582493 -0.34604167002306424 0.18409786504175077 0.3460416700230642
1.284678491159853E8 0.18794142702818192 0.3493543269794364 0.8120585729718182 -0.34935432697943647 0.8120585729718182 -0.34935432697943647 0.18794142702818192 0.3493543269794364
1.3040660929235186E8 0.19185893061512305 0.35266189519735824 0.8081410693848768 -0.35266189519735824 0.8081410693848768 -0.35266189519735824 0.19185893061512305 0.35266189519735824
1.3237462808126101E8 0.1958511168647339 0.35596276279561045 0.8041488831352661 -0.3559627627956105 0.8041488831352661 -0.3559627627956105 0.1958511168647339 0.35596276279561045
1.3437234703624701E8 0.19991869169921342 0.3592552682380563 0.8000813083007865 -0.3592552682380563 0.8000813083007865 -0.3592552682380563 0.19991869169921342 0.3592552682380563
1.364002143745067E8 0.20406232336220934 0.3625377007713063 0.7959376766377907 -0.3625377007713063 0.7959376766377907 -0.3625377007713063 0.20406232336220934 0.3625377007713063
1.3845868507746372E8 0.2082826398513307 0.365808300992802 0.7917173601486693 -0.3658083009928021 0.7917173601486693 -0.3658083009928021 0.2082826398513307 0.365808300992802
1.405482209928499E8 0.21258022632834123 0.3690652615537528 0.7874197736716588 -0.3690652615537528 0.7874197736716588 -0.3690652615537528 0.21258022632834123 0.3690652615537528
1.426692909383278E8 0.21695562251405268 0.37230672800106784 0.7830443774859472 -0.37230672800106784 0.7830443774859472 -0.37230672800106784 0.21695562251405268 0.37230672800106784
1.4482237080667645E8 0.221409320075364 0.37553079976208875 0.7785906799246359 -0.37553079976208875 0.7785906799246359 -0.37553079976208875 0.221409320075364 0.37553079976208875
1.4700794367256513E8 0.22594176001231572 0.3787355312755547 0.7740582399876843 -0.37873553127555465 0.7740582399876843 -0.37873553127555465 0.22594176001231572 0.3787355312755547
1.492264999009378E8 0.2305533300534334 0.381918933271816 0.7694466699465666 -0.3819189332718159 0.7694466699465666 -0.3819189332718159 0.2305533300534334 0.381918933271816
1.5147853725703382E8 0.23524436206802557 0.3850789742048616 0.7647556379319744 -0.3850789742048616 0.7647556379319744 -0.3850789742048616 0.23524436206802557 0.3850789742048616
1.5376456101806876E8 0.2400151295044669 0.3882135818382228 0.7599848704955332 -0.3882135818382228 0.7599848704955332 -0.3882135818382228 0.2400151295044669 0.3882135818382228
1.5608508408660066E8 0.24486584486384463 0.39132064498628466 0.7551341551361553 -0.39132064498628466 0.7551341551361553 -0.39132064498628466 0.24486584486384463 0.39132064498628466
1.5844062710560706E8 0.24979665721865144 0.39439801541195674 0.7502033427813485 -0.3943980154119567 0.7502033427813485 -0.3943980154119567 0.24979665721865144 0.39439801541195674
1.6083171857529896E8 0.25480764978649684 0.39744350988104066 0.7451923502135032 -0.3974435098810407 0.7451923502135032 -0.3974435098810407 0.25480764978649684 0.39744350988104066
1.632588949716973E8 0.2598988375690443 0.40045491237298153 0.7401011624309557 -0.40045491237298153 0.7401011624309557 -0.40045491237298153 0.2598988375690443 0.40045491237298153
1.6572270086699936E8 0.2650701650665832 0.4034299764469997 0.7349298349334167 -0.40342997644699974 0.7349298349334167 -0.40342997644699974 0.2650701650665832 0.4034299764469997
1.6822368905176118E8 0.27032150407879246 0.40636642776188037 0.7296784959212075 -0.40636642776188037 0.7296784959212075 -0.40636642776188037 0.27032150407879246 0.40636642776188037
1.7076242065892437E8 0.275652651602366 0.4092619667469529 0.7243473483976339 -0.4092619667469529 0.7243473483976339 -0.4092619667469529 0.275652651602366 0.4092619667469529
1.7333946528971428E8 0.2810633278362004 0.4121142714210088 0.7189366721637994 -0.4121142714210088 0.7189366721637994 -0.4121142714210088 0.2810633278362004 0.4121142714210088
1.7595540114143828E8 0.28655317430485167 0.4149210003551175 0.7134468256951484 -0.4149210003551174 0.7134468256951484 -0.4149210003551174 0.28655317430485167 0.4149210003551175
1.786108151372127E8 0.29212175211087815 0.4176797957744764 0.7078782478891218 -0.4176797957744764 0.7078782478891218 -0.4176797957744764 0.29212175211087815 0.4176797957744764
1.8130630305764765E8 0.2977685403265622 0.4203882867936105 0.7022314596734378 -0.4203882867936105 0.7022314596734378 -0.4203882867936105 0.2977685403265622 0.4203882867936105
1.840424696745189E8 0.3034929345352834 0.4230440927783943 0.6965070654647166 -0.4230440927783942 0.6965070654647166 -0.4230440927783942 0.3034929345352834 0.4230440927783943
1.8681992888645732E8 0.30929424553254997 0.42564482682753835 0.69070575446745 -0.42564482682753835 0.69070575446745 -0.42564482682753835 0.30929424553254997 0.42564482682753835
1.8963930385668582E8 0.31517169819633706 0.4281880993653474 0.684828301803663 -0.42818809936534735 0.684828301803663 -0.42818809936534735 0.31517169819633706 0.4281880993653474
1.92501227152835E8 0.32112443053596174 0.43067152183673446 0.6788755694640383 -0.43067152183673446 0.6788755694640383 -0.43067152183673446 0.32112443053596174 0.43067152183673446
1.9540634088886917E8 0.3271514929282275 0.4330927104946804 0.6728485070717726 -0.43309271049468034 0.6728485070717726 -0.43309271049468034 0.3271514929282275 0.4330927104946804
1.983552968691535E8 0.33325184754899306 0.43544929026953993 0.6667481524510069 -0.43544929026953993 0.6667481524510069 -0.43544929026953993 0.33325184754899306 0.43544929026953993
2.0134875673469606E8 0.33942436800768694 0.43773889870886373 0.6605756319923131 -0.43773889870886373 0.6605756319923131 -0.43773889870886373 0.33942436800768694 0.43773889870886373
2.0438739211159652E8 0.34566783919155913 0.43995918997569156 0.6543321608084409 -0.43995918997569156 0.6543321608084409 -0.43995918997569156 0.34566783919155913 0.43995918997569156
2.074718847617352E8 0.35198095732568335 0.44210783889262 0.6480190426743168 -0.44210783889262 0.6480190426743168 -0.44210783889262 0.35198095732568335 0.44210783889262
2.106029267357361E8 0.35836233025386716 0.4441825450183468 0.6416376697461327 -0.44418254501834675 0.6416376697461327 -0.44418254501834675 0.35836233025386716 0.4441825450183468
2.1378122052823865E8 0.36481047794471244 0.44618103674285137 0.6351895220552876 -0.4461810367428513 0.6351895220552876 -0.4461810367428513 0.36481047794471244 0.44618103674285137
2.1700747923551247E8 0.3713238332260909 0.44810107538690136 0.6286761667739091 -0.4481010753869013 0.6286761667739091 -0.4481010753869013 0.3713238332260909 0.44810107538690136
2.2028242671545094E8 0.37790074275028124 0.4499404592911812 0.6220992572497188 -0.44994045929118115 0.6220992572497188 -0.44994045929118115 0.37790074275028124 0.4499404592911812
2.23606797749979E8 0.3845394681909306 0.45169702788002175 0.6154605318090697 -0.45169702788002175 0.6154605318090697 -0.45169702788002175 0.3845394681909306 0.45169702788002175
2.2698133820991236E8 0.39123818767190804 0.4533686656844847 0.6087618123280919 -0.4533686656844847 0.6087618123280919 -0.4533686656844847 0.39123818767190804 0.4533686656844847
2.3040680522230446E8 0.3979949974269558 0.4549533063094208 0.6020050025730441 -0.4549533063094208 0.6020050025730441 -0.4549533063094208 0.3979949974269558 0.4549533063094208
2.338839673403185E8 0.40480791368789526 0.456448936329079 0.5951920863121047 -0.456448936329079 0.5951920863121047 -0.456448936329079 0.40480791368789526 0.456448936329079
2.37413604715664E8 0.4116748747979543 0.457853599095907 0.5883251252020457 -0.457853599095907 0.5883251252020457 -0.457853599095907 0.4116748747979543 0.457853599095907
2.4099650927363476E8 0.41859374354560835 0.459165398447343 0.5814062564543917 -0.459165398447343 0.5814062564543917 -0.459165398447343 0.41859374354560835 0.459165398447343
2.446334848907889E8 0.42556230971313497 0.46038250229566474 0.5744376902868651 -0.46038250229566474 0.5744376902868651 -0.46038250229566474 0.42556230971313497 0.46038250229566474
2.4832534757531032E8 0.43257829283293037 0.46150314608632675 0.5674217071670695 -0.4615031460863268 0.5674217071670695 -0.4615031460863268 0.43257829283293037 0.46150314608632675
2.5207292565009177E8 0.43963934514349284 0.46252563611069364 0.5603606548565071 -0.4625256361106935 0.5603606548565071 -0.4625256361106935 0.43963934514349284 0.46252563611069364
2.558770599385812E8 0.4467430547358705 0.4634483526596426 0.5532569452641295 -0.4634483526596426 0.5532569452641295 -0.4634483526596426 0.4467430547358705 0.4634483526596426
