!Murata Part Number: LQG15HN12NG02
!These Parameters are Measured in Series Mode Connection
!       o--[Z]--o
!Port1              Port2
!       o-------o
!
!Freq. Start=50[MHz] Stop=20[GHz], 401[Steps]
# Hz S RI R 50
!Freq.(Hz) S11(Real) S11(Imag) S21(Real) S21(Imag) S12(Real) S12(Imag) S22(Real) S22(Imag)
5.0E7 0.006130738205056303 0.037241011089398875 0.9938692617949436 -0.037241011089398875 0.9938692617949436 -0.037241011089398875 0.006130738205056303 0.037241011089398875
5.0754570186123446E7 0.0062102980074472385 0.03776760616215108 0.9937897019925527 -0.037767606162151086 0.9937897019925527 -0.037767606162151086 0.0062102980074472385 0.03776760616215108
5.152052789556263E7 0.0062914136997069495 0.03830148192208995 0.9937085863002929 -0.03830148192208995 0.9937085863002929 -0.03830148192208995 0.0062914136997069495 0.03830148192208995
5.229804498202928E7 0.006374111257527292 0.0388427385463052 0.9936258887424727 -0.038842738546305204 0.9936258887424727 -0.038842738546305204 0.006374111257527292 0.0388427385463052
5.308729589274893E7 0.006458417185317684 0.03939147807047687 0.9935415828146824 -0.03939147807047687 0.9935415828146824 -0.03939147807047687 0.006458417185317684 0.03939147807047687
5.388845770760058E7 0.006544358559248566 0.03994780443390265 0.9934556414407516 -0.03994780443390265 0.9934556414407516 -0.03994780443390265 0.006544358559248566 0.03994780443390265
5.470171017884717E7 0.00663196307286936 0.040511823524077624 0.9933680369271308 -0.040511823524077624 0.9933680369271308 -0.040511823524077624 0.00663196307286936 0.040511823524077624
5.5527235771465644E7 0.006721259085315381 0.04108364322069971 0.9932787409146847 -0.04108364322069971 0.9932787409146847 -0.04108364322069971 0.006721259085315381 0.04108364322069971
5.6365219704085544E7 0.006812275672110461 0.041663373438973854 0.9931877243278895 -0.041663373438973854 0.9931877243278895 -0.041663373438973854 0.006812275672110461 0.041663373438973854
5.721584999054556E7 0.006905042678563549 0.04225112617208574 0.9930949573214365 -0.04225112617208574 0.9930949573214365 -0.04225112617208574 0.006905042678563549 0.04225112617208574
5.807931748207712E7 0.006999590775749689 0.042847015532717386 0.9930004092242504 -0.042847015532717386 0.9930004092242504 -0.042847015532717386 0.006999590775749689 0.042847015532717386
5.8955815910124585E7 0.0070959515190570765 0.04345115779347584 0.9929040484809429 -0.04345115779347584 0.9929040484809429 -0.04345115779347584 0.0070959515190570765 0.04345115779347584
5.984554192981184E7 0.007194157409273957 0.04406367142610912 0.992805842590726 -0.04406367142610912 0.992805842590726 -0.04406367142610912 0.007194157409273957 0.04406367142610912
6.074869516406457E7 0.00729424195618066 0.04468467713938405 0.9927057580438194 -0.04468467713938406 0.9927057580438194 -0.04468467713938406 0.00729424195618066 0.04468467713938405
6.166547824839868E7 0.007396239744604304 0.04531429791550491 0.9926037602553958 -0.04531429791550491 0.9926037602553958 -0.04531429791550491 0.007396239744604304 0.04531429791550491
6.2596096876384385E7 0.007500186502885683 0.04595265904495377 0.9924998134971142 -0.04595265904495377 0.9924998134971142 -0.04595265904495377 0.007500186502885683 0.04595265904495377
6.354075984579668E7 0.007606119173700676 0.046599888159639245 0.9923938808262994 -0.046599888159639245 0.9923938808262994 -0.046599888159639245 0.007606119173700676 0.046599888159639245
6.449967910546205E7 0.007714075987171078 0.04725611526424327 0.9922859240128289 -0.04725611526424327 0.9922859240128289 -0.04725611526424327 0.007714075987171078 0.04725611526424327
6.547306980281226E7 0.007824096536193488 0.04792147276566289 0.9921759034638062 -0.04792147276566289 0.9921759034638062 -0.04792147276566289 0.007824096536193488 0.04792147276566289
6.646115033215589E7 0.007936221853908503 0.048596095500448695 0.9920637781460915 -0.048596095500448695 0.9920637781460915 -0.048596095500448695 0.007936221853908503 0.048596095500448695
6.746414238367817E7 0.00805049449322702 0.04928012076014877 0.991949505506773 -0.04928012076014877 0.991949505506773 -0.04928012076014877 0.00805049449322702 0.04928012076014877
6.848227099318038E7 0.008166958608325604 0.04997368831447417 0.9918330413916744 -0.04997368831447417 0.9918330413916744 -0.04997368831447417 0.008166958608325604 0.04997368831447417
6.951576459256999E7 0.008285660038018405 0.05067694043220884 0.9917143399619814 -0.05067694043220884 0.9917143399619814 -0.05067694043220884 0.008285660038018405 0.05067694043220884
7.056485506111258E7 0.00840664639090992 0.05139002189979565 0.99159335360909 -0.05139002189979564 0.99159335360909 -0.05139002189979564 0.00840664639090992 0.05139002189979565
7.162977777745734E7 0.00852996713222985 0.0521130800375376 0.9914700328677702 -0.0521130800375376 0.9914700328677702 -0.0521130800375376 0.00852996713222985 0.0521130800375376
7.271077167244768E7 0.00865567367224939 0.052846264713361825 0.9913443263277507 -0.05284626471336183 0.9913443263277507 -0.05284626471336183 0.00865567367224939 0.052846264713361825
7.380807928272885E7 0.00878381945617733 0.05358972835410301 0.9912161805438225 -0.05358972835410301 0.9912161805438225 -0.05358972835410301 0.00878381945617733 0.05358972835410301
7.492194680516452E7 0.008914460055433643 0.05434362595427063 0.9910855399445665 -0.05434362595427063 0.9910855399445665 -0.05434362595427063 0.008914460055433643 0.05434362595427063
7.60526241520746E7 0.009047653260198926 0.055108115082273305 0.990952346739801 -0.0551081150822733 0.990952346739801 -0.0551081150822733 0.009047653260198926 0.055108115082273305
7.720036500730675E7 0.009183459173139496 0.05588335588408249 0.9908165408268605 -0.05588335588408249 0.9908165408268605 -0.05588335588408249 0.009183459173139496 0.05588335588408249
7.836542688315398E7 0.009321940304209566 0.05666951108432502 0.9906780596957906 -0.05666951108432502 0.9906780596957906 -0.05666951108432502 0.009321940304209566 0.05666951108432502
7.954807117813127E7 0.009463161666435337 0.057466745984802524 0.9905368383335647 -0.057466745984802524 0.9905368383335647 -0.057466745984802524 0.009463161666435337 0.057466745984802524
8.074856323562416E7 0.009607190872589171 0.058275228460443834 0.9903928091274109 -0.05827522846044384 0.9903928091274109 -0.05827522846044384 0.009607190872589171 0.058275228460443834
8.196717240342227E7 0.009754098232666368 0.05909512895270253 0.9902459017673335 -0.05909512895270253 0.9902459017673335 -0.05909512895270253 0.009754098232666368 0.05909512895270253
8.320417209415154E7 0.009903956852082363 0.05992662046042006 0.9900960431479174 -0.05992662046042005 0.9900960431479174 -0.05992662046042005 0.009903956852082363 0.05992662046042006
8.445983984661816E7 0.010056842730513412 0.060769878528179444 0.9899431572694867 -0.060769878528179444 0.9899431572694867 -0.060769878528179444 0.010056842730513412 0.060769878528179444
8.573445738807854E7 0.010212834861310456 0.06162508123218204 0.9897871651386896 -0.06162508123218203 0.9897871651386896 -0.06162508123218203 0.010212834861310456 0.06162508123218204
8.702831069744885E7 0.010372015331422402 0.062492409163682885 0.9896279846685775 -0.06249240916368289 0.9896279846685775 -0.06249240916368289 0.010372015331422402 0.062492409163682885
8.834169006946853E7 0.010534469421772153 0.06337204541002639 0.9894655305782278 -0.06337204541002639 0.9894655305782278 -0.06337204541002639 0.010534469421772153 0.06337204541002639
8.96748901798321E7 0.010700285708036387 0.06426417553332538 0.9892997142919637 -0.06426417553332539 0.9892997142919637 -0.06426417553332539 0.010700285708036387 0.06426417553332538
9.1028210151304E7 0.010869556161788148 0.0651689875468327 0.9891304438382119 -0.06516898754683269 0.9891304438382119 -0.06516898754683269 0.010869556161788148 0.0651689875468327
9.240195362083109E7 0.011042376251968754 0.06608667188905246 0.9889576237480311 -0.06608667188905244 0.9889576237480311 -0.06608667188905244 0.011042376251968754 0.06608667188905246
9.379642880766791E7 0.011218845046664577 0.06701742139564319 0.9887811549533354 -0.06701742139564319 0.9887811549533354 -0.06701742139564319 0.011218845046664577 0.06701742139564319
9.521194858253023E7 0.011399065315171823 0.06796143126916276 0.9886009346848281 -0.06796143126916276 0.9886009346848281 -0.06796143126916276 0.011399065315171823 0.06796143126916276
9.664883053779216E7 0.011583143630341327 0.06891889904670677 0.9884168563696587 -0.06891889904670677 0.9884168563696587 -0.06891889904670677 0.011583143630341327 0.06891889904670677
9.810739705874248E7 0.011771190471203273 0.06989002456548925 0.9882288095287968 -0.06989002456548925 0.9882288095287968 -0.06989002456548925 0.011771190471203273 0.06989002456548925
9.958797539591652E7 0.011963320325879948 0.07087500992641409 0.9880366796741201 -0.07087500992641409 0.9880366796741201 -0.07087500992641409 0.011963320325879948 0.07087500992641409
1.0109089773851961E8 0.012159651794802762 0.07187405945568262 0.9878403482051972 -0.0718740594556826 0.9878403482051972 -0.0718740594556826 0.012159651794802762 0.07187405945568262
1.0261650128895843E8 0.012360307694257054 0.07288737966447872 0.9876396923057428 -0.07288737966447872 0.9876396923057428 -0.07288737966447872 0.012360307694257054 0.07288737966447872
1.0416512833849736E8 0.012565415160285927 0.07391517920677061 0.9874345848397139 -0.07391517920677061 0.9874345848397139 -0.07391517920677061 0.012565415160285927 0.07391517920677061
1.0573712634405641E8 0.012775105752991033 0.07495766883526214 0.9872248942470089 -0.07495766883526214 0.9872248942470089 -0.07495766883526214 0.012775105752991033 0.07495766883526214
1.0733284800616828E8 0.012989515561274952 0.07601506135552254 0.9870104844387251 -0.07601506135552254 0.9870104844387251 -0.07601506135552254 0.012989515561274952 0.07601506135552254
1.0895265134811176E8 0.013208785308075873 0.07708757157831755 0.9867912146919241 -0.07708757157831755 0.9867912146919241 -0.07708757157831755 0.013208785308075873 0.07708757157831755
1.1059689979623953E8 0.013433060456150812 0.07817541627015859 0.9865669395438492 -0.07817541627015859 0.9865669395438492 -0.07817541627015859 0.013433060456150812 0.07817541627015859
1.1226596226151802E8 0.01366249131446879 0.07927881410207996 0.9863375086855313 -0.07927881410207996 0.9863375086855313 -0.07927881410207996 0.01366249131446879 0.07927881410207996
1.1396021322229806E8 0.013897233145279839 0.08039798559664801 0.9861027668547201 -0.08039798559664801 0.9861027668547201 -0.08039798559664801 0.013897233145279839 0.08039798559664801
1.1568003280833441E8 0.014137446271929723 0.08153315307319739 0.9858625537280703 -0.08153315307319739 0.9858625537280703 -0.08153315307319739 0.014137446271929723 0.08153315307319739
1.1742580688607343E8 0.01438329618749364 0.08268454059128391 0.9856167038125064 -0.08268454059128391 0.9856167038125064 -0.08268454059128391 0.01438329618749364 0.08268454059128391
1.1919792714522783E8 0.014634953664305077 0.08385237389233423 0.9853650463356949 -0.08385237389233423 0.9853650463356949 -0.08385237389233423 0.014634953664305077 0.08385237389233423
1.2099679118665792E8 0.014892594864457941 0.08503688033946533 0.9851074051355421 -0.08503688033946533 0.9851074051355421 -0.08503688033946533 0.014892594864457941 0.08503688033946533
1.2282280261157903E8 0.015156401451362256 0.08623828885543916 0.9848435985486377 -0.08623828885543916 0.9848435985486377 -0.08623828885543916 0.015156401451362256 0.08623828885543916
1.2467637111211549E8 0.015426560702434233 0.08745682985870905 0.9845734392975658 -0.08745682985870905 0.9845734392975658 -0.08745682985870905 0.015426560702434233 0.08745682985870905
1.265579125632208E8 0.01570326562300265 0.08869273519750688 0.9842967343769974 -0.08869273519750688 0.9842967343769974 -0.08869273519750688 0.01570326562300265 0.08869273519750688
1.284678491159853E8 0.01598671506151298 0.08994623808191213 0.984013284938487 -0.08994623808191214 0.984013284938487 -0.08994623808191214 0.01598671506151298 0.08994623808191213
1.3040660929235186E8 0.01627711382611074 0.09121757301383555 0.9837228861738894 -0.09121757301383555 0.9837228861738894 -0.09121757301383555 0.01627711382611074 0.09121757301383555
1.3237462808126101E8 0.016574672802684227 0.09250697571484293 0.9834253271973157 -0.09250697571484293 0.9834253271973157 -0.09250697571484293 0.016574672802684227 0.09250697571484293
1.3437234703624701E8 0.016879609074445544 0.09381468305173636 0.9831203909255545 -0.09381468305173638 0.9831203909255545 -0.09381468305173638 0.016879609074445544 0.09381468305173636
1.364002143745067E8 0.017192146043127073 0.09514093295980289 0.9828078539568729 -0.09514093295980289 0.9828078539568729 -0.09514093295980289 0.017192146043127073 0.09514093295980289
1.3845868507746372E8 0.017512513551868333 0.09648596436363363 0.9824874864481316 -0.09648596436363362 0.9824874864481316 -0.09648596436363362 0.017512513551868333 0.09648596436363363
1.405482209928499E8 0.01784094800986574 0.09785001709540912 0.982159051990134 -0.09785001709540912 0.982159051990134 -0.09785001709540912 0.01784094800986574 0.09785001709540912
1.426692909383278E8 0.018177692518854722 0.09923333181053921 0.9818223074811452 -0.0992333318105392 0.9818223074811452 -0.0992333318105392 0.018177692518854722 0.09923333181053921
1.4482237080667645E8 0.018522997001490966 0.10063614990054019 0.981477002998509 -0.10063614990054019 0.981477002998509 -0.10063614990054019 0.018522997001490966 0.10063614990054019
1.4700794367256513E8 0.018877118331694046 0.10205871340302555 0.9811228816683059 -0.10205871340302552 0.9811228816683059 -0.10205871340302552 0.018877118331694046 0.10205871340302555
1.492264999009378E8 0.019240320467013138 0.10350126490867874 0.9807596795329869 -0.10350126490867871 0.9807596795329869 -0.10350126490867871 0.019240320467013138 0.10350126490867874
1.5147853725703382E8 0.01961287458307127 0.10496404746507378 0.9803871254169286 -0.10496404746507378 0.9803871254169286 -0.10496404746507378 0.01961287458307127 0.10496404746507378
1.5376456101806876E8 0.01999505921014046 0.10644730447720047 0.9800049407898596 -0.1064473044772005 0.9800049407898596 -0.1064473044772005 0.01999505921014046 0.10644730447720047
1.5608508408660066E8 0.020387160371896626 0.1079512796045482 0.9796128396281033 -0.1079512796045482 0.9796128396281033 -0.1079512796045482 0.020387160371896626 0.1079512796045482
1.5844062710560706E8 0.020789471726399125 0.10947621665459545 0.9792105282736009 -0.10947621665459546 0.9792105282736009 -0.10947621665459546 0.020789471726399125 0.10947621665459545
1.6083171857529896E8 0.021202294709336378 0.11102235947254854 0.9787977052906636 -0.11102235947254854 0.9787977052906636 -0.11102235947254854 0.021202294709336378 0.11102235947254854
1.632588949716973E8 0.02162593867957463 0.11258995182716668 0.9783740613204254 -0.11258995182716668 0.9783740613204254 -0.11258995182716668 0.02162593867957463 0.11258995182716668
1.6572270086699936E8 0.022060721067043987 0.11417923729250708 0.9779392789329561 -0.11417923729250708 0.9779392789329561 -0.11417923729250708 0.022060721067043987 0.11417923729250708
1.6822368905176118E8 0.02250696752299181 0.11579045912541874 0.9774930324770081 -0.11579045912541874 0.9774930324770081 -0.11579045912541874 0.02250696752299181 0.11579045912541874
1.7076242065892437E8 0.02296501207263033 0.11742386013860905 0.9770349879273696 -0.11742386013860905 0.9770349879273696 -0.11742386013860905 0.02296501207263033 0.11742386013860905
1.7333946528971428E8 0.023435197270201588 0.11907968256910163 0.9765648027297983 -0.11907968256910163 0.9765648027297983 -0.11907968256910163 0.023435197270201588 0.11907968256910163
1.7595540114143828E8 0.023917874356480715 0.12075816794190236 0.9760821256435193 -0.12075816794190236 0.9760821256435193 -0.12075816794190236 0.023917874356480715 0.12075816794190236
1.786108151372127E8 0.024413403418734003 0.12245955692868124 0.975586596581266 -0.12245955692868124 0.975586596581266 -0.12245955692868124 0.024413403418734003 0.12245955692868124
1.8130630305764765E8 0.024922153553147378 0.12418408920127857 0.9750778464468526 -0.12418408920127857 0.9750778464468526 -0.12418408920127857 0.024922153553147378 0.12418408920127857
1.840424696745189E8 0.02544450302973635 0.1259320032798328 0.9745554969702637 -0.12593200327983284 0.9745554969702637 -0.12593200327983284 0.02544450302973635 0.1259320032798328
1.8681992888645732E8 0.025980839459747485 0.12770353637532786 0.9740191605402524 -0.12770353637532786 0.9740191605402524 -0.12770353637532786 0.025980839459747485 0.12770353637532786
1.8963930385668582E8 0.026531559965558765 0.12949892422634773 0.9734684400344413 -0.12949892422634773 0.9734684400344413 -0.12949892422634773 0.026531559965558765 0.12949892422634773
1.92501227152835E8 0.02709707135308385 0.13131840092982366 0.9729029286469163 -0.13131840092982366 0.9729029286469163 -0.13131840092982366 0.02709707135308385 0.13131840092982366
1.9540634088886917E8 0.02767779028668415 0.1331621987655507 0.9723222097133157 -0.13316219876555066 0.9723222097133157 -0.13316219876555066 0.02767779028668415 0.1331621987655507
1.983552968691535E8 0.028274143466589522 0.13503054801424366 0.9717258565334106 -0.13503054801424366 0.9717258565334106 -0.13503054801424366 0.028274143466589522 0.13503054801424366
2.0134875673469606E8 0.028886567808828416 0.13692367676889725 0.9711134321911714 -0.13692367676889725 0.9711134321911714 -0.13692367676889725 0.028886567808828416 0.13692367676889725
2.0438739211159652E8 0.029515510627665068 0.13884181073920374 0.970484489372335 -0.13884181073920374 0.970484489372335 -0.13884181073920374 0.029515510627665068 0.13884181073920374
2.074718847617352E8 0.030161429820540597 0.14078517304877586 0.9698385701794595 -0.14078517304877589 0.9698385701794595 -0.14078517304877589 0.030161429820540597 0.14078517304877586
2.106029267357361E8 0.030824794055513277 0.1427539840249117 0.9691752059444867 -0.1427539840249117 0.9691752059444867 -0.1427539840249117 0.030824794055513277 0.1427539840249117
2.1378122052823865E8 0.031506082961190576 0.1447484609806271 0.9684939170388094 -0.1447484609806271 0.9684939170388094 -0.1447484609806271 0.031506082961190576 0.1447484609806271
2.1700747923551247E8 0.03220578731914447 0.14676881798867142 0.9677942126808554 -0.14676881798867142 0.9677942126808554 -0.14676881798867142 0.03220578731914447 0.14676881798867142
2.2028242671545094E8 0.03292440925879904 0.14881526564723002 0.9670755907412009 -0.14881526564723 0.9670755907412009 -0.14881526564723 0.03292440925879904 0.14881526564723002
2.23606797749979E8 0.033662462454776006 0.15088801083700115 0.9663375375452238 -0.15088801083700112 0.9663375375452238 -0.15088801083700112 0.033662462454776006 0.15088801083700115
2.2698133820991236E8 0.03442047232668216 0.15298725646932504 0.9655795276733178 -0.15298725646932504 0.9655795276733178 -0.15298725646932504 0.03442047232668216 0.15298725646932504
2.3040680522230446E8 0.03519897624131708 0.1551132012250213 0.9648010237586827 -0.15511320122502129 0.9648010237586827 -0.15511320122502129 0.03519897624131708 0.1551132012250213
2.338839673403185E8 0.03599852371727691 0.1572660392835801 0.9640014762827228 -0.15726603928358007 0.9640014762827228 -0.15726603928358007 0.03599852371727691 0.1572660392835801
2.37413604715664E8 0.03681967663192342 0.15944596004232997 0.9631803233680766 -0.15944596004232997 0.9631803233680766 -0.15944596004232997 0.03681967663192342 0.15944596004232997
2.4099650927363476E8 0.03766300943068151 0.1616531478251873 0.9623369905693184 -0.16165314782518728 0.9623369905693184 -0.16165314782518728 0.03766300943068151 0.1616531478251873
2.446334848907889E8 0.03852910933862165 0.16388778158057335 0.9614708906613784 -0.16388778158057335 0.9614708906613784 -0.16388778158057335 0.03852910933862165 0.16388778158057335
2.4832534757531032E8 0.03941857657427352 0.16615003456805919 0.9605814234257263 -0.16615003456805916 0.9605814234257263 -0.16615003456805916 0.03941857657427352 0.16615003456805919
