!Murata Part Number: LQG15HN6N2C02
!These Parameters are Measured in Series Mode Connection
!       o--[Z]--o
!Port1              Port2
!       o-------o
!
!Freq. Start=50[MHz] Stop=20[GHz], 401[Steps]
# Hz S RI R 50
!Freq.(Hz) S11(Real) S11(Imag) S21(Real) S21(Imag) S12(Real) S12(Imag) S22(Real) S22(Imag)
5.0E7 0.0027481465926545603 0.01891983164865221 0.9972518534073455 -0.018919831648652213 0.9972518534073455 -0.018919831648652213 0.0027481465926545603 0.01891983164865221
5.0754570186123446E7 0.002776195099339387 0.019192265316999534 0.9972238049006608 -0.019192265316999538 0.9972238049006608 -0.019192265316999538 0.002776195099339387 0.019192265316999534
5.152052789556263E7 0.002804773994841172 0.019468543000181814 0.9971952260051586 -0.019468543000181814 0.9971952260051586 -0.019468543000181814 0.002804773994841172 0.019468543000181814
5.229804498202928E7 0.0028338910095202056 0.019748717987436295 0.99716610899048 -0.01974871798743629 0.99716610899048 -0.01974871798743629 0.0028338910095202056 0.019748717987436295
5.308729589274893E7 0.0028635539190906742 0.020032844460522947 0.9971364460809093 -0.02003284446052295 0.9971364460809093 -0.02003284446052295 0.0028635539190906742 0.020032844460522947
5.388845770760058E7 0.002893770552086247 0.02032097751813414 0.9971062294479138 -0.02032097751813414 0.9971062294479138 -0.02032097751813414 0.002893770552086247 0.02032097751813414
5.470171017884717E7 0.0029245487982614378 0.020613173200662447 0.9970754512017387 -0.02061317320066245 0.9970754512017387 -0.02061317320066245 0.0029245487982614378 0.020613173200662447
5.5527235771465644E7 0.002955896617959865 0.020909488515287605 0.9970441033820401 -0.0209094885152876 0.9970441033820401 -0.0209094885152876 0.002955896617959865 0.020909488515287605
5.6365219704085544E7 0.0029878220524782763 0.021209981461340757 0.997012177947522 -0.02120998146134076 0.997012177947522 -0.02120998146134076 0.0029878220524782763 0.021209981461340757
5.721584999054556E7 0.003020333235452824 0.021514711055901813 0.9969796667645472 -0.02151471105590181 0.9969796667645472 -0.02151471105590181 0.003020333235452824 0.021514711055901813
5.807931748207712E7 0.003053438405291537 0.021823737359583994 0.9969465615947084 -0.021823737359583994 0.9969465615947084 -0.021823737359583994 0.003053438405291537 0.021823737359583994
5.8955815910124585E7 0.0030871459186739515 0.022137121502457124 0.996912854081326 -0.022137121502457127 0.996912854081326 -0.022137121502457127 0.0030871459186739515 0.022137121502457124
5.984554192981184E7 0.003121464265135979 0.022454925710059942 0.9968785357348641 -0.022454925710059942 0.9968785357348641 -0.022454925710059942 0.003121464265135979 0.022454925710059942
6.074869516406457E7 0.0031564020827547757 0.022777213329449868 0.9968435979172451 -0.022777213329449864 0.9968435979172451 -0.022777213329449864 0.0031564020827547757 0.022777213329449868
6.166547824839868E7 0.003191968174945029 0.02310404885523765 0.996808031825055 -0.02310404885523765 0.996808031825055 -0.02310404885523765 0.003191968174945029 0.02310404885523765
6.2596096876384385E7 0.003228171528374525 0.023435497955552984 0.9967718284716254 -0.02343549795555298 0.9967718284716254 -0.02343549795555298 0.003228171528374525 0.023435497955552984
6.354075984579668E7 0.003265021332003255 0.023771627497886878 0.9967349786679969 -0.023771627497886878 0.9967349786679969 -0.023771627497886878 0.003265021332003255 0.023771627497886878
6.449967910546205E7 0.0033025269972465055 0.024112505574755787 0.9966974730027536 -0.024112505574755787 0.9966974730027536 -0.024112505574755787 0.0033025269972465055 0.024112505574755787
6.547306980281226E7 0.0033406981792585906 0.024458201529132684 0.9966593018207413 -0.024458201529132684 0.9966593018207413 -0.024458201529132684 0.0033406981792585906 0.024458201529132684
6.646115033215589E7 0.003379544799330067 0.024808785979590322 0.9966204552006699 -0.024808785979590322 0.9966204552006699 -0.024808785979590322 0.003379544799330067 0.024808785979590322
6.746414238367817E7 0.003419077068387296 0.0251643308451026 0.9965809229316127 -0.025164330845102598 0.9965809229316127 -0.025164330845102598 0.003419077068387296 0.0251643308451026
6.848227099318038E7 0.0034593055115795177 0.02552490936945089 0.9965406944884205 -0.02552490936945089 0.9965406944884205 -0.02552490936945089 0.0034593055115795177 0.02552490936945089
6.951576459256999E7 0.003500240993934673 0.025890596145183412 0.9964997590060654 -0.025890596145183412 0.9964997590060654 -0.025890596145183412 0.003500240993934673 0.025890596145183412
7.056485506111258E7 0.0035418947470616073 0.026261467137077218 0.9964581052529382 -0.026261467137077218 0.9964581052529382 -0.026261467137077218 0.0035418947470616073 0.026261467137077218
7.162977777745734E7 0.003584278396872679 0.026637599705054554 0.9964157216031273 -0.026637599705054547 0.9964157216031273 -0.026637599705054547 0.003584278396872679 0.026637599705054554
7.271077167244768E7 0.003627403992297351 0.027019072626507445 0.9963725960077027 -0.027019072626507445 0.9963725960077027 -0.027019072626507445 0.003627403992297351 0.027019072626507445
7.380807928272885E7 0.0036712840349541393 0.027405966117986912 0.9963287159650459 -0.02740596611798692 0.9963287159650459 -0.02740596611798692 0.0036712840349541393 0.027405966117986912
7.492194680516452E7 0.00371593150974528 0.02779836185621627 0.9962840684902546 -0.027798361856216276 0.9962840684902546 -0.027798361856216276 0.00371593150974528 0.02779836185621627
7.60526241520746E7 0.0037613599163356624 0.028196342998390942 0.9962386400836644 -0.028196342998390946 0.9962386400836644 -0.028196342998390946 0.0037613599163356624 0.028196342998390942
7.720036500730675E7 0.0038075833014751463 0.028599994201730764 0.9961924166985248 -0.028599994201730757 0.9961924166985248 -0.028599994201730757 0.0038075833014751463 0.028599994201730764
7.836542688315398E7 0.0038546162921211115 0.029009401642254278 0.996145383707879 -0.02900940164225427 0.996145383707879 -0.02900940164225427 0.0038546162921211115 0.029009401642254278
7.954807117813127E7 0.0039024741293162976 0.02942465303274854 0.9960975258706838 -0.02942465303274854 0.9960975258706838 -0.02942465303274854 0.0039024741293162976 0.02942465303274854
8.074856323562416E7 0.003951172702775422 0.029845837639911745 0.9960488272972247 -0.029845837639911752 0.9960488272972247 -0.029845837639911752 0.003951172702775422 0.029845837639911745
8.196717240342227E7 0.004000728586132903 0.030273046300650447 0.9959992714138669 -0.030273046300650447 0.9959992714138669 -0.030273046300650447 0.004000728586132903 0.030273046300650447
8.320417209415154E7 0.0040511590728032265 0.030706371437517102 0.9959488409271967 -0.030706371437517102 0.9959488409271967 -0.030706371437517102 0.0040511590728032265 0.030706371437517102
8.445983984661816E7 0.004102482212405083 0.031145907073278085 0.9958975177875948 -0.031145907073278085 0.9958975177875948 -0.031145907073278085 0.004102482212405083 0.031145907073278085
8.573445738807854E7 0.004154716847700416 0.03159174884460715 0.9958452831522997 -0.03159174884460716 0.9958452831522997 -0.03159174884460716 0.004154716847700416 0.03159174884460715
8.702831069744885E7 0.0042078826519997845 0.03204399401490264 0.995792117348 -0.032043994014902634 0.995792117348 -0.032043994014902634 0.0042078826519997845 0.03204399401490264
8.834169006946853E7 0.004262000166986377 0.03250274148623235 0.9957379998330136 -0.03250274148623235 0.9957379998330136 -0.03250274148623235 0.004262000166986377 0.03250274148623235
8.96748901798321E7 0.004317090840911987 0.03296809181041329 0.9956829091590879 -0.03296809181041329 0.9956829091590879 -0.03296809181041329 0.004317090840911987 0.03296809181041329
9.1028210151304E7 0.004373177067119814 0.033440147199237984 0.9956268229328801 -0.033440147199237984 0.9956268229328801 -0.033440147199237984 0.004373177067119814 0.033440147199237984
9.240195362083109E7 0.0044302822228509346 0.03391901153386309 0.9955697177771491 -0.03391901153386309 0.9955697177771491 -0.03391901153386309 0.0044302822228509346 0.03391901153386309
9.379642880766791E7 0.004488430708293331 0.03440479037337991 0.9955115692917067 -0.034404790373379915 0.9955115692917067 -0.034404790373379915 0.004488430708293331 0.03440479037337991
9.521194858253023E7 0.004547647985835032 0.034897590962589674 0.9954523520141649 -0.03489759096258968 0.9954523520141649 -0.03489759096258968 0.004547647985835032 0.034897590962589674
9.664883053779216E7 0.004607960619485735 0.03539752223901054 0.9953920393805142 -0.03539752223901055 0.9953920393805142 -0.03539752223901055 0.004607960619485735 0.03539752223901054
9.810739705874248E7 0.004669396314434271 0.035904694839145275 0.9953306036855656 -0.035904694839145275 0.9953306036855656 -0.035904694839145275 0.004669396314434271 0.035904694839145275
9.958797539591652E7 0.004731983956712851 0.03641922110404279 0.995268016043287 -0.03641922110404279 0.995268016043287 -0.03641922110404279 0.004731983956712851 0.03641922110404279
1.0109089773851961E8 0.00479575365294244 0.03694121508418812 0.9952042463470576 -0.03694121508418813 0.9952042463470576 -0.03694121508418813 0.00479575365294244 0.03694121508418812
1.0261650128895843E8 0.004860736770137348 0.03747079254375809 0.9951392632298627 -0.03747079254375809 0.9951392632298627 -0.03747079254375809 0.004860736770137348 0.03747079254375809
1.0416512833849736E8 0.004926965975551267 0.03800807096428217 0.9950730340244488 -0.03800807096428217 0.9950730340244488 -0.03800807096428217 0.004926965975551267 0.03800807096428217
1.0573712634405641E8 0.004994475276550708 0.03855316954774868 0.9950055247234494 -0.03855316954774868 0.9950055247234494 -0.03855316954774868 0.004994475276550708 0.03855316954774868
1.0733284800616828E8 0.005063300060506228 0.039106209219198884 0.9949366999394936 -0.039106209219198884 0.9949366999394936 -0.039106209219198884 0.005063300060506228 0.039106209219198884
1.0895265134811176E8 0.005133477134695756 0.03966731262885124 0.9948665228653043 -0.03966731262885124 0.9948665228653043 -0.03966731262885124 0.005133477134695756 0.03966731262885124
1.1059689979623953E8 0.005205044766218794 0.04023660415379969 0.994794955233781 -0.04023660415379969 0.994794955233781 -0.04023660415379969 0.005205044766218794 0.04023660415379969
1.1226596226151802E8 0.005278042721924252 0.04081420989932936 0.9947219572780756 -0.04081420989932936 0.9947219572780756 -0.04081420989932936 0.005278042721924252 0.04081420989932936
1.1396021322229806E8 0.005352512308358964 0.04140025769989301 0.994647487691641 -0.041400257699893 0.994647487691641 -0.041400257699893 0.005352512308358964 0.04140025769989301
1.1568003280833441E8 0.00542849641174809 0.04199487711979188 0.994571503588252 -0.04199487711979188 0.994571503588252 -0.04199487711979188 0.00542849641174809 0.04199487711979188
1.1742580688607343E8 0.005506039538022443 0.042598199453602686 0.9944939604619776 -0.042598199453602686 0.9944939604619776 -0.042598199453602686 0.005506039538022443 0.042598199453602686
1.1919792714522783E8 0.005585187852911903 0.04321035772639288 0.9944148121470883 -0.043210357726392874 0.9944148121470883 -0.043210357726392874 0.005585187852911903 0.04321035772639288
1.2099679118665792E8 0.0056659892221276814 0.04383148669376367 0.9943340107778723 -0.04383148669376367 0.9943340107778723 -0.04383148669376367 0.0056659892221276814 0.04383148669376367
1.2282280261157903E8 0.005748493251659897 0.04446172284176012 0.99425150674834 -0.044461722841760115 0.99425150674834 -0.044461722841760115 0.005748493251659897 0.04446172284176012
1.2467637111211549E8 0.005832751328220384 0.04510120438668506 0.9941672486717796 -0.04510120438668506 0.9941672486717796 -0.04510120438668506 0.005832751328220384 0.04510120438668506
1.265579125632208E8 0.0059188166598638185 0.045750071274851985 0.9940811833401361 -0.045750071274851985 0.9940811833401361 -0.045750071274851985 0.0059188166598638185 0.045750071274851985
1.284678491159853E8 0.006006744316823473 0.04640846518231019 0.9939932556831765 -0.046408465182310184 0.9939932556831765 -0.046408465182310184 0.006006744316823473 0.04640846518231019
1.3040660929235186E8 0.006096591272600622 0.04707652951457298 0.9939034087273995 -0.04707652951457298 0.9939034087273995 -0.04707652951457298 0.006096591272600622 0.04707652951457298
1.3237462808126101E8 0.006188416445349391 0.0477544094063776 0.9938115835546506 -0.0477544094063776 0.9938115835546506 -0.0477544094063776 0.006188416445349391 0.0477544094063776
1.3437234703624701E8 0.006282280739601286 0.04844225172150325 0.9937177192603989 -0.04844225172150325 0.9937177192603989 -0.04844225172150325 0.006282280739601286 0.04844225172150325
1.364002143745067E8 0.006378247088375798 0.049140205052670714 0.9936217529116241 -0.049140205052670714 0.9936217529116241 -0.049140205052670714 0.006378247088375798 0.049140205052670714
1.3845868507746372E8 0.006476380495725737 0.04984841972154543 0.9935236195042741 -0.04984841972154543 0.9935236195042741 -0.04984841972154543 0.006476380495725737 0.04984841972154543
1.405482209928499E8 0.006576748079767548 0.050567047778862256 0.9934232519202325 -0.050567047778862256 0.9934232519202325 -0.050567047778862256 0.006576748079767548 0.050567047778862256
1.426692909383278E8 0.006679419116248756 0.05129624300468856 0.9933205808837513 -0.05129624300468856 0.9933205808837513 -0.05129624300468856 0.006679419116248756 0.05129624300468856
1.4482237080667645E8 0.006784465082706027 0.05203616090883935 0.9932155349172939 -0.05203616090883935 0.9932155349172939 -0.05203616090883935 0.006784465082706027 0.05203616090883935
1.4700794367256513E8 0.006891959703268854 0.052786958731456154 0.9931080402967313 -0.05278695873145617 0.9931080402967313 -0.05278695873145617 0.006891959703268854 0.052786958731456154
1.492264999009378E8 0.007001978994164809 0.053548795443758 0.9929980210058352 -0.05354879544375799 0.9929980210058352 -0.05354879544375799 0.007001978994164809 0.053548795443758
1.5147853725703382E8 0.007114601309983688 0.0543218317489722 0.9928853986900164 -0.0543218317489722 0.9928853986900164 -0.0543218317489722 0.007114601309983688 0.0543218317489722
1.5376456101806876E8 0.007229907390758512 0.05510623008344859 0.9927700926092415 -0.055106230083448574 0.9927700926092415 -0.055106230083448574 0.007229907390758512 0.05510623008344859
1.5608508408660066E8 0.007347980409922506 0.055902154617960206 0.9926520195900775 -0.05590215461796022 0.9926520195900775 -0.05590215461796022 0.007347980409922506 0.055902154617960206
1.5844062710560706E8 0.007468906023201797 0.05670977125919105 0.9925310939767982 -0.05670977125919105 0.9925310939767982 -0.05670977125919105 0.007468906023201797 0.05670977125919105
1.6083171857529896E8 0.007592772418504401 0.05752924765140892 0.9924072275814958 -0.05752924765140892 0.9924072275814958 -0.05752924765140892 0.007592772418504401 0.05752924765140892
1.632588949716973E8 0.007719670366866699 0.0583607531783205 0.9922803296331334 -0.05836075317832051 0.9922803296331334 -0.05836075317832051 0.007719670366866699 0.0583607531783205
1.6572270086699936E8 0.007849693274519669 0.0592044589651047 0.9921503067254802 -0.0592044589651047 0.9921503067254802 -0.0592044589651047 0.007849693274519669 0.0592044589651047
1.6822368905176118E8 0.007982937236137381 0.06006053788061666 0.9920170627638627 -0.06006053788061666 0.9920170627638627 -0.06006053788061666 0.007982937236137381 0.06006053788061666
1.7076242065892437E8 0.008119501089331528 0.060929164539755866 0.9918804989106684 -0.060929164539755866 0.9918804989106684 -0.060929164539755866 0.008119501089331528 0.060929164539755866
1.7333946528971428E8 0.008259486470456491 0.06181051530598955 0.9917405135295437 -0.061810515305989557 0.9917405135295437 -0.061810515305989557 0.008259486470456491 0.06181051530598955
1.7595540114143828E8 0.008402997871790217 0.06270476829402047 0.9915970021282098 -0.06270476829402045 0.9915970021282098 -0.06270476829402045 0.008402997871790217 0.06270476829402047
1.786108151372127E8 0.008550142700157744 0.06361210337258959 0.9914498572998421 -0.06361210337258959 0.9914498572998421 -0.06361210337258959 0.008550142700157744 0.06361210337258959
1.8130630305764765E8 0.00870103133706487 0.06453270216740022 0.9912989686629351 -0.06453270216740022 0.9912989686629351 -0.06453270216740022 0.00870103133706487 0.06453270216740022
1.840424696745189E8 0.008855777200411426 0.06546674806415186 0.9911442227995887 -0.06546674806415186 0.9911442227995887 -0.06546674806415186 0.008855777200411426 0.06546674806415186
1.8681992888645732E8 0.009014496807854705 0.06641442621166978 0.9909855031921454 -0.06641442621166978 0.9909855031921454 -0.06641442621166978 0.009014496807854705 0.06641442621166978
1.8963930385668582E8 0.009177309841895763 0.0673759235251157 0.9908226901581042 -0.06737592352511569 0.9908226901581042 -0.06737592352511569 0.009177309841895763 0.0673759235251157
1.92501227152835E8 0.009344339216763108 0.06835142868926503 0.9906556607832367 -0.06835142868926503 0.9906556607832367 -0.06835142868926503 0.009344339216763108 0.06835142868926503
1.9540634088886917E8 0.009515711147170603 0.06934113216183427 0.9904842888528292 -0.06934113216183427 0.9904842888528292 -0.06934113216183427 0.009515711147170603 0.06934113216183427
1.983552968691535E8 0.00969155521902888 0.07034522617684208 0.9903084447809711 -0.07034522617684208 0.9903084447809711 -0.07034522617684208 0.00969155521902888 0.07034522617684208
2.0134875673469606E8 0.009872004462192444 0.07136390474798646 0.9901279955378076 -0.07136390474798646 0.9901279955378076 -0.07136390474798646 0.009872004462192444 0.07136390474798646
2.0438739211159652E8 0.010057195425327573 0.07239736367201986 0.9899428045746724 -0.07239736367201986 0.9899428045746724 -0.07239736367201986 0.010057195425327573 0.07239736367201986
2.074718847617352E8 0.010247268252989515 0.07344580053210222 0.9897527317470104 -0.07344580053210222 0.9897527317470104 -0.07344580053210222 0.010247268252989515 0.07344580053210222
2.106029267357361E8 0.010442366765001208 0.07450941470111178 0.9895576332349987 -0.07450941470111178 0.9895576332349987 -0.07450941470111178 0.010442366765001208 0.07450941470111178
2.1378122052823865E8 0.010642638538229651 0.0755884073448915 0.9893573614617704 -0.07558840734489151 0.9893573614617704 -0.07558840734489151 0.010642638538229651 0.0755884073448915
2.1700747923551247E8 0.010848234990860151 0.07668298142540692 0.9891517650091399 -0.07668298142540692 0.9891517650091399 -0.07668298142540692 0.010848234990860151 0.07668298142540692
2.2028242671545094E8 0.01105931146927384 0.07779334170379115 0.988940688530726 -0.07779334170379115 0.988940688530726 -0.07779334170379115 0.01105931146927384 0.07779334170379115
2.23606797749979E8 0.011276027337637882 0.07891969474324827 0.9887239726623622 -0.07891969474324827 0.9887239726623622 -0.07891969474324827 0.011276027337637882 0.07891969474324827
2.2698133820991236E8 0.01149854607032384 0.08006224891178561 0.9885014539296761 -0.0800622489117856 0.9885014539296761 -0.0800622489117856 0.01149854607032384 0.08006224891178561
2.3040680522230446E8 0.011727035347274692 0.08122121438474236 0.9882729646527254 -0.08122121438474236 0.9882729646527254 -0.08122121438474236 0.011727035347274692 0.08122121438474236
2.338839673403185E8 0.011961667152446814 0.0823968031470775 0.988038332847553 -0.0823968031470775 0.988038332847553 -0.0823968031470775 0.011961667152446814 0.0823968031470775
2.37413604715664E8 0.01220261787545972 0.08358922899537831 0.9877973821245403 -0.08358922899537831 0.9877973821245403 -0.08358922899537831 0.01220261787545972 0.08358922899537831
2.4099650927363476E8 0.012450068416592032 0.08479870753954447 0.987549931583408 -0.08479870753954447 0.987549931583408 -0.08479870753954447 0.012450068416592032 0.08479870753954447
2.446334848907889E8 0.01270420429526951 0.08602545620409992 0.9872957957047304 -0.08602545620409992 0.9872957957047304 -0.08602545620409992 0.01270420429526951 0.08602545620409992
