!Murata Part Number: LQG15HN68NH02
!These Parameters are Measured in Series Mode Connection
!       o--[Z]--o
!Port1              Port2
!       o-------o
!
!Freq. Start=50[MHz] Stop=20[GHz], 401[Steps]
# Hz S RI R 50
!Freq.(Hz) S11(Real) S11(Imag) S21(Real) S21(Imag) S12(Real) S12(Imag) S22(Real) S22(Imag)
5.0E7 0.06960668061121675 0.19921312246749007 0.9303933193887832 -0.19921312246749 0.9303933193887832 -0.19921312246749 0.06960668061121675 0.19921312246749007
5.0754570186123446E7 0.07096615617164635 0.2017041230070457 0.9290338438283539 -0.2017041230070457 0.9290338438283539 -0.2017041230070457 0.07096615617164635 0.2017041230070457
5.152052789556263E7 0.07235676151592826 0.2042192828961342 0.9276432384840716 -0.2042192828961342 0.9276432384840716 -0.2042192828961342 0.07235676151592826 0.2042192828961342
5.229804498202928E7 0.07377914499838434 0.20675855504606613 0.9262208550016157 -0.2067585550460662 0.9262208550016157 -0.2067585550460662 0.07377914499838434 0.20675855504606613
5.308729589274893E7 0.07523396524101067 0.20932188124761142 0.9247660347589894 -0.20932188124761145 0.9247660347589894 -0.20932188124761145 0.07523396524101067 0.20932188124761142
5.388845770760058E7 0.07672189126728418 0.21190919169997385 0.9232781087327159 -0.21190919169997385 0.9232781087327159 -0.21190919169997385 0.07672189126728418 0.21190919169997385
5.470171017884717E7 0.07824360262966702 0.21452040451445792 0.9217563973703331 -0.21452040451445792 0.9217563973703331 -0.21452040451445792 0.07824360262966702 0.21452040451445792
5.5527235771465644E7 0.07979978952922438 0.21715542519196948 0.9202002104707756 -0.21715542519196943 0.9202002104707756 -0.21715542519196943 0.07979978952922438 0.21715542519196948
5.6365219704085544E7 0.08139115292565459 0.21981414607355795 0.9186088470743454 -0.2198141460735579 0.9186088470743454 -0.2198141460735579 0.08139115292565459 0.21981414607355795
5.721584999054556E7 0.08301840463591223 0.22249644576328095 0.9169815953640877 -0.22249644576328095 0.9169815953640877 -0.22249644576328095 0.08301840463591223 0.22249644576328095
5.807931748207712E7 0.08468226741949383 0.22520218852276214 0.9153177325805061 -0.22520218852276214 0.9153177325805061 -0.22520218852276214 0.08468226741949383 0.22520218852276214
5.8955815910124585E7 0.08638347504834036 0.2279312236369075 0.9136165249516598 -0.22793122363690754 0.9136165249516598 -0.22793122363690754 0.08638347504834036 0.2279312236369075
5.984554192981184E7 0.08812277235920221 0.23068338475035396 0.9118772276407979 -0.2306833847503539 0.9118772276407979 -0.2306833847503539 0.08812277235920221 0.23068338475035396
6.074869516406457E7 0.08990091528620761 0.23345848917434348 0.9100990847137924 -0.23345848917434348 0.9100990847137924 -0.23345848917434348 0.08990091528620761 0.23345848917434348
6.166547824839868E7 0.09171867087127394 0.23625633716384606 0.9082813291287261 -0.23625633716384606 0.9082813291287261 -0.23625633716384606 0.09171867087127394 0.23625633716384606
6.2596096876384385E7 0.09357681724990749 0.23907671116489326 0.9064231827500924 -0.23907671116489326 0.9064231827500924 -0.23907671116489326 0.09357681724990749 0.23907671116489326
6.354075984579668E7 0.09547614360984932 0.24191937503224056 0.9045238563901508 -0.24191937503224056 0.9045238563901508 -0.24191937503224056 0.09547614360984932 0.24191937503224056
6.449967910546205E7 0.09741745011994372 0.24478407321763088 0.9025825498800563 -0.24478407321763088 0.9025825498800563 -0.24478407321763088 0.09741745011994372 0.24478407321763088
6.547306980281226E7 0.09940154782653579 0.24767052992911173 0.9005984521734642 -0.24767052992911173 0.9005984521734642 -0.24767052992911173 0.09940154782653579 0.24767052992911173
6.646115033215589E7 0.10142925851464095 0.2505784482620338 0.898570741485359 -0.25057844826203385 0.898570741485359 -0.25057844826203385 0.10142925851464095 0.2505784482620338
6.746414238367817E7 0.10350141453107863 0.25350750930255284 0.8964985854689214 -0.25350750930255284 0.8964985854689214 -0.25350750930255284 0.10350141453107863 0.25350750930255284
6.848227099318038E7 0.10561885856672212 0.2564573712046555 0.8943811414332778 -0.25645737120465545 0.8943811414332778 -0.25645737120465545 0.10561885856672212 0.2564573712046555
6.951576459256999E7 0.10778244339498703 0.25942766824193725 0.892217556605013 -0.25942766824193725 0.892217556605013 -0.25942766824193725 0.10778244339498703 0.25942766824193725
7.056485506111258E7 0.10999303156366738 0.26241800983557645 0.8900069684363324 -0.2624180098355764 0.8900069684363324 -0.2624180098355764 0.10999303156366738 0.26241800983557645
7.162977777745734E7 0.11225149503722577 0.26542797956017006 0.8877485049627742 -0.26542797956017006 0.8877485049627742 -0.26542797956017006 0.11225149503722577 0.26542797956017006
7.271077167244768E7 0.11455871478665679 0.2684571341293243 0.8854412852133433 -0.26845713412932437 0.8854412852133433 -0.26845713412932437 0.11455871478665679 0.2684571341293243
7.380807928272885E7 0.1169155803240725 0.2715050023631283 0.8830844196759275 -0.2715050023631283 0.8830844196759275 -0.2715050023631283 0.1169155803240725 0.2715050023631283
7.492194680516452E7 0.11932298917920078 0.2745710841398729 0.8806770108207994 -0.2745710841398729 0.8806770108207994 -0.2745710841398729 0.11932298917920078 0.2745710841398729
7.60526241520746E7 0.12178184631504942 0.2776548493346221 0.8782181536849507 -0.2776548493346221 0.8782181536849507 -0.2776548493346221 0.12178184631504942 0.2776548493346221
7.720036500730675E7 0.12429306348006537 0.2807557367474829 0.8757069365199345 -0.2807557367474829 0.8757069365199345 -0.2807557367474829 0.12429306348006537 0.2807557367474829
7.836542688315398E7 0.1268575584942147 0.28387315302466826 0.8731424415057852 -0.28387315302466826 0.8731424415057852 -0.28387315302466826 0.1268575584942147 0.28387315302466826
7.954807117813127E7 0.1294762544665201 0.2870064715756878 0.87052374553348 -0.2870064715756878 0.87052374553348 -0.2870064715756878 0.1294762544665201 0.2870064715756878
8.074856323562416E7 0.13215007894172504 0.2901550314902484 0.8678499210582749 -0.29015503149024846 0.8678499210582749 -0.29015503149024846 0.13215007894172504 0.2901550314902484
8.196717240342227E7 0.1348799629739049 0.29331813645868765 0.8651200370260951 -0.29331813645868765 0.8651200370260951 -0.29331813645868765 0.1348799629739049 0.29331813645868765
8.320417209415154E7 0.13766684012501373 0.2964950537000002 0.8623331598749863 -0.29649505370000023 0.8623331598749863 -0.29649505370000023 0.13766684012501373 0.2964950537000002
8.445983984661816E7 0.14051164538654132 0.2996850129017504 0.8594883546134586 -0.2996850129017504 0.8594883546134586 -0.2996850129017504 0.14051164538654132 0.2996850129017504
8.573445738807854E7 0.14341531402266963 0.3028872051763979 0.8565846859773304 -0.3028872051763979 0.8565846859773304 -0.3028872051763979 0.14341531402266963 0.3028872051763979
8.702831069744885E7 0.14637878033353857 0.30610078203877533 0.8536212196664614 -0.30610078203877533 0.8536212196664614 -0.30610078203877533 0.14637878033353857 0.30610078203877533
8.834169006946853E7 0.14940297633748348 0.3093248544096791 0.8505970236625164 -0.30932485440967916 0.8505970236625164 -0.30932485440967916 0.14940297633748348 0.3093248544096791
8.96748901798321E7 0.15248883037137045 0.31255849165072835 0.8475111696286296 -0.31255849165072835 0.8475111696286296 -0.31255849165072835 0.15248883037137045 0.31255849165072835
9.1028210151304E7 0.15563726560844593 0.315800720635845 0.8443627343915541 -0.315800720635845 0.8443627343915541 -0.315800720635845 0.15563726560844593 0.315800720635845
9.240195362083109E7 0.15884919849342063 0.3190505248648837 0.8411508015065794 -0.3190505248648837 0.8411508015065794 -0.3190505248648837 0.15884919849342063 0.3190505248648837
9.379642880766791E7 0.16212553709483507 0.3223068436251026 0.8378744629051649 -0.3223068436251026 0.8378744629051649 -0.3223068436251026 0.16212553709483507 0.3223068436251026
9.521194858253023E7 0.16546717937509717 0.32556857120631694 0.8345328206249029 -0.3255685712063169 0.8345328206249029 -0.3255685712063169 0.16546717937509717 0.32556857120631694
9.664883053779216E7 0.16887501137894942 0.3288345561757076 0.8311249886210506 -0.32883455617570756 0.8311249886210506 -0.32883455617570756 0.16887501137894942 0.3288345561757076
9.810739705874248E7 0.17234990534149935 0.3321036007183653 0.8276500946585006 -0.3321036007183653 0.8276500946585006 -0.3321036007183653 0.17234990534149935 0.3321036007183653
9.958797539591652E7 0.1758927177173502 0.3353744600497437 0.8241072822826498 -0.3353744600497437 0.8241072822826498 -0.3353744600497437 0.1758927177173502 0.3353744600497437
1.0109089773851961E8 0.17950428713278133 0.3386458419062599 0.8204957128672187 -0.3386458419062599 0.8204957128672187 -0.3386458419062599 0.17950428713278133 0.3386458419062599
1.0261650128895843E8 0.18318543226336143 0.3419164061203262 0.8168145677366384 -0.3419164061203262 0.8168145677366384 -0.3419164061203262 0.18318543226336143 0.3419164061203262
1.0416512833849736E8 0.1869369496398215 0.34518476428610934 0.8130630503601785 -0.34518476428610934 0.8130630503601785 -0.34518476428610934 0.1869369496398215 0.34518476428610934
1.0573712634405641E8 0.19075961138547431 0.3484494795223053 0.8092403886145257 -0.3484494795223053 0.8092403886145257 -0.3484494795223053 0.19075961138547431 0.3484494795223053
1.0733284800616828E8 0.1946541628889403 0.3517090663381716 0.8053458371110597 -0.3517090663381716 0.8053458371110597 -0.3517090663381716 0.1946541628889403 0.3517090663381716
1.0895265134811176E8 0.1986213204164184 0.3549619906089898 0.8013786795835816 -0.3549619906089898 0.8013786795835816 -0.3549619906089898 0.1986213204164184 0.3549619906089898
1.1059689979623953E8 0.20266176866823438 0.3582066696670181 0.7973382313317657 -0.35820666966701814 0.7973382313317657 -0.35820666966701814 0.20266176866823438 0.3582066696670181
1.1226596226151802E8 0.20677615828489312 0.3614414725138549 0.793223841715107 -0.36144147251385483 0.793223841715107 -0.36144147251385483 0.20677615828489312 0.3614414725138549
1.1396021322229806E8 0.21096510330836557 0.3646647201599527 0.7890348966916346 -0.3646647201599527 0.7890348966916346 -0.3646647201599527 0.21096510330836557 0.3646647201599527
1.1568003280833441E8 0.21522917860484297 0.3678746860968013 0.784770821395157 -0.3678746860968013 0.784770821395157 -0.3678746860968013 0.21522917860484297 0.3678746860968013
1.1742580688607343E8 0.21956891725569339 0.3710695969070427 0.7804310827443067 -0.3710695969070428 0.7804310827443067 -0.3710695969070428 0.21956891725569339 0.3710695969070427
1.1919792714522783E8 0.2239848079238597 0.3742476330174797 0.7760151920761403 -0.3742476330174797 0.7760151920761403 -0.3742476330174797 0.2239848079238597 0.3742476330174797
1.2099679118665792E8 0.22847729220342142 0.3774069295995938 0.7715227077965786 -0.3774069295995938 0.7715227077965786 -0.3774069295995938 0.22847729220342142 0.3774069295995938
1.2282280261157903E8 0.23304676196053456 0.38054557762180613 0.7669532380394652 -0.3805455776218062 0.7669532380394652 -0.3805455776218062 0.23304676196053456 0.38054557762180613
1.2467637111211549E8 0.23769355667443093 0.3836616250572825 0.7623064433255691 -0.3836616250572825 0.7623064433255691 -0.3836616250572825 0.23769355667443093 0.3836616250572825
1.265579125632208E8 0.24241796078759814 0.3867530782506039 0.7575820392124019 -0.3867530782506039 0.7575820392124019 -0.3867530782506039 0.24241796078759814 0.3867530782506039
1.284678491159853E8 0.2472202010747148 0.38981790344611417 0.7527797989252852 -0.38981790344611417 0.7527797989252852 -0.38981790344611417 0.2472202010747148 0.38981790344611417
1.3040660929235186E8 0.25210044404029197 0.3928540284801776 0.747899555959708 -0.39285402848017764 0.747899555959708 -0.39285402848017764 0.25210044404029197 0.3928540284801776
1.3237462808126101E8 0.25705879335536946 0.39585934463898265 0.7429412066446306 -0.3958593446389827 0.7429412066446306 -0.3958593446389827 0.25705879335536946 0.39585934463898265
1.3437234703624701E8 0.26209528734394116 0.39883170868286766 0.737904712656059 -0.39883170868286766 0.737904712656059 -0.39883170868286766 0.26209528734394116 0.39883170868286766
1.364002143745067E8 0.26720989653008903 0.40176894503745375 0.7327901034699109 -0.40176894503745375 0.7327901034699109 -0.40176894503745375 0.26720989653008903 0.40176894503745375
1.3845868507746372E8 0.27240252125706715 0.4046688481511368 0.7275974787429329 -0.4046688481511368 0.7275974787429329 -0.4046688481511368 0.27240252125706715 0.4046688481511368
1.405482209928499E8 0.2776729893897751 0.4075291850177149 0.722327010610225 -0.4075291850177149 0.722327010610225 -0.4075291850177149 0.2776729893897751 0.4075291850177149
1.426692909383278E8 0.2830210541122342 0.41034769786212916 0.7169789458877659 -0.41034769786212916 0.7169789458877659 -0.41034769786212916 0.2830210541122342 0.41034769786212916
1.4482237080667645E8 0.28844639183175913 0.41312210698644675 0.711553608168241 -0.41312210698644675 0.711553608168241 -0.41312210698644675 0.28844639183175913 0.41312210698644675
1.4700794367256513E8 0.2939486002015749 0.41585011377236264 0.7060513997984252 -0.41585011377236264 0.7060513997984252 -0.41585011377236264 0.2939486002015749 0.41585011377236264
1.492264999009378E8 0.29952719627359103 0.4185294038355968 0.7004728037264089 -0.4185294038355967 0.7004728037264089 -0.4185294038355967 0.29952719627359103 0.4185294038355968
1.5147853725703382E8 0.3051816147929531 0.4211576503266642 0.694818385207047 -0.4211576503266642 0.694818385207047 -0.4211576503266642 0.3051816147929531 0.4211576503266642
1.5376456101806876E8 0.31091120664582217 0.4237325173715722 0.6890887933541778 -0.4237325173715722 0.6890887933541778 -0.4237325173715722 0.31091120664582217 0.4237325173715722
1.5608508408660066E8 0.3167152374715914 0.42625166364507355 0.6832847625284085 -0.42625166364507355 0.6832847625284085 -0.42625166364507355 0.3167152374715914 0.42625166364507355
1.5844062710560706E8 0.3225928864504223 0.4287127460681762 0.6774071135495778 -0.4287127460681762 0.6774071135495778 -0.4287127460681762 0.3225928864504223 0.4287127460681762
1.6083171857529896E8 0.3285432452765899 0.43111342362069127 0.67145675472341 -0.43111342362069127 0.67145675472341 -0.43111342362069127 0.3285432452765899 0.43111342362069127
1.632588949716973E8 0.3345653173276328 0.43345136125869105 0.6654346826723672 -0.433451361258691 0.6654346826723672 -0.433451361258691 0.3345653173276328 0.43345136125869105
1.6572270086699936E8 0.34065801703874565 0.4357242339258624 0.6593419829612543 -0.43572423392586246 0.6593419829612543 -0.43572423392586246 0.34065801703874565 0.4357242339258624
1.6822368905176118E8 0.3468201694912054 0.43792973064688584 0.6531798305087945 -0.4379297306468858 0.6531798305087945 -0.4379297306468858 0.3468201694912054 0.43792973064688584
1.7076242065892437E8 0.3530505102228867 0.44006555869014374 0.6469494897771134 -0.44006555869014374 0.6469494897771134 -0.44006555869014374 0.3530505102228867 0.44006555869014374
1.7333946528971428E8 0.3593476852681216 0.4421294477862904 0.6406523147318783 -0.4421294477862904 0.6406523147318783 -0.4421294477862904 0.3593476852681216 0.4421294477862904
1.7595540114143828E8 0.3657102514332696 0.4441191543884881 0.6342897485667304 -0.4441191543884881 0.6342897485667304 -0.4441191543884881 0.3657102514332696 0.4441191543884881
1.786108151372127E8 0.3721366768134047 0.44603246595945406 0.6278633231865953 -0.44603246595945406 0.6278633231865953 -0.44603246595945406 0.3721366768134047 0.44603246595945406
1.8130630305764765E8 0.37862534155449545 0.4478672052698664 0.6213746584455047 -0.4478672052698664 0.6213746584455047 -0.4478672052698664 0.37862534155449545 0.4478672052698664
1.840424696745189E8 0.3851745388643657 0.449621234692161 0.6148254611356343 -0.449621234692161 0.6148254611356343 -0.449621234692161 0.3851745388643657 0.449621234692161
1.8681992888645732E8 0.39178247627456475 0.4512924604733194 0.6082175237254352 -0.4512924604733194 0.6082175237254352 -0.4512924604733194 0.39178247627456475 0.4512924604733194
1.8963930385668582E8 0.39844727715407463 0.45287883696989883 0.6015527228459254 -0.4528788369698988 0.6015527228459254 -0.4528788369698988 0.39844727715407463 0.45287883696989883
1.92501227152835E8 0.40516698247452904 0.4543783708283154 0.5948330175254708 -0.45437837082831534 0.5948330175254708 -0.45437837082831534 0.40516698247452904 0.4543783708283154
1.9540634088886917E8 0.41193955282534694 0.45578912509324493 0.5880604471746531 -0.45578912509324504 0.5880604471746531 -0.45578912509324504 0.41193955282534694 0.45578912509324493
1.983552968691535E8 0.4187628706758498 0.45710922322696623 0.5812371293241503 -0.4571092232269662 0.5812371293241503 -0.4571092232269662 0.4187628706758498 0.45710922322696623
2.0134875673469606E8 0.42563474288012515 0.45833685302254973 0.5743652571198749 -0.45833685302254973 0.5743652571198749 -0.45833685302254973 0.42563474288012515 0.45833685302254973
2.0438739211159652E8 0.43255290341905134 0.45947027039398103 0.5674470965809487 -0.45947027039398103 0.5674470965809487 -0.45947027039398103 0.43255290341905134 0.45947027039398103
2.074718847617352E8 0.4395150163725693 0.4605078030266097 0.5604849836274307 -0.4605078030266097 0.5604849836274307 -0.4605078030266097 0.4395150163725693 0.4605078030266097
2.106029267357361E8 0.44651867911397264 0.4614478538717388 0.5534813208860274 -0.46144785387173887 0.5534813208860274 -0.46144785387173887 0.44651867911397264 0.4614478538717388
2.1378122052823865E8 0.4535614257166954 0.46228890446970405 0.5464385742833048 -0.46228890446970405 0.5464385742833048 -0.46228890446970405 0.4535614257166954 0.46228890446970405
2.1700747923551247E8 0.4606407305628247 0.46302951808644255 0.5393592694371752 -0.46302951808644255 0.5393592694371752 -0.46302951808644255 0.4606407305628247 0.46302951808644255
2.2028242671545094E8 0.4677540121413636 0.46366834264932083 0.5322459878586366 -0.46366834264932094 0.5322459878586366 -0.46366834264932094 0.4677540121413636 0.46366834264932083
2.23606797749979E8 0.4748986370231182 0.4642041134688515 0.5251013629768818 -0.4642041134688515 0.5251013629768818 -0.4642041134688515 0.4748986370231182 0.4642041134688515
2.2698133820991236E8 0.48207192399802534 0.46463565573391796 0.5179280760019747 -0.4646356557339181 0.5179280760019747 -0.4646356557339181 0.48207192399802534 0.46463565573391796
2.3040680522230446E8 0.48927114835972385 0.4649618867691864 0.510728851640276 -0.4649618867691863 0.510728851640276 -0.4649618867691863 0.48927114835972385 0.4649618867691864
2.338839673403185E8 0.4964935463212877 0.465181818044549 0.5035064536787123 -0.465181818044549 0.5035064536787123 -0.465181818044549 0.4964935463212877 0.465181818044549
2.37413604715664E8 0.5037363195452331 0.46529455692768834 0.496263680454767 -0.46529455692768823 0.496263680454767 -0.46529455692768823 0.5037363195452331 0.46529455692768834
2.4099650927363476E8 0.5109966397702084 0.4652993081721594 0.4890033602297917 -0.4652993081721594 0.4890033602297917 -0.4652993081721594 0.5109966397702084 0.4652993081721594
2.446334848907889E8 0.5182716535162099 0.4651953751347662 0.48172834648379015 -0.46519537513476633 0.48172834648379015 -0.46519537513476633 0.5182716535162099 0.4651953751347662
2.4832534757531032E8 0.5255584868496949 0.4649821607174304 0.47444151315030525 -0.4649821607174304 0.47444151315030525 -0.4649821607174304 0.5255584868496949 0.4649821607174304
2.5207292565009177E8 0.5328542501896372 0.46465916803021473 0.4671457498103629 -0.46465916803021473 0.4671457498103629 -0.46465916803021473 0.5328542501896372 0.46465916803021473
2.558770599385812E8 0.540156043135363 0.4642260007736542 0.4598439568646369 -0.4642260007736542 0.4598439568646369 -0.4642260007736542 0.540156043135363 0.4642260007736542
2.5973860395343277E8 0.5474609592969301 0.4636823633400478 0.45253904070307005 -0.46368236334004775 0.45253904070307005 -0.46368236334004775 0.5474609592969301 0.4636823633400478
