!Murata Part Number: LQG15HN1N1B02
!These Parameters are Measured in Series Mode Connection
!       o--[Z]--o
!Port1              Port2
!       o-------o
!
!Freq. Start=50[MHz] Stop=20[GHz], 401[Steps]
# Hz S RI R 50
!Freq.(Hz) S11(Real) S11(Imag) S21(Real) S21(Imag) S12(Real) S12(Imag) S22(Real) S22(Imag)
5.0E7 4.275724270115902E-4 0.0027180479128192997 0.9995724275729883 -0.0027180479128192997 0.9995724275729883 -0.0027180479128192997 4.275724270115902E-4 0.0027180479128192997
5.0754570186123446E7 4.297295764006284E-4 0.002757896770188684 0.9995702704235995 -0.002757896770188684 0.9995702704235995 -0.002757896770188684 4.297295764006284E-4 0.002757896770188684
5.152052789556263E7 4.319203577373105E-4 0.00279831426306135 0.9995680796422626 -0.00279831426306135 0.9995680796422626 -0.00279831426306135 4.319203577373105E-4 0.00279831426306135
5.229804498202928E7 4.3414470504273667E-4 0.0028393084814163252 0.9995658552949572 -0.0028393084814163257 0.9995658552949572 -0.0028393084814163257 4.3414470504273667E-4 0.0028393084814163252
5.308729589274893E7 4.364025308544721E-4 0.002880887652869716 0.9995635974691455 -0.002880887652869716 0.9995635974691455 -0.002880887652869716 4.364025308544721E-4 0.002880887652869716
5.388845770760058E7 4.386937263663033E-4 0.002923060146054893 0.9995613062736337 -0.002923060146054893 0.9995613062736337 -0.002923060146054893 4.386937263663033E-4 0.002923060146054893
5.470171017884717E7 4.4101816165059216E-4 0.0029658344740567688 0.9995589818383495 -0.0029658344740567688 0.9995589818383495 -0.0029658344740567688 4.4101816165059216E-4 0.0029658344740567688
5.5527235771465644E7 4.4337568596622477E-4 0.0030092192978961713 0.9995566243140338 -0.0030092192978961713 0.9995566243140338 -0.0030092192978961713 4.4337568596622477E-4 0.0030092192978961713
5.6365219704085544E7 4.45766128154901E-4 0.0030532234300600465 0.9995542338718452 -0.0030532234300600465 0.9995542338718452 -0.0030532234300600465 4.45766128154901E-4 0.0030532234300600465
5.721584999054556E7 4.481892971281915E-4 0.0030978558380728885 0.9995518107028718 -0.0030978558380728885 0.9995518107028718 -0.0030978558380728885 4.481892971281915E-4 0.0030978558380728885
5.807931748207712E7 4.506449824475032E-4 0.0031431256481047054 0.9995493550175526 -0.0031431256481047054 0.9995493550175526 -0.0031431256481047054 4.506449824475032E-4 0.0031431256481047054
5.8955815910124585E7 4.531329549987097E-4 0.0031890421486104304 0.9995468670450013 -0.0031890421486104304 0.9995468670450013 -0.0031890421486104304 4.531329549987097E-4 0.0031890421486104304
5.984554192981184E7 4.556529677628719E-4 0.003235614793995687 0.9995443470322372 -0.003235614793995687 0.9995443470322372 -0.003235614793995687 4.556529677628719E-4 0.003235614793995687
6.074869516406457E7 4.5820475668405876E-4 0.0032828532083034974 0.9995417952433159 -0.0032828532083034974 0.9995417952433159 -0.0032828532083034974 4.5820475668405876E-4 0.0032828532083034974
6.166547824839868E7 4.6078804163487676E-4 0.003330767188916495 0.9995392119583651 -0.003330767188916495 0.9995392119583651 -0.003330767188916495 4.6078804163487676E-4 0.003330767188916495
6.2596096876384385E7 4.634025274798977E-4 0.0033793667102690714 0.99953659747252 -0.0033793667102690705 0.99953659747252 -0.0033793667102690705 4.634025274798977E-4 0.0033793667102690714
6.354075984579668E7 4.660479052367231E-4 0.0034286619275638165 0.9995339520947633 -0.0034286619275638165 0.9995339520947633 -0.0034286619275638165 4.660479052367231E-4 0.0034286619275638165
6.449967910546205E7 4.687238533339787E-4 0.0034786631804865817 0.9995312761466661 -0.0034786631804865817 0.9995312761466661 -0.0034786631804865817 4.687238533339787E-4 0.0034786631804865817
6.547306980281226E7 4.714300389650815E-4 0.003529380996914556 0.9995285699610349 -0.003529380996914557 0.9995285699610349 -0.003529380996914557 4.714300389650815E-4 0.003529380996914556
6.646115033215589E7 4.741661195361428E-4 0.0035808260966117256 0.9995258338804638 -0.0035808260966117248 0.9995258338804638 -0.0035808260966117248 4.741661195361428E-4 0.0035808260966117256
6.746414238367817E7 4.7693174420592886E-4 0.003633009394906221 0.9995230682557941 -0.003633009394906221 0.9995230682557941 -0.003633009394906221 4.7693174420592886E-4 0.003633009394906221
6.848227099318038E7 4.7972655551532204E-4 0.0036859420063441914 0.9995202734444847 -0.0036859420063441914 0.9995202734444847 -0.0036859420063441914 4.7972655551532204E-4 0.0036859420063441914
6.951576459256999E7 4.8255019110329155E-4 0.0037396352483149886 0.9995174498088966 -0.0037396352483149878 0.9995174498088966 -0.0037396352483149878 4.8255019110329155E-4 0.0037396352483149886
7.056485506111258E7 4.854022855059277E-4 0.003794100644642678 0.9995145977144941 -0.003794100644642678 0.9995145977144941 -0.003794100644642678 4.854022855059277E-4 0.003794100644642678
7.162977777745734E7 4.882824720346758E-4 0.00384934992913914 0.9995117175279654 -0.00384934992913914 0.9995117175279654 -0.00384934992913914 4.882824720346758E-4 0.00384934992913914
7.271077167244768E7 4.91190384729497E-4 0.0039053950491143023 0.9995088096152704 -0.0039053950491143015 0.9995088096152704 -0.0039053950491143015 4.91190384729497E-4 0.0039053950491143023
7.380807928272885E7 4.941256603822956E-4 0.00396224816883938 0.9995058743396177 -0.003962248168839379 0.9995058743396177 -0.003962248168839379 4.941256603822956E-4 0.00396224816883938
7.492194680516452E7 4.970879406256033E-4 0.00401992167295938 0.9995029120593745 -0.00401992167295938 0.9995029120593745 -0.00401992167295938 4.970879406256033E-4 0.00401992167295938
7.60526241520746E7 5.000768740811636E-4 0.004078428169851457 0.9994999231259191 -0.004078428169851457 0.9994999231259191 -0.004078428169851457 5.000768740811636E-4 0.004078428169851457
7.720036500730675E7 5.03092118562782E-4 0.004137780494926198 0.9994969078814373 -0.004137780494926197 0.9994969078814373 -0.004137780494926197 5.03092118562782E-4 0.004137780494926198
7.836542688315398E7 5.061333433275404E-4 0.004197991713869344 0.9994938666566726 -0.004197991713869345 0.9994938666566726 -0.004197991713869345 5.061333433275404E-4 0.004197991713869344
7.954807117813127E7 5.092002313692343E-4 0.004259075125821872 0.9994907997686306 -0.004259075125821872 0.9994907997686306 -0.004259075125821872 5.092002313692343E-4 0.004259075125821872
8.074856323562416E7 5.122924817477409E-4 0.004321044266496946 0.9994877075182523 -0.004321044266496946 0.9994877075182523 -0.004321044266496946 5.122924817477409E-4 0.004321044266496946
8.196717240342227E7 5.15409811947847E-4 0.004383912911232649 0.9994845901880521 -0.0043839129112326495 0.9994845901880521 -0.0043839129112326495 5.15409811947847E-4 0.004383912911232649
8.320417209415154E7 5.185519602610026E-4 0.004447695077980059 0.9994814480397389 -0.004447695077980059 0.9994814480397389 -0.004447695077980059 5.185519602610026E-4 0.004447695077980059
8.445983984661816E7 5.217186881833802E-4 0.004512405030226567 0.9994782813118167 -0.004512405030226566 0.9994782813118167 -0.004512405030226566 5.217186881833802E-4 0.004512405030226567
8.573445738807854E7 5.249097828236412E-4 0.004578057279855083 0.9994750902171765 -0.004578057279855083 0.9994750902171765 -0.004578057279855083 5.249097828236412E-4 0.004578057279855083
8.702831069744885E7 5.281250593138139E-4 0.004644666589940104 0.999471874940686 -0.004644666589940104 0.999471874940686 -0.004644666589940104 5.281250593138139E-4 0.004644666589940104
8.834169006946853E7 5.313643632168032E-4 0.004712247977482303 0.9994686356367832 -0.004712247977482302 0.9994686356367832 -0.004712247977482302 5.313643632168032E-4 0.004712247977482303
8.96748901798321E7 5.346275729241418E-4 0.004780816716083662 0.9994653724270758 -0.004780816716083662 0.9994653724270758 -0.004780816716083662 5.346275729241418E-4 0.004780816716083662
9.1028210151304E7 5.379146020377844E-4 0.004850388338565834 0.999462085397962 -0.004850388338565834 0.999462085397962 -0.004850388338565834 5.379146020377844E-4 0.004850388338565834
9.240195362083109E7 5.412254017299421E-4 0.004920978639534726 0.9994587745982701 -0.004920978639534726 0.9994587745982701 -0.004920978639534726 5.412254017299421E-4 0.004920978639534726
9.379642880766791E7 5.445599630751943E-4 0.00499260367789488 0.9994554400369247 -0.00499260367789488 0.9994554400369247 -0.00499260367789488 5.445599630751943E-4 0.00499260367789488
9.521194858253023E7 5.479183193494159E-4 0.005065279779317639 0.9994520816806505 -0.005065279779317639 0.9994520816806505 -0.005065279779317639 5.479183193494159E-4 0.005065279779317639
9.664883053779216E7 5.513005482903519E-4 0.00513902353866746 0.9994486994517097 -0.00513902353866746 0.9994486994517097 -0.00513902353866746 5.513005482903519E-4 0.00513902353866746
9.810739705874248E7 5.547067743150288E-4 0.005213851822391109 0.999445293225685 -0.005213851822391108 0.999445293225685 -0.005213851822391108 5.547067743150288E-4 0.005213851822391109
9.958797539591652E7 5.581371706895662E-4 0.005289781770874875 0.9994418628293104 -0.005289781770874875 0.9994418628293104 -0.005289781770874875 5.581371706895662E-4 0.005289781770874875
1.0109089773851961E8 5.615919616473403E-4 0.0053668308007752165 0.9994384080383527 -0.0053668308007752165 0.9994384080383527 -0.0053668308007752165 5.615919616473403E-4 0.0053668308007752165
1.0261650128895843E8 5.650714244518757E-4 0.005445016607328458 0.9994349285755482 -0.005445016607328458 0.9994349285755482 -0.005445016607328458 5.650714244518757E-4 0.005445016607328458
1.0416512833849736E8 5.685758914012679E-4 0.005524357166645533 0.9994314241085988 -0.005524357166645534 0.9994314241085988 -0.005524357166645534 5.685758914012679E-4 0.005524357166645533
1.0573712634405641E8 5.72105751771389E-4 0.005604870737997812 0.9994278942482286 -0.005604870737997812 0.9994278942482286 -0.005604870737997812 5.72105751771389E-4 0.005604870737997812
1.0733284800616828E8 5.756614536955778E-4 0.005686575866100329 0.9994243385463045 -0.00568657586610033 0.9994243385463045 -0.00568657586610033 5.756614536955778E-4 0.005686575866100329
1.0895265134811176E8 5.792435059789757E-4 0.005769491383398739 0.9994207564940208 -0.005769491383398739 0.9994207564940208 -0.005769491383398739 5.792435059789757E-4 0.005769491383398739
1.1059689979623953E8 5.82852479846126E-4 0.005853636412366501 0.999417147520154 -0.005853636412366502 0.999417147520154 -0.005853636412366502 5.82852479846126E-4 0.005853636412366501
1.1226596226151802E8 5.86489010620912E-4 0.005939030367818737 0.9994135109893791 -0.005939030367818737 0.9994135109893791 -0.005939030367818737 5.86489010620912E-4 0.005939030367818737
1.1396021322229806E8 5.901537993383568E-4 0.006025692959249298 0.9994098462006619 -0.006025692959249298 0.9994098462006619 -0.006025692959249298 5.901537993383568E-4 0.006025692959249298
1.1568003280833441E8 5.938476142882458E-4 0.0061136441931974594 0.9994061523857118 -0.006113644193197459 0.9994061523857118 -0.006113644193197459 5.938476142882458E-4 0.0061136441931974594
1.1742580688607343E8 5.975712924909528E-4 0.00620290437565062 0.999402428707509 -0.006202904375650621 0.999402428707509 -0.006202904375650621 5.975712924909528E-4 0.00620290437565062
1.1919792714522783E8 6.013257411062797E-4 0.006293494114489357 0.9993986742588938 -0.006293494114489357 0.9993986742588938 -0.006293494114489357 6.013257411062797E-4 0.006293494114489357
1.2099679118665792E8 6.05111938776486E-4 0.006385434321980879 0.9993948880612233 -0.006385434321980879 0.9993948880612233 -0.006385434321980879 6.05111938776486E-4 0.006385434321980879
1.2282280261157903E8 6.089309369050694E-4 0.006478746217326967 0.9993910690630948 -0.006478746217326967 0.9993910690630948 -0.006478746217326967 6.089309369050694E-4 0.006478746217326967
1.2467637111211549E8 6.12783860873202E-4 0.006573451329272107 0.9993872161391267 -0.006573451329272105 0.9993872161391267 -0.006573451329272105 6.12783860873202E-4 0.006573451329272107
1.265579125632208E8 6.16671911196055E-4 0.006669571498777525 0.9993833280888038 -0.006669571498777524 0.9993833280888038 -0.006669571498777524 6.16671911196055E-4 0.006669571498777525
1.284678491159853E8 6.205963646215243E-4 0.006767128881766382 0.9993794036353785 -0.006767128881766382 0.9993794036353785 -0.006767128881766382 6.205963646215243E-4 0.006767128881766382
1.3040660929235186E8 6.245585751741631E-4 0.006866145951945334 0.9993754414248259 -0.006866145951945334 0.9993754414248259 -0.006866145951945334 6.245585751741631E-4 0.006866145951945334
1.3237462808126101E8 6.285599751473372E-4 0.0069666455037072665 0.9993714400248527 -0.006966645503707268 0.9993714400248527 -0.006966645503707268 6.285599751473372E-4 0.0069666455037072665
1.3437234703624701E8 6.326020760468709E-4 0.007068650655119903 0.9993673979239532 -0.007068650655119903 0.9993673979239532 -0.007068650655119903 6.326020760468709E-4 0.007068650655119903
1.364002143745067E8 6.366864694895847E-4 0.007172184851004441 0.9993633135305104 -0.007172184851004441 0.9993633135305104 -0.007172184851004441 6.366864694895847E-4 0.007172184851004441
1.3845868507746372E8 6.408148280603358E-4 0.007277271866108512 0.9993591851719397 -0.007277271866108512 0.9993591851719397 -0.007277271866108512 6.408148280603358E-4 0.007277271866108512
1.405482209928499E8 6.449889061312453E-4 0.0073839358083769785 0.9993550110938688 -0.0073839358083769785 0.9993550110938688 -0.0073839358083769785 6.449889061312453E-4 0.0073839358083769785
1.426692909383278E8 6.492105406469364E-4 0.007492201122324267 0.999350789459353 -0.007492201122324266 0.999350789459353 -0.007492201122324266 6.492105406469364E-4 0.007492201122324267
1.4482237080667645E8 6.534816518796549E-4 0.007602092592511307 0.9993465183481204 -0.007602092592511305 0.9993465183481204 -0.007602092592511305 6.534816518796549E-4 0.007602092592511307
1.4700794367256513E8 6.578042441581962E-4 0.00771363534713012 0.9993421957558416 -0.00771363534713012 0.9993421957558416 -0.00771363534713012 6.578042441581962E-4 0.00771363534713012
1.492264999009378E8 6.621804065745842E-4 0.00782685486169868 0.9993378195934254 -0.00782685486169868 0.9993378195934254 -0.00782685486169868 6.621804065745842E-4 0.00782685486169868
1.5147853725703382E8 6.66612313672442E-4 0.007941776962868477 0.9993333876863275 -0.007941776962868477 0.9993333876863275 -0.007941776962868477 6.66612313672442E-4 0.007941776962868477
1.5376456101806876E8 6.711022261209726E-4 0.008058427832347042 0.9993288977738791 -0.008058427832347042 0.9993288977738791 -0.008058427832347042 6.711022261209726E-4 0.008058427832347042
1.5608508408660066E8 6.756524913784241E-4 0.0081768340109373 0.9993243475086215 -0.0081768340109373 0.9993243475086215 -0.0081768340109373 6.756524913784241E-4 0.0081768340109373
1.5844062710560706E8 6.802655443488428E-4 0.008297022402695609 0.9993197344556511 -0.008297022402695609 0.9993197344556511 -0.008297022402695609 6.802655443488428E-4 0.008297022402695609
1.6083171857529896E8 6.849439080358465E-4 0.008419020279209941 0.999315056091964 -0.008419020279209941 0.999315056091964 -0.008419020279209941 6.849439080358465E-4 0.008419020279209941
1.632588949716973E8 6.896901941970546E-4 0.008542855283999692 0.9993103098058028 -0.008542855283999692 0.9993103098058028 -0.008542855283999692 6.896901941970546E-4 0.008542855283999692
1.6572270086699936E8 6.945071040027025E-4 0.008668555437038315 0.999305492895997 -0.008668555437038315 0.999305492895997 -0.008668555437038315 6.945071040027025E-4 0.008668555437038315
1.6822368905176118E8 6.993974287018489E-4 0.008796149139399832 0.9993006025712983 -0.008796149139399832 0.9993006025712983 -0.008796149139399832 6.993974287018489E-4 0.008796149139399832
1.7076242065892437E8 7.043640502994601E-4 0.008925665178030253 0.9992956359497004 -0.008925665178030255 0.9992956359497004 -0.008925665178030255 7.043640502994601E-4 0.008925665178030253
1.7333946528971428E8 7.094099422475287E-4 0.009057132730644818 0.9992905900577526 -0.009057132730644818 0.9992905900577526 -0.009057132730644818 7.094099422475287E-4 0.009057132730644818
1.7595540114143828E8 7.14538170153233E-4 0.009190581370751731 0.9992854618298467 -0.009190581370751731 0.9992854618298467 -0.009190581370751731 7.14538170153233E-4 0.009190581370751731
1.786108151372127E8 7.19751892507016E-4 0.009326041072803371 0.999280248107493 -0.009326041072803371 0.999280248107493 -0.009326041072803371 7.19751892507016E-4 0.009326041072803371
1.8130630305764765E8 7.250543614333127E-4 0.009463542217475463 0.9992749456385667 -0.009463542217475463 0.9992749456385667 -0.009463542217475463 7.250543614333127E-4 0.009463542217475463
1.840424696745189E8 7.304489234665234E-4 0.009603115597075116 0.9992695510765336 -0.009603115597075116 0.9992695510765336 -0.009603115597075116 7.304489234665234E-4 0.009603115597075116
1.8681992888645732E8 7.359390203546798E-4 0.009744792421078327 0.9992640609796453 -0.009744792421078327 0.9992640609796453 -0.009744792421078327 7.359390203546798E-4 0.009744792421078327
1.8963930385668582E8 7.415281898931391E-4 0.009888604321797827 0.999258471810107 -0.009888604321797827 0.999258471810107 -0.009888604321797827 7.415281898931391E-4 0.009888604321797827
1.92501227152835E8 7.472200667904921E-4 0.010034583360181952 0.9992527799332095 -0.010034583360181952 0.9992527799332095 -0.010034583360181952 7.472200667904921E-4 0.010034583360181952
1.9540634088886917E8 7.530183835687715E-4 0.010182762031745533 0.9992469816164313 -0.010182762031745533 0.9992469816164313 -0.010182762031745533 7.530183835687715E-4 0.010182762031745533
1.983552968691535E8 7.589269714999309E-4 0.010333173272633701 0.9992410730285002 -0.010333173272633701 0.9992410730285002 -0.010333173272633701 7.589269714999309E-4 0.010333173272633701
2.0134875673469606E8 7.64949761580466E-4 0.010485850465819714 0.9992350502384195 -0.010485850465819714 0.9992350502384195 -0.010485850465819714 7.64949761580466E-4 0.010485850465819714
2.0438739211159652E8 7.710907855459749E-4 0.010640827447438007 0.9992289092144542 -0.010640827447438007 0.9992289092144542 -0.010640827447438007 7.710907855459749E-4 0.010640827447438007
2.074718847617352E8 7.77354176927371E-4 0.010798138513253798 0.9992226458230726 -0.010798138513253796 0.9992226458230726 -0.010798138513253796 7.77354176927371E-4 0.010798138513253798
2.106029267357361E8 7.837441721504238E-4 0.010957818425270757 0.9992162558278496 -0.010957818425270759 0.9992162558278496 -0.010957818425270759 7.837441721504238E-4 0.010957818425270757
2.1378122052823865E8 7.902651116802487E-4 0.011119902418478406 0.9992097348883197 -0.011119902418478406 0.9992097348883197 -0.011119902418478406 7.902651116802487E-4 0.011119902418478406
2.1700747923551247E8 7.969214412123592E-4 0.011284426207741045 0.9992030785587876 -0.011284426207741045 0.9992030785587876 -0.011284426207741045 7.969214412123592E-4 0.011284426207741045
2.2028242671545094E8 8.037177129118915E-4 0.011451425994830346 0.9991962822870882 -0.011451425994830346 0.9991962822870882 -0.011451425994830346 8.037177129118915E-4 0.011451425994830346
2.23606797749979E8 8.106585867026306E-4 0.011620938475603776 0.9991893414132974 -0.011620938475603776 0.9991893414132974 -0.011620938475603776 8.106585867026306E-4 0.011620938475603776
2.2698133820991236E8 8.177488316075019E-4 0.011793000847331321 0.9991822511683924 -0.01179300084733132 0.9991822511683924 -0.01179300084733132 8.177488316075019E-4 0.011793000847331321
2.3040680522230446E8 8.249933271422756E-4 0.011967650816173257 0.9991750066728576 -0.011967650816173257 0.9991750066728576 -0.011967650816173257 8.249933271422756E-4 0.011967650816173257
2.338839673403185E8 8.323970647642866E-4 0.012144926604811725 0.9991676029352357 -0.012144926604811725 0.9991676029352357 -0.012144926604811725 8.323970647642866E-4 0.012144926604811725
2.37413604715664E8 8.399651493781159E-4 0.012324866960239407 0.9991600348506221 -0.012324866960239407 0.9991600348506221 -0.012324866960239407 8.399651493781159E-4 0.012324866960239407
