!Murata Part Number: LQG15HN3N3C02
!These Parameters are Measured in Series Mode Connection
!       o--[Z]--o
!Port1              Port2
!       o-------o
!
!Freq. Start=50[MHz] Stop=20[GHz], 401[Steps]
# Hz S RI R 50
!Freq.(Hz) S11(Real) S11(Imag) S21(Real) S21(Imag) S12(Real) S12(Imag) S22(Real) S22(Imag)
5.0E7 0.0013935972549902432 0.009820051873759507 0.9986064027450098 -0.009820051873759509 0.9986064027450098 -0.009820051873759509 0.0013935972549902432 0.009820051873759507
5.0754570186123446E7 0.0014042569040686658 0.009962434108652631 0.9985957430959314 -0.00996243410865263 0.9985957430959314 -0.00996243410865263 0.0014042569040686658 0.009962434108652631
5.152052789556263E7 0.0014151024822795868 0.01010686599137252 0.9985848975177205 -0.01010686599137252 0.9985848975177205 -0.01010686599137252 0.0014151024822795868 0.01010686599137252
5.229804498202928E7 0.0014261369810049953 0.010253376415913866 0.9985738630189951 -0.010253376415913866 0.9985738630189951 -0.010253376415913866 0.0014261369810049953 0.010253376415913866
5.308729589274893E7 0.0014373633902474816 0.010401994697532037 0.9985626366097525 -0.010401994697532037 0.9985626366097525 -0.010401994697532037 0.0014373633902474816 0.010401994697532037
5.388845770760058E7 0.0014487846977937105 0.010552750583166511 0.9985512153022063 -0.010552750583166513 0.9985512153022063 -0.010552750583166513 0.0014487846977937105 0.010552750583166511
5.470171017884717E7 0.0014604038886155298 0.010705674262195122 0.9985395961113843 -0.010705674262195122 0.9985395961113843 -0.010705674262195122 0.0014604038886155298 0.010705674262195122
5.5527235771465644E7 0.0014722239445278298 0.010860796377513514 0.9985277760554722 -0.010860796377513516 0.9985277760554722 -0.010860796377513516 0.0014722239445278298 0.010860796377513514
5.6365219704085544E7 0.0014842478441222436 0.011018148036933104 0.9985157521558776 -0.011018148036933104 0.9985157521558776 -0.011018148036933104 0.0014842478441222436 0.011018148036933104
5.721584999054556E7 0.00149647856299563 0.011177760824889445 0.9985035214370043 -0.011177760824889443 0.9985035214370043 -0.011177760824889443 0.00149647856299563 0.011177760824889445
5.807931748207712E7 0.001508919074292057 0.011339666814451728 0.998491080925708 -0.011339666814451728 0.998491080925708 -0.011339666814451728 0.001508919074292057 0.011339666814451728
5.8955815910124585E7 0.0015215723495766963 0.011503898579622807 0.998478427650423 -0.011503898579622807 0.998478427650423 -0.011503898579622807 0.0015215723495766963 0.011503898579622807
5.984554192981184E7 0.0015344413600596118 0.011670489207917939 0.9984655586399402 -0.011670489207917939 0.9984655586399402 -0.011670489207917939 0.0015344413600596118 0.011670489207917939
6.074869516406457E7 0.001547529078186866 0.011839472313208883 0.9984524709218132 -0.011839472313208883 0.9984524709218132 -0.011839472313208883 0.001547529078186866 0.011839472313208883
6.166547824839868E7 0.001560838479615803 0.012010882048819178 0.9984391615203845 -0.012010882048819178 0.9984391615203845 -0.012010882048819178 0.001560838479615803 0.012010882048819178
6.2596096876384385E7 0.0015743725455905394 0.012184753120854687 0.9984256274544094 -0.012184753120854685 0.9984256274544094 -0.012184753120854685 0.0015743725455905394 0.012184753120854687
6.354075984579668E7 0.0015881342657329178 0.012361120801752681 0.9984118657342669 -0.012361120801752683 0.9984118657342669 -0.012361120801752683 0.0015881342657329178 0.012361120801752681
6.449967910546205E7 0.0016021266412631413 0.012540020944031232 0.9983978733587368 -0.012540020944031232 0.9983978733587368 -0.012540020944031232 0.0016021266412631413 0.012540020944031232
6.547306980281226E7 0.0016163526886633006 0.012721489994219843 0.9983836473113367 -0.012721489994219843 0.9983836473113367 -0.012721489994219843 0.0016163526886633006 0.012721489994219843
6.646115033215589E7 0.0016308154437957914 0.012905565006951074 0.9983691845562043 -0.012905565006951074 0.9983691845562043 -0.012905565006951074 0.0016308154437957914 0.012905565006951074
6.746414238367817E7 0.0016455179664873292 0.013092283659191895 0.9983544820335126 -0.013092283659191897 0.9983544820335126 -0.013092283659191897 0.0016455179664873292 0.013092283659191895
6.848227099318038E7 0.0016604633455879155 0.01328168426459267 0.998339536654412 -0.013281684264592671 0.998339536654412 -0.013281684264592671 0.0016604633455879155 0.01328168426459267
6.951576459256999E7 0.0016756547045126311 0.013473805787930998 0.9983243452954875 -0.013473805787930998 0.9983243452954875 -0.013473805787930998 0.0016756547045126311 0.013473805787930998
7.056485506111258E7 0.001691095207272551 0.01366868785962672 0.9983089047927273 -0.01366868785962672 0.9983089047927273 -0.01366868785962672 0.001691095207272551 0.01366868785962672
7.162977777745734E7 0.0017067880649994757 0.013866370790304063 0.9982932119350004 -0.013866370790304066 0.9982932119350004 -0.013866370790304066 0.0017067880649994757 0.013866370790304063
7.271077167244768E7 0.0017227365429674318 0.014066895585376323 0.9982772634570324 -0.014066895585376323 0.9982772634570324 -0.014066895585376323 0.0017227365429674318 0.014066895585376323
7.380807928272885E7 0.0017389439681121807 0.014270303959628266 0.9982610560318879 -0.014270303959628266 0.9982610560318879 -0.014270303959628266 0.0017389439681121807 0.014270303959628266
7.492194680516452E7 0.0017554137370481206 0.014476638351771232 0.9982445862629518 -0.014476638351771228 0.9982445862629518 -0.014476638351771228 0.0017554137370481206 0.014476638351771232
7.60526241520746E7 0.00177214932458017 0.014685941938946002 0.9982278506754197 -0.014685941938946004 0.9982278506754197 -0.014685941938946004 0.00177214932458017 0.014685941938946002
7.720036500730675E7 0.0017891542927063228 0.01489825865114846 0.9982108457072937 -0.01489825865114846 0.9982108457072937 -0.01489825865114846 0.0017891542927063228 0.01489825865114846
7.836542688315398E7 0.0018064323001047474 0.01511363318555365 0.9981935676998952 -0.01511363318555365 0.9981935676998952 -0.01511363318555365 0.0018064323001047474 0.01511363318555365
7.954807117813127E7 0.0018239871120973956 0.015332111020714067 0.9981760128879025 -0.01533211102071407 0.9981760128879025 -0.01533211102071407 0.0018239871120973956 0.015332111020714067
8.074856323562416E7 0.001841822611080297 0.01555373843060886 0.9981581773889197 -0.01555373843060886 0.9981581773889197 -0.01555373843060886 0.001841822611080297 0.01555373843060886
8.196717240342227E7 0.0018599428074088974 0.015778562498521158 0.9981400571925911 -0.015778562498521158 0.9981400571925911 -0.015778562498521158 0.0018599428074088974 0.015778562498521158
8.320417209415154E7 0.001878351850725084 0.01600663113072209 0.9981216481492748 -0.01600663113072209 0.9981216481492748 -0.01600663113072209 0.001878351850725084 0.01600663113072209
8.445983984661816E7 0.0018970540417108353 0.01623799306994067 0.9981029459582892 -0.01623799306994067 0.9981029459582892 -0.01623799306994067 0.0018970540417108353 0.01623799306994067
8.573445738807854E7 0.001916053844251907 0.01647269790860053 0.9980839461557481 -0.01647269790860053 0.9980839461557481 -0.01647269790860053 0.001916053844251907 0.01647269790860053
8.702831069744885E7 0.0019353558979934263 0.016710796101805377 0.9980646441020066 -0.016710796101805377 0.9980646441020066 -0.016710796101805377 0.0019353558979934263 0.016710796101805377
8.834169006946853E7 0.0019549650312679313 0.016952338980057085 0.998045034968732 -0.01695233898005709 0.998045034968732 -0.01695233898005709 0.0019549650312679313 0.016952338980057085
8.96748901798321E7 0.0019748862743751406 0.017197378761691435 0.998025113725625 -0.017197378761691435 0.998025113725625 -0.017197378761691435 0.0019748862743751406 0.017197378761691435
9.1028210151304E7 0.001995124873191633 0.01744596856501901 0.9980048751268084 -0.01744596856501901 0.9980048751268084 -0.01744596856501901 0.001995124873191633 0.01744596856501901
9.240195362083109E7 0.0020156863030876657 0.017698162420159945 0.9979843136969124 -0.017698162420159945 0.9979843136969124 -0.017698162420159945 0.0020156863030876657 0.017698162420159945
9.379642880766791E7 0.0020365762831275466 0.017954015280563587 0.9979634237168724 -0.017954015280563587 0.9979634237168724 -0.017954015280563587 0.0020365762831275466 0.017954015280563587
9.521194858253023E7 0.002057800790529373 0.01821358303420615 0.9979421992094706 -0.018213583034206154 0.9979421992094706 -0.018213583034206154 0.002057800790529373 0.01821358303420615
9.664883053779216E7 0.002079366075359486 0.018476922514461463 0.9979206339246404 -0.018476922514461463 0.9979206339246404 -0.018476922514461463 0.002079366075359486 0.018476922514461463
9.810739705874248E7 0.0021012786754366825 0.018744091510641988 0.9978987213245635 -0.018744091510641988 0.9978987213245635 -0.018744091510641988 0.0021012786754366825 0.018744091510641988
9.958797539591652E7 0.00212354543142118 0.019015148778209652 0.9978764545685788 -0.019015148778209656 0.9978764545685788 -0.019015148778209656 0.00212354543142118 0.019015148778209652
1.0109089773851961E8 0.002146173502063378 0.019290154048658078 0.9978538264979366 -0.019290154048658078 0.9978538264979366 -0.019290154048658078 0.002146173502063378 0.019290154048658078
1.0261650128895843E8 0.0021691703795877395 0.01956916803906993 0.9978308296204123 -0.019569168039069926 0.9978308296204123 -0.019569168039069926 0.0021691703795877395 0.01956916803906993
1.0416512833849736E8 0.002192543905187585 0.019852252461355364 0.9978074560948125 -0.019852252461355364 0.9978074560948125 -0.019852252461355364 0.002192543905187585 0.019852252461355364
1.0573712634405641E8 0.0022163022846071697 0.020139470031179562 0.9977836977153928 -0.02013947003117956 0.9977836977153928 -0.02013947003117956 0.0022163022846071697 0.020139470031179562
1.0733284800616828E8 0.0022404541037882838 0.02043088447658947 0.9977595458962117 -0.02043088447658947 0.9977595458962117 -0.02043088447658947 0.0022404541037882838 0.02043088447658947
1.0895265134811176E8 0.0022650083445594814 0.020726560546351625 0.9977349916554404 -0.02072656054635163 0.9977349916554404 -0.02072656054635163 0.0022650083445594814 0.020726560546351625
1.1059689979623953E8 0.002289974400347266 0.0210265640180152 0.9977100255996526 -0.0210265640180152 0.9977100255996526 -0.0210265640180152 0.002289974400347266 0.0210265640180152
1.1226596226151802E8 0.0023153620918897307 0.021330961705715783 0.9976846379081102 -0.021330961705715787 0.9976846379081102 -0.021330961705715787 0.0023153620918897307 0.021330961705715783
1.1396021322229806E8 0.00234118168293459 0.02163982146773738 0.9976588183170655 -0.02163982146773738 0.9976588183170655 -0.02163982146773738 0.00234118168293459 0.02163982146773738
1.1568003280833441E8 0.0023674438959050462 0.021953212213851398 0.997632556104095 -0.021953212213851398 0.997632556104095 -0.021953212213851398 0.0023674438959050462 0.021953212213851398
1.1742580688607343E8 0.002394159927518587 0.022271203912453345 0.9976058400724813 -0.022271203912453345 0.9976058400724813 -0.022271203912453345 0.002394159927518587 0.022271203912453345
1.1919792714522783E8 0.0024213414643454566 0.022593867597518327 0.9975786585356544 -0.022593867597518327 0.9975786585356544 -0.022593867597518327 0.0024213414643454566 0.022593867597518327
1.2099679118665792E8 0.0024490006982954304 0.022921275375398644 0.9975509993017045 -0.022921275375398644 0.9975509993017045 -0.022921275375398644 0.0024490006982954304 0.022921275375398644
1.2282280261157903E8 0.0024771503420233367 0.023253500431486922 0.9975228496579767 -0.023253500431486922 0.9975228496579767 -0.023253500431486922 0.0024771503420233367 0.023253500431486922
1.2467637111211549E8 0.0025058036442457076 0.023590617036769658 0.9974941963557544 -0.023590617036769658 0.9974941963557544 -0.023590617036769658 0.0025058036442457076 0.023590617036769658
1.265579125632208E8 0.0025349744049628807 0.023932700554296266 0.9974650255950371 -0.023932700554296263 0.9974650255950371 -0.023932700554296263 0.0025349744049628807 0.023932700554296266
1.284678491159853E8 0.002564676990582881 0.024279827445589763 0.9974353230094171 -0.024279827445589767 0.9974353230094171 -0.024279827445589767 0.002564676990582881 0.024279827445589763
1.3040660929235186E8 0.002594926348945376 0.024632075277025323 0.9974050736510548 -0.024632075277025323 0.9974050736510548 -0.024632075277025323 0.002594926348945376 0.024632075277025323
1.3237462808126101E8 0.0026257380242459614 0.02498952272620299 0.997374261975754 -0.02498952272620299 0.997374261975754 -0.02498952272620299 0.0026257380242459614 0.02498952272620299
1.3437234703624701E8 0.002657128171863103 0.02535224958834191 0.9973428718281369 -0.025352249588341914 0.9973428718281369 -0.025352249588341914 0.002657128171863103 0.02535224958834191
1.364002143745067E8 0.0026891135730918087 0.025720336782721884 0.9973108864269081 -0.025720336782721884 0.9973108864269081 -0.025720336782721884 0.0026891135730918087 0.025720336782721884
1.3845868507746372E8 0.002721711649790257 0.02609386635919976 0.9972782883502096 -0.02609386635919976 0.9972782883502096 -0.02609386635919976 0.002721711649790257 0.02609386635919976
1.405482209928499E8 0.0027549404789472096 0.026472921504826264 0.9972450595210528 -0.026472921504826264 0.9972450595210528 -0.026472921504826264 0.0027549404789472096 0.026472921504826264
1.426692909383278E8 0.0027888188071800344 0.026857586550589757 0.99721118119282 -0.026857586550589757 0.99721118119282 -0.026857586550589757 0.0027888188071800344 0.026857586550589757
1.4482237080667645E8 0.0028233660651747644 0.02724794697831221 0.9971766339348253 -0.02724794697831221 0.9971766339348253 -0.02724794697831221 0.0028233660651747644 0.02724794697831221
1.4700794367256513E8 0.0028586023820813843 0.027644089427722777 0.9971413976179186 -0.027644089427722777 0.9971413976179186 -0.027644089427722777 0.0028586023820813843 0.027644089427722777
1.492264999009378E8 0.0028945485998790417 0.02804610170373308 0.9971054514001211 -0.02804610170373308 0.9971054514001211 -0.02804610170373308 0.0028945485998790417 0.02804610170373308
1.5147853725703382E8 0.0029312262877274754 0.028454072783938255 0.9970687737122724 -0.028454072783938255 0.9970687737122724 -0.028454072783938255 0.0029312262877274754 0.028454072783938255
1.5376456101806876E8 0.002968657756322377 0.028868092826367063 0.9970313422436775 -0.02886809282636707 0.9970313422436775 -0.02886809282636707 0.002968657756322377 0.028868092826367063
1.5608508408660066E8 0.003006866072273726 0.029288253177503054 0.9969931339277264 -0.02928825317750306 0.9969931339277264 -0.02928825317750306 0.003006866072273726 0.029288253177503054
1.5844062710560706E8 0.003045875072527493 0.029714646380598647 0.9969541249274725 -0.029714646380598647 0.9969541249274725 -0.029714646380598647 0.003045875072527493 0.029714646380598647
1.6083171857529896E8 0.0030857093788523343 0.030147366184303203 0.9969142906211477 -0.0301473661843032 0.9969142906211477 -0.0301473661843032 0.0030857093788523343 0.030147366184303203
1.632588949716973E8 0.003126394412413944 0.030586507551624575 0.9968736055875863 -0.030586507551624575 0.9968736055875863 -0.030586507551624575 0.003126394412413944 0.030586507551624575
1.6572270086699936E8 0.0031679564084609924 0.03103216666924402 0.996832043591539 -0.03103216666924402 0.996832043591539 -0.03103216666924402 0.0031679564084609924 0.03103216666924402
1.6822368905176118E8 0.003210422431147457 0.031484440957202445 0.9967895775688526 -0.031484440957202445 0.9967895775688526 -0.031484440957202445 0.003210422431147457 0.031484440957202445
1.7076242065892437E8 0.0032538203885172493 0.031943429078976154 0.9967461796114827 -0.03194342907897616 0.9967461796114827 -0.03194342907897616 0.0032538203885172493 0.031943429078976154
1.7333946528971428E8 0.003298179047677877 0.032409230951958544 0.9967018209523222 -0.032409230951958544 0.9967018209523222 -0.032409230951958544 0.003298179047677877 0.032409230951958544
1.7595540114143828E8 0.003343528050190877 0.032881947758364505 0.9966564719498091 -0.032881947758364505 0.9966564719498091 -0.032881947758364505 0.003343528050190877 0.032881947758364505
1.786108151372127E8 0.0033898979277075833 0.03336168195657268 0.9966101020722924 -0.03336168195657268 0.9966101020722924 -0.03336168195657268 0.0033898979277075833 0.03336168195657268
1.8130630305764765E8 0.0034373201178796845 0.033848537292920894 0.9965626798821202 -0.033848537292920894 0.9965626798821202 -0.033848537292920894 0.0034373201178796845 0.033848537292920894
1.840424696745189E8 0.003485826980574816 0.03434261881396863 0.9965141730194252 -0.03434261881396863 0.9965141730194252 -0.03434261881396863 0.003485826980574816 0.03434261881396863
1.8681992888645732E8 0.0035354518144283913 0.034844032879240545 0.9964645481855716 -0.03484403287924055 0.9964645481855716 -0.03484403287924055 0.0035354518144283913 0.034844032879240545
1.8963930385668582E8 0.0035862288737636625 0.035352887174464234 0.9964137711262363 -0.035352887174464234 0.9964137711262363 -0.035352887174464234 0.0035862288737636625 0.035352887174464234
1.92501227152835E8 0.0036381933859129557 0.03586929072531476 0.996361806614087 -0.03586929072531476 0.996361806614087 -0.03586929072531476 0.0036381933859129557 0.03586929072531476
1.9540634088886917E8 0.0036913815689738976 0.03639335391167846 0.996308618431026 -0.036393353911678465 0.996308618431026 -0.036393353911678465 0.0036913815689738976 0.03639335391167846
1.983552968691535E8 0.0037458306500354655 0.03692518848244746 0.9962541693499647 -0.036925188482447455 0.9962541693499647 -0.036925188482447455 0.0037458306500354655 0.03692518848244746
2.0134875673469606E8 0.0038015788839097222 0.03746490757085669 0.9961984211160904 -0.03746490757085669 0.9961984211160904 -0.03746490757085669 0.0038015788839097222 0.03746490757085669
2.0438739211159652E8 0.003858665572406148 0.0380126257103742 0.9961413344275938 -0.038012625710374205 0.9961413344275938 -0.038012625710374205 0.003858665572406148 0.0380126257103742
2.074718847617352E8 0.003917131084186656 0.03856845885115543 0.9960828689158132 -0.03856845885115543 0.9960828689158132 -0.03856845885115543 0.003917131084186656 0.03856845885115543
2.106029267357361E8 0.003977016875240612 0.03913252437707178 0.9960229831247593 -0.03913252437707178 0.9960229831247593 -0.03913252437707178 0.003977016875240612 0.03913252437707178
2.1378122052823865E8 0.004038365510020512 0.03970494112332327 0.9959616344899795 -0.03970494112332326 0.9959616344899795 -0.03970494112332326 0.004038365510020512 0.03970494112332327
2.1700747923551247E8 0.0041012206832803655 0.04028582939464506 0.9958987793167197 -0.04028582939464506 0.9958987793167197 -0.04028582939464506 0.0041012206832803655 0.04028582939464506
2.2028242671545094E8 0.0041656272426603275 0.040875310984116675 0.9958343727573398 -0.04087531098411667 0.9958343727573398 -0.04087531098411667 0.0041656272426603275 0.040875310984116675
2.23606797749979E8 0.004231631212062738 0.04147350919258254 0.9957683687879372 -0.04147350919258254 0.9957683687879372 -0.04147350919258254 0.004231631212062738 0.04147350919258254
2.2698133820991236E8 0.004299279815866498 0.04208054884869248 0.9957007201841334 -0.04208054884869247 0.9957007201841334 -0.04208054884869247 0.004299279815866498 0.04208054884869248
2.3040680522230446E8 0.004368621504028404 0.0426965563295691 0.9956313784959716 -0.042696556329569105 0.9956313784959716 -0.042696556329569105 0.004368621504028404 0.0426965563295691
2.338839673403185E8 0.004439705978122072 0.04332165958210946 0.995560294021878 -0.04332165958210946 0.995560294021878 -0.04332165958210946 0.004439705978122072 0.04332165958210946
2.37413604715664E8 0.0045125842183671655 0.0439559881449273 0.9954874157816328 -0.0439559881449273 0.9954874157816328 -0.0439559881449273 0.0045125842183671655 0.0439559881449273
2.4099650927363476E8 0.00458730851170361 0.044599673170940955 0.9954126914882963 -0.04459967317094096 0.9954126914882963 -0.04459967317094096 0.00458730851170361 0.044599673170940955
