!Murata Part Number: LQG15HN1N8S02
!These Parameters are Measured in Series Mode Connection
!       o--[Z]--o
!Port1              Port2
!       o-------o
!
!Freq. Start=50[MHz] Stop=20[GHz], 401[Steps]
# Hz S RI R 50
!Freq.(Hz) S11(Real) S11(Imag) S21(Real) S21(Imag) S12(Real) S12(Imag) S22(Real) S22(Imag)
5.0E7 5.132893051200993E-4 0.004855098821629583 0.9994867106948798 -0.004855098821629583 0.9994867106948798 -0.004855098821629583 5.132893051200993E-4 0.004855098821629583
5.0754570186123446E7 5.175191802000508E-4 0.004926204957154003 0.9994824808197997 -0.004926204957154003 0.9994824808197997 -0.004926204957154003 5.175191802000508E-4 0.004926204957154003
5.152052789556263E7 5.218214693772385E-4 0.004998331792033465 0.9994781785306227 -0.004998331792033465 0.9994781785306227 -0.004998331792033465 5.218214693772385E-4 0.004998331792033465
5.229804498202928E7 5.261968410577398E-4 0.005071493843827034 0.9994738031589422 -0.005071493843827034 0.9994738031589422 -0.005071493843827034 5.261968410577398E-4 0.005071493843827034
5.308729589274893E7 5.306459499562671E-4 0.005145705852021511 0.9994693540500437 -0.005145705852021511 0.9994693540500437 -0.005145705852021511 5.306459499562671E-4 0.005145705852021511
5.388845770760058E7 5.351694365347847E-4 0.005220982782839406 0.9994648305634651 -0.005220982782839406 0.9994648305634651 -0.005220982782839406 5.351694365347847E-4 0.005220982782839406
5.470171017884717E7 5.397679265058054E-4 0.005297339834197935 0.9994602320734943 -0.005297339834197935 0.9994602320734943 -0.005297339834197935 5.397679265058054E-4 0.005297339834197935
5.5527235771465644E7 5.444420304086693E-4 0.005374792440818915 0.9994555579695911 -0.005374792440818915 0.9994555579695911 -0.005374792440818915 5.444420304086693E-4 0.005374792440818915
5.6365219704085544E7 5.491923432672836E-4 0.00545335627948922 0.9994508076567326 -0.00545335627948922 0.9994508076567326 -0.00545335627948922 5.491923432672836E-4 0.00545335627948922
5.721584999054556E7 5.54019444337846E-4 0.005533047274470465 0.9994459805556621 -0.005533047274470465 0.9994459805556621 -0.005533047274470465 5.54019444337846E-4 0.005533047274470465
5.807931748207712E7 5.589238969551633E-4 0.0056138816030562606 0.9994410761030448 -0.0056138816030562606 0.9994410761030448 -0.0056138816030562606 5.589238969551633E-4 0.0056138816030562606
5.8955815910124585E7 5.639062484861294E-4 0.005695875701274564 0.999436093751514 -0.005695875701274563 0.999436093751514 -0.005695875701274563 5.639062484861294E-4 0.005695875701274564
5.984554192981184E7 5.689670303988889E-4 0.005779046269732027 0.999431032969601 -0.005779046269732026 0.999431032969601 -0.005779046269732026 5.689670303988889E-4 0.005779046269732027
6.074869516406457E7 5.741067584560881E-4 0.005863410279596669 0.9994258932415439 -0.005863410279596668 0.9994258932415439 -0.005863410279596668 5.741067584560881E-4 0.005863410279596669
6.166547824839868E7 5.793259330404291E-4 0.005948984978714386 0.9994206740669597 -0.005948984978714386 0.9994206740669597 -0.005948984978714386 5.793259330404291E-4 0.005948984978714386
6.2596096876384385E7 5.846250396205296E-4 0.006035787897854295 0.9994153749603796 -0.006035787897854295 0.9994153749603796 -0.006035787897854295 5.846250396205296E-4 0.006035787897854295
6.354075984579668E7 5.9000454936478E-4 0.006123836857077192 0.9994099954506351 -0.006123836857077192 0.9994099954506351 -0.006123836857077192 5.9000454936478E-4 0.006123836857077192
6.449967910546205E7 5.954649199105541E-4 0.006213149972220759 0.9994045350800895 -0.00621314997222076 0.9994045350800895 -0.00621314997222076 5.954649199105541E-4 0.006213149972220759
6.547306980281226E7 6.010065962957034E-4 0.0063037456614945695 0.9993989934037041 -0.0063037456614945695 0.9993989934037041 -0.0063037456614945695 6.010065962957034E-4 0.0063037456614945695
6.646115033215589E7 6.066300120588177E-4 0.006395642652177393 0.999393369987941 -0.006395642652177393 0.999393369987941 -0.006395642652177393 6.066300120588177E-4 0.006395642652177393
6.746414238367817E7 6.123355905141876E-4 0.006488859987408605 0.9993876644094859 -0.006488859987408605 0.9993876644094859 -0.006488859987408605 6.123355905141876E-4 0.006488859987408605
6.848227099318038E7 6.181237462068454E-4 0.006583417033065159 0.9993818762537932 -0.006583417033065158 0.9993818762537932 -0.006583417033065158 6.181237462068454E-4 0.006583417033065159
6.951576459256999E7 6.239948865524206E-4 0.006679333484714999 0.9993760051134476 -0.006679333484714999 0.9993760051134476 -0.006679333484714999 6.239948865524206E-4 0.006679333484714999
7.056485506111258E7 6.299494136658693E-4 0.006776629374637386 0.9993700505863339 -0.006776629374637385 0.9993700505863339 -0.006776629374637385 6.299494136658693E-4 0.006776629374637386
7.162977777745734E7 6.359877263824048E-4 0.006875325078900193 0.9993640122736177 -0.006875325078900193 0.9993640122736177 -0.006875325078900193 6.359877263824048E-4 0.006875325078900193
7.271077167244768E7 6.4211022247321E-4 0.0069754413244840245 0.9993578897775266 -0.006975441324484023 0.9993578897775266 -0.006975441324484023 6.4211022247321E-4 0.0069754413244840245
7.380807928272885E7 6.483173010576888E-4 0.007076999196442645 0.9993516826989423 -0.0070769991964426465 0.9993516826989423 -0.0070769991964426465 6.483173010576888E-4 0.007076999196442645
7.492194680516452E7 6.546093652131938E-4 0.007180020145089007 0.9993453906347868 -0.007180020145089007 0.9993453906347868 -0.007180020145089007 6.546093652131938E-4 0.007180020145089007
7.60526241520746E7 6.609868247823112E-4 0.00728452599319617 0.9993390131752177 -0.00728452599319617 0.9993390131752177 -0.00728452599319617 6.609868247823112E-4 0.00728452599319617
7.720036500730675E7 6.674500993769018E-4 0.00739053894320225 0.9993325499006231 -0.00739053894320225 0.9993325499006231 -0.00739053894320225 6.674500993769018E-4 0.00739053894320225
7.836542688315398E7 6.739996215772128E-4 0.007498081584408564 0.9993260003784228 -0.007498081584408564 0.9993260003784228 -0.007498081584408564 6.739996215772128E-4 0.007498081584408564
7.954807117813127E7 6.806358403234799E-4 0.007607176900160328 0.9993193641596767 -0.007607176900160328 0.9993193641596767 -0.007607176900160328 6.806358403234799E-4 0.007607176900160328
8.074856323562416E7 6.873592244965457E-4 0.007717848274999327 0.9993126407755035 -0.007717848274999327 0.9993126407755035 -0.007717848274999327 6.873592244965457E-4 0.007717848274999327
8.196717240342227E7 6.941702666831545E-4 0.007830119501778433 0.999305829733317 -0.007830119501778433 0.999305829733317 -0.007830119501778433 6.941702666831545E-4 0.007830119501778433
8.320417209415154E7 7.010694871206829E-4 0.00794401478872791 0.9992989305128792 -0.00794401478872791 0.9992989305128792 -0.00794401478872791 7.010694871206829E-4 0.00794401478872791
8.445983984661816E7 7.080574378152621E-4 0.008059558766464145 0.9992919425621847 -0.008059558766464147 0.9992919425621847 -0.008059558766464147 7.080574378152621E-4 0.008059558766464145
8.573445738807854E7 7.151347068264185E-4 0.008176776494931778 0.9992848652931735 -0.008176776494931778 0.9992848652931735 -0.008176776494931778 7.151347068264185E-4 0.008176776494931778
8.702831069744885E7 7.22301922710579E-4 0.008295693470270768 0.9992776980772893 -0.008295693470270768 0.9992776980772893 -0.008295693470270768 7.22301922710579E-4 0.008295693470270768
8.834169006946853E7 7.295597591150861E-4 0.008416335631600694 0.9992704402408848 -0.008416335631600694 0.9992704402408848 -0.008416335631600694 7.295597591150861E-4 0.008416335631600694
8.96748901798321E7 7.369089395136638E-4 0.008538729367715112 0.9992630910604863 -0.008538729367715112 0.9992630910604863 -0.008538729367715112 7.369089395136638E-4 0.008538729367715112
9.1028210151304E7 7.443502420736951E-4 0.008662901523679815 0.9992556497579262 -0.008662901523679815 0.9992556497579262 -0.008662901523679815 7.443502420736951E-4 0.008662901523679815
9.240195362083109E7 7.518845046450697E-4 0.008788879407329244 0.9992481154953551 -0.008788879407329244 0.9992481154953551 -0.008788879407329244 7.518845046450697E-4 0.008788879407329244
9.379642880766791E7 7.595126298599366E-4 0.008916690795656702 0.99924048737014 -0.0089166907956567 0.99924048737014 -0.0089166907956567 7.595126298599366E-4 0.008916690795656702
9.521194858253023E7 7.672355903322321E-4 0.009046363941094435 0.9992327644096677 -0.009046363941094435 0.9992327644096677 -0.009046363941094435 7.672355903322321E-4 0.009046363941094435
9.664883053779216E7 7.750544339455634E-4 0.009177927577680975 0.9992249455660546 -0.009177927577680975 0.9992249455660546 -0.009177927577680975 7.750544339455634E-4 0.009177927577680975
9.810739705874248E7 7.829702892177454E-4 0.009311410927113798 0.9992170297107822 -0.009311410927113796 0.9992170297107822 -0.009311410927113796 7.829702892177454E-4 0.009311410927113798
9.958797539591652E7 7.909843707301375E-4 0.009446843704686627 0.99920901562927 -0.009446843704686628 0.99920901562927 -0.009446843704686628 7.909843707301375E-4 0.009446843704686627
1.0109089773851961E8 7.990979846098288E-4 0.009584256125111486 0.9992009020153902 -0.009584256125111486 0.9992009020153902 -0.009584256125111486 7.990979846098288E-4 0.009584256125111486
1.0261650128895843E8 8.073125340527359E-4 0.009723678908226834 0.9991926874659472 -0.009723678908226834 0.9991926874659472 -0.009723678908226834 8.073125340527359E-4 0.009723678908226834
1.0416512833849736E8 8.156295248757365E-4 0.009865143284593883 0.9991843704751244 -0.009865143284593885 0.9991843704751244 -0.009865143284593885 8.156295248757365E-4 0.009865143284593883
1.0573712634405641E8 8.240505710861489E-4 0.010008681000984447 0.999175949428914 -0.010008681000984447 0.999175949428914 -0.010008681000984447 8.240505710861489E-4 0.010008681000984447
1.0733284800616828E8 8.325774004571089E-4 0.010154324325764472 0.999167422599543 -0.010154324325764474 0.999167422599543 -0.010154324325764474 8.325774004571089E-4 0.010154324325764472
1.0895265134811176E8 8.412118600977138E-4 0.010302106054178412 0.9991587881399023 -0.01030210605417841 0.9991587881399023 -0.01030210605417841 8.412118600977138E-4 0.010302106054178412
1.1059689979623953E8 8.499559220072184E-4 0.010452059513540588 0.9991500440779929 -0.010452059513540588 0.9991500440779929 -0.010452059513540588 8.499559220072184E-4 0.010452059513540588
1.1226596226151802E8 8.588116886030236E-4 0.010604218568340427 0.9991411883113971 -0.010604218568340427 0.9991411883113971 -0.010604218568340427 8.588116886030236E-4 0.010604218568340427
1.1396021322229806E8 8.67781398212764E-4 0.010758617625269494 0.9991322186017875 -0.010758617625269494 0.9991322186017875 -0.010758617625269494 8.67781398212764E-4 0.010758617625269494
1.1568003280833441E8 8.768674305213589E-4 0.01091529163817878 0.9991231325694787 -0.01091529163817878 0.9991231325694787 -0.01091529163817878 8.768674305213589E-4 0.01091529163817878
1.1742580688607343E8 8.860723119645931E-4 0.011074276112975727 0.9991139276880355 -0.011074276112975729 0.9991139276880355 -0.011074276112975729 8.860723119645931E-4 0.011074276112975727
1.1919792714522783E8 8.953987210614583E-4 0.011235607112470847 0.9991046012789386 -0.011235607112470847 0.9991046012789386 -0.011235607112470847 8.953987210614583E-4 0.011235607112470847
1.2099679118665792E8 9.048494936782574E-4 0.011399321261184628 0.9990951505063217 -0.011399321261184628 0.9990951505063217 -0.011399321261184628 9.048494936782574E-4 0.011399321261184628
1.2282280261157903E8 9.144276282182424E-4 0.011565455750125873 0.9990855723717817 -0.011565455750125873 0.9990855723717817 -0.011565455750125873 9.144276282182424E-4 0.011565455750125873
1.2467637111211549E8 9.241362907313726E-4 0.011734048341553057 0.9990758637092685 -0.011734048341553057 0.9990758637092685 -0.011734048341553057 9.241362907313726E-4 0.011734048341553057
1.265579125632208E8 9.339788199396033E-4 0.01190513737373077 0.9990660211800604 -0.01190513737373077 0.9990660211800604 -0.01190513737373077 9.339788199396033E-4 0.01190513737373077
1.284678491159853E8 9.439587321739794E-4 0.012078761765693622 0.999056041267826 -0.012078761765693622 0.999056041267826 -0.012078761765693622 9.439587321739794E-4 0.012078761765693622
1.3040660929235186E8 9.540797262206331E-4 0.01225496102203022 0.9990459202737791 -0.01225496102203022 0.9990459202737791 -0.01225496102203022 9.540797262206331E-4 0.01225496102203022
1.3237462808126101E8 9.643456880736741E-4 0.012433775237700145 0.9990356543119263 -0.012433775237700145 0.9990356543119263 -0.012433775237700145 9.643456880736741E-4 0.012433775237700145
1.3437234703624701E8 9.747606955937744E-4 0.012615245102896811 0.9990252393044063 -0.012615245102896811 0.9990252393044063 -0.012615245102896811 9.747606955937744E-4 0.012615245102896811
1.364002143745067E8 9.853290230721144E-4 0.012799411907969306 0.9990146709769278 -0.012799411907969304 0.9990146709769278 -0.012799411907969304 9.853290230721144E-4 0.012799411907969306
1.3845868507746372E8 9.960551457001703E-4 0.012986317548416422 0.9990039448542998 -0.012986317548416419 0.9990039448542998 -0.012986317548416419 9.960551457001703E-4 0.012986317548416422
1.405482209928499E8 0.0010069437439466128 0.013176004529965719 0.9989930562560534 -0.013176004529965719 0.9989930562560534 -0.013176004529965719 0.0010069437439466128 0.013176004529965719
1.426692909383278E8 0.001017999707843357 0.013368515973750706 0.9989820002921567 -0.013368515973750706 0.9989820002921567 -0.013368515973750706 0.001017999707843357 0.013368515973750706
1.4482237080667645E8 0.0010292281411835673 0.013563895621598964 0.9989707718588164 -0.013563895621598964 0.9989707718588164 -0.013563895621598964 0.0010292281411835673 0.013563895621598964
1.4700794367256513E8 0.001040634365635094 0.013762187841443826 0.9989593656343648 -0.013762187841443826 0.9989593656343648 -0.013762187841443826 0.001040634365635094 0.013762187841443826
1.492264999009378E8 0.001052223924773499 0.01396343763287199 0.9989477760752264 -0.013963437632871988 0.9989477760752264 -0.013963437632871988 0.001052223924773499 0.01396343763287199
1.5147853725703382E8 0.0010640025880394742 0.01416769063281943 0.9989359974119606 -0.01416769063281943 0.9989359974119606 -0.01416769063281943 0.0010640025880394742 0.01416769063281943
1.5376456101806876E8 0.00107597635462599 0.014374993121427308 0.9989240236453741 -0.014374993121427308 0.9989240236453741 -0.014374993121427308 0.00107597635462599 0.014374993121427308
1.5608508408660066E8 0.001088151457301135 0.014585392028069704 0.998911848542699 -0.014585392028069704 0.998911848542699 -0.014585392028069704 0.001088151457301135 0.014585392028069704
1.5844062710560706E8 0.0011005343661730086 0.014798934937564337 0.998899465633827 -0.014798934937564337 0.998899465633827 -0.014798934937564337 0.0011005343661730086 0.014798934937564337
1.6083171857529896E8 0.0011131317924035818 0.01501567009657746 0.9988868682075963 -0.015015670096577456 0.9988868682075963 -0.015015670096577456 0.0011131317924035818 0.01501567009657746
1.632588949716973E8 0.0011259506918787803 0.015235646420233407 0.9988740493081214 -0.015235646420233407 0.9988740493081214 -0.015235646420233407 0.0011259506918787803 0.015235646420233407
1.6572270086699936E8 0.0011389982688424683 0.015458913498939455 0.9988610017311575 -0.015458913498939455 0.9988610017311575 -0.015458913498939455 0.0011389982688424683 0.015458913498939455
1.6822368905176118E8 0.0011522819795023122 0.01568552160543582 0.9988477180204978 -0.01568552160543582 0.9988477180204978 -0.01568552160543582 0.0011522819795023122 0.01568552160543582
1.7076242065892437E8 0.0011658095356158198 0.0159155217020807 0.9988341904643842 -0.0159155217020807 0.9988341904643842 -0.0159155217020807 0.0011658095356158198 0.0159155217020807
1.7333946528971428E8 0.0011795889080651184 0.016148965448379956 0.9988204110919351 -0.016148965448379956 0.9988204110919351 -0.016148965448379956 0.0011795889080651184 0.016148965448379956
1.7595540114143828E8 0.0011936283304292332 0.016385905208770365 0.9988063716695706 -0.01638590520877036 0.9988063716695706 -0.01638590520877036 0.0011936283304292332 0.016385905208770365
1.786108151372127E8 0.0012079363025628946 0.016626394060665916 0.9987920636974371 -0.01662639406066592 0.9987920636974371 -0.01662639406066592 0.0012079363025628946 0.016626394060665916
1.8130630305764765E8 0.0012225215941910187 0.01687048580277555 0.998777478405809 -0.01687048580277555 0.998777478405809 -0.01687048580277555 0.0012225215941910187 0.01687048580277555
1.840424696745189E8 0.0012373932485282041 0.017118234963701084 0.9987626067514718 -0.017118234963701087 0.9987626067514718 -0.017118234963701087 0.0012373932485282041 0.017118234963701084
1.8681992888645732E8 0.001252560585932754 0.01736969681082404 0.9987474394140673 -0.01736969681082404 0.9987474394140673 -0.01736969681082404 0.001252560585932754 0.01736969681082404
1.8963930385668582E8 0.0012680332076048099 0.01762492735948928 0.9987319667923952 -0.017624927359489284 0.9987319667923952 -0.017624927359489284 0.0012680332076048099 0.01762492735948928
1.92501227152835E8 0.0012838209993383878 0.017883983382494233 0.9987161790006616 -0.017883983382494233 0.9987161790006616 -0.017883983382494233 0.0012838209993383878 0.017883983382494233
1.9540634088886917E8 0.0012999341353371798 0.018146922419891597 0.998700065864663 -0.018146922419891597 0.998700065864663 -0.018146922419891597 0.0012999341353371798 0.018146922419891597
1.983552968691535E8 0.0013163830821041464 0.018413802789113882 0.9986836169178959 -0.018413802789113882 0.9986836169178959 -0.018413802789113882 0.0013163830821041464 0.018413802789113882
2.0134875673469606E8 0.0013331786024150891 0.018684683595428218 0.9986668213975849 -0.018684683595428218 0.9986668213975849 -0.018684683595428218 0.0013331786024150891 0.018684683595428218
2.0438739211159652E8 0.0013503317593864974 0.018959624742729535 0.9986496682406136 -0.018959624742729535 0.9986496682406136 -0.018959624742729535 0.0013503317593864974 0.018959624742729535
2.074718847617352E8 0.0013678539206481923 0.019238686944680724 0.998632146079352 -0.019238686944680727 0.998632146079352 -0.019238686944680727 0.0013678539206481923 0.019238686944680724
2.106029267357361E8 0.0013857567626314555 0.019521931736208323 0.9986142432373685 -0.019521931736208323 0.9986142432373685 -0.019521931736208323 0.0013857567626314555 0.019521931736208323
2.1378122052823865E8 0.0014040522749835963 0.019809421485362556 0.9985959477250165 -0.019809421485362556 0.9985959477250165 -0.019809421485362556 0.0014040522749835963 0.019809421485362556
2.1700747923551247E8 0.0014227527651201172 0.020101219405550576 0.99857724723488 -0.020101219405550576 0.99857724723488 -0.020101219405550576 0.0014227527651201172 0.020101219405550576
2.2028242671545094E8 0.001441870862925989 0.020397389568152284 0.998558129137074 -0.020397389568152288 0.998558129137074 -0.020397389568152288 0.001441870862925989 0.020397389568152284
2.23606797749979E8 0.0014614195256178433 0.020697996915527973 0.9985385804743823 -0.020697996915527976 0.9985385804743823 -0.020697996915527976 0.0014614195256178433 0.020697996915527973
2.2698133820991236E8 0.0014814120427793036 0.02100310727442774 0.9985185879572207 -0.021003107274427744 0.9985185879572207 -0.021003107274427744 0.0014814120427793036 0.02100310727442774
2.3040680522230446E8 0.0015018620415820664 0.021312787369812562 0.9984981379584178 -0.021312787369812562 0.9984981379584178 -0.021312787369812562 0.0015018620415820664 0.021312787369812562
2.338839673403185E8 0.0015227834922058676 0.021627104839097355 0.9984772165077941 -0.021627104839097355 0.9984772165077941 -0.021627104839097355 0.0015227834922058676 0.021627104839097355
2.37413604715664E8 0.0015441907134709602 0.02194612824682677 0.998455809286529 -0.02194612824682677 0.998455809286529 -0.02194612824682677 0.0015441907134709602 0.02194612824682677
2.4099650927363476E8 0.001566098378697348 0.022269927099794678 0.9984339016213027 -0.022269927099794678 0.9984339016213027 -0.022269927099794678 0.001566098378697348 0.022269927099794678
