!Murata Part Number: LQG15HN4N7S02
!These Parameters are Measured in Series Mode Connection
!       o--[Z]--o
!Port1              Port2
!       o-------o
!
!Freq. Start=50[MHz] Stop=20[GHz], 401[Steps]
# Hz S RI R 50
!Freq.(Hz) S11(Real) S11(Imag) S21(Real) S21(Imag) S12(Real) S12(Imag) S22(Real) S22(Imag)
5.0E7 0.002018408757418383 0.014389181733385062 0.9979815912425818 -0.014389181733385065 0.9979815912425818 -0.014389181733385065 0.002018408757418383 0.014389181733385062
5.0754570186123446E7 0.0020365980371280356 0.014598095402954777 0.997963401962872 -0.014598095402954777 0.997963401962872 -0.014598095402954777 0.0020365980371280356 0.014598095402954777
5.152052789556263E7 0.002055146810681674 0.01480998094633328 0.9979448531893185 -0.01480998094633328 0.9979448531893185 -0.01480998094633328 0.002055146810681674 0.01480998094633328
5.229804498202928E7 0.002074060443269391 0.015024879088494309 0.9979259395567308 -0.015024879088494309 0.9979259395567308 -0.015024879088494309 0.002074060443269391 0.015024879088494309
5.308729589274893E7 0.002093344290754139 0.015242831183541836 0.9979066557092459 -0.015242831183541836 0.9979066557092459 -0.015242831183541836 0.002093344290754139 0.015242831183541836
5.388845770760058E7 0.0021130037004987606 0.015463879232013394 0.9978869962995013 -0.015463879232013394 0.9978869962995013 -0.015463879232013394 0.0021130037004987606 0.015463879232013394
5.470171017884717E7 0.002133044012682703 0.015688065898647803 0.9978669559873172 -0.015688065898647803 0.9978669559873172 -0.015688065898647803 0.002133044012682703 0.015688065898647803
5.5527235771465644E7 0.0021534705621393166 0.015915434530604403 0.9978465294378609 -0.015915434530604403 0.9978465294378609 -0.015915434530604403 0.0021534705621393166 0.015915434530604403
5.6365219704085544E7 0.0021742886807444976 0.016146029176118796 0.9978257113192556 -0.016146029176118796 0.9978257113192556 -0.016146029176118796 0.0021742886807444976 0.016146029176118796
5.721584999054556E7 0.0021955037003870176 0.01637989460357792 0.9978044962996131 -0.016379894603577923 0.9978044962996131 -0.016379894603577923 0.0021955037003870176 0.01637989460357792
5.807931748207712E7 0.00221712095655034 0.016617076320995103 0.9977828790434498 -0.016617076320995103 0.9977828790434498 -0.016617076320995103 0.00221712095655034 0.016617076320995103
5.8955815910124585E7 0.002239145792534989 0.016857620595863487 0.9977608542074652 -0.016857620595863487 0.9977608542074652 -0.016857620595863487 0.002239145792534989 0.016857620595863487
5.984554192981184E7 0.002261583564349578 0.01710157447536412 0.9977384164356504 -0.01710157447536412 0.9977384164356504 -0.01710157447536412 0.002261583564349578 0.01710157447536412
6.074869516406457E7 0.00228443964629755 0.01734898580690289 0.9977155603537026 -0.01734898580690289 0.9977155603537026 -0.01734898580690289 0.00228443964629755 0.01734898580690289
6.166547824839868E7 0.002307719437285265 0.017599903258948116 0.9976922805627148 -0.017599903258948116 0.9976922805627148 -0.017599903258948116 0.002307719437285265 0.017599903258948116
6.2596096876384385E7 0.002331428367875689 0.017854376342139083 0.9976685716321244 -0.017854376342139086 0.9976685716321244 -0.017854376342139086 0.002331428367875689 0.017854376342139083
6.354075984579668E7 0.002355571908110115 0.018112455430633355 0.99764442809189 -0.018112455430633355 0.99764442809189 -0.018112455430633355 0.002355571908110115 0.018112455430633355
6.449967910546205E7 0.0023801555761185757 0.01837419178365919 0.9976198444238814 -0.018374191783659195 0.9976198444238814 -0.018374191783659195 0.0023801555761185757 0.01837419178365919
6.547306980281226E7 0.0024051849475374663 0.018639637567237664 0.9975948150524625 -0.018639637567237667 0.9975948150524625 -0.018639637567237667 0.0024051849475374663 0.018639637567237664
6.646115033215589E7 0.0024306656657507183 0.018908845876037413 0.9975693343342493 -0.018908845876037413 0.9975693343342493 -0.018908845876037413 0.0024306656657507183 0.018908845876037413
6.746414238367817E7 0.00245660345296843 0.019181870755323623 0.9975433965470314 -0.01918187075532362 0.9975433965470314 -0.01918187075532362 0.00245660345296843 0.019181870755323623
6.848227099318038E7 0.0024830041221543552 0.019458767222961762 0.9975169958778456 -0.019458767222961762 0.9975169958778456 -0.019458767222961762 0.0024830041221543552 0.019458767222961762
6.951576459256999E7 0.002509873589810978 0.019739591291435467 0.9974901264101889 -0.019739591291435467 0.9974901264101889 -0.019739591291435467 0.002509873589810978 0.019739591291435467
7.056485506111258E7 0.0025372178896280596 0.020024399989837086 0.9974627821103719 -0.020024399989837082 0.9974627821103719 -0.020024399989837082 0.0025372178896280596 0.020024399989837086
7.162977777745734E7 0.002565043186997761 0.020313251385789193 0.9974349568130023 -0.020313251385789197 0.9974349568130023 -0.020313251385789197 0.002565043186997761 0.020313251385789193
7.271077167244768E7 0.002593355794396392 0.020606204607254798 0.9974066442056035 -0.020606204607254798 0.9974066442056035 -0.020606204607254798 0.002593355794396392 0.020606204607254798
7.380807928272885E7 0.0026221621876298686 0.020903319864193855 0.9973778378123702 -0.020903319864193855 0.9973778378123702 -0.020903319864193855 0.0026221621876298686 0.020903319864193855
7.492194680516452E7 0.002651469022936904 0.02120465847002427 0.9973485309770632 -0.02120465847002427 0.9973485309770632 -0.02120465847002427 0.002651469022936904 0.02120465847002427
7.60526241520746E7 0.002681283154940925 0.021510282862845644 0.997318716845059 -0.021510282862845644 0.997318716845059 -0.021510282862845644 0.002681283154940925 0.021510282862845644
7.720036500730675E7 0.002711611655438655 0.021820256626385114 0.9972883883445613 -0.021820256626385114 0.9972883883445613 -0.021820256626385114 0.002711611655438655 0.021820256626385114
7.836542688315398E7 0.002742461833010286 0.022134644510625308 0.9972575381669897 -0.022134644510625308 0.9972575381669897 -0.022134644510625308 0.002742461833010286 0.022134644510625308
7.954807117813127E7 0.0027738412534333763 0.02245351245207621 0.9972261587465665 -0.022453512452076208 0.9972261587465665 -0.022453512452076208 0.0027738412534333763 0.02245351245207621
8.074856323562416E7 0.002805757760879597 0.022776927593653715 0.9971942422391205 -0.022776927593653715 0.9971942422391205 -0.022776927593653715 0.002805757760879597 0.022776927593653715
8.196717240342227E7 0.0028382194998709497 0.023104958304129987 0.997161780500129 -0.023104958304129983 0.997161780500129 -0.023104958304129983 0.0028382194998709497 0.023104958304129987
8.320417209415154E7 0.002871234937969434 0.023437674197122622 0.9971287650620305 -0.023437674197122622 0.9971287650620305 -0.023437674197122622 0.002871234937969434 0.023437674197122622
8.445983984661816E7 0.0029048128891717736 0.02377514614959168 0.997095187110828 -0.02377514614959168 0.997095187110828 -0.02377514614959168 0.0029048128891717736 0.02377514614959168
8.573445738807854E7 0.0029389625379787196 0.0241174463198167 0.9970610374620215 -0.0241174463198167 0.9970610374620215 -0.0241174463198167 0.0029389625379787196 0.0241174463198167
8.702831069744885E7 0.002973693464106417 0.024464648164828004 0.9970263065358933 -0.024464648164828004 0.9970263065358933 -0.024464648164828004 0.002973693464106417 0.024464648164828004
8.834169006946853E7 0.003009015667805699 0.024816826457270014 0.9969909843321944 -0.024816826457270014 0.9969909843321944 -0.024816826457270014 0.003009015667805699 0.024816826457270014
8.96748901798321E7 0.0030449395957536356 0.025174057301676826 0.9969550604042464 -0.025174057301676822 0.9969550604042464 -0.025174057301676822 0.0030449395957536356 0.025174057301676826
9.1028210151304E7 0.003081476167480602 0.025536418150144163 0.9969185238325193 -0.02553641815014417 0.9969185238325193 -0.02553641815014417 0.003081476167480602 0.025536418150144163
9.240195362083109E7 0.003118636802295138 0.02590398781738448 0.9968813631977047 -0.02590398781738448 0.9968813631977047 -0.02590398781738448 0.003118636802295138 0.02590398781738448
9.379642880766791E7 0.0031564334466683917 0.02627684649515595 0.9968435665533315 -0.026276846495155944 0.9968435665533315 -0.026276846495155944 0.0031564334466683917 0.02627684649515595
9.521194858253023E7 0.003194878602039537 0.026655075766059008 0.9968051213979605 -0.026655075766059008 0.9968051213979605 -0.026655075766059008 0.003194878602039537 0.026655075766059008
9.664883053779216E7 0.0032339853530037543 0.02703875861669833 0.9967660146469962 -0.027038758616698338 0.9967660146469962 -0.027038758616698338 0.0032339853530037543 0.02703875861669833
9.810739705874248E7 0.0032737673958445025 0.027427979450210672 0.9967262326041555 -0.027427979450210672 0.9967262326041555 -0.027427979450210672 0.0032737673958445025 0.027427979450210672
9.958797539591652E7 0.003314239067372631 0.027822824098163203 0.9966857609326274 -0.027822824098163203 0.9966857609326274 -0.027822824098163203 0.003314239067372631 0.027822824098163203
1.0109089773851961E8 0.0033554153740357443 0.02822337983183004 0.9966445846259642 -0.02822337983183004 0.9966445846259642 -0.02822337983183004 0.0033554153740357443 0.02822337983183004
1.0261650128895843E8 0.0033973120212625278 0.028629735372858102 0.9966026879787373 -0.028629735372858102 0.9966026879787373 -0.028629735372858102 0.0033973120212625278 0.028629735372858102
1.0416512833849736E8 0.00343994544300821 0.02904198090333626 0.9965600545569917 -0.02904198090333626 0.9965600545569917 -0.02904198090333626 0.00343994544300821 0.02904198090333626
1.0573712634405641E8 0.0034833328314692507 0.029460208075285196 0.9965166671685307 -0.029460208075285196 0.9965166671685307 -0.029460208075285196 0.0034833328314692507 0.029460208075285196
1.0733284800616828E8 0.0035274921669373373 0.029884510019588164 0.9964725078330628 -0.029884510019588167 0.9964725078330628 -0.029884510019588167 0.0035274921669373373 0.029884510019588164
1.0895265134811176E8 0.003572442247765077 0.030314981354385217 0.9964275577522347 -0.030314981354385213 0.9964275577522347 -0.030314981354385213 0.003572442247765077 0.030314981354385217
1.1059689979623953E8 0.0036182027204183518 0.03075171819295638 0.9963817972795816 -0.030751718192956377 0.9963817972795816 -0.030751718192956377 0.0036182027204183518 0.03075171819295638
1.1226596226151802E8 0.003664794109592944 0.031194818151121108 0.996335205890407 -0.031194818151121104 0.996335205890407 -0.031194818151121104 0.003664794109592944 0.031194818151121108
1.1396021322229806E8 0.0037122378483759877 0.03164438035418353 0.9962877621516242 -0.03164438035418353 0.9962877621516242 -0.03164438035418353 0.0037122378483759877 0.03164438035418353
1.1568003280833441E8 0.00376055630843586 0.03210050544345489 0.996239443691564 -0.032100505443454885 0.996239443691564 -0.032100505443454885 0.00376055630843586 0.03210050544345489
1.1742580688607343E8 0.003809772830227207 0.0325632955823858 0.9961902271697729 -0.032563295582385805 0.9961902271697729 -0.032563295582385805 0.003809772830227207 0.0325632955823858
1.1919792714522783E8 0.0038599117532011093 0.03303285446234213 0.996140088246799 -0.03303285446234214 0.996140088246799 -0.03303285446234214 0.0038599117532011093 0.03303285446234213
1.2099679118665792E8 0.0039109984460137725 0.03350928730805976 0.9960890015539863 -0.03350928730805976 0.9960890015539863 -0.03350928730805976 0.0039109984460137725 0.03350928730805976
1.2282280261157903E8 0.003963059336730375 0.033992700882813365 0.9960369406632696 -0.033992700882813365 0.9960369406632696 -0.033992700882813365 0.003963059336730375 0.033992700882813365
1.2467637111211549E8 0.004016121943024224 0.03448320349333565 0.9959838780569757 -0.03448320349333564 0.9959838780569757 -0.03448320349333564 0.004016121943024224 0.03448320349333565
1.265579125632208E8 0.004070214902374652 0.03498090499452257 0.9959297850976254 -0.03498090499452257 0.9959297850976254 -0.03498090499452257 0.004070214902374652 0.03498090499452257
1.284678491159853E8 0.004125368002270581 0.03548591679396122 0.9958746319977293 -0.03548591679396122 0.9958746319977293 -0.03548591679396122 0.004125368002270581 0.03548591679396122
1.3040660929235186E8 0.004181612210429773 0.03599835185631531 0.9958183877895704 -0.03599835185631531 0.9958183877895704 -0.03599835185631531 0.004181612210429773 0.03599835185631531
1.3237462808126101E8 0.004238979705047271 0.03651832470760374 0.9957610202949528 -0.03651832470760374 0.9957610202949528 -0.03651832470760374 0.004238979705047271 0.03651832470760374
1.3437234703624701E8 0.004297503905089463 0.03704595143940617 0.9957024960949106 -0.03704595143940617 0.9957024960949106 -0.03704595143940617 0.004297503905089463 0.03704595143940617
1.364002143745067E8 0.0043572195006533355 0.037581349713028754 0.9956427804993467 -0.037581349713028754 0.9956427804993467 -0.037581349713028754 0.0043572195006533355 0.037581349713028754
1.3845868507746372E8 0.004418162483413385 0.03812463876366189 0.9955818375165866 -0.0381246387636619 0.9955818375165866 -0.0381246387636619 0.004418162483413385 0.03812463876366189
1.405482209928499E8 0.004480370177181401 0.03867593940456067 0.9955196298228184 -0.03867593940456067 0.9955196298228184 -0.03867593940456067 0.004480370177181401 0.03867593940456067
1.426692909383278E8 0.004543881268606934 0.03923537403127648 0.9954561187313931 -0.03923537403127648 0.9954561187313931 -0.03923537403127648 0.004543881268606934 0.03923537403127648
1.4482237080667645E8 0.004608735838048787 0.03980306662596734 0.9953912641619513 -0.03980306662596733 0.9953912641619513 -0.03980306662596733 0.004608735838048787 0.03980306662596734
1.4700794367256513E8 0.004674975390650082 0.0403791427618122 0.99532502460935 -0.04037914276181221 0.99532502460935 -0.04037914276181221 0.004674975390650082 0.0403791427618122
1.492264999009378E8 0.0047426428876516874 0.04096372960755256 0.9952573571123482 -0.04096372960755256 0.9952573571123482 -0.04096372960755256 0.0047426428876516874 0.04096372960755256
1.5147853725703382E8 0.004811782777980638 0.04155695593218299 0.9951882172220192 -0.04155695593218299 0.9951882172220192 -0.04155695593218299 0.004811782777980638 0.04155695593218299
1.5376456101806876E8 0.0048824410301520505 0.04215895210980972 0.995117558969848 -0.04215895210980972 0.995117558969848 -0.04215895210980972 0.0048824410301520505 0.04215895210980972
1.5608508408660066E8 0.004954665164524652 0.04276985012469492 0.9950453348354755 -0.04276985012469492 0.9950453348354755 -0.04276985012469492 0.004954665164524652 0.04276985012469492
1.5844062710560706E8 0.005028504285951462 0.043389783576501424 0.9949714957140485 -0.043389783576501424 0.9949714957140485 -0.043389783576501424 0.005028504285951462 0.043389783576501424
1.6083171857529896E8 0.005104009116868523 0.044018887685751365 0.9948959908831314 -0.044018887685751365 0.9948959908831314 -0.044018887685751365 0.005104009116868523 0.044018887685751365
1.632588949716973E8 0.005181232030865685 0.04465729929950927 0.9948187679691342 -0.04465729929950927 0.9948187679691342 -0.04465729929950927 0.005181232030865685 0.04465729929950927
1.6572270086699936E8 0.00526022708678455 0.04530515689729887 0.9947397729132156 -0.04530515689729887 0.9947397729132156 -0.04530515689729887 0.00526022708678455 0.04530515689729887
1.6822368905176118E8 0.005341050063389439 0.04596260059726005 0.9946589499366104 -0.045962600597260046 0.9946589499366104 -0.045962600597260046 0.005341050063389439 0.04596260059726005
1.7076242065892437E8 0.005423758494658208 0.04662977216255137 0.9945762415053417 -0.04662977216255137 0.9945762415053417 -0.04662977216255137 0.005423758494658208 0.04662977216255137
1.7333946528971428E8 0.005508411705740218 0.04730681500800029 0.9944915882942597 -0.04730681500800029 0.9944915882942597 -0.04730681500800029 0.005508411705740218 0.04730681500800029
1.7595540114143828E8 0.005595070849629524 0.047993874207003025 0.9944049291503705 -0.047993874207003025 0.9944049291503705 -0.047993874207003025 0.005595070849629524 0.047993874207003025
1.786108151372127E8 0.0056837989446017695 0.048691096498672905 0.9943162010553982 -0.048691096498672905 0.9943162010553982 -0.048691096498672905 0.0056837989446017695 0.048691096498672905
1.8130630305764765E8 0.0057746609124637825 0.049398630295235064 0.9942253390875362 -0.049398630295235064 0.9942253390875362 -0.049398630295235064 0.0057746609124637825 0.049398630295235064
1.840424696745189E8 0.005867723617665253 0.05011662568966358 0.9941322763823348 -0.05011662568966358 0.9941322763823348 -0.05011662568966358 0.005867723617665253 0.05011662568966358
1.8681992888645732E8 0.005963055907322349 0.05084523446355573 0.9940369440926776 -0.050845234463555725 0.9940369440926776 -0.050845234463555725 0.005963055907322349 0.05084523446355573
1.8963930385668582E8 0.006060728652203447 0.05158461009523659 0.9939392713477966 -0.05158461009523659 0.9939392713477966 -0.05158461009523659 0.006060728652203447 0.05158461009523659
1.92501227152835E8 0.006160814788727631 0.05233490776808604 0.9938391852112723 -0.05233490776808604 0.9938391852112723 -0.05233490776808604 0.006160814788727631 0.05233490776808604
1.9540634088886917E8 0.006263389362027015 0.05309628437907885 0.993736610637973 -0.05309628437907885 0.993736610637973 -0.05309628437907885 0.006263389362027015 0.05309628437907885
1.983552968691535E8 0.006368529570124448 0.053868898547527695 0.9936314704298757 -0.053868898547527695 0.9936314704298757 -0.053868898547527695 0.006368529570124448 0.053868898547527695
2.0134875673469606E8 0.0064763148092787685 0.05465291062401778 0.9935236851907211 -0.05465291062401778 0.9935236851907211 -0.05465291062401778 0.0064763148092787685 0.05465291062401778
2.0438739211159652E8 0.006586826720550248 0.05544848269952054 0.9934131732794497 -0.055448482699520546 0.9934131732794497 -0.055448482699520546 0.006586826720550248 0.05544848269952054
2.074718847617352E8 0.006700149237639807 0.05625577861467381 0.9932998507623603 -0.056255778614673825 0.9932998507623603 -0.056255778614673825 0.006700149237639807 0.05625577861467381
2.106029267357361E8 0.006816368636056249 0.05707496396921399 0.9931836313639438 -0.05707496396921399 0.9931836313639438 -0.05707496396921399 0.006816368636056249 0.05707496396921399
2.1378122052823865E8 0.006935573583666807 0.05790620613154582 0.9930644264163332 -0.05790620613154582 0.9930644264163332 -0.05790620613154582 0.006935573583666807 0.05790620613154582
2.1700747923551247E8 0.0070578551926873505 0.058749674248434164 0.9929421448073129 -0.058749674248434164 0.9929421448073129 -0.058749674248434164 0.0070578551926873505 0.058749674248434164
2.2028242671545094E8 0.007183307073169923 0.0596055392548017 0.9928166929268301 -0.0596055392548017 0.9928166929268301 -0.0596055392548017 0.007183307073169923 0.0596055392548017
2.23606797749979E8 0.007312025388046542 0.060473973883615466 0.9926879746119535 -0.06047397388361545 0.9926879746119535 -0.06047397388361545 0.007312025388046542 0.060473973883615466
2.2698133820991236E8 0.0074441089097899765 0.06135515267584464 0.9925558910902099 -0.06135515267584463 0.9925558910902099 -0.06135515267584463 0.0074441089097899765 0.06135515267584464
2.3040680522230446E8 0.007579659078753788 0.062249251990471224 0.9924203409212462 -0.062249251990471224 0.9924203409212462 -0.062249251990471224 0.007579659078753788 0.062249251990471224
2.338839673403185E8 0.007718780063255976 0.06315645001453403 0.9922812199367441 -0.06315645001453403 0.9922812199367441 -0.06315645001453403 0.007718780063255976 0.06315645001453403
2.37413604715664E8 0.00786157882147274 0.06407692677318612 0.9921384211785271 -0.06407692677318612 0.9921384211785271 -0.06407692677318612 0.00786157882147274 0.06407692677318612
2.4099650927363476E8 0.00800816516521105 0.06501086413974407 0.991991834834789 -0.06501086413974407 0.991991834834789 -0.06501086413974407 0.00800816516521105 0.06501086413974407
