!Murata Part Number: LQG15HN22NG02
!These Parameters are Measured in Series Mode Connection
!       o--[Z]--o
!Port1              Port2
!       o-------o
!
!Freq. Start=50[MHz] Stop=20[GHz], 401[Steps]
# Hz S RI R 50
!Freq.(Hz) S11(Real) S11(Imag) S21(Real) S21(Imag) S12(Real) S12(Imag) S22(Real) S22(Imag)
5.0E7 0.013486204738600993 0.06853524514623958 0.986513795261399 -0.06853524514623958 0.986513795261399 -0.06853524514623958 0.013486204738600993 0.06853524514623958
5.0754570186123446E7 0.013696095821276505 0.06948927881599737 0.9863039041787235 -0.06948927881599738 0.9863039041787235 -0.06948927881599738 0.013696095821276505 0.06948927881599737
5.152052789556263E7 0.013910507840394703 0.07045616594738899 0.9860894921596052 -0.070456165947389 0.9860894921596052 -0.070456165947389 0.013910507840394703 0.07045616594738899
5.229804498202928E7 0.014129537236394834 0.07143607127717143 0.9858704627636053 -0.07143607127717141 0.9858704627636053 -0.07143607127717141 0.014129537236394834 0.07143607127717143
5.308729589274893E7 0.014353282749404556 0.0724291621048067 0.9856467172505954 -0.0724291621048067 0.9856467172505954 -0.0724291621048067 0.014353282749404556 0.0724291621048067
5.388845770760058E7 0.014581845532459916 0.07343560834328623 0.9854181544675401 -0.07343560834328623 0.9854181544675401 -0.07343560834328623 0.014581845532459916 0.07343560834328623
5.470171017884717E7 0.014815329270418785 0.07445558256758605 0.9851846707295812 -0.07445558256758605 0.9851846707295812 -0.07445558256758605 0.014815329270418785 0.07445558256758605
5.5527235771465644E7 0.015053840304587953 0.0754892600604394 0.984946159695412 -0.0754892600604394 0.984946159695412 -0.0754892600604394 0.015053840304587953 0.0754892600604394
5.6365219704085544E7 0.015297487763066808 0.07653681885510835 0.984702512236933 -0.07653681885510835 0.984702512236933 -0.07653681885510835 0.015297487763066808 0.07653681885510835
5.721584999054556E7 0.015546383696792844 0.07759843977483273 0.9844536163032073 -0.07759843977483273 0.9844536163032073 -0.07759843977483273 0.015546383696792844 0.07759843977483273
5.807931748207712E7 0.015800643221256055 0.07867430646863208 0.984199356778744 -0.07867430646863209 0.984199356778744 -0.07867430646863209 0.015800643221256055 0.07867430646863208
5.8955815910124585E7 0.016060384663831334 0.07976460544313647 0.9839396153361686 -0.07976460544313647 0.9839396153361686 -0.07976460544313647 0.016060384663831334 0.07976460544313647
5.984554192981184E7 0.016325729716659534 0.08086952609012144 0.9836742702833403 -0.08086952609012144 0.9836742702833403 -0.08086952609012144 0.016325729716659534 0.08086952609012144
6.074869516406457E7 0.016596803594989794 0.0819892607094249 0.9834031964050103 -0.0819892607094249 0.9834031964050103 -0.0819892607094249 0.016596803594989794 0.0819892607094249
6.166547824839868E7 0.016873735200877576 0.0831240045269274 0.9831262647991222 -0.08312400452692739 0.9831262647991222 -0.08312400452692739 0.016873735200877576 0.0831240045269274
6.2596096876384385E7 0.017156657292115674 0.08427395570728068 0.9828433427078842 -0.08427395570728068 0.9828433427078842 -0.08427395570728068 0.017156657292115674 0.08427395570728068
6.354075984579668E7 0.01744570665625757 0.08543931536107648 0.9825542933437424 -0.08543931536107648 0.9825542933437424 -0.08543931536107648 0.01744570665625757 0.08543931536107648
6.449967910546205E7 0.01774102428957665 0.086620287546154 0.9822589757104233 -0.08662028754615399 0.9822589757104233 -0.08662028754615399 0.01774102428957665 0.086620287546154
6.547306980281226E7 0.01804275558078845 0.08781707926275308 0.9819572444192115 -0.08781707926275308 0.9819572444192115 -0.08781707926275308 0.01804275558078845 0.08781707926275308
6.646115033215589E7 0.018351050499348487 0.08902990044222962 0.9816489495006514 -0.08902990044222961 0.9816489495006514 -0.08902990044222961 0.018351050499348487 0.08902990044222962
6.746414238367817E7 0.018666063788123563 0.09025896392905969 0.9813339362118764 -0.09025896392905969 0.9813339362118764 -0.09025896392905969 0.018666063788123563 0.09025896392905969
6.848227099318038E7 0.01898795516022203 0.091504485455871 0.9810120448397781 -0.09150448545587102 0.9810120448397781 -0.09150448545587102 0.01898795516022203 0.091504485455871
6.951576459256999E7 0.019316889499756424 0.09276668361125244 0.9806831105002436 -0.09276668361125243 0.9806831105002436 -0.09276668361125243 0.019316889499756424 0.09276668361125244
7.056485506111258E7 0.01965303706630054 0.09404577980010397 0.9803469629336994 -0.09404577980010397 0.9803469629336994 -0.09404577980010397 0.01965303706630054 0.09404577980010397
7.162977777745734E7 0.019996573702794666 0.09534199819630462 0.9800034262972052 -0.09534199819630462 0.9800034262972052 -0.09534199819630462 0.019996573702794666 0.09534199819630462
7.271077167244768E7 0.020347681046643588 0.09665556568748862 0.9796523189533566 -0.09665556568748862 0.9796523189533566 -0.09665556568748862 0.020347681046643588 0.09665556568748862
7.380807928272885E7 0.020706546743745623 0.09798671181173417 0.9792934532562543 -0.09798671181173417 0.9792934532562543 -0.09798671181173417 0.020706546743745623 0.09798671181173417
7.492194680516452E7 0.02107336466518541 0.09933566868598363 0.9789266353348146 -0.09933566868598363 0.9789266353348146 -0.09933566868598363 0.02107336466518541 0.09933566868598363
7.60526241520746E7 0.021448335126319017 0.10070267092602828 0.978551664873681 -0.10070267092602828 0.978551664873681 -0.10070267092602828 0.021448335126319017 0.10070267092602828
7.720036500730675E7 0.021831665107977075 0.1020879555579038 0.9781683348920227 -0.1020879555579038 0.9781683348920227 -0.1020879555579038 0.021831665107977075 0.1020879555579038
7.836542688315398E7 0.022223568479510403 0.10349176192055787 0.9777764315204894 -0.10349176192055787 0.9777764315204894 -0.10349176192055787 0.022223568479510403 0.10349176192055787
7.954807117813127E7 0.02262426622340184 0.1049143315596623 0.9773757337765981 -0.1049143315596623 0.9773757337765981 -0.1049143315596623 0.02262426622340184 0.1049143315596623
8.074856323562416E7 0.023033986661169282 0.10635590811245646 0.9769660133388307 -0.10635590811245646 0.9769660133388307 -0.10635590811245646 0.023033986661169282 0.10635590811245646
8.196717240342227E7 0.023452965680286982 0.10781673718352018 0.9765470343197131 -0.10781673718352021 0.9765470343197131 -0.10781673718352021 0.023452965680286982 0.10781673718352018
8.320417209415154E7 0.02388144696185446 0.10929706621138387 0.9761185530381454 -0.10929706621138385 0.9761185530381454 -0.10929706621138385 0.02388144696185446 0.10929706621138387
8.445983984661816E7 0.02431968220874712 0.11079714432589542 0.9756803177912531 -0.11079714432589542 0.9756803177912531 -0.11079714432589542 0.02431968220874712 0.11079714432589542
8.573445738807854E7 0.024767931373986373 0.11231722219627165 0.9752320686260136 -0.11231722219627165 0.9752320686260136 -0.11231722219627165 0.024767931373986373 0.11231722219627165
8.702831069744885E7 0.025226462889072994 0.11385755186976905 0.9747735371109271 -0.11385755186976908 0.9747735371109271 -0.11385755186976908 0.025226462889072994 0.11385755186976905
8.834169006946853E7 0.025695553892032527 0.1154183866009166 0.9743044461079674 -0.1154183866009166 0.9743044461079674 -0.1154183866009166 0.025695553892032527 0.1154183866009166
8.96748901798321E7 0.026175490454927786 0.11699998067125715 0.9738245095450723 -0.11699998067125715 0.9738245095450723 -0.11699998067125715 0.026175490454927786 0.11699998067125715
9.1028210151304E7 0.026666567810599996 0.11860258919954982 0.9733334321893999 -0.11860258919954979 0.9733334321893999 -0.11860258919954979 0.026666567810599996 0.11860258919954982
9.240195362083109E7 0.027169090578405674 0.1202264679423868 0.9728309094215943 -0.1202264679423868 0.9728309094215943 -0.1202264679423868 0.027169090578405674 0.1202264679423868
9.379642880766791E7 0.02768337298872284 0.1218718730851802 0.9723166270112773 -0.12187187308518023 0.9723166270112773 -0.12187187308518023 0.02768337298872284 0.1218718730851802
9.521194858253023E7 0.028209739106005917 0.12353906102347459 0.9717902608939942 -0.12353906102347459 0.9717902608939942 -0.12353906102347459 0.028209739106005917 0.12353906102347459
9.664883053779216E7 0.028748523050174227 0.12522828813454076 0.9712514769498258 -0.1252282881345408 0.9712514769498258 -0.1252282881345408 0.028748523050174227 0.12522828813454076
9.810739705874248E7 0.029300069216122725 0.12693981053920167 0.9706999307838773 -0.12693981053920164 0.9706999307838773 -0.12693981053920164 0.029300069216122725 0.12693981053920167
9.958797539591652E7 0.029864732491149272 0.12867388385383996 0.9701352675088507 -0.12867388385383996 0.9701352675088507 -0.12867388385383996 0.029864732491149272 0.12867388385383996
1.0109089773851961E8 0.03044287847009459 0.13043076293253267 0.9695571215299055 -0.13043076293253267 0.9695571215299055 -0.13043076293253267 0.03044287847009459 0.13043076293253267
1.0261650128895843E8 0.031034883667993646 0.13221070159924952 0.9689651163320064 -0.13221070159924952 0.9689651163320064 -0.13221070159924952 0.031034883667993646 0.13221070159924952
1.0416512833849736E8 0.031641135730038614 0.13401395237005026 0.9683588642699614 -0.13401395237005026 0.9683588642699614 -0.13401395237005026 0.031641135730038614 0.13401395237005026
1.0573712634405641E8 0.03226203363865263 0.13584076616520394 0.9677379663613475 -0.13584076616520394 0.9677379663613475 -0.13584076616520394 0.03226203363865263 0.13584076616520394
1.0733284800616828E8 0.03289798791747322 0.13769139201114997 0.967102012082527 -0.13769139201114997 0.967102012082527 -0.13769139201114997 0.03289798791747322 0.13769139201114997
1.0895265134811176E8 0.03354942083204012 0.13956607673220917 0.9664505791679598 -0.13956607673220917 0.9664505791679598 -0.13956607673220917 0.03354942083204012 0.13956607673220917
1.1059689979623953E8 0.03421676658697901 0.14146506463194658 0.9657832334130211 -0.14146506463194658 0.9657832334130211 -0.14146506463194658 0.03421676658697901 0.14146506463194658
1.1226596226151802E8 0.03490047151946636 0.1433885971640779 0.9650995284805336 -0.14338859716407792 0.9650995284805336 -0.14338859716407792 0.03490047151946636 0.1433885971640779
1.1396021322229806E8 0.03560099428875307 0.1453369125928031 0.9643990057112469 -0.14533691259280312 0.9643990057112469 -0.14533691259280312 0.03560099428875307 0.1453369125928031
1.1568003280833441E8 0.036318806061516204 0.14731024564244172 0.9636811939384841 -0.14731024564244172 0.9636811939384841 -0.14731024564244172 0.036318806061516204 0.14731024564244172
1.1742580688607343E8 0.03705439069279698 0.14930882713623636 0.9629456093072032 -0.14930882713623636 0.9629456093072032 -0.14930882713623636 0.03705439069279698 0.14930882713623636
1.1919792714522783E8 0.03780824490227126 0.15133288362418218 0.9621917550977288 -0.15133288362418218 0.9621917550977288 -0.15133288362418218 0.03780824490227126 0.15133288362418218
1.2099679118665792E8 0.03858087844558538 0.1533826369997328 0.9614191215544147 -0.1533826369997328 0.9614191215544147 -0.1533826369997328 0.03858087844558538 0.1533826369997328
1.2282280261157903E8 0.039372814280474254 0.1554583041052267 0.9606271857195259 -0.1554583041052267 0.9606271857195259 -0.1554583041052267 0.039372814280474254 0.1554583041052267
1.2467637111211549E8 0.04018458872736262 0.15756009632587115 0.9598154112726374 -0.15756009632587115 0.9598154112726374 -0.15756009632587115 0.04018458872736262 0.15756009632587115
1.265579125632208E8 0.04101675162413171 0.15968821917211776 0.9589832483758682 -0.15968821917211776 0.9589832483758682 -0.15968821917211776 0.04101675162413171 0.15968821917211776
1.284678491159853E8 0.0418698664747137 0.16184287185025667 0.9581301335252862 -0.16184287185025667 0.9581301335252862 -0.16184287185025667 0.0418698664747137 0.16184287185025667
1.3040660929235186E8 0.04274451059115641 0.16402424682105746 0.9572554894088435 -0.16402424682105746 0.9572554894088435 -0.16402424682105746 0.04274451059115641 0.16402424682105746
1.3237462808126101E8 0.04364127522877698 0.16623252934628027 0.956358724771223 -0.1662325293462803 0.956358724771223 -0.1662325293462803 0.04364127522877698 0.16623252934628027
1.3437234703624701E8 0.04456076571400185 0.16846789702288403 0.9554392342859981 -0.16846789702288403 0.9554392342859981 -0.16846789702288403 0.04456076571400185 0.16846789702288403
1.364002143745067E8 0.045503601564464216 0.170730519304758 0.9544963984355359 -0.170730519304758 0.9544963984355359 -0.170730519304758 0.045503601564464216 0.170730519304758
1.3845868507746372E8 0.04647041660090637 0.1730205570118081 0.9535295833990938 -0.1730205570118081 0.9535295833990938 -0.1730205570118081 0.04647041660090637 0.1730205570118081
1.405482209928499E8 0.04746185905040727 0.17533816182623463 0.9525381409495927 -0.17533816182623466 0.9525381409495927 -0.17533816182623466 0.04746185905040727 0.17533816182623463
1.426692909383278E8 0.048478591640429516 0.17768347577584467 0.9515214083595704 -0.17768347577584467 0.9515214083595704 -0.17768347577584467 0.048478591640429516 0.17768347577584467
1.4482237080667645E8 0.049521291683152675 0.18005663070425257 0.9504787083168473 -0.18005663070425257 0.9504787083168473 -0.18005663070425257 0.049521291683152675 0.18005663070425257
1.4700794367256513E8 0.05059065114953166 0.18245774772783271 0.9494093488504682 -0.18245774772783271 0.9494093488504682 -0.18245774772783271 0.05059065114953166 0.18245774772783271
1.492264999009378E8 0.05168737673249173 0.18488693667930312 0.9483126232675082 -0.1848869366793031 0.9483126232675082 -0.1848869366793031 0.05168737673249173 0.18488693667930312
1.5147853725703382E8 0.052812189898643 0.18734429553783186 0.947187810101357 -0.18734429553783186 0.947187810101357 -0.18734429553783186 0.052812189898643 0.18734429553783186
1.5376456101806876E8 0.05396582692786961 0.1898299098455788 0.9460341730721304 -0.18982990984557885 0.9460341730721304 -0.18982990984557885 0.05396582692786961 0.1898299098455788
1.5608508408660066E8 0.05514903894012076 0.192343852110603 0.9448509610598792 -0.192343852110603 0.9448509610598792 -0.192343852110603 0.05514903894012076 0.192343852110603
1.5844062710560706E8 0.05636259190870256 0.19488618119608697 0.9436374080912974 -0.19488618119608697 0.9436374080912974 -0.19488618119608697 0.05636259190870256 0.19488618119608697
1.6083171857529896E8 0.05760726665934462 0.19745694169585884 0.9423927333406553 -0.1974569416958589 0.9423927333406553 -0.1974569416958589 0.05760726665934462 0.19745694169585884
1.632588949716973E8 0.058883858854285494 0.2000561632962113 0.9411161411457146 -0.2000561632962113 0.9411161411457146 -0.2000561632962113 0.058883858854285494 0.2000561632962113
1.6572270086699936E8 0.06019317896059828 0.20268386012405212 0.9398068210394016 -0.20268386012405215 0.9398068210394016 -0.20268386012405215 0.06019317896059828 0.20268386012405212
1.6822368905176118E8 0.06153605220195148 0.2053400300814484 0.9384639477980484 -0.2053400300814484 0.9384639477980484 -0.2053400300814484 0.06153605220195148 0.2053400300814484
1.7076242065892437E8 0.06291331849297586 0.20802465416665833 0.9370866815070242 -0.20802465416665836 0.9370866815070242 -0.20802465416665836 0.06291331849297586 0.20802465416665833
1.7333946528971428E8 0.06432583235538647 0.21073769578178167 0.9356741676446135 -0.21073769578178161 0.9356741676446135 -0.21073769578178161 0.06432583235538647 0.21073769578178167
1.7595540114143828E8 0.06577446281498686 0.21347910002719497 0.934225537185013 -0.21347910002719492 0.934225537185013 -0.21347910002719492 0.06577446281498686 0.21347910002719497
1.786108151372127E8 0.06726009327866196 0.21624879298297595 0.9327399067213381 -0.21624879298297592 0.9327399067213381 -0.21624879298297592 0.06726009327866196 0.21624879298297595
1.8130630305764765E8 0.06878362139044931 0.21904668097756294 0.9312163786095508 -0.21904668097756297 0.9312163786095508 -0.21904668097756297 0.06878362139044931 0.21904668097756294
1.840424696745189E8 0.07034595886575887 0.22187264984393595 0.9296540411342411 -0.22187264984393595 0.9296540411342411 -0.22187264984393595 0.07034595886575887 0.22187264984393595
1.8681992888645732E8 0.07194803130279837 0.2247265641636499 0.9280519686972017 -0.2247265641636499 0.9280519686972017 -0.2247265641636499 0.07194803130279837 0.2247265641636499
1.8963930385668582E8 0.07359077797024778 0.22760826649909693 0.9264092220297521 -0.22760826649909693 0.9264092220297521 -0.22760826649909693 0.07359077797024778 0.22760826649909693
1.92501227152835E8 0.07527515157021249 0.23051757661441832 0.9247248484297876 -0.23051757661441832 0.9247248484297876 -0.23051757661441832 0.07527515157021249 0.23051757661441832
1.9540634088886917E8 0.07700211797547915 0.23345429068553794 0.9229978820245208 -0.23345429068553797 0.9229978820245208 -0.23345429068553797 0.07700211797547915 0.23345429068553794
1.983552968691535E8 0.07877265594008599 0.2364181804998338 0.921227344059914 -0.2364181804998338 0.921227344059914 -0.2364181804998338 0.07877265594008599 0.2364181804998338
2.0134875673469606E8 0.08058775678221794 0.23940899264601892 0.9194122432177823 -0.23940899264601892 0.9194122432177823 -0.23940899264601892 0.08058775678221794 0.23940899264601892
2.0438739211159652E8 0.08244842403843074 0.2424264476948497 0.9175515759615691 -0.2424264476948497 0.9175515759615691 -0.2424264476948497 0.08244842403843074 0.2424264476948497
2.074718847617352E8 0.08435567308820711 0.2454702393713341 0.9156443269117929 -0.2454702393713341 0.9156443269117929 -0.2454702393713341 0.08435567308820711 0.2454702393713341
2.106029267357361E8 0.08631053074784964 0.24854003371916222 0.9136894692521504 -0.24854003371916225 0.9136894692521504 -0.24854003371916225 0.08631053074784964 0.24854003371916222
2.1378122052823865E8 0.08831403483271649 0.2516354682581378 0.9116859651672836 -0.2516354682581379 0.9116859651672836 -0.2516354682581379 0.08831403483271649 0.2516354682581378
2.1700747923551247E8 0.09036723368681142 0.25475615113544 0.9096327663131885 -0.2547561511354399 0.9096327663131885 -0.2547561511354399 0.09036723368681142 0.25475615113544
2.2028242671545094E8 0.0924711856787459 0.2579016602715992 0.9075288143212541 -0.2579016602715992 0.9075288143212541 -0.2579016602715992 0.0924711856787459 0.2579016602715992
2.23606797749979E8 0.0946269586630985 0.2610715425021264 0.9053730413369016 -0.2610715425021264 0.9053730413369016 -0.2610715425021264 0.0946269586630985 0.2610715425021264
2.2698133820991236E8 0.09683562940620946 0.2642653127157877 0.9031643705937906 -0.2642653127157877 0.9031643705937906 -0.2642653127157877 0.09683562940620946 0.2642653127157877
2.3040680522230446E8 0.09909828297545832 0.2674824529905739 0.9009017170245417 -0.2674824529905739 0.9009017170245417 -0.2674824529905739 0.09909828297545832 0.2674824529905739
2.338839673403185E8 0.1014160120910855 0.2707224117284634 0.8985839879089145 -0.2707224117284634 0.8985839879089145 -0.2707224117284634 0.1014160120910855 0.2707224117284634
2.37413604715664E8 0.10378991643963734 0.27398460279014136 0.8962100835603626 -0.27398460279014136 0.8962100835603626 -0.27398460279014136 0.10378991643963734 0.27398460279014136
2.4099650927363476E8 0.1062211019481264 0.2772684046308834 0.8937788980518736 -0.2772684046308834 0.8937788980518736 -0.2772684046308834 0.1062211019481264 0.2772684046308834
2.446334848907889E8 0.10871068001802073 0.2805731594388753 0.8912893199819794 -0.2805731594388753 0.8912893199819794 -0.2805731594388753 0.10871068001802073 0.2805731594388753
2.4832534757531032E8 0.11125976671819143 0.2838981722772912 0.8887402332818087 -0.2838981722772912 0.8887402332818087 -0.2838981722772912 0.11125976671819143 0.2838981722772912
2.5207292565009177E8 0.1138694819359723 0.287242710231513 0.8861305180640277 -0.287242710231513 0.8861305180640277 -0.287242710231513 0.1138694819359723 0.287242710231513
