!Murata Part Number: LQG15HN1N6B02
!These Parameters are Measured in Series Mode Connection
!       o--[Z]--o
!Port1              Port2
!       o-------o
!
!Freq. Start=50[MHz] Stop=20[GHz], 401[Steps]
# Hz S RI R 50
!Freq.(Hz) S11(Real) S11(Imag) S21(Real) S21(Imag) S12(Real) S12(Imag) S22(Real) S22(Imag)
5.0E7 5.407159236972373E-4 0.004073518809215903 0.9994592840763027 -0.004073518809215903 0.9994592840763027 -0.004073518809215903 5.407159236972373E-4 0.004073518809215903
5.0754570186123446E7 5.438389178471659E-4 0.004132969519320807 0.9994561610821527 -0.004132969519320807 0.9994561610821527 -0.004132969519320807 5.438389178471659E-4 0.004132969519320807
5.152052789556263E7 5.469967979172153E-4 0.004193277879199392 0.9994530032020829 -0.004193277879199392 0.9994530032020829 -0.004193277879199392 5.469967979172153E-4 0.004193277879199392
5.229804498202928E7 5.501893797319996E-4 0.004254456937144617 0.9994498106202679 -0.004254456937144617 0.9994498106202679 -0.004254456937144617 5.501893797319996E-4 0.004254456937144617
5.308729589274893E7 5.534164885831901E-4 0.0043165199742614185 0.9994465835114169 -0.0043165199742614185 0.9994465835114169 -0.0043165199742614185 5.534164885831901E-4 0.0043165199742614185
5.388845770760058E7 5.566779615284056E-4 0.0043794805079733976 0.9994433220384714 -0.004379480507973398 0.9994433220384714 -0.004379480507973398 5.566779615284056E-4 0.0043794805079733976
5.470171017884717E7 5.599736497488362E-4 0.004443352295471019 0.9994400263502511 -0.004443352295471019 0.9994400263502511 -0.004443352295471019 5.599736497488362E-4 0.004443352295471019
5.5527235771465644E7 5.6330342095966E-4 0.004508149337098494 0.9994366965790404 -0.004508149337098494 0.9994366965790404 -0.004508149337098494 5.6330342095966E-4 0.004508149337098494
5.6365219704085544E7 5.666671618670887E-4 0.004573885879677135 0.9994333328381328 -0.004573885879677135 0.9994333328381328 -0.004573885879677135 5.666671618670887E-4 0.004573885879677135
5.721584999054556E7 5.700647806656592E-4 0.004640576419763375 0.9994299352193342 -0.004640576419763375 0.9994299352193342 -0.004640576419763375 5.700647806656592E-4 0.004640576419763375
5.807931748207712E7 5.734962095692381E-4 0.004708235706840141 0.9994265037904307 -0.004708235706840141 0.9994265037904307 -0.004708235706840141 5.734962095692381E-4 0.004708235706840141
5.8955815910124585E7 5.769614073690903E-4 0.004776878746440852 0.9994230385926309 -0.004776878746440852 0.9994230385926309 -0.004776878746440852 5.769614073690903E-4 0.004776878746440852
5.984554192981184E7 5.804603620122874E-4 0.004846520803205814 0.9994195396379877 -0.004846520803205814 0.9994195396379877 -0.004846520803205814 5.804603620122874E-4 0.004846520803205814
6.074869516406457E7 5.839930931936999E-4 0.004917177403871246 0.9994160069068063 -0.004917177403871246 0.9994160069068063 -0.004917177403871246 5.839930931936999E-4 0.004917177403871246
6.166547824839868E7 5.875596549548451E-4 0.004988864340191847 0.9994124403450451 -0.004988864340191847 0.9994124403450451 -0.004988864340191847 5.875596549548451E-4 0.004988864340191847
6.2596096876384385E7 5.911601382829056E-4 0.00506159767179816 0.9994088398617172 -0.005061597671798161 0.9994088398617172 -0.005061597671798161 5.911601382829056E-4 0.00506159767179816
6.354075984579668E7 5.947946737033646E-4 0.0051353937289907075 0.9994052053262965 -0.0051353937289907075 0.9994052053262965 -0.0051353937289907075 5.947946737033646E-4 0.0051353937289907075
6.449967910546205E7 5.984634338598259E-4 0.0052102691154731935 0.9994015365661403 -0.0052102691154731935 0.9994015365661403 -0.0052102691154731935 5.984634338598259E-4 0.0052102691154731935
6.547306980281226E7 6.021666360747886E-4 0.005286240711027684 0.9993978333639253 -0.005286240711027684 0.9993978333639253 -0.005286240711027684 6.021666360747886E-4 0.005286240711027684
6.646115033215589E7 6.059045448853806E-4 0.005363325674135109 0.9993940954551149 -0.005363325674135109 0.9993940954551149 -0.005363325674135109 6.059045448853806E-4 0.005363325674135109
6.746414238367817E7 6.096774745483028E-4 0.00544154144454483 0.9993903225254517 -0.00544154144454483 0.9993903225254517 -0.00544154144454483 6.096774745483028E-4 0.00544154144454483
6.848227099318038E7 6.134857915085511E-4 0.005520905745797538 0.9993865142084913 -0.005520905745797537 0.9993865142084913 -0.005520905745797537 6.134857915085511E-4 0.005520905745797538
6.951576459256999E7 6.173299168268059E-4 0.005601436587706038 0.9993826700831733 -0.005601436587706038 0.9993826700831733 -0.005601436587706038 6.173299168268059E-4 0.005601436587706038
7.056485506111258E7 6.212103285607363E-4 0.005683152268798886 0.9993787896714394 -0.005683152268798886 0.9993787896714394 -0.005683152268798886 6.212103285607363E-4 0.005683152268798886
7.162977777745734E7 6.251275640958484E-4 0.005766071378732143 0.9993748724359042 -0.005766071378732143 0.9993748724359042 -0.005766071378732143 6.251275640958484E-4 0.005766071378732143
7.271077167244768E7 6.290822224219174E-4 0.005850212800674857 0.9993709177775781 -0.005850212800674856 0.9993709177775781 -0.005850212800674856 6.290822224219174E-4 0.005850212800674857
7.380807928272885E7 6.330749663514496E-4 0.005935595713674012 0.9993669250336487 -0.005935595713674012 0.9993669250336487 -0.005935595713674012 6.330749663514496E-4 0.005935595713674012
7.492194680516452E7 6.37106524677061E-4 0.006022239595005043 0.999362893475323 -0.006022239595005043 0.999362893475323 -0.006022239595005043 6.37106524677061E-4 0.006022239595005043
7.60526241520746E7 6.411776942651049E-4 0.00611016422251406 0.999358822305735 -0.00611016422251406 0.999358822305735 -0.00611016422251406 6.411776942651049E-4 0.00611016422251406
7.720036500730675E7 6.452893420833122E-4 0.006199389676958146 0.9993547106579168 -0.006199389676958146 0.9993547106579168 -0.006199389676958146 6.452893420833122E-4 0.006199389676958146
7.836542688315398E7 6.494424071606744E-4 0.006289936344350143 0.9993505575928393 -0.006289936344350143 0.9993505575928393 -0.006289936344350143 6.494424071606744E-4 0.006289936344350143
7.954807117813127E7 6.53637902478226E-4 0.006381824918314383 0.9993463620975217 -0.006381824918314382 0.9993463620975217 -0.006381824918314382 6.53637902478226E-4 0.006381824918314383
8.074856323562416E7 6.578769167898404E-4 0.0064750764024599046 0.9993421230832101 -0.0064750764024599046 0.9993421230832101 -0.0064750764024599046 6.578769167898404E-4 0.0064750764024599046
8.196717240342227E7 6.621606163725615E-4 0.0065697121127775955 0.9993378393836274 -0.006569712112777595 0.9993378393836274 -0.006569712112777595 6.621606163725615E-4 0.0065697121127775955
8.320417209415154E7 6.664902467064348E-4 0.006665753680067729 0.9993335097532936 -0.006665753680067729 0.9993335097532936 -0.006665753680067729 6.664902467064348E-4 0.006665753680067729
8.445983984661816E7 6.708671340841762E-4 0.0067632230524042065 0.9993291328659158 -0.0067632230524042065 0.9993291328659158 -0.0067632230524042065 6.708671340841762E-4 0.0067632230524042065
8.573445738807854E7 6.75292687151418E-4 0.006862142497641767 0.9993247073128486 -0.006862142497641767 0.9993247073128486 -0.006862142497641767 6.75292687151418E-4 0.006862142497641767
8.702831069744885E7 6.797683983786246E-4 0.006962534605972253 0.9993202316016212 -0.006962534605972251 0.9993202316016212 -0.006962534605972251 6.797683983786246E-4 0.006962534605972253
8.834169006946853E7 6.842958454661127E-4 0.007064422292535853 0.999315704154534 -0.007064422292535853 0.999315704154534 -0.007064422292535853 6.842958454661127E-4 0.007064422292535853
8.96748901798321E7 6.888766926839115E-4 0.007167828800093074 0.9993111233073162 -0.007167828800093074 0.9993111233073162 -0.007167828800093074 6.888766926839115E-4 0.007167828800093074
9.1028210151304E7 6.935126921485088E-4 0.007272777701763009 0.9993064873078514 -0.007272777701763009 0.9993064873078514 -0.007272777701763009 6.935126921485088E-4 0.007272777701763009
9.240195362083109E7 6.982056850387643E-4 0.007379292903833176 0.9993017943149614 -0.007379292903833176 0.9993017943149614 -0.007379292903833176 6.982056850387643E-4 0.007379292903833176
9.379642880766791E7 7.029576027535107E-4 0.007487398648646053 0.9992970423972464 -0.007487398648646051 0.9992970423972464 -0.007487398648646051 7.029576027535107E-4 0.007487398648646053
9.521194858253023E7 7.077704680135791E-4 0.007597119517567141 0.9992922295319864 -0.00759711951756714 0.9992922295319864 -0.00759711951756714 7.077704680135791E-4 0.007597119517567141
9.664883053779216E7 7.126463959111298E-4 0.0077084804340392015 0.9992873536040889 -0.0077084804340392015 0.9992873536040889 -0.0077084804340392015 7.126463959111298E-4 0.0077084804340392015
9.810739705874248E7 7.175875949093364E-4 0.007821506666726897 0.9992824124050907 -0.007821506666726898 0.9992824124050907 -0.007821506666726898 7.175875949093364E-4 0.007821506666726897
9.958797539591652E7 7.22596367795587E-4 0.007936223832756118 0.9992774036322045 -0.00793622383275612 0.9992774036322045 -0.00793622383275612 7.22596367795587E-4 0.007936223832756118
1.0109089773851961E8 7.276751125914258E-4 0.008052657901051679 0.9992723248874087 -0.008052657901051679 0.9992723248874087 -0.008052657901051679 7.276751125914258E-4 0.008052657901051679
1.0261650128895843E8 7.328263234225624E-4 0.00817083519577708 0.9992671736765775 -0.008170835195777082 0.9992671736765775 -0.008170835195777082 7.328263234225624E-4 0.00817083519577708
1.0416512833849736E8 7.380525913522638E-4 0.008290782399879713 0.9992619474086476 -0.008290782399879713 0.9992619474086476 -0.008290782399879713 7.380525913522638E-4 0.008290782399879713
1.0573712634405641E8 7.43356605181491E-4 0.008412526558744584 0.9992566433948185 -0.008412526558744584 0.9992566433948185 -0.008412526558744584 7.43356605181491E-4 0.008412526558744584
1.0733284800616828E8 7.487411522191079E-4 0.008536095083959595 0.9992512588477809 -0.008536095083959595 0.9992512588477809 -0.008536095083959595 7.487411522191079E-4 0.008536095083959595
1.0895265134811176E8 7.542091190254596E-4 0.008661515757195058 0.9992457908809745 -0.008661515757195058 0.9992457908809745 -0.008661515757195058 7.542091190254596E-4 0.008661515757195058
1.1059689979623953E8 7.597634921325671E-4 0.008788816734199987 0.9992402365078674 -0.008788816734199987 0.9992402365078674 -0.008788816734199987 7.597634921325671E-4 0.008788816734199987
1.1226596226151802E8 7.654073587441077E-4 0.008918026548917666 0.9992345926412558 -0.008918026548917666 0.9992345926412558 -0.008918026548917666 7.654073587441077E-4 0.008918026548917666
1.1396021322229806E8 7.71143907418262E-4 0.009049174117722597 0.9992288560925818 -0.009049174117722597 0.9992288560925818 -0.009049174117722597 7.71143907418262E-4 0.009049174117722597
1.1568003280833441E8 7.769764287364231E-4 0.009182288743781148 0.9992230235712636 -0.00918228874378115 0.9992230235712636 -0.00918228874378115 7.769764287364231E-4 0.009182288743781148
1.1742580688607343E8 7.829083159606177E-4 0.009317400121537757 0.9992170916840394 -0.009317400121537757 0.9992170916840394 -0.009317400121537757 7.829083159606177E-4 0.009317400121537757
1.1919792714522783E8 7.889430656824124E-4 0.009454538341328816 0.9992110569343176 -0.009454538341328816 0.9992110569343176 -0.009454538341328816 7.889430656824124E-4 0.009454538341328816
1.2099679118665792E8 7.950842784659112E-4 0.009593733894126044 0.9992049157215339 -0.009593733894126046 0.9992049157215339 -0.009593733894126046 7.950842784659112E-4 0.009593733894126044
1.2282280261157903E8 8.013356594873438E-4 0.009735017676411285 0.9991986643405127 -0.009735017676411285 0.9991986643405127 -0.009735017676411285 8.013356594873438E-4 0.009735017676411285
1.2467637111211549E8 8.077010191736019E-4 0.009878420995184618 0.9991922989808263 -0.009878420995184618 0.9991922989808263 -0.009878420995184618 8.077010191736019E-4 0.009878420995184618
1.265579125632208E8 8.141842738419465E-4 0.01002397557310766 0.9991858157261582 -0.010023975573107661 0.9991858157261582 -0.010023975573107661 8.141842738419465E-4 0.01002397557310766
1.284678491159853E8 8.207894463429862E-4 0.010171713553784066 0.9991792105536569 -0.010171713553784064 0.9991792105536569 -0.010171713553784064 8.207894463429862E-4 0.010171713553784066
1.3040660929235186E8 8.275206667089023E-4 0.010321667507179277 0.9991724793332911 -0.010321667507179277 0.9991724793332911 -0.010321667507179277 8.275206667089023E-4 0.010321667507179277
1.3237462808126101E8 8.34382172808759E-4 0.010473870435181522 0.9991656178271912 -0.01047387043518152 0.9991656178271912 -0.01047387043518152 8.34382172808759E-4 0.010473870435181522
1.3437234703624701E8 8.413783110126724E-4 0.010628355777306541 0.9991586216889873 -0.010628355777306541 0.9991586216889873 -0.010628355777306541 8.413783110126724E-4 0.010628355777306541
1.364002143745067E8 8.485135368664658E-4 0.010785157416548218 0.9991514864631336 -0.010785157416548218 0.9991514864631336 -0.010785157416548218 8.485135368664658E-4 0.010785157416548218
1.3845868507746372E8 8.557924157784049E-4 0.01094430968537787 0.9991442075842216 -0.01094430968537787 0.9991442075842216 -0.01094430968537787 8.557924157784049E-4 0.01094430968537787
1.405482209928499E8 8.632196237195032E-4 0.011105847371894823 0.9991367803762804 -0.01110584737189482 0.9991367803762804 -0.01110584737189482 8.632196237195032E-4 0.011105847371894823
1.426692909383278E8 8.70799947938872E-4 0.01126980572613135 0.9991292000520613 -0.01126980572613135 0.9991292000520613 -0.01126980572613135 8.70799947938872E-4 0.01126980572613135
1.4482237080667645E8 8.785382876955412E-4 0.011436220466515093 0.9991214617123045 -0.011436220466515094 0.9991214617123045 -0.011436220466515094 8.785382876955412E-4 0.011436220466515093
1.4700794367256513E8 8.864396550081837E-4 0.011605127786492501 0.9991135603449919 -0.011605127786492501 0.9991135603449919 -0.011605127786492501 8.864396550081837E-4 0.011605127786492501
1.492264999009378E8 8.945091754241944E-4 0.011776564361316895 0.9991054908245757 -0.011776564361316896 0.9991054908245757 -0.011776564361316896 8.945091754241944E-4 0.011776564361316895
1.5147853725703382E8 9.027520888096217E-4 0.011950567355005288 0.9990972479111904 -0.011950567355005286 0.9990972479111904 -0.011950567355005286 9.027520888096217E-4 0.011950567355005288
1.5376456101806876E8 9.111737501615151E-4 0.012127174427468145 0.9990888262498383 -0.012127174427468145 0.9990888262498383 -0.012127174427468145 9.111737501615151E-4 0.012127174427468145
1.5608508408660066E8 9.197796304443634E-4 0.012306423741816749 0.9990802203695558 -0.012306423741816749 0.9990802203695558 -0.012306423741816749 9.197796304443634E-4 0.012306423741816749
1.5844062710560706E8 9.285753174524243E-4 0.012488353971852998 0.9990714246825475 -0.012488353971852998 0.9990714246825475 -0.012488353971852998 9.285753174524243E-4 0.012488353971852998
1.6083171857529896E8 9.375665166999166E-4 0.01267300430974703 0.9990624334833001 -0.01267300430974703 0.9990624334833001 -0.01267300430974703 9.375665166999166E-4 0.01267300430974703
1.632588949716973E8 9.467590523412355E-4 0.012860414473908037 0.9990532409476587 -0.012860414473908035 0.9990532409476587 -0.012860414473908035 9.467590523412355E-4 0.012860414473908037
1.6572270086699936E8 9.561588681235822E-4 0.013050624717054291 0.9990438411318765 -0.013050624717054293 0.9990438411318765 -0.013050624717054293 9.561588681235822E-4 0.013050624717054291
1.6822368905176118E8 9.657720283746888E-4 0.013243675834488617 0.9990342279716253 -0.013243675834488617 0.9990342279716253 -0.013243675834488617 9.657720283746888E-4 0.013243675834488617
1.7076242065892437E8 9.75604719028582E-4 0.013439609172585756 0.9990243952809714 -0.013439609172585756 0.9990243952809714 -0.013439609172585756 9.75604719028582E-4 0.013439609172585756
1.7333946528971428E8 9.856632486927208E-4 0.013638466637498656 0.9990143367513072 -0.013638466637498655 0.9990143367513072 -0.013638466637498655 9.856632486927208E-4 0.013638466637498656
1.7595540114143828E8 9.959540497601587E-4 0.01384029070409068 0.9990040459502398 -0.01384029070409068 0.9990040459502398 -0.01384029070409068 9.959540497601587E-4 0.01384029070409068
1.786108151372127E8 0.0010064836795708769 0.014045124425101528 0.9989935163204291 -0.014045124425101528 0.9989935163204291 -0.014045124425101528 0.0010064836795708769 0.014045124425101528
1.8130630305764765E8 0.0010172588216268083 0.01425301144055433 0.9989827411783733 -0.014253011440554329 0.9989827411783733 -0.014253011440554329 0.0010172588216268083 0.01425301144055433
1.840424696745189E8 0.0010282862868656306 0.014463995987412274 0.9989717137131344 -0.014463995987412274 0.9989717137131344 -0.014463995987412274 0.0010282862868656306 0.014463995987412274
1.8681992888645732E8 0.001039573014998901 0.014678122909492969 0.9989604269850011 -0.014678122909492969 0.9989604269850011 -0.014678122909492969 0.001039573014998901 0.014678122909492969
1.8963930385668582E8 0.001051126075920688 0.014895437667649083 0.9989488739240794 -0.014895437667649083 0.9989488739240794 -0.014895437667649083 0.001051126075920688 0.014895437667649083
1.92501227152835E8 0.0010629526711934787 0.01511598635022414 0.9989370473288064 -0.015115986350224138 0.9989370473288064 -0.015115986350224138 0.0010629526711934787 0.01511598635022414
1.9540634088886917E8 0.001075060135618751 0.015339815683792384 0.9989249398643811 -0.015339815683792387 0.9989249398643811 -0.015339815683792387 0.001075060135618751 0.015339815683792384
1.983552968691535E8 0.0010874559389003051 0.01556697304419171 0.9989125440610997 -0.01556697304419171 0.9989125440610997 -0.01556697304419171 0.0010874559389003051 0.01556697304419171
2.0134875673469606E8 0.001100147687409174 0.015797506467859098 0.9988998523125908 -0.015797506467859098 0.9988998523125908 -0.015797506467859098 0.001100147687409174 0.015797506467859098
2.0438739211159652E8 0.0011131431260596309 0.016031464663477563 0.9988868568739404 -0.016031464663477563 0.9988868568739404 -0.016031464663477563 0.0011131431260596309 0.016031464663477563
2.074718847617352E8 0.0011264501403066474 0.01626889702394414 0.9988735498596932 -0.01626889702394414 0.9988735498596932 -0.01626889702394414 0.0011264501403066474 0.01626889702394414
2.106029267357361E8 0.0011400767582759178 0.016509853638668068 0.9988599232417241 -0.016509853638668068 0.9988599232417241 -0.016509853638668068 0.0011400767582759178 0.016509853638668068
2.1378122052823865E8 0.0011540311530384003 0.016754385306208316 0.9988459688469615 -0.016754385306208312 0.9988459688469615 -0.016754385306208312 0.0011540311530384003 0.016754385306208316
2.1700747923551247E8 0.0011683216450422 0.01700254354725973 0.9988316783549578 -0.01700254354725973 0.9988316783549578 -0.01700254354725973 0.0011683216450422 0.01700254354725973
2.2028242671545094E8 0.0011829567047154492 0.017254380617996463 0.9988170432952846 -0.017254380617996463 0.9988170432952846 -0.017254380617996463 0.0011829567047154492 0.017254380617996463
2.23606797749979E8 0.0011979449552547456 0.01750994952378142 0.9988020550447452 -0.01750994952378142 0.9988020550447452 -0.01750994952378142 0.0011979449552547456 0.01750994952378142
2.2698133820991236E8 0.0012132951756146028 0.017769304033250114 0.9987867048243856 -0.017769304033250114 0.9987867048243856 -0.017769304033250114 0.0012132951756146028 0.017769304033250114
2.3040680522230446E8 0.0012290163037142346 0.018032498692776747 0.9987709836962857 -0.018032498692776747 0.9987709836962857 -0.018032498692776747 0.0012290163037142346 0.018032498692776747
2.338839673403185E8 0.0012451174398789208 0.018299588841330136 0.9987548825601212 -0.018299588841330136 0.9987548825601212 -0.018299588841330136 0.0012451174398789208 0.018299588841330136
2.37413604715664E8 0.0012616078505340734 0.018570630625726458 0.998738392149466 -0.018570630625726458 0.998738392149466 -0.018570630625726458 0.0012616078505340734 0.018570630625726458
