!Murata Part Number: LQG15HN39NJ02
!These Parameters are Measured in Series Mode Connection
!       o--[Z]--o
!Port1              Port2
!       o-------o
!
!Freq. Start=50[MHz] Stop=20[GHz], 401[Steps]
# Hz S RI R 50
!Freq.(Hz) S11(Real) S11(Imag) S21(Real) S21(Imag) S12(Real) S12(Imag) S22(Real) S22(Imag)
5.0E7 0.029971719573295762 0.11858161766311735 0.9700282804267043 -0.11858161766311735 0.9700282804267043 -0.11858161766311735 0.029971719573295762 0.11858161766311735
5.0754570186123446E7 0.030499664091317207 0.12018687964686331 0.969500335908683 -0.12018687964686331 0.969500335908683 -0.12018687964686331 0.030499664091317207 0.12018687964686331
5.152052789556263E7 0.03103989809119806 0.12181246330257392 0.968960101908802 -0.12181246330257392 0.968960101908802 -0.12181246330257392 0.03103989809119806 0.12181246330257392
5.229804498202928E7 0.03159271242040514 0.1234585664832513 0.9684072875795947 -0.1234585664832513 0.9684072875795947 -0.1234585664832513 0.03159271242040514 0.1234585664832513
5.308729589274893E7 0.032158404664317096 0.1251253876185816 0.9678415953356829 -0.1251253876185816 0.9678415953356829 -0.1251253876185816 0.032158404664317096 0.1251253876185816
5.388845770760058E7 0.03273727937189301 0.12681312564999372 0.967262720628107 -0.12681312564999372 0.967262720628107 -0.12681312564999372 0.03273727937189301 0.12681312564999372
5.470171017884717E7 0.03332964828930467 0.12852197995583908 0.9666703517106954 -0.12852197995583908 0.9666703517106954 -0.12852197995583908 0.03332964828930467 0.12852197995583908
5.5527235771465644E7 0.033935830601342434 0.1302521502659787 0.9660641693986575 -0.1302521502659787 0.9660641693986575 -0.1302521502659787 0.033935830601342434 0.1302521502659787
5.6365219704085544E7 0.03455615318036096 0.1320038365650559 0.965443846819639 -0.1320038365650559 0.965443846819639 -0.1320038365650559 0.03455615318036096 0.1320038365650559
5.721584999054556E7 0.03519095084248524 0.13377723898372804 0.9648090491575149 -0.13377723898372804 0.9648090491575149 -0.13377723898372804 0.03519095084248524 0.13377723898372804
5.807931748207712E7 0.03584056661075139 0.13557255767712706 0.9641594333892486 -0.13557255767712706 0.9641594333892486 -0.13557255767712706 0.03584056661075139 0.13557255767712706
5.8955815910124585E7 0.03650535198480914 0.13738999268981994 0.9634946480151909 -0.13738999268981994 0.9634946480151909 -0.13738999268981994 0.03650535198480914 0.13738999268981994
5.984554192981184E7 0.03718566721676496 0.13922974380654257 0.9628143327832351 -0.13922974380654257 0.9628143327832351 -0.13922974380654257 0.03718566721676496 0.13922974380654257
6.074869516406457E7 0.03788188159269643 0.1410920103879875 0.9621181184073037 -0.1410920103879875 0.9621181184073037 -0.1410920103879875 0.03788188159269643 0.1410920103879875
6.166547824839868E7 0.03859437371931925 0.14297699119093382 0.9614056262806807 -0.14297699119093382 0.9614056262806807 -0.14297699119093382 0.03859437371931925 0.14297699119093382
6.2596096876384385E7 0.039323531815240245 0.14488488417202203 0.9606764681847599 -0.14488488417202203 0.9606764681847599 -0.14488488417202203 0.039323531815240245 0.14488488417202203
6.354075984579668E7 0.0400697540061801 0.14681588627448933 0.9599302459938199 -0.14681588627448933 0.9599302459938199 -0.14681588627448933 0.0400697540061801 0.14681588627448933
6.449967910546205E7 0.040833448623502105 0.14877019319720097 0.9591665513764979 -0.14877019319720095 0.9591665513764979 -0.14877019319720095 0.040833448623502105 0.14877019319720097
6.547306980281226E7 0.04161503450533498 0.15074799914533385 0.958384965494665 -0.15074799914533385 0.958384965494665 -0.15074799914533385 0.04161503450533498 0.15074799914533385
6.646115033215589E7 0.04241494129953176 0.15274949656209316 0.9575850587004681 -0.15274949656209313 0.9575850587004681 -0.15274949656209313 0.04241494129953176 0.15274949656209316
6.746414238367817E7 0.04323360976765962 0.15477487584086874 0.9567663902323404 -0.15477487584086874 0.9567663902323404 -0.15477487584086874 0.04323360976765962 0.15477487584086874
6.848227099318038E7 0.04407149208917235 0.15682432501726906 0.9559285079108278 -0.15682432501726906 0.9559285079108278 -0.15682432501726906 0.04407149208917235 0.15682432501726906
6.951576459256999E7 0.04492905216487297 0.15889802944050258 0.9550709478351269 -0.15889802944050258 0.9550709478351269 -0.15889802944050258 0.04492905216487297 0.15889802944050258
7.056485506111258E7 0.04580676591873217 0.1609961714236097 0.9541932340812679 -0.1609961714236097 0.9541932340812679 -0.1609961714236097 0.04580676591873217 0.1609961714236097
7.162977777745734E7 0.0467051215970886 0.16311892987208768 0.9532948784029114 -0.16311892987208765 0.9532948784029114 -0.16311892987208765 0.0467051215970886 0.16311892987208768
7.271077167244768E7 0.047624620064218054 0.16526647989048893 0.9523753799357819 -0.1652664798904889 0.9523753799357819 -0.1652664798904889 0.047624620064218054 0.16526647989048893
7.380807928272885E7 0.048565775093222234 0.16743899236661414 0.9514342249067776 -0.16743899236661414 0.9514342249067776 -0.16743899236661414 0.048565775093222234 0.16743899236661414
7.492194680516452E7 0.04952911365115311 0.16963663353296635 0.9504708863488469 -0.16963663353296632 0.9504708863488469 -0.16963663353296632 0.04952911365115311 0.16963663353296635
7.60526241520746E7 0.05051517617725507 0.17185956450517426 0.949484823822745 -0.17185956450517426 0.949484823822745 -0.17185956450517426 0.05051517617725507 0.17185956450517426
7.720036500730675E7 0.0515245168531778 0.17410794079714248 0.9484754831468222 -0.17410794079714248 0.9484754831468222 -0.17410794079714248 0.0515245168531778 0.17410794079714248
7.836542688315398E7 0.05255770386398282 0.17638191181273316 0.947442296136017 -0.17638191181273316 0.947442296136017 -0.17638191181273316 0.05255770386398282 0.17638191181273316
7.954807117813127E7 0.05361531964873823 0.17868162031382936 0.9463846803512617 -0.17868162031382936 0.9463846803512617 -0.17868162031382936 0.05361531964873823 0.17868162031382936
8.074856323562416E7 0.05469796113947446 0.18100720186468713 0.9453020388605257 -0.18100720186468713 0.9453020388605257 -0.18100720186468713 0.05469796113947446 0.18100720186468713
8.196717240342227E7 0.05580623998724592 0.1833587842525273 0.9441937600127541 -0.18335878425252733 0.9441937600127541 -0.18335878425252733 0.05580623998724592 0.1833587842525273
8.320417209415154E7 0.05694078277402682 0.18573648688437766 0.9430592172259732 -0.18573648688437766 0.9430592172259732 -0.18573648688437766 0.05694078277402682 0.18573648688437766
8.445983984661816E7 0.058102231209143596 0.18814042016022048 0.9418977687908563 -0.18814042016022048 0.9418977687908563 -0.18814042016022048 0.058102231209143596 0.18814042016022048
8.573445738807854E7 0.05929124230893405 0.19057068482256376 0.9407087576910659 -0.19057068482256376 0.9407087576910659 -0.19057068482256376 0.05929124230893405 0.19057068482256376
8.702831069744885E7 0.06050848855830142 0.19302737128260178 0.9394915114416986 -0.19302737128260175 0.9394915114416986 -0.19302737128260175 0.06050848855830142 0.19302737128260178
8.834169006946853E7 0.061754658052818635 0.19551055892318914 0.9382453419471812 -0.19551055892318914 0.9382453419471812 -0.19551055892318914 0.061754658052818635 0.19551055892318914
8.96748901798321E7 0.06303045462002387 0.198020315378911 0.9369695453799761 -0.19802031537891096 0.9369695453799761 -0.19802031537891096 0.06303045462002387 0.198020315378911
9.1028210151304E7 0.06433659791853419 0.20055669579358473 0.9356634020814658 -0.20055669579358468 0.9356634020814658 -0.20055669579358468 0.06433659791853419 0.20055669579358473
9.240195362083109E7 0.06567382351359308 0.20311974205559033 0.9343261764864069 -0.20311974205559033 0.9343261764864069 -0.20311974205559033 0.06567382351359308 0.20311974205559033
9.379642880766791E7 0.06704288292765753 0.2057094820114865 0.9329571170723425 -0.2057094820114865 0.9329571170723425 -0.2057094820114865 0.06704288292765753 0.2057094820114865
9.521194858253023E7 0.06844454366461952 0.2083259286584256 0.9315554563353806 -0.2083259286584256 0.9315554563353806 -0.2083259286584256 0.06844454366461952 0.2083259286584256
9.664883053779216E7 0.06987958920624927 0.21096907931594966 0.9301204107937507 -0.21096907931594966 0.9301204107937507 -0.21096907931594966 0.06987958920624927 0.21096907931594966
9.810739705874248E7 0.07134881897943973 0.2136389147778066 0.9286511810205603 -0.2136389147778066 0.9286511810205603 -0.2136389147778066 0.07134881897943973 0.2136389147778066
9.958797539591652E7 0.07285304829282568 0.2163353984444952 0.9271469517071743 -0.2163353984444952 0.9271469517071743 -0.2163353984444952 0.07285304829282568 0.2163353984444952
1.0109089773851961E8 0.07439310824134551 0.21905847543731322 0.9256068917586544 -0.21905847543731322 0.9256068917586544 -0.21905847543731322 0.07439310824134551 0.21905847543731322
1.0261650128895843E8 0.07596984557731008 0.22180807169475153 0.9240301544226898 -0.22180807169475147 0.9240301544226898 -0.22180807169475147 0.07596984557731008 0.22180807169475153
1.0416512833849736E8 0.07758412254654097 0.22458409305215024 0.9224158774534589 -0.22458409305215024 0.9224158774534589 -0.22458409305215024 0.07758412254654097 0.22458409305215024
1.0573712634405641E8 0.0792368166881392 0.2273864243056061 0.9207631833118609 -0.2273864243056061 0.9207631833118609 -0.2273864243056061 0.0792368166881392 0.2273864243056061
1.0733284800616828E8 0.08092882059644735 0.2302149282611953 0.9190711794035528 -0.23021492826119536 0.9190711794035528 -0.23021492826119536 0.08092882059644735 0.2302149282611953
1.0895265134811176E8 0.08266104164377056 0.23306944477065988 0.9173389583562295 -0.23306944477065994 0.9173389583562295 -0.23306944477065994 0.08266104164377056 0.23306944477065988
1.1059689979623953E8 0.08443440166242817 0.23594978975478212 0.9155655983375719 -0.23594978975478212 0.9155655983375719 -0.23594978975478212 0.08443440166242817 0.23594978975478212
1.1226596226151802E8 0.08624983658471545 0.23885575421576227 0.9137501634152845 -0.23885575421576227 0.9137501634152845 -0.23885575421576227 0.08624983658471545 0.23885575421576227
1.1396021322229806E8 0.08810829603936791 0.2417871032400024 0.911891703960632 -0.2417871032400024 0.911891703960632 -0.2417871032400024 0.08810829603936791 0.2417871032400024
1.1568003280833441E8 0.09001074290313335 0.24474357499278818 0.9099892570968665 -0.24474357499278818 0.9099892570968665 -0.24474357499278818 0.09001074290313335 0.24474357499278818
1.1742580688607343E8 0.09195815280607847 0.24772487970646126 0.9080418471939216 -0.2477248797064612 0.9080418471939216 -0.2477248797064612 0.09195815280607847 0.24772487970646126
1.1919792714522783E8 0.09395151358927786 0.25073069866376885 0.9060484864107221 -0.25073069866376885 0.9060484864107221 -0.25073069866376885 0.09395151358927786 0.25073069866376885
1.2099679118665792E8 0.09599182471356496 0.2537606831781855 0.904008175286435 -0.2537606831781855 0.904008175286435 -0.2537606831781855 0.09599182471356496 0.2537606831781855
1.2282280261157903E8 0.09808009661805427 0.2568144535730988 0.9019199033819457 -0.25681445357309873 0.9019199033819457 -0.25681445357309873 0.09808009661805427 0.2568144535730988
1.2467637111211549E8 0.10021735002718764 0.2598915981618695 0.8997826499728124 -0.2598915981618695 0.8997826499728124 -0.2598915981618695 0.10021735002718764 0.2598915981618695
1.265579125632208E8 0.10240461520510337 0.2629916722308814 0.8975953847948968 -0.2629916722308814 0.8975953847948968 -0.2629916722308814 0.10240461520510337 0.2629916722308814
1.284678491159853E8 0.10464293115617922 0.266114197027812 0.8953570688438207 -0.266114197027812 0.8953570688438207 -0.266114197027812 0.10464293115617922 0.266114197027812
1.3040660929235186E8 0.10693334477066395 0.2692586587574747 0.893066655229336 -0.26925865875747473 0.893066655229336 -0.26925865875747473 0.10693334477066395 0.2692586587574747
1.3237462808126101E8 0.10927690991438159 0.2724245075876976 0.8907230900856185 -0.27242450758769754 0.8907230900856185 -0.27242450758769754 0.10927690991438159 0.2724245075876976
1.3437234703624701E8 0.11167468646157068 0.2756111566678262 0.8883253135384294 -0.2756111566678262 0.8883253135384294 -0.2756111566678262 0.11167468646157068 0.2756111566678262
1.364002143745067E8 0.11412773927001099 0.2788179811625595 0.885872260729989 -0.2788179811625595 0.885872260729989 -0.2788179811625595 0.11412773927001099 0.2788179811625595
1.3845868507746372E8 0.1166371370976888 0.2820443173039477 0.8833628629023113 -0.28204431730394774 0.8833628629023113 -0.28204431730394774 0.1166371370976888 0.2820443173039477
1.405482209928499E8 0.1192039514603588 0.2852894614645008 0.8807960485396412 -0.2852894614645008 0.8807960485396412 -0.2852894614645008 0.1192039514603588 0.2852894614645008
1.426692909383278E8 0.1218292554294842 0.2885526692544794 0.8781707445705158 -0.2885526692544794 0.8781707445705158 -0.2885526692544794 0.1218292554294842 0.2885526692544794
1.4482237080667645E8 0.12451412237016811 0.29183315464655396 0.8754858776298321 -0.291833154646554 0.8754858776298321 -0.291833154646554 0.12451412237016811 0.29183315464655396
1.4700794367256513E8 0.12725962461883006 0.29513008913113414 0.87274037538117 -0.29513008913113414 0.87274037538117 -0.29513008913113414 0.12725962461883006 0.29513008913113414
1.492264999009378E8 0.130066832100542 0.29844260090578045 0.8699331678994581 -0.29844260090578045 0.8699331678994581 -0.29844260090578045 0.130066832100542 0.29844260090578045
1.5147853725703382E8 0.13293681088610387 0.30176977410221634 0.867063189113896 -0.30176977410221634 0.867063189113896 -0.30176977410221634 0.13293681088610387 0.30176977410221634
1.5376456101806876E8 0.1358706216891204 0.30511064805455673 0.8641293783108797 -0.3051106480545568 0.8641293783108797 -0.3051106480545568 0.1358706216891204 0.30511064805455673
1.5608508408660066E8 0.13886931830353524 0.3084642166124626 0.8611306816964649 -0.30846421661246265 0.8611306816964649 -0.30846421661246265 0.13886931830353524 0.3084642166124626
1.5844062710560706E8 0.14193394598228395 0.31182942750301157 0.858066054017716 -0.31182942750301157 0.858066054017716 -0.31182942750301157 0.14193394598228395 0.31182942750301157
1.6083171857529896E8 0.14506553975794872 0.31520518174515305 0.8549344602420511 -0.315205181745153 0.8549344602420511 -0.315205181745153 0.14506553975794872 0.31520518174515305
1.632588949716973E8 0.14826512270652356 0.3185903331206701 0.8517348772934764 -0.31859033312067003 0.8517348772934764 -0.31859033312067003 0.14826512270652356 0.3185903331206701
1.6572270086699936E8 0.1515337041556491 0.3219836877056289 0.848466295844351 -0.3219836877056289 0.848466295844351 -0.3219836877056289 0.1515337041556491 0.3219836877056289
1.6822368905176118E8 0.1548722778389213 0.3253840034663228 0.8451277221610788 -0.3253840034663228 0.8451277221610788 -0.3253840034663228 0.1548722778389213 0.3253840034663228
1.7076242065892437E8 0.15828181999815347 0.32878998992374664 0.8417181800018465 -0.32878998992374664 0.8417181800018465 -0.32878998992374664 0.15828181999815347 0.32878998992374664
1.7333946528971428E8 0.16176328743573357 0.332200307890631 0.8382367125642662 -0.332200307890631 0.8382367125642662 -0.332200307890631 0.16176328743573357 0.332200307890631
1.7595540114143828E8 0.16531761551951363 0.3356135692850597 0.8346823844804864 -0.3356135692850597 0.8346823844804864 -0.3356135692850597 0.16531761551951363 0.3356135692850597
1.786108151372127E8 0.1689457161429501 0.33902833702465257 0.83105428385705 -0.33902833702465257 0.83105428385705 -0.33902833702465257 0.1689457161429501 0.33902833702465257
1.8130630305764765E8 0.17264847564351618 0.3424431250052433 0.8273515243564837 -0.3424431250052433 0.8273515243564837 -0.3424431250052433 0.17264847564351618 0.3424431250052433
1.840424696745189E8 0.17642675268270716 0.34585639816790686 0.8235732473172928 -0.34585639816790686 0.8235732473172928 -0.34585639816790686 0.17642675268270716 0.34585639816790686
1.8681992888645732E8 0.18028137609126657 0.3492665726580863 0.8197186239087334 -0.3492665726580863 0.8197186239087334 -0.3492665726580863 0.18028137609126657 0.3492665726580863
1.8963930385668582E8 0.18421314268356706 0.3526720160804502 0.815786857316433 -0.3526720160804502 0.815786857316433 -0.3526720160804502 0.18421314268356706 0.3526720160804502
1.92501227152835E8 0.1882228150453861 0.3560710478529585 0.8117771849546138 -0.3560710478529584 0.8117771849546138 -0.3560710478529584 0.1882228150453861 0.3560710478529585
1.9540634088886917E8 0.19231111929962375 0.3594619396634455 0.8076888807003761 -0.3594619396634455 0.8076888807003761 -0.3594619396634455 0.19231111929962375 0.3594619396634455
1.983552968691535E8 0.1964787428548057 0.3628429160318238 0.8035212571451942 -0.3628429160318238 0.8035212571451942 -0.3628429160318238 0.1964787428548057 0.3628429160318238
2.0134875673469606E8 0.2007263321415125 0.366212154980791 0.7992736678584874 -0.366212154980791 0.7992736678584874 -0.366212154980791 0.2007263321415125 0.366212154980791
2.0438739211159652E8 0.205054490342154 0.3695677888176651 0.7949455096578459 -0.36956778881766517 0.7949455096578459 -0.36956778881766517 0.205054490342154 0.3695677888176651
2.074718847617352E8 0.2094637751197882 0.3729079050296969 0.7905362248802117 -0.3729079050296969 0.7905362248802117 -0.3729079050296969 0.2094637751197882 0.3729079050296969
2.106029267357361E8 0.2139546963519339 0.37623054729490346 0.7860453036480661 -0.3762305472949034 0.7860453036480661 -0.3762305472949034 0.2139546963519339 0.37623054729490346
2.1378122052823865E8 0.21852771387557482 0.37953371661013324 0.7814722861244252 -0.3795337166101332 0.7814722861244252 -0.3795337166101332 0.21852771387557482 0.37953371661013324
2.1700747923551247E8 0.22318323524977215 0.38281537253772185 0.7768167647502279 -0.3828153725377219 0.7768167647502279 -0.3828153725377219 0.22318323524977215 0.38281537253772185
2.2028242671545094E8 0.2279216135425048 0.38607343457171567 0.772078386457495 -0.3860734345717156 0.772078386457495 -0.3860734345717156 0.2279216135425048 0.38607343457171567
2.23606797749979E8 0.23274314514853114 0.38930578362424 0.7672568548514689 -0.38930578362424 0.7672568548514689 -0.38930578362424 0.23274314514853114 0.38930578362424
2.2698133820991236E8 0.2376480676452201 0.3925102636321691 0.7623519323547798 -0.3925102636321691 0.7623519323547798 -0.3925102636321691 0.2376480676452201 0.3925102636321691
2.3040680522230446E8 0.24263655769341808 0.39568468328381207 0.757363442306582 -0.39568468328381207 0.757363442306582 -0.39568468328381207 0.24263655769341808 0.39568468328381207
2.338839673403185E8 0.2477087289905068 0.39882681786487256 0.7522912710094932 -0.39882681786487256 0.7522912710094932 -0.39882681786487256 0.2477087289905068 0.39882681786487256
2.37413604715664E8 0.2528646302828715 0.4019344112224728 0.7471353697171285 -0.40193441122247286 0.7471353697171285 -0.40193441122247286 0.2528646302828715 0.4019344112224728
2.4099650927363476E8 0.2581042434450088 0.40500517784554285 0.7418957565549912 -0.4050051778455429 0.7418957565549912 -0.4050051778455429 0.2581042434450088 0.40500517784554285
2.446334848907889E8 0.2634274816325061 0.40803680505939416 0.7365725183674938 -0.40803680505939416 0.7365725183674938 -0.40803680505939416 0.2634274816325061 0.40803680505939416
2.4832534757531032E8 0.26883418751605653 0.4110269553317931 0.7311658124839434 -0.4110269553317931 0.7311658124839434 -0.4110269553317931 0.26883418751605653 0.4110269553317931
2.5207292565009177E8 0.27432413160359387 0.41397326868735695 0.7256758683964062 -0.41397326868735684 0.7256758683964062 -0.41397326868735684 0.27432413160359387 0.41397326868735695
2.558770599385812E8 0.2798970106574993 0.4168733652265942 0.7201029893425006 -0.4168733652265942 0.7201029893425006 -0.4168733652265942 0.2798970106574993 0.4168733652265942
