!Murata Part Number: LQG15HN1N5S02
!These Parameters are Measured in Series Mode Connection
!       o--[Z]--o
!Port1              Port2
!       o-------o
!
!Freq. Start=50[MHz] Stop=20[GHz], 401[Steps]
# Hz S RI R 50
!Freq.(Hz) S11(Real) S11(Imag) S21(Real) S21(Imag) S12(Real) S12(Imag) S22(Real) S22(Imag)
5.0E7 3.4852129462590074E-4 0.003836650029512579 0.9996514787053742 -0.003836650029512579 0.9996514787053742 -0.003836650029512579 3.4852129462590074E-4 0.003836650029512579
5.0754570186123446E7 3.515497880345159E-4 0.003892791698942868 0.9996484502119655 -0.003892791698942867 0.9996484502119655 -0.003892791698942867 3.515497880345159E-4 0.003892791698942868
5.152052789556263E7 3.5461977781559863E-4 0.003949738522318948 0.9996453802221843 -0.003949738522318948 0.9996453802221843 -0.003949738522318948 3.5461977781559863E-4 0.003949738522318948
5.229804498202928E7 3.577311226828382E-4 0.004007502362880585 0.9996422688773171 -0.0040075023628805845 0.9996422688773171 -0.0040075023628805845 3.577311226828382E-4 0.004007502362880585
5.308729589274893E7 3.608836707984817E-4 0.004066095295200871 0.9996391163292017 -0.004066095295200871 0.9996391163292017 -0.004066095295200871 3.608836707984817E-4 0.004066095295200871
5.388845770760058E7 3.640772612978975E-4 0.0041255296094276405 0.999635922738702 -0.0041255296094276405 0.999635922738702 -0.0041255296094276405 3.640772612978975E-4 0.0041255296094276405
5.470171017884717E7 3.673117259232922E-4 0.0041858178155169306 0.9996326882740766 -0.0041858178155169306 0.9996326882740766 -0.0041858178155169306 3.673117259232922E-4 0.0041858178155169306
5.5527235771465644E7 3.705868907648105E-4 0.004246972647452205 0.9996294131092351 -0.004246972647452204 0.9996294131092351 -0.004246972647452204 3.705868907648105E-4 0.004246972647452205
5.6365219704085544E7 3.7390257810673985E-4 0.004309007067443167 0.9996260974218932 -0.004309007067443167 0.9996260974218932 -0.004309007067443167 3.7390257810673985E-4 0.004309007067443167
5.721584999054556E7 3.772586083760177E-4 0.004371934270098112 0.9996227413916239 -0.004371934270098112 0.9996227413916239 -0.004371934270098112 3.772586083760177E-4 0.004371934270098112
5.807931748207712E7 3.8065480218974493E-4 0.004435767686563959 0.9996193451978103 -0.004435767686563959 0.9996193451978103 -0.004435767686563959 3.8065480218974493E-4 0.004435767686563959
5.8955815910124585E7 3.8409098249790483E-4 0.004500520988628314 0.9996159090175022 -0.004500520988628314 0.9996159090175022 -0.004500520988628314 3.8409098249790483E-4 0.004500520988628314
5.984554192981184E7 3.8756697681701404E-4 0.004566208092778222 0.999612433023183 -0.004566208092778222 0.999612433023183 -0.004566208092778222 3.8756697681701404E-4 0.004566208092778222
6.074869516406457E7 3.9108261954997627E-4 0.004632843164210577 0.9996089173804499 -0.004632843164210577 0.9996089173804499 -0.004632843164210577 3.9108261954997627E-4 0.004632843164210577
6.166547824839868E7 3.946377543869596E-4 0.004700440620789433 0.999605362245613 -0.004700440620789433 0.999605362245613 -0.004700440620789433 3.946377543869596E-4 0.004700440620789433
6.2596096876384385E7 3.982322367817346E-4 0.004769015136946003 0.9996017677632183 -0.004769015136946002 0.9996017677632183 -0.004769015136946002 3.982322367817346E-4 0.004769015136946003
6.354075984579668E7 4.0186593649751604E-4 0.00483858164751744 0.9995981340635025 -0.00483858164751744 0.9995981340635025 -0.00483858164751744 4.0186593649751604E-4 0.00483858164751744
6.449967910546205E7 4.055387402160184E-4 0.004909155351520988 0.999594461259784 -0.004909155351520988 0.999594461259784 -0.004909155351520988 4.055387402160184E-4 0.004909155351520988
6.547306980281226E7 4.092505542031377E-4 0.00498075171586062 0.9995907494457968 -0.00498075171586062 0.9995907494457968 -0.00498075171586062 4.092505542031377E-4 0.00498075171586062
6.646115033215589E7 4.1300130702440517E-4 0.005053386478963783 0.9995869986929755 -0.0050533864789637836 0.9995869986929755 -0.0050533864789637836 4.1300130702440517E-4 0.005053386478963783
6.746414238367817E7 4.1679095230314774E-4 0.005127075654346365 0.9995832090476969 -0.005127075654346365 0.9995832090476969 -0.005127075654346365 4.1679095230314774E-4 0.005127075654346365
6.848227099318038E7 4.206194715141155E-4 0.005201835534104655 0.9995793805284858 -0.005201835534104655 0.9995793805284858 -0.005201835534104655 4.206194715141155E-4 0.005201835534104655
6.951576459256999E7 4.244868768052181E-4 0.005277682692333549 0.9995755131231947 -0.005277682692333549 0.9995755131231947 -0.005277682692333549 4.244868768052181E-4 0.005277682692333549
7.056485506111258E7 4.283932138399297E-4 0.0053546339884708955 0.9995716067861601 -0.0053546339884708955 0.9995716067861601 -0.0053546339884708955 4.283932138399297E-4 0.0053546339884708955
7.162977777745734E7 4.3233856465290814E-4 0.005432706570568444 0.9995676614353471 -0.005432706570568444 0.9995676614353471 -0.005432706570568444 4.3233856465290814E-4 0.005432706570568444
7.271077167244768E7 4.363230505113868E-4 0.005511917878490456 0.9995636769494887 -0.005511917878490456 0.9995636769494887 -0.005511917878490456 4.363230505113868E-4 0.005511917878490456
7.380807928272885E7 4.403468347749739E-4 0.0055922856470415885 0.999559653165225 -0.0055922856470415885 0.999559653165225 -0.0055922856470415885 4.403468347749739E-4 0.0055922856470415885
7.492194680516452E7 4.4441012574662146E-4 0.005673827909026309 0.9995555898742535 -0.005673827909026309 0.9995555898742535 -0.005673827909026309 4.4441012574662146E-4 0.005673827909026309
7.60526241520746E7 4.4851317950768253E-4 0.005756562998242559 0.9995514868204923 -0.00575656299824256 0.9995514868204923 -0.00575656299824256 4.4851317950768253E-4 0.005756562998242559
7.720036500730675E7 4.526563027301979E-4 0.005840509552413049 0.9995473436972698 -0.00584050955241305 0.9995473436972698 -0.00584050955241305 4.526563027301979E-4 0.005840509552413049
7.836542688315398E7 4.568398554597988E-4 0.005925686516057938 0.99954316014454 -0.005925686516057938 0.99954316014454 -0.005925686516057938 4.568398554597988E-4 0.005925686516057938
7.954807117813127E7 4.610642538629222E-4 0.006012113143313306 0.9995389357461372 -0.006012113143313306 0.9995389357461372 -0.006012113143313306 4.610642538629222E-4 0.006012113143313306
8.074856323562416E7 4.653299729323477E-4 0.006099809000700146 0.9995346700270675 -0.006099809000700146 0.9995346700270675 -0.006099809000700146 4.653299729323477E-4 0.006099809000700146
8.196717240342227E7 4.6963754914545146E-4 0.006188793969849157 0.9995303624508546 -0.006188793969849157 0.9995303624508546 -0.006188793969849157 4.6963754914545146E-4 0.006188793969849157
8.320417209415154E7 4.73987583069953E-4 0.006279088250186918 0.99952601241693 -0.006279088250186918 0.99952601241693 -0.006279088250186918 4.73987583069953E-4 0.006279088250186918
8.445983984661816E7 4.783807419123649E-4 0.006370712361589453 0.9995216192580878 -0.0063707123615894526 0.9995216192580878 -0.0063707123615894526 4.783807419123649E-4 0.006370712361589453
8.573445738807854E7 4.8281776200478953E-4 0.006463687147009462 0.999517182237995 -0.00646368714700946 0.999517182237995 -0.00646368714700946 4.8281776200478953E-4 0.006463687147009462
8.702831069744885E7 4.87299451226181E-4 0.006558033775083834 0.9995127005487738 -0.006558033775083833 0.9995127005487738 -0.006558033775083833 4.87299451226181E-4 0.006558033775083834
8.834169006946853E7 4.918266913546552E-4 0.006653773742728199 0.9995081733086453 -0.006653773742728199 0.9995081733086453 -0.006653773742728199 4.918266913546552E-4 0.006653773742728199
8.96748901798321E7 4.964004403479299E-4 0.006750928877725613 0.9995035995596521 -0.006750928877725614 0.9995035995596521 -0.006750928877725614 4.964004403479299E-4 0.006750928877725613
9.1028210151304E7 5.010217345494534E-4 0.0068495213413164655 0.9994989782654505 -0.0068495213413164655 0.9994989782654505 -0.0068495213413164655 5.010217345494534E-4 0.0068495213413164655
9.240195362083109E7 5.056916908182874E-4 0.006949573630796905 0.9994943083091816 -0.006949573630796905 0.9994943083091816 -0.006949573630796905 5.056916908182874E-4 0.006949573630796905
9.379642880766791E7 5.104115085812904E-4 0.007051108582133181 0.9994895884914188 -0.007051108582133182 0.9994895884914188 -0.007051108582133182 5.104115085812904E-4 0.007051108582133181
9.521194858253023E7 5.151824718066288E-4 0.007154149372599172 0.9994848175281933 -0.007154149372599172 0.9994848175281933 -0.007154149372599172 5.151824718066288E-4 0.007154149372599172
9.664883053779216E7 5.200059508981283E-4 0.007258719523444585 0.9994799940491019 -0.007258719523444585 0.9994799940491019 -0.007258719523444585 5.200059508981283E-4 0.007258719523444585
9.810739705874248E7 5.24883404510416E-4 0.007364842902601036 0.9994751165954896 -0.007364842902601035 0.9994751165954896 -0.007364842902601035 5.24883404510416E-4 0.007364842902601036
9.958797539591652E7 5.298163812852687E-4 0.007472543727433355 0.9994701836187149 -0.007472543727433356 0.9994701836187149 -0.007472543727433356 5.298163812852687E-4 0.007472543727433355
1.0109089773851961E8 5.348065215099781E-4 0.007581846567543178 0.9994651934784899 -0.007581846567543176 0.9994651934784899 -0.007581846567543176 5.348065215099781E-4 0.007581846567543178
1.0261650128895843E8 5.39855558698974E-4 0.00769277634763188 0.999460144441301 -0.007692776347631879 0.999460144441301 -0.007692776347631879 5.39855558698974E-4 0.00769277634763188
1.0416512833849736E8 5.449653211002837E-4 0.007805358350429638 0.9994550346788996 -0.007805358350429637 0.9994550346788996 -0.007805358350429637 5.449653211002837E-4 0.007805358350429638
1.0573712634405641E8 5.501377331287911E-4 0.007919618219697297 0.9994498622668713 -0.007919618219697298 0.9994498622668713 -0.007919618219697298 5.501377331287911E-4 0.007919618219697297
1.0733284800616828E8 5.553748167285513E-4 0.008035581963307524 0.9994446251832715 -0.008035581963307522 0.9994446251832715 -0.008035581963307522 5.553748167285513E-4 0.008035581963307524
1.0895265134811176E8 5.606786926667218E-4 0.008153275956411377 0.9994393213073334 -0.008153275956411375 0.9994393213073334 -0.008153275956411375 5.606786926667218E-4 0.008153275956411377
1.1059689979623953E8 5.660515817619304E-4 0.008272726944696412 0.9994339484182382 -0.008272726944696412 0.9994339484182382 -0.008272726944696412 5.660515817619304E-4 0.008272726944696412
1.1226596226151802E8 5.714958060501264E-4 0.008393962047742006 0.9994285041939498 -0.008393962047742006 0.9994285041939498 -0.008393962047742006 5.714958060501264E-4 0.008393962047742006
1.1396021322229806E8 5.770137898911718E-4 0.008517008762477393 0.9994229862101087 -0.008517008762477395 0.9994229862101087 -0.008517008762477395 5.770137898911718E-4 0.008517008762477393
1.1568003280833441E8 5.826080610195915E-4 0.00864189496674777 0.9994173919389804 -0.00864189496674777 0.9994173919389804 -0.00864189496674777 5.826080610195915E-4 0.00864189496674777
1.1742580688607343E8 5.882812515430503E-4 0.008768648922993361 0.999411718748457 -0.008768648922993361 0.999411718748457 -0.008768648922993361 5.882812515430503E-4 0.008768648922993361
1.1919792714522783E8 5.940360988922396E-4 0.008897299282046372 0.9994059639011077 -0.008897299282046372 0.9994059639011077 -0.008897299282046372 5.940360988922396E-4 0.008897299282046372
1.2099679118665792E8 5.998754467259314E-4 0.009027875087050195 0.9994001245532741 -0.009027875087050195 0.9994001245532741 -0.009027875087050195 5.998754467259314E-4 0.009027875087050195
1.2282280261157903E8 6.058022457950447E-4 0.009160405777505366 0.9993941977542049 -0.009160405777505364 0.9993941977542049 -0.009160405777505364 6.058022457950447E-4 0.009160405777505366
1.2467637111211549E8 6.118195547695664E-4 0.009294921193446194 0.9993881804452306 -0.009294921193446194 0.9993881804452306 -0.009294921193446194 6.118195547695664E-4 0.009294921193446194
1.265579125632208E8 6.179305410322381E-4 0.009431451579752148 0.9993820694589679 -0.009431451579752148 0.9993820694589679 -0.009431451579752148 6.179305410322381E-4 0.009431451579752148
1.284678491159853E8 6.241384814428571E-4 0.009570027590597552 0.9993758615185572 -0.009570027590597552 0.9993758615185572 -0.009570027590597552 6.241384814428571E-4 0.009570027590597552
1.3040660929235186E8 6.304467630770712E-4 0.009710680294043305 0.9993695532369229 -0.009710680294043305 0.9993695532369229 -0.009710680294043305 6.304467630770712E-4 0.009710680294043305
1.3237462808126101E8 6.368588839434666E-4 0.009853441176773902 0.9993631411160564 -0.009853441176773902 0.9993631411160564 -0.009853441176773902 6.368588839434666E-4 0.009853441176773902
1.3437234703624701E8 6.433784536827333E-4 0.009998342148983192 0.9993566215463172 -0.009998342148983192 0.9993566215463172 -0.009998342148983192 6.433784536827333E-4 0.009998342148983192
1.364002143745067E8 6.500091942525984E-4 0.010145415549411922 0.9993499908057476 -0.010145415549411924 0.9993499908057476 -0.010145415549411924 6.500091942525984E-4 0.010145415549411922
1.3845868507746372E8 6.56754940602184E-4 0.01029469415054035 0.9993432450593976 -0.010294694150540351 0.9993432450593976 -0.010294694150540351 6.56754940602184E-4 0.01029469415054035
1.405482209928499E8 6.636196413393446E-4 0.010446211163938892 0.9993363803586606 -0.010446211163938892 0.9993363803586606 -0.010446211163938892 6.636196413393446E-4 0.010446211163938892
1.426692909383278E8 6.7060735939448E-4 0.010600000245779891 0.9993293926406055 -0.010600000245779891 0.9993293926406055 -0.010600000245779891 6.7060735939448E-4 0.010600000245779891
1.4482237080667645E8 6.777222726842353E-4 0.01075609550251356 0.999322277727316 -0.01075609550251356 0.999322277727316 -0.01075609550251356 6.777222726842353E-4 0.01075609550251356
1.4700794367256513E8 6.849686747784458E-4 0.010914531496711219 0.9993150313252214 -0.010914531496711219 0.9993150313252214 -0.010914531496711219 6.849686747784458E-4 0.010914531496711219
1.492264999009378E8 6.923509755735885E-4 0.011075343253078867 0.9993076490244265 -0.011075343253078867 0.9993076490244265 -0.011075343253078867 6.923509755735885E-4 0.011075343253078867
1.5147853725703382E8 6.998737019759786E-4 0.011238566264644381 0.9993001262980241 -0.011238566264644383 0.9993001262980241 -0.011238566264644383 6.998737019759786E-4 0.011238566264644381
1.5376456101806876E8 7.07541498597878E-4 0.011404236499121631 0.9992924585014022 -0.011404236499121631 0.9992924585014022 -0.011404236499121631 7.07541498597878E-4 0.011404236499121631
1.5608508408660066E8 7.153591284696624E-4 0.011572390405454873 0.9992846408715303 -0.011572390405454871 0.9992846408715303 -0.011572390405454871 7.153591284696624E-4 0.011572390405454873
1.5844062710560706E8 7.233314737711771E-4 0.011743064920547075 0.999276668526229 -0.011743064920547077 0.999276668526229 -0.011743064920547077 7.233314737711771E-4 0.011743064920547075
1.6083171857529896E8 7.31463536585408E-4 0.011916297476175869 0.9992685364634146 -0.011916297476175869 0.9992685364634146 -0.011916297476175869 7.31463536585408E-4 0.011916297476175869
1.632588949716973E8 7.397604396776243E-4 0.01209212600610104 0.9992602395603225 -0.012092126006101038 0.9992602395603225 -0.012092126006101038 7.397604396776243E-4 0.01209212600610104
1.6572270086699936E8 7.482274273031877E-4 0.0122705889533677 0.9992517725726968 -0.0122705889533677 0.9992517725726968 -0.0122705889533677 7.482274273031877E-4 0.0122705889533677
1.6822368905176118E8 7.568698660473009E-4 0.012451725277809444 0.9992431301339527 -0.012451725277809444 0.9992431301339527 -0.012451725277809444 7.568698660473009E-4 0.012451725277809444
1.7076242065892437E8 7.656932457000559E-4 0.012635574463756065 0.9992343067542999 -0.012635574463756063 0.9992343067542999 -0.012635574463756063 7.656932457000559E-4 0.012635574463756065
1.7333946528971428E8 7.747031801702839E-4 0.012822176527950653 0.9992252968198299 -0.012822176527950655 0.9992252968198299 -0.012822176527950655 7.747031801702839E-4 0.012822176527950653
1.7595540114143828E8 7.839054084418415E-4 0.013011572027681082 0.9992160945915579 -0.013011572027681082 0.9992160945915579 -0.013011572027681082 7.839054084418415E-4 0.013011572027681082
1.786108151372127E8 7.933057955761796E-4 0.01320380206913124 0.9992066942044239 -0.01320380206913124 0.9992066942044239 -0.01320380206913124 7.933057955761796E-4 0.01320380206913124
1.8130630305764765E8 8.029103337652415E-4 0.013398908315957522 0.9991970896662346 -0.013398908315957522 0.9991970896662346 -0.013398908315957522 8.029103337652415E-4 0.013398908315957522
1.840424696745189E8 8.127251434390085E-4 0.0135969329980965 0.999187274856561 -0.013596932998096502 0.999187274856561 -0.013596932998096502 8.127251434390085E-4 0.0135969329980965
1.8681992888645732E8 8.22756474432277E-4 0.013797918920809712 0.9991772435255678 -0.013797918920809712 0.9991772435255678 -0.013797918920809712 8.22756474432277E-4 0.013797918920809712
1.8963930385668582E8 8.33010707215605E-4 0.014001909473972094 0.9991669892927841 -0.014001909473972094 0.9991669892927841 -0.014001909473972094 8.33010707215605E-4 0.014001909473972094
1.92501227152835E8 8.434943541956994E-4 0.014208948641610519 0.9991565056458044 -0.014208948641610519 0.9991565056458044 -0.014208948641610519 8.434943541956994E-4 0.014208948641610519
1.9540634088886917E8 8.542140610909262E-4 0.014419081011699288 0.9991457859389091 -0.01441908101169929 0.9991457859389091 -0.01441908101169929 8.542140610909262E-4 0.014419081011699288
1.983552968691535E8 8.651766083880561E-4 0.014632351786219711 0.9991348233916119 -0.014632351786219711 0.9991348233916119 -0.014632351786219711 8.651766083880561E-4 0.014632351786219711
2.0134875673469606E8 8.7638891288683E-4 0.01484880679149095 0.9991236110871129 -0.01484880679149095 0.9991236110871129 -0.01484880679149095 8.7638891288683E-4 0.01484880679149095
2.0438739211159652E8 8.87858029339424E-4 0.015068492488779612 0.9991121419706607 -0.015068492488779612 0.9991121419706607 -0.015068492488779612 8.87858029339424E-4 0.015068492488779612
2.074718847617352E8 8.995911521924405E-4 0.015291455985195667 0.9991004088478075 -0.015291455985195664 0.9991004088478075 -0.015291455985195664 8.995911521924405E-4 0.015291455985195667
2.106029267357361E8 9.115956174396329E-4 0.01551774504488253 0.9990884043825603 -0.01551774504488253 0.9990884043825603 -0.01551774504488253 9.115956174396329E-4 0.01551774504488253
2.1378122052823865E8 9.238789045941504E-4 0.01574740810050902 0.9990761210954059 -0.01574740810050902 0.9990761210954059 -0.01574740810050902 9.238789045941504E-4 0.01574740810050902
2.1700747923551247E8 9.364486387897697E-4 0.01598049426507123 0.9990635513612103 -0.01598049426507123 0.9990635513612103 -0.01598049426507123 9.364486387897697E-4 0.01598049426507123
2.2028242671545094E8 9.493125930211918E-4 0.016217053344012206 0.9990506874069789 -0.016217053344012206 0.9990506874069789 -0.016217053344012206 9.493125930211918E-4 0.016217053344012206
2.23606797749979E8 9.624786905342325E-4 0.016457135847667455 0.9990375213094658 -0.016457135847667455 0.9990375213094658 -0.016457135847667455 9.624786905342325E-4 0.016457135847667455
2.2698133820991236E8 9.75955007377389E-4 0.016700793004043986 0.9990240449926228 -0.016700793004043986 0.9990240449926228 -0.016700793004043986 9.75955007377389E-4 0.016700793004043986
2.3040680522230446E8 9.897497751270668E-4 0.016948076771940976 0.9990102502248729 -0.01694807677194098 0.9990102502248729 -0.01694807677194098 9.897497751270668E-4 0.016948076771940976
2.338839673403185E8 0.0010038713837994487 0.01719903985441949 0.9989961286162007 -0.01719903985441949 0.9989961286162007 -0.01719903985441949 0.0010038713837994487 0.01719903985441949
2.37413604715664E8 0.0010183283849627886 0.017453735712628718 0.9989816716150374 -0.01745373571262872 0.9989816716150374 -0.01745373571262872 0.0010183283849627886 0.017453735712628718
2.4099650927363476E8 0.0010331294950646824 0.017712218579996095 0.9989668705049354 -0.017712218579996095 0.9989668705049354 -0.017712218579996095 0.0010331294950646824 0.017712218579996095
