!Murata Part Number: LQG15HN47NG02
!These Parameters are Measured in Series Mode Connection
!       o--[Z]--o
!Port1              Port2
!       o-------o
!
!Freq. Start=50[MHz] Stop=20[GHz], 401[Steps]
# Hz S RI R 50
!Freq.(Hz) S11(Real) S11(Imag) S21(Real) S21(Imag) S12(Real) S12(Imag) S22(Real) S22(Imag)
5.0E7 0.03861635217723463 0.13964118590572724 0.9613836478227653 -0.13964118590572724 0.9613836478227653 -0.13964118590572724 0.03861635217723463 0.13964118590572724
5.0754570186123446E7 0.03932352330520319 0.1414983671574519 0.9606764766947969 -0.1414983671574519 0.9606764766947969 -0.1414983671574519 0.03932352330520319 0.1414983671574519
5.152052789556263E7 0.04004723251567398 0.14337797984572917 0.959952767484326 -0.14337797984572917 0.959952767484326 -0.14337797984572917 0.04004723251567398 0.14337797984572917
5.229804498202928E7 0.0407878646389943 0.14528019665894037 0.9592121353610058 -0.1452801966589404 0.9592121353610058 -0.1452801966589404 0.0407878646389943 0.14528019665894037
5.308729589274893E7 0.04154581290669711 0.1472051889071907 0.958454187093303 -0.1472051889071907 0.958454187093303 -0.1472051889071907 0.04154581290669711 0.1472051889071907
5.388845770760058E7 0.042321479205194364 0.1491531263738501 0.9576785207948054 -0.1491531263738501 0.9576785207948054 -0.1491531263738501 0.042321479205194364 0.1491531263738501
5.470171017884717E7 0.04311527433667812 0.1511241771526966 0.9568847256633217 -0.1511241771526966 0.9568847256633217 -0.1511241771526966 0.04311527433667812 0.1511241771526966
5.5527235771465644E7 0.04392761828681025 0.1531185074697694 0.9560723817131896 -0.1531185074697694 0.9560723817131896 -0.1531185074697694 0.04392761828681025 0.1531185074697694
5.6365219704085544E7 0.04475894049871936 0.15513628148903919 0.9552410595012806 -0.15513628148903919 0.9552410595012806 -0.15513628148903919 0.04475894049871936 0.15513628148903919
5.721584999054556E7 0.04560968015275861 0.15717766110100131 0.9543903198472415 -0.15717766110100131 0.9543903198472415 -0.15717766110100131 0.04560968015275861 0.15717766110100131
5.807931748207712E7 0.04648028645141159 0.15924280569330238 0.9535197135485883 -0.15924280569330238 0.9535197135485883 -0.15924280569330238 0.04648028645141159 0.15924280569330238
5.8955815910124585E7 0.04737121890866757 0.16133187190252157 0.9526287810913325 -0.16133187190252157 0.9526287810913325 -0.16133187190252157 0.04737121890866757 0.16133187190252157
5.984554192981184E7 0.04828294764311764 0.16344501334623857 0.9517170523568824 -0.16344501334623857 0.9517170523568824 -0.16344501334623857 0.04828294764311764 0.16344501334623857
6.074869516406457E7 0.04921595367395665 0.16558238033454037 0.9507840463260435 -0.16558238033454034 0.9507840463260435 -0.16558238033454034 0.04921595367395665 0.16558238033454037
6.166547824839868E7 0.05017072921900528 0.16774411956013993 0.9498292707809947 -0.16774411956013993 0.9498292707809947 -0.16774411956013993 0.05017072921900528 0.16774411956013993
6.2596096876384385E7 0.05114777799379946 0.16993037376630846 0.9488522220062006 -0.16993037376630848 0.9488522220062006 -0.16993037376630848 0.05114777799379946 0.16993037376630846
6.354075984579668E7 0.05214761551072452 0.17214128139185184 0.9478523844892754 -0.17214128139185184 0.9478523844892754 -0.17214128139185184 0.05214761551072452 0.17214128139185184
6.449967910546205E7 0.05317076937710506 0.17437697619240164 0.9468292306228949 -0.17437697619240164 0.9468292306228949 -0.17437697619240164 0.05317076937710506 0.17437697619240164
6.547306980281226E7 0.054217779591094174 0.1766375868373286 0.9457822204089056 -0.1766375868373286 0.9457822204089056 -0.1766375868373286 0.054217779591094174 0.1766375868373286
6.646115033215589E7 0.05528919883414138 0.17892323648163616 0.9447108011658586 -0.17892323648163616 0.9447108011658586 -0.17892323648163616 0.05528919883414138 0.17892323648163616
6.746414238367817E7 0.05638559275875273 0.18123404231223467 0.9436144072412472 -0.18123404231223467 0.9436144072412472 -0.18123404231223467 0.05638559275875273 0.18123404231223467
6.848227099318038E7 0.05750754027019864 0.18357011506806034 0.9424924597298014 -0.1835701150680603 0.9424924597298014 -0.1835701150680603 0.05750754027019864 0.18357011506806034
6.951576459256999E7 0.058655633800761144 0.1859315585335529 0.9413443661992389 -0.1859315585335529 0.9413443661992389 -0.1859315585335529 0.058655633800761144 0.1859315585335529
7.056485506111258E7 0.05983047957505839 0.18831846900507385 0.9401695204249415 -0.18831846900507385 0.9401695204249415 -0.18831846900507385 0.05983047957505839 0.18831846900507385
7.162977777745734E7 0.06103269786492815 0.19073093472991193 0.9389673021350718 -0.19073093472991193 0.9389673021350718 -0.19073093472991193 0.06103269786492815 0.19073093472991193
7.271077167244768E7 0.06226292323230011 0.19316903531759214 0.9377370767676999 -0.19316903531759214 0.9377370767676999 -0.19316903531759214 0.06226292323230011 0.19316903531759214
7.380807928272885E7 0.06352180475843983 0.19563284112328028 0.9364781952415602 -0.19563284112328028 0.9364781952415602 -0.19563284112328028 0.06352180475843983 0.19563284112328028
7.492194680516452E7 0.06481000625789934 0.1981224126031505 0.9351899937421008 -0.19812241260315056 0.9351899937421008 -0.19812241260315056 0.06481000625789934 0.1981224126031505
7.60526241520746E7 0.06612820647546934 0.20063779964166523 0.9338717935245306 -0.2006377996416652 0.9338717935245306 -0.2006377996416652 0.06612820647546934 0.20063779964166523
7.720036500730675E7 0.06747709926438726 0.20317904085079827 0.9325229007356127 -0.20317904085079827 0.9325229007356127 -0.20317904085079827 0.06747709926438726 0.20317904085079827
7.836542688315398E7 0.06885739374402243 0.20574616284132322 0.9311426062559777 -0.20574616284132322 0.9311426062559777 -0.20574616284132322 0.06885739374402243 0.20574616284132322
7.954807117813127E7 0.07026981443522591 0.20833917946637157 0.929730185564774 -0.20833917946637157 0.929730185564774 -0.20833917946637157 0.07026981443522591 0.20833917946637157
8.074856323562416E7 0.07171510137150568 0.21095809103756302 0.9282848986284944 -0.21095809103756302 0.9282848986284944 -0.21095809103756302 0.07171510137150568 0.21095809103756302
8.196717240342227E7 0.07319401018416336 0.213602883514101 0.9268059898158367 -0.213602883514101 0.9268059898158367 -0.213602883514101 0.07319401018416336 0.213602883514101
8.320417209415154E7 0.07470731215950936 0.21627352766532532 0.9252926878404906 -0.21627352766532532 0.9252926878404906 -0.21627352766532532 0.07470731215950936 0.21627352766532532
8.445983984661816E7 0.07625579426625413 0.21896997820731048 0.9237442057337458 -0.21896997820731048 0.9237442057337458 -0.21896997820731048 0.07625579426625413 0.21896997820731048
8.573445738807854E7 0.07784025915116362 0.22169217291420104 0.9221597408488363 -0.221692172914201 0.9221597408488363 -0.221692172914201 0.07784025915116362 0.22169217291420104
8.702831069744885E7 0.07946152510105607 0.22444003170507848 0.920538474898944 -0.22444003170507848 0.920538474898944 -0.22444003170507848 0.07946152510105607 0.22444003170507848
8.834169006946853E7 0.08112042596921261 0.22721345570725693 0.9188795740307876 -0.22721345570725693 0.9188795740307876 -0.22721345570725693 0.08112042596921261 0.22721345570725693
8.96748901798321E7 0.08281781106427519 0.23001232629701673 0.9171821889357248 -0.2300123262970167 0.9171821889357248 -0.2300123262970167 0.08281781106427519 0.23001232629701673
9.1028210151304E7 0.08455454499970612 0.2328365041188893 0.9154454550002937 -0.23283650411888934 0.9154454550002937 -0.23283650411888934 0.08455454499970612 0.2328365041188893
9.240195362083109E7 0.08633150750189195 0.23568582808472102 0.913668492498108 -0.235685828084721 0.913668492498108 -0.235685828084721 0.08633150750189195 0.23568582808472102
9.379642880766791E7 0.08814959317498743 0.23856011435385685 0.9118504068250124 -0.23856011435385682 0.9118504068250124 -0.23856011435385682 0.08814959317498743 0.23856011435385685
9.521194858253023E7 0.09000971122060956 0.2414591552958995 0.9099902887793904 -0.2414591552958995 0.9099902887793904 -0.2414591552958995 0.09000971122060956 0.2414591552958995
9.664883053779216E7 0.09191278511051507 0.2443827184376185 0.9080872148894852 -0.2443827184376185 0.9080872148894852 -0.2443827184376185 0.09191278511051507 0.2443827184376185
9.810739705874248E7 0.09385975221041655 0.24733054539570007 0.9061402477895836 -0.24733054539570007 0.9061402477895836 -0.24733054539570007 0.09385975221041655 0.24733054539570007
9.958797539591652E7 0.09585156335312964 0.2503023507971579 0.9041484366468703 -0.2503023507971579 0.9041484366468703 -0.2503023507971579 0.09585156335312964 0.2503023507971579
1.0109089773851961E8 0.09788918235927327 0.2532978211893395 0.9021108176407268 -0.2532978211893395 0.9021108176407268 -0.2532978211893395 0.09788918235927327 0.2532978211893395
1.0261650128895843E8 0.09997358550379284 0.256316613941599 0.9000264144962071 -0.256316613941599 0.9000264144962071 -0.256316613941599 0.09997358550379284 0.256316613941599
1.0416512833849736E8 0.1021057609266207 0.2593583561408284 0.8978942390733793 -0.25935835614082836 0.8978942390733793 -0.25935835614082836 0.1021057609266207 0.2593583561408284
1.0573712634405641E8 0.10428670798584591 0.26242264348317523 0.8957132920141541 -0.26242264348317523 0.8957132920141541 -0.26242264348317523 0.10428670798584591 0.26242264348317523
1.0733284800616828E8 0.10651743655182479 0.26550903916440355 0.8934825634481751 -0.2655090391644035 0.8934825634481751 -0.2655090391644035 0.10651743655182479 0.26550903916440355
1.0895265134811176E8 0.10879896624073593 0.2686170727714938 0.8912010337592641 -0.2686170727714939 0.8912010337592641 -0.2686170727714939 0.10879896624073593 0.2686170727714938
1.1059689979623953E8 0.11113232558615785 0.2717462391782109 0.8888676744138421 -0.2717462391782109 0.8888676744138421 -0.2717462391782109 0.11113232558615785 0.2717462391782109
1.1226596226151802E8 0.11351855114733722 0.27489599744750864 0.8864814488526627 -0.27489599744750864 0.8864814488526627 -0.27489599744750864 0.11351855114733722 0.27489599744750864
1.1396021322229806E8 0.11595868655290534 0.2780657697437784 0.8840413134470947 -0.27806576974377833 0.8840413134470947 -0.27806576974377833 0.11595868655290534 0.2780657697437784
1.1568003280833441E8 0.11845378147891256 0.28125494025808945 0.8815462185210875 -0.2812549402580894 0.8815462185210875 -0.2812549402580894 0.11845378147891256 0.28125494025808945
1.1742580688607343E8 0.12100489056015884 0.2844628541497089 0.8789951094398414 -0.2844628541497089 0.8789951094398414 -0.2844628541497089 0.12100489056015884 0.2844628541497089
1.1919792714522783E8 0.12361307223392975 0.2876888165073294 0.8763869277660702 -0.2876888165073294 0.8763869277660702 -0.2876888165073294 0.12361307223392975 0.2876888165073294
1.2099679118665792E8 0.12627938751538234 0.29093209133357145 0.8737206124846177 -0.29093209133357145 0.8737206124846177 -0.29093209133357145 0.12627938751538234 0.29093209133357145
1.2282280261157903E8 0.1290048987039759 0.29419190055646555 0.8709951012960241 -0.29419190055646555 0.8709951012960241 -0.29419190055646555 0.1290048987039759 0.29419190055646555
1.2467637111211549E8 0.13179066802050707 0.297467423071756 0.8682093319794931 -0.297467423071756 0.8682093319794931 -0.297467423071756 0.13179066802050707 0.297467423071756
1.265579125632208E8 0.13463775617448018 0.3007577938199959 0.8653622438255199 -0.30075779381999596 0.8653622438255199 -0.30075779381999596 0.13463775617448018 0.3007577938199959
1.284678491159853E8 0.13754722086173976 0.3040621029025372 0.8624527791382601 -0.3040621029025372 0.8624527791382601 -0.3040621029025372 0.13754722086173976 0.3040621029025372
1.3040660929235186E8 0.14052011519248964 0.30737939474063547 0.8594798848075104 -0.30737939474063547 0.8594798848075104 -0.30737939474063547 0.14052011519248964 0.30737939474063547
1.3237462808126101E8 0.14355748605004576 0.31070866728201013 0.8564425139499543 -0.31070866728201013 0.8564425139499543 -0.31070866728201013 0.14355748605004576 0.31070866728201013
1.3437234703624701E8 0.14666037238090018 0.3140488712593041 0.8533396276190998 -0.3140488712593041 0.8533396276190998 -0.3140488712593041 0.14666037238090018 0.3140488712593041
1.364002143745067E8 0.14982980341692437 0.3173989095049901 0.8501701965830756 -0.3173989095049901 0.8501701965830756 -0.3173989095049901 0.14982980341692437 0.3173989095049901
1.3845868507746372E8 0.15306679683080024 0.32075763632735405 0.8469332031691997 -0.32075763632735405 0.8469332031691997 -0.32075763632735405 0.15306679683080024 0.32075763632735405
1.405482209928499E8 0.15637235682604692 0.324123856952264 0.8436276431739531 -0.324123856952264 0.8436276431739531 -0.324123856952264 0.15637235682604692 0.324123856952264
1.426692909383278E8 0.1597474721633036 0.3274963270354934 0.8402525278366964 -0.32749632703549336 0.8402525278366964 -0.32749632703549336 0.1597474721633036 0.3274963270354934
1.4482237080667645E8 0.16319311412483753 0.3308737522504148 0.8368068858751624 -0.3308737522504148 0.8368068858751624 -0.3308737522504148 0.16319311412483753 0.3308737522504148
1.4700794367256513E8 0.16671023441956243 0.33425478795590385 0.8332897655804377 -0.33425478795590385 0.8332897655804377 -0.33425478795590385 0.16671023441956243 0.33425478795590385
1.492264999009378E8 0.17029976303119324 0.3376380389493082 0.8297002369688069 -0.3376380389493083 0.8297002369688069 -0.3376380389493083 0.17029976303119324 0.3376380389493082
1.5147853725703382E8 0.17396260601250524 0.34102205930932006 0.8260373939874947 -0.3410220593093201 0.8260373939874947 -0.3410220593093201 0.17396260601250524 0.34102205930932006
1.5376456101806876E8 0.17769964322902415 0.344405352333557 0.822300356770976 -0.3444053523335571 0.822300356770976 -0.3444053523335571 0.17769964322902415 0.344405352333557
1.5608508408660066E8 0.18151172605584115 0.34778637057559625 0.8184882739441589 -0.34778637057559625 0.8184882739441589 -0.34778637057559625 0.18151172605584115 0.34778637057559625
1.5844062710560706E8 0.18539967503162563 0.35116351598612283 0.8146003249683744 -0.35116351598612294 0.8146003249683744 -0.35116351598612294 0.18539967503162563 0.35116351598612283
1.6083171857529896E8 0.1893642774742867 0.3545351401627383 0.8106357225257133 -0.35453514016273824 0.8106357225257133 -0.35453514016273824 0.1893642774742867 0.3545351401627383
1.632588949716973E8 0.1934062850631245 0.35789954471282814 0.8065937149368755 -0.35789954471282814 0.8065937149368755 -0.35789954471282814 0.1934062850631245 0.35789954471282814
1.6572270086699936E8 0.1975264113927044 0.36125498173372267 0.8024735886072956 -0.36125498173372267 0.8024735886072956 -0.36125498173372267 0.1975264113927044 0.36125498173372267
1.6822368905176118E8 0.20172532950407251 0.36459965441416603 0.7982746704959275 -0.36459965441416603 0.7982746704959275 -0.36459965441416603 0.20172532950407251 0.36459965441416603
1.7076242065892437E8 0.20600366939932407 0.36793171776087685 0.7939963306006759 -0.36793171776087685 0.7939963306006759 -0.36793171776087685 0.20600366939932407 0.36793171776087685
1.7333946528971428E8 0.2103620155459159 0.37124927945370645 0.7896379844540841 -0.3712492794537065 0.7896379844540841 -0.3712492794537065 0.2103620155459159 0.37124927945370645
1.7595540114143828E8 0.21480090437748992 0.3745504008325862 0.7851990956225101 -0.3745504008325862 0.7851990956225101 -0.3745504008325862 0.21480090437748992 0.3745504008325862
1.786108151372127E8 0.21932082179833864 0.3778330980191164 0.7806791782016614 -0.3778330980191164 0.7806791782016614 -0.3778330980191164 0.21932082179833864 0.3778330980191164
1.8130630305764765E8 0.22392220069899085 0.3810953431752589 0.7760777993010092 -0.3810953431752589 0.7760777993010092 -0.3810953431752589 0.22392220069899085 0.3810953431752589
1.840424696745189E8 0.2286054184907266 0.3843350659011818 0.7713945815092732 -0.3843350659011818 0.7713945815092732 -0.3843350659011818 0.2286054184907266 0.3843350659011818
1.8681992888645732E8 0.23337079466714225 0.38755015477385063 0.7666292053328578 -0.38755015477385063 0.7666292053328578 -0.38755015477385063 0.23337079466714225 0.38755015477385063
1.8963930385668582E8 0.23821858840116353 0.3907384590274659 0.7617814115988364 -0.3907384590274659 0.7617814115988364 -0.3907384590274659 0.23821858840116353 0.3907384590274659
1.92501227152835E8 0.24314899618616606 0.39389779037633094 0.7568510038138339 -0.39389779037633094 0.7568510038138339 -0.39389779037633094 0.24314899618616606 0.39389779037633094
1.9540634088886917E8 0.24816214953007903 0.3970259249801735 0.751837850469921 -0.3970259249801735 0.751837850469921 -0.3970259249801735 0.24816214953007903 0.3970259249801735
1.983552968691535E8 0.2532581127115336 0.40012060555135864 0.7467418872884665 -0.4001206055513587 0.7467418872884665 -0.4001206055513587 0.2532581127115336 0.40012060555135864
2.0134875673469606E8 0.2584368806072656 0.40317954360282254 0.7415631193927343 -0.4031795436028225 0.7415631193927343 -0.4031795436028225 0.2584368806072656 0.40317954360282254
2.0438739211159652E8 0.2636983766000777 0.40620042183490784 0.7363016233999222 -0.4062004218349078 0.7363016233999222 -0.4062004218349078 0.2636983766000777 0.40620042183490784
2.074718847617352E8 0.2690424505767231 0.40918089665863033 0.7309575494232771 -0.40918089665863033 0.7309575494232771 -0.40918089665863033 0.2690424505767231 0.40918089665863033
2.106029267357361E8 0.27446887702507833 0.4121186008522181 0.7255311229749218 -0.4121186008522181 0.7255311229749218 -0.4121186008522181 0.27446887702507833 0.4121186008522181
2.1378122052823865E8 0.2799773532399186 0.41501114634707487 0.7200226467600814 -0.41501114634707487 0.7200226467600814 -0.41501114634707487 0.2799773532399186 0.41501114634707487
2.1700747923551247E8 0.2855674976465089 0.41785612713861475 0.714432502353491 -0.41785612713861475 0.714432502353491 -0.41785612713861475 0.2855674976465089 0.41785612713861475
2.2028242671545094E8 0.2912388482510575 0.4206511223167 0.7087611517489425 -0.4206511223167 0.7087611517489425 -0.4206511223167 0.2912388482510575 0.4206511223167
2.23606797749979E8 0.2969908612268596 0.4233936992097106 0.7030091387731403 -0.42339369920971054 0.7030091387731403 -0.42339369920971054 0.2969908612268596 0.4233936992097106
2.2698133820991236E8 0.30282290964467484 0.4260814166355641 0.6971770903553252 -0.4260814166355641 0.6971770903553252 -0.4260814166355641 0.30282290964467484 0.4260814166355641
2.3040680522230446E8 0.30873428235553757 0.4287118282523095 0.6912657176444625 -0.4287118282523095 0.6912657176444625 -0.4287118282523095 0.30873428235553757 0.4287118282523095
2.338839673403185E8 0.31472418303379135 0.43128248600024244 0.6852758169662087 -0.43128248600024244 0.6852758169662087 -0.43128248600024244 0.31472418303379135 0.43128248600024244
2.37413604715664E8 0.3207917293876771 0.4337909436268324 0.6792082706123228 -0.4337909436268324 0.6792082706123228 -0.4337909436268324 0.3207917293876771 0.4337909436268324
2.4099650927363476E8 0.3269359525442688 0.43623476028512437 0.6730640474557313 -0.43623476028512437 0.6730640474557313 -0.43623476028512437 0.3269359525442688 0.43623476028512437
2.446334848907889E8 0.333155796614973 0.4386115041956849 0.666844203385027 -0.43861150419568484 0.666844203385027 -0.43861150419568484 0.333155796614973 0.4386115041956849
2.4832534757531032E8 0.33945011844715717 0.4409187563616108 0.6605498815528427 -0.4409187563616108 0.6605498815528427 -0.4409187563616108 0.33945011844715717 0.4409187563616108
2.5207292565009177E8 0.3458176875667838 0.4431541143256116 0.6541823124332161 -0.4431541143256115 0.6541823124332161 -0.4431541143256115 0.3458176875667838 0.4431541143256116
2.558770599385812E8 0.3522571863161766 0.44531519595772195 0.6477428136838235 -0.445315195957722 0.6477428136838235 -0.445315195957722 0.3522571863161766 0.44531519595772195
