!Murata Part Number: LQG15HNR10H02
!These Parameters are Measured in Series Mode Connection
!       o--[Z]--o
!Port1              Port2
!       o-------o
!
!Freq. Start=50[MHz] Stop=20[GHz], 401[Steps]
# Hz S RI R 50
!Freq.(Hz) S11(Real) S11(Imag) S21(Real) S21(Imag) S12(Real) S12(Imag) S22(Real) S22(Imag)
5.0E7 0.11712393129210928 0.2615829131418882 0.8828760687078907 -0.26158291314188814 0.8828760687078907 -0.26158291314188814 0.11712393129210928 0.2615829131418882
5.0754570186123446E7 0.11940766304854175 0.2645155299835504 0.8805923369514583 -0.26451552998355043 0.8805923369514583 -0.26451552998355043 0.11940766304854175 0.2645155299835504
5.152052789556263E7 0.12173931214293665 0.2674650457539179 0.8782606878570633 -0.2674650457539179 0.8782606878570633 -0.2674650457539179 0.12173931214293665 0.2674650457539179
5.229804498202928E7 0.12411965126247666 0.27043093905975263 0.8758803487375234 -0.27043093905975263 0.8758803487375234 -0.27043093905975263 0.12411965126247666 0.27043093905975263
5.308729589274893E7 0.12654945521742345 0.27341266496198174 0.8734505447825764 -0.27341266496198174 0.8734505447825764 -0.27341266496198174 0.12654945521742345 0.27341266496198174
5.388845770760058E7 0.12902950058447302 0.2764096543874744 0.870970499415527 -0.27640965438747445 0.870970499415527 -0.27640965438747445 0.12902950058447302 0.2764096543874744
5.470171017884717E7 0.13156056532218957 0.27942131352305954 0.8684394346778104 -0.27942131352305954 0.8684394346778104 -0.27942131352305954 0.13156056532218957 0.27942131352305954
5.5527235771465644E7 0.13414342835597523 0.2824470231921954 0.8658565716440249 -0.28244702319219545 0.8658565716440249 -0.28244702319219545 0.13414342835597523 0.2824470231921954
5.6365219704085544E7 0.13677886912993995 0.28548613821490304 0.8632211308700601 -0.28548613821490304 0.8632211308700601 -0.28548613821490304 0.13677886912993995 0.28548613821490304
5.721584999054556E7 0.13946766712295214 0.28853798675179304 0.8605323328770479 -0.28853798675179304 0.8605323328770479 -0.28853798675179304 0.13946766712295214 0.28853798675179304
5.807931748207712E7 0.14221060132608498 0.2916018696332499 0.8577893986739151 -0.2916018696332499 0.8577893986739151 -0.2916018696332499 0.14221060132608498 0.2916018696332499
5.8955815910124585E7 0.14500844967862295 0.2946770596750856 0.8549915503213771 -0.2946770596750856 0.8549915503213771 -0.2946770596750856 0.14500844967862295 0.2946770596750856
5.984554192981184E7 0.14786198845975526 0.2977628009822336 0.8521380115402447 -0.2977628009822336 0.8521380115402447 -0.2977628009822336 0.14786198845975526 0.2977628009822336
6.074869516406457E7 0.15077199163307642 0.30085830824233323 0.8492280083669235 -0.30085830824233323 0.8492280083669235 -0.30085830824233323 0.15077199163307642 0.30085830824233323
6.166547824839868E7 0.15373923014101407 0.30396276601133476 0.8462607698589859 -0.30396276601133476 0.8462607698589859 -0.30396276601133476 0.15373923014101407 0.30396276601133476
6.2596096876384385E7 0.15676447114634123 0.30707532799355414 0.8432355288536587 -0.3070753279935541 0.8432355288536587 -0.3070753279935541 0.15676447114634123 0.30707532799355414
6.354075984579668E7 0.1598484772179807 0.31019511631890895 0.8401515227820192 -0.310195116318909 0.8401515227820192 -0.310195116318909 0.1598484772179807 0.31019511631890895
6.449967910546205E7 0.1629920054583937 0.3133212208203765 0.8370079945416065 -0.31332122082037656 0.8370079945416065 -0.31332122082037656 0.1629920054583937 0.3133212208203765
6.547306980281226E7 0.16619580656995342 0.3164526983150308 0.8338041934300465 -0.3164526983150308 0.8338041934300465 -0.3164526983150308 0.16619580656995342 0.3164526983150308
6.646115033215589E7 0.16946062385783767 0.3195885718923285 0.8305393761421624 -0.3195885718923285 0.8305393761421624 -0.3195885718923285 0.16946062385783767 0.3195885718923285
6.746414238367817E7 0.1727871921671481 0.32272783021363416 0.8272128078328518 -0.3227278302136341 0.8272128078328518 -0.3227278302136341 0.1727871921671481 0.32272783021363416
6.848227099318038E7 0.17617623675215582 0.32586942682728615 0.8238237632478441 -0.32586942682728615 0.8238237632478441 -0.32586942682728615 0.17617623675215582 0.32586942682728615
6.951576459256999E7 0.1796284720758036 0.3290122795038118 0.8203715279241963 -0.32901227950381173 0.8203715279241963 -0.32901227950381173 0.1796284720758036 0.3290122795038118
7.056485506111258E7 0.18314460053785536 0.3321552695962032 0.8168553994621447 -0.33215526959620306 0.8168553994621447 -0.33215526959620306 0.18314460053785536 0.3321552695962032
7.162977777745734E7 0.18672531113037596 0.33529724143045264 0.813274688869624 -0.33529724143045264 0.813274688869624 -0.33529724143045264 0.18672531113037596 0.33529724143045264
7.271077167244768E7 0.19037127801954656 0.33843700173182273 0.8096287219804533 -0.33843700173182273 0.8096287219804533 -0.33843700173182273 0.19037127801954656 0.33843700173182273
7.380807928272885E7 0.19408315905317775 0.34157331909258204 0.8059168409468223 -0.34157331909258204 0.8059168409468223 -0.34157331909258204 0.19408315905317775 0.34157331909258204
7.492194680516452E7 0.197861594193667 0.3447049234871785 0.8021384058063331 -0.34470492348717846 0.8021384058063331 -0.34470492348717846 0.197861594193667 0.3447049234871785
7.60526241520746E7 0.20170720387656707 0.3478305058410387 0.7982927961234331 -0.34783050584103864 0.7982927961234331 -0.34783050584103864 0.20170720387656707 0.3478305058410387
7.720036500730675E7 0.2056205872953721 0.35094871765936464 0.7943794127046279 -0.35094871765936464 0.7943794127046279 -0.35094871765936464 0.2056205872953721 0.35094871765936464
7.836542688315398E7 0.20960232061360612 0.354058170722467 0.7903976793863938 -0.354058170722467 0.7903976793863938 -0.354058170722467 0.20960232061360612 0.354058170722467
7.954807117813127E7 0.21365295510579468 0.35715743685429363 0.7863470448942053 -0.35715743685429363 0.7863470448942053 -0.35715743685429363 0.21365295510579468 0.35715743685429363
8.074856323562416E7 0.21777301522942424 0.36024504777091093 0.7822269847705756 -0.36024504777091093 0.7822269847705756 -0.36024504777091093 0.21777301522942424 0.36024504777091093
8.196717240342227E7 0.22196299663053984 0.3633194950157464 0.7780370033694601 -0.36331949501574634 0.7780370033694601 -0.36331949501574634 0.22196299663053984 0.3633194950157464
8.320417209415154E7 0.22622336408619434 0.3663792299884117 0.7737766359138057 -0.3663792299884117 0.7737766359138057 -0.3663792299884117 0.22622336408619434 0.3663792299884117
8.445983984661816E7 0.2305545493875402 0.3694226640739002 0.7694454506124597 -0.3694226640739001 0.7694454506124597 -0.3694226640739001 0.2305545493875402 0.3694226640739002
8.573445738807854E7 0.23495694916795712 0.37244816887887255 0.7650430508320428 -0.37244816887887255 0.7650430508320428 -0.37244816887887255 0.23495694916795712 0.37244816887887255
8.702831069744885E7 0.2394309226811979 0.3754540765816197 0.7605690773188022 -0.3754540765816197 0.7605690773188022 -0.3754540765816197 0.2394309226811979 0.3754540765816197
8.834169006946853E7 0.2439767895351589 0.37843868040211903 0.756023210464841 -0.37843868040211903 0.756023210464841 -0.37843868040211903 0.2439767895351589 0.37843868040211903
8.96748901798321E7 0.24859482738747946 0.38140023519837124 0.7514051726125205 -0.38140023519837124 0.7514051726125205 -0.38140023519837124 0.24859482738747946 0.38140023519837124
9.1028210151304E7 0.2532852696097963 0.3843369581949267 0.7467147303902036 -0.3843369581949267 0.7467147303902036 -0.3843369581949267 0.2532852696097963 0.3843369581949267
9.240195362083109E7 0.2580483029280672 0.38724702984917114 0.7419516970719328 -0.38724702984917114 0.7419516970719328 -0.38724702984917114 0.2580483029280672 0.38724702984917114
9.379642880766791E7 0.2628840650469841 0.3901285948605568 0.7371159349530159 -0.3901285948605568 0.7371159349530159 -0.3901285948605568 0.2628840650469841 0.3901285948605568
9.521194858253023E7 0.2677926422670573 0.39297976332751117 0.7322073577329427 -0.39297976332751117 0.7322073577329427 -0.39297976332751117 0.2677926422670573 0.39297976332751117
9.664883053779216E7 0.2727740671035188 0.39579861205626055 0.7272259328964812 -0.39579861205626055 0.7272259328964812 -0.39579861205626055 0.2727740671035188 0.39579861205626055
9.810739705874248E7 0.27782831591670815 0.39858318602524223 0.7221716840832918 -0.39858318602524223 0.7221716840832918 -0.39858318602524223 0.27782831591670815 0.39858318602524223
9.958797539591652E7 0.2829553065641107 0.40133150000817175 0.7170446934358893 -0.40133150000817175 0.7170446934358893 -0.40133150000817175 0.2829553065641107 0.40133150000817175
1.0109089773851961E8 0.2881548960846718 0.4040415403581626 0.7118451039153283 -0.4040415403581626 0.7118451039153283 -0.4040415403581626 0.2881548960846718 0.4040415403581626
1.0261650128895843E8 0.29342687842642967 0.4067112669545811 0.7065731215735703 -0.40671126695458104 0.7065731215735703 -0.40671126695458104 0.29342687842642967 0.4067112669545811
1.0416512833849736E8 0.29877098222887766 0.40933861531355314 0.7012290177711223 -0.40933861531355314 0.7012290177711223 -0.40933861531355314 0.29877098222887766 0.40933861531355314
1.0573712634405641E8 0.3041868686717871 0.4119214988622248 0.6958131313282129 -0.4119214988622248 0.6958131313282129 -0.4119214988622248 0.3041868686717871 0.4119214988622248
1.0733284800616828E8 0.3096741294024794 0.41445781137602783 0.6903258705975207 -0.41445781137602783 0.6903258705975207 -0.41445781137602783 0.3096741294024794 0.41445781137602783
1.0895265134811176E8 0.31523228455372965 0.41694542957730163 0.6847677154462704 -0.41694542957730163 0.6847677154462704 -0.41694542957730163 0.31523228455372965 0.41694542957730163
1.1059689979623953E8 0.3208607808646203 0.4193822158927005 0.6791392191353796 -0.41938221589270047 0.6791392191353796 -0.41938221589270047 0.3208607808646203 0.4193822158927005
1.1226596226151802E8 0.32655898991671434 0.42176602136585245 0.6734410100832856 -0.42176602136585245 0.6734410100832856 -0.42176602136585245 0.32655898991671434 0.42176602136585245
1.1396021322229806E8 0.33232620649790023 0.4240946887207543 0.6676737935020998 -0.4240946887207543 0.6676737935020998 -0.4240946887207543 0.33232620649790023 0.4240946887207543
1.1568003280833441E8 0.3381616471061655 0.4263660555703925 0.6618383528938346 -0.4263660555703925 0.6618383528938346 -0.4263660555703925 0.3381616471061655 0.4263660555703925
1.1742580688607343E8 0.3440644486053685 0.42857795776406105 0.6559355513946317 -0.42857795776406105 0.6559355513946317 -0.42857795776406105 0.3440644486053685 0.42857795776406105
1.1919792714522783E8 0.3500336670448186 0.43072823286583906 0.6499663329551814 -0.43072823286583906 0.6499663329551814 -0.43072823286583906 0.3500336670448186 0.43072823286583906
1.2099679118665792E8 0.35606827665411067 0.43281472375567354 0.6439317233458893 -0.43281472375567354 0.6439317233458893 -0.43281472375567354 0.35606827665411067 0.43281472375567354
1.2282280261157903E8 0.3621671690242253 0.43483528234351493 0.6378328309757746 -0.43483528234351493 0.6378328309757746 -0.43483528234351493 0.3621671690242253 0.43483528234351493
1.2467637111211549E8 0.368329152485366 0.4367877733859693 0.6316708475146341 -0.4367877733859693 0.6316708475146341 -0.4367877733859693 0.368329152485366 0.4367877733859693
1.265579125632208E8 0.37455295169138053 0.43867007839397515 0.6254470483086194 -0.4386700783939751 0.6254470483086194 -0.4386700783939751 0.37455295169138053 0.43867007839397515
1.284678491159853E8 0.3808372074199091 0.4404800996190986 0.6191627925800909 -0.4404800996190986 0.6191627925800909 -0.4404800996190986 0.3808372074199091 0.4404800996190986
1.3040660929235186E8 0.3871804765965857 0.44221576410515934 0.6128195234034143 -0.44221576410515934 0.6128195234034143 -0.44221576410515934 0.3871804765965857 0.44221576410515934
1.3237462808126101E8 0.39358123255075295 0.44387502779108545 0.606418767449247 -0.4438750277910855 0.606418767449247 -0.4438750277910855 0.39358123255075295 0.44387502779108545
1.3437234703624701E8 0.40003786550916576 0.44545587965013217 0.5999621344908342 -0.44545587965013217 0.5999621344908342 -0.44545587965013217 0.40003786550916576 0.44545587965013217
1.364002143745067E8 0.40654868333312727 0.44695634584991023 0.5934513166668728 -0.4469563458499102 0.5934513166668728 -0.4469563458499102 0.40654868333312727 0.44695634584991023
1.3845868507746372E8 0.4131119125033815 0.4483744939170633 0.5868880874966186 -0.4483744939170632 0.5868880874966186 -0.4483744939170632 0.4131119125033815 0.4483744939170633
1.405482209928499E8 0.4197256993558999 0.44970843688990214 0.5802743006441001 -0.44970843688990214 0.5802743006441001 -0.44970843688990214 0.4197256993558999 0.44970843688990214
1.426692909383278E8 0.42638811157046375 0.45095633744187813 0.5736118884295363 -0.45095633744187813 0.5736118884295363 -0.45095633744187813 0.42638811157046375 0.45095633744187813
1.4482237080667645E8 0.43309713991265425 0.45211641195844304 0.5669028600873456 -0.45211641195844304 0.5669028600873456 -0.45211641195844304 0.43309713991265425 0.45211641195844304
1.4700794367256513E8 0.439850700228518 0.45318693454962 0.5601492997714819 -0.45318693454962 0.5601492997714819 -0.45318693454962 0.439850700228518 0.45318693454962
1.492264999009378E8 0.44664663568981855 0.45416624098049185 0.5533533643101813 -0.45416624098049185 0.5533533643101813 -0.45416624098049185 0.44664663568981855 0.45416624098049185
1.5147853725703382E8 0.4534827192863906 0.45505273250181955 0.5465172807136094 -0.45505273250181943 0.5465172807136094 -0.45505273250181943 0.4534827192863906 0.45505273250181955
1.5376456101806876E8 0.46035665656070607 0.4558448795631179 0.539643343439294 -0.45584487956311803 0.539643343439294 -0.45584487956311803 0.46035665656070607 0.4558448795631179
1.5608508408660066E8 0.46726608857836155 0.4565412253907623 0.5327339114216384 -0.4565412253907624 0.5327339114216384 -0.4565412253907624 0.46726608857836155 0.4565412253907623
1.5844062710560706E8 0.4742085951268025 0.4571403894140588 0.5257914048731974 -0.4571403894140588 0.5257914048731974 -0.4571403894140588 0.4742085951268025 0.4571403894140588
1.6083171857529896E8 0.48118169813321826 0.4576410705226999 0.5188183018667818 -0.4576410705226999 0.5188183018667818 -0.4576410705226999 0.48118169813321826 0.4576410705226999
1.632588949716973E8 0.48818286529121135 0.45804205013963417 0.5118171347087886 -0.45804205013963417 0.5118171347087886 -0.45804205013963417 0.48818286529121135 0.45804205013963417
1.6572270086699936E8 0.49520951388454465 0.45834219509410457 0.5047904861154554 -0.4583421950941045 0.5047904861154554 -0.4583421950941045 0.49520951388454465 0.45834219509410457
1.6822368905176118E8 0.5022590147950251 0.4585404602804525 0.4977409852049748 -0.4585404602804525 0.4977409852049748 -0.4585404602804525 0.5022590147950251 0.4585404602804525
1.7076242065892437E8 0.5093286966804244 0.45863589108923786 0.4906713033195757 -0.4586358910892379 0.4906713033195757 -0.4586358910892379 0.5093286966804244 0.45863589108923786
1.7333946528971428E8 0.5164158503072293 0.4586276255982812 0.48358414969277075 -0.4586276255982813 0.48358414969277075 -0.4586276255982813 0.5164158503072293 0.4586276255982812
1.7595540114143828E8 0.5235177330220223 0.4585148965123926 0.47648226697797774 -0.4585148965123926 0.47648226697797774 -0.4585148965123926 0.5235177330220223 0.4585148965123926
1.786108151372127E8 0.5306315733443749 0.4582970328417927 0.46936842665562506 -0.4582970328417927 0.46936842665562506 -0.4582970328417927 0.5306315733443749 0.4582970328417927
1.8130630305764765E8 0.5377545756633485 0.45797346131056066 0.46224542433665156 -0.45797346131056066 0.46224542433665156 -0.45797346131056066 0.5377545756633485 0.45797346131056066
1.840424696745189E8 0.5448839250190033 0.45754370748783263 0.45511607498099677 -0.4575437074878327 0.45511607498099677 -0.4575437074878327 0.5448839250190033 0.45754370748783263
1.8681992888645732E8 0.5520167919497585 0.45700739663593726 0.44798320805024155 -0.45700739663593726 0.44798320805024155 -0.45700739663593726 0.5520167919497585 0.45700739663593726
1.8963930385668582E8 0.5591503373860064 0.4563642542711474 0.4408496626139938 -0.4563642542711473 0.4408496626139938 -0.4563642542711473 0.5591503373860064 0.4563642542711474
1.92501227152835E8 0.5662817175700775 0.45561410643427247 0.43371828242992244 -0.45561410643427247 0.43371828242992244 -0.45561410643427247 0.5662817175700775 0.45561410643427247
1.9540634088886917E8 0.5734080889824931 0.4547568796698711 0.426591911017507 -0.45475687966987105 0.426591911017507 -0.45475687966987105 0.5734080889824931 0.4547568796698711
1.983552968691535E8 0.5805266132543819 0.4537926007144338 0.419473386745618 -0.4537926007144337 0.419473386745618 -0.4537926007144337 0.5805266132543819 0.4537926007144338
2.0134875673469606E8 0.5876344620460755 0.4527213958954567 0.4123655379539245 -0.4527213958954566 0.4123655379539245 -0.4527213958954566 0.5876344620460755 0.4527213958954567
2.0438739211159652E8 0.5947288218720955 0.45154349024487134 0.4052711781279044 -0.45154349024487134 0.4052711781279044 -0.45154349024487134 0.5947288218720955 0.45154349024487134
2.074718847617352E8 0.6018068988531474 0.4502592063318236 0.3981931011468526 -0.4502592063318236 0.3981931011468526 -0.4502592063318236 0.6018068988531474 0.4502592063318236
2.106029267357361E8 0.6088659233762128 0.44886896282127 0.39113407662378724 -0.44886896282127 0.39113407662378724 -0.44886896282127 0.6088659233762128 0.44886896282127
2.1378122052823865E8 0.6159031546444721 0.44737327276629096 0.384096845355528 -0.44737327276629096 0.384096845355528 -0.44737327276629096 0.6159031546444721 0.44737327276629096
2.1700747923551247E8 0.6229158850995243 0.44577274164337694 0.3770841149004757 -0.445772741643377 0.3770841149004757 -0.445772741643377 0.6229158850995243 0.44577274164337694
2.2028242671545094E8 0.6299014446992254 0.44406806514123753 0.37009855530077457 -0.44406806514123753 0.37009855530077457 -0.44406806514123753 0.6299014446992254 0.44406806514123753
2.23606797749979E8 0.6368572050354252 0.44226002671487535 0.36314279496457497 -0.44226002671487535 0.36314279496457497 -0.44226002671487535 0.6368572050354252 0.44226002671487535
2.2698133820991236E8 0.64378058327694 0.4403494949177814 0.3562194167230599 -0.44034949491778147 0.3562194167230599 -0.44034949491778147 0.64378058327694 0.4403494949177814
2.3040680522230446E8 0.6506690459242217 0.43833742052610974 0.3493309540757783 -0.4383374205261098 0.3493309540757783 -0.4383374205261098 0.6506690459242217 0.43833742052610974
2.338839673403185E8 0.657520112363401 0.4362248334695839 0.3424798876365991 -0.4362248334695839 0.3424798876365991 -0.4362248334695839 0.657520112363401 0.4362248334695839
2.37413604715664E8 0.664331358208658 0.43401283958467324 0.33566864179134204 -0.43401283958467324 0.33566864179134204 -0.43401283958467324 0.664331358208658 0.43401283958467324
2.4099650927363476E8 0.6711004184231805 0.4317026172062389 0.32889958157681953 -0.4317026172062389 0.32889958157681953 -0.4317026172062389 0.6711004184231805 0.4317026172062389
2.446334848907889E8 0.6778249902103476 0.4292954136143897 0.3221750097896524 -0.4292954136143897 0.3221750097896524 -0.4292954136143897 0.6778249902103476 0.4292954136143897
2.4832534757531032E8 0.6845028356681528 0.42679254135370887 0.3154971643318471 -0.42679254135370887 0.3154971643318471 -0.42679254135370887 0.6845028356681528 0.42679254135370887
2.5207292565009177E8 0.6911317842012895 0.42419537444230665 0.30886821579871043 -0.42419537444230665 0.30886821579871043 -0.42419537444230665 0.6911317842012895 0.42419537444230665
2.558770599385812E8 0.6977097346867258 0.4215053444883242 0.3022902653132742 -0.4215053444883243 0.3022902653132742 -0.4215053444883243 0.6977097346867258 0.4215053444883242
2.5973860395343277E8 0.704234657389995 0.4187239367315651 0.2957653426100048 -0.41872393673156505 0.2957653426100048 -0.41872393673156505 0.704234657389995 0.4187239367315651
