!Murata Part Number: LQG15HN5N6C02
!These Parameters are Measured in Series Mode Connection
!       o--[Z]--o
!Port1              Port2
!       o-------o
!
!Freq. Start=50[MHz] Stop=20[GHz], 401[Steps]
# Hz S RI R 50
!Freq.(Hz) S11(Real) S11(Imag) S21(Real) S21(Imag) S12(Real) S12(Imag) S22(Real) S22(Imag)
5.0E7 0.002548520482587986 0.01726542830004622 0.9974514795174121 -0.01726542830004622 0.9974514795174121 -0.01726542830004622 0.002548520482587986 0.01726542830004622
5.0754570186123446E7 0.002572986397599815 0.017514477471837202 0.9974270136024002 -0.017514477471837202 0.9974270136024002 -0.017514477471837202 0.002572986397599815 0.017514477471837202
5.152052789556263E7 0.0025979095446600673 0.017767041529730833 0.9974020904553398 -0.017767041529730833 0.9974020904553398 -0.017767041529730833 0.0025979095446600673 0.017767041529730833
5.229804498202928E7 0.0026232961213093126 0.018023169310549904 0.9973767038786906 -0.018023169310549904 0.9973767038786906 -0.018023169310549904 0.0026232961213093126 0.018023169310549904
5.308729589274893E7 0.0026491523448194244 0.018282910473413495 0.9973508476551807 -0.018282910473413495 0.9973508476551807 -0.018282910473413495 0.0026491523448194244 0.018282910473413495
5.388845770760058E7 0.0026754844584119166 0.018546315522073996 0.9973245155415881 -0.018546315522073992 0.9973245155415881 -0.018546315522073992 0.0026754844584119166 0.018546315522073996
5.470171017884717E7 0.002702298738303595 0.018813435827583838 0.9972977012616965 -0.01881343582758384 0.9972977012616965 -0.01881343582758384 0.002702298738303595 0.018813435827583838
5.5527235771465644E7 0.0027296015016070457 0.019084323651256542 0.9972703984983929 -0.019084323651256542 0.9972703984983929 -0.019084323651256542 0.0027296015016070457 0.019084323651256542
5.6365219704085544E7 0.002757399115111488 0.019359032167884822 0.9972426008848886 -0.019359032167884822 0.9972426008848886 -0.019359032167884822 0.002757399115111488 0.019359032167884822
5.721584999054556E7 0.0027856980049673144 0.019637615489176054 0.9972143019950327 -0.019637615489176054 0.9972143019950327 -0.019637615489176054 0.0027856980049673144 0.019637615489176054
5.807931748207712E7 0.002814504667295269 0.019920128687363776 0.9971854953327048 -0.019920128687363776 0.9971854953327048 -0.019920128687363776 0.002814504667295269 0.019920128687363776
5.8955815910124585E7 0.0028438256797386173 0.020206627818951956 0.9971561743202614 -0.020206627818951956 0.9971561743202614 -0.020206627818951956 0.0028438256797386173 0.020206627818951956
5.984554192981184E7 0.002873667713973901 0.02049716994854738 0.9971263322860261 -0.02049716994854738 0.9971263322860261 -0.02049716994854738 0.002873667713973901 0.02049716994854738
6.074869516406457E7 0.002904037549192926 0.020791813172733882 0.997095962450807 -0.020791813172733882 0.997095962450807 -0.020791813172733882 0.002904037549192926 0.020791813172733882
6.166547824839868E7 0.0029349420865656018 0.021090616643941528 0.9970650579134342 -0.021090616643941528 0.9970650579134342 -0.021090616643941528 0.0029349420865656018 0.021090616643941528
6.2596096876384385E7 0.002966388364689936 0.02139364059426217 0.9970336116353099 -0.02139364059426217 0.9970336116353099 -0.02139364059426217 0.002966388364689936 0.02139364059426217
6.354075984579668E7 0.0029983835760323332 0.021700946359163257 0.9970016164239677 -0.02170094635916326 0.9970016164239677 -0.02170094635916326 0.0029983835760323332 0.021700946359163257
6.449967910546205E7 0.003030935084357743 0.022012596401050306 0.9969690649156424 -0.022012596401050306 0.9969690649156424 -0.022012596401050306 0.003030935084357743 0.022012596401050306
6.547306980281226E7 0.00306405044314597 0.022328654332629472 0.9969359495568539 -0.022328654332629472 0.9969359495568539 -0.022328654332629472 0.00306405044314597 0.022328654332629472
6.646115033215589E7 0.0030977374149867357 0.022649184940021064 0.9969022625850135 -0.022649184940021064 0.9969022625850135 -0.022649184940021064 0.0030977374149867357 0.022649184940021064
6.746414238367817E7 0.0031320039919427384 0.022974254205575736 0.9968679960080573 -0.022974254205575736 0.9968679960080573 -0.022974254205575736 0.0031320039919427384 0.022974254205575736
6.848227099318038E7 0.003166858416866446 0.023303929330346383 0.9968331415831334 -0.023303929330346383 0.9968331415831334 -0.023303929330346383 0.003166858416866446 0.023303929330346383
6.951576459256999E7 0.0032023092056528667 0.023638278756169022 0.9967976907943471 -0.023638278756169022 0.9967976907943471 -0.023638278756169022 0.0032023092056528667 0.023638278756169022
7.056485506111258E7 0.003238365170407289 0.023977372187308266 0.9967616348295927 -0.023977372187308263 0.9967616348295927 -0.023977372187308263 0.003238365170407289 0.023977372187308266
7.162977777745734E7 0.0032750354435037063 0.024321280611624398 0.9967249645564963 -0.024321280611624398 0.9967249645564963 -0.024321280611624398 0.0032750354435037063 0.024321280611624398
7.271077167244768E7 0.0033123295025065495 0.02467007632122122 0.9966876704974935 -0.024670076321221215 0.9966876704974935 -0.024670076321221215 0.0033123295025065495 0.02467007632122122
7.380807928272885E7 0.003350257195925495 0.025023832932536256 0.9966497428040745 -0.025023832932536252 0.9966497428040745 -0.025023832932536252 0.003350257195925495 0.025023832932536256
7.492194680516452E7 0.0033888287697702874 0.025382625405837276 0.9966111712302296 -0.025382625405837276 0.9966111712302296 -0.025382625405837276 0.0033888287697702874 0.025382625405837276
7.60526241520746E7 0.003428054894870216 0.025746530064092693 0.9965719451051298 -0.025746530064092693 0.9965719451051298 -0.025746530064092693 0.003428054894870216 0.025746530064092693
7.720036500730675E7 0.0034679466949204094 0.02611562461118537 0.9965320533050797 -0.026115624611185374 0.9965320533050797 -0.026115624611185374 0.0034679466949204094 0.02611562461118537
7.836542688315398E7 0.0035085157752153765 0.02648998814944388 0.9964914842247846 -0.02648998814944388 0.9964914842247846 -0.02648998814944388 0.0035085157752153765 0.02648998814944388
7.954807117813127E7 0.0035497742520284375 0.026869701196468095 0.9964502257479714 -0.026869701196468095 0.9964502257479714 -0.026869701196468095 0.0035497742520284375 0.026869701196468095
8.074856323562416E7 0.0035917347825943037 0.02725484570122957 0.9964082652174056 -0.02725484570122957 0.9964082652174056 -0.02725484570122957 0.0035917347825943037 0.02725484570122957
8.196717240342227E7 0.0036344105956511597 0.027645505059431454 0.9963655894043488 -0.027645505059431454 0.9963655894043488 -0.027645505059431454 0.0036344105956511597 0.027645505059431454
8.320417209415154E7 0.0036778155224978116 0.02804176412811621 0.9963221844775022 -0.02804176412811621 0.9963221844775022 -0.02804176412811621 0.0036778155224978116 0.02804176412811621
8.445983984661816E7 0.0037219640285211077 0.028443709239513178 0.996278035971479 -0.02844370923951317 0.996278035971479 -0.02844370923951317 0.0037219640285211077 0.028443709239513178
8.573445738807854E7 0.003766871245148995 0.028851428214122673 0.996233128754851 -0.028851428214122673 0.996233128754851 -0.028851428214122673 0.003766871245148995 0.028851428214122673
8.702831069744885E7 0.0038125530021846984 0.029265010373036297 0.9961874469978155 -0.029265010373036297 0.9961874469978155 -0.029265010373036297 0.0038125530021846984 0.029265010373036297
8.834169006946853E7 0.0038590258604784596 0.02968454654949798 0.9961409741395215 -0.029684546549497984 0.9961409741395215 -0.029684546549497984 0.0038590258604784596 0.02968454654949798
8.96748901798321E7 0.003906307144894177 0.030110129099713553 0.9960936928551056 -0.030110129099713553 0.9960936928551056 -0.030110129099713553 0.003906307144894177 0.030110129099713553
9.1028210151304E7 0.003954414977529692 0.030541851912920474 0.9960455850224704 -0.030541851912920474 0.9960455850224704 -0.030541851912920474 0.003954414977529692 0.030541851912920474
9.240195362083109E7 0.0040033683111512655 0.030979810420733143 0.9959966316888488 -0.030979810420733143 0.9959966316888488 -0.030979810420733143 0.0040033683111512655 0.030979810420733143
9.379642880766791E7 0.004053186962804732 0.03142410160578264 0.9959468130371953 -0.03142410160578264 0.9959468130371953 -0.03142410160578264 0.004053186962804732 0.03142410160578264
9.521194858253023E7 0.004103891647568135 0.03187482400967259 0.995896108352432 -0.03187482400967259 0.995896108352432 -0.03187482400967259 0.004103891647568135 0.03187482400967259
9.664883053779216E7 0.004155504012413288 0.03233207774027659 0.9958444959875868 -0.03233207774027659 0.9958444959875868 -0.03233207774027659 0.004155504012413288 0.03233207774027659
9.810739705874248E7 0.004208046670146461 0.03279596447840478 0.9957919533298535 -0.03279596447840477 0.9957919533298535 -0.03279596447840477 0.004208046670146461 0.03279596447840478
9.958797539591652E7 0.00426154323340147 0.03326658748387009 0.9957384567665987 -0.0332665874838701 0.9957384567665987 -0.0332665874838701 0.00426154323340147 0.03326658748387009
1.0109089773851961E8 0.004316018348661707 0.03374405160098688 0.9956839816513384 -0.03374405160098689 0.9956839816513384 -0.03374405160098689 0.004316018348661707 0.03374405160098688
1.0261650128895843E8 0.0043714977302910215 0.03422846326353649 0.9956285022697089 -0.03422846326353649 0.9956285022697089 -0.03422846326353649 0.0043714977302910215 0.03422846326353649
1.0416512833849736E8 0.0044280081945569085 0.03471993049923629 0.995571991805443 -0.03471993049923629 0.995571991805443 -0.03471993049923629 0.0044280081945569085 0.03471993049923629
1.0573712634405641E8 0.0044855776936331485 0.03521856293374972 0.9955144223063667 -0.03521856293374972 0.9955144223063667 -0.03521856293374972 0.0044855776936331485 0.03521856293374972
1.0733284800616828E8 0.0045442353495726935 0.03572447179427643 0.9954557646504273 -0.03572447179427643 0.9954557646504273 -0.03572447179427643 0.0045442353495726935 0.03572447179427643
1.0895265134811176E8 0.004604011488245471 0.03623776991276185 0.9953959885117545 -0.03623776991276185 0.9953959885117545 -0.03623776991276185 0.004604011488245471 0.03623776991276185
1.1059689979623953E8 0.004664937673239469 0.0367585717287665 0.9953350623267603 -0.036758571728766495 0.9953350623267603 -0.036758571728766495 0.004664937673239469 0.0367585717287665
1.1226596226151802E8 0.004727046739727349 0.037286993292035234 0.9952729532602725 -0.037286993292035234 0.9952729532602725 -0.037286993292035234 0.004727046739727349 0.037286993292035234
1.1396021322229806E8 0.00479037282830442 0.037823152264806224 0.9952096271716956 -0.037823152264806224 0.9952096271716956 -0.037823152264806224 0.00479037282830442 0.037823152264806224
1.1568003280833441E8 0.00485495141880775 0.03836716792389994 0.9951450485811921 -0.03836716792389994 0.9951450485811921 -0.03836716792389994 0.00485495141880775 0.03836716792389994
1.1742580688607343E8 0.004920819364129518 0.03891916116262672 0.9950791806358705 -0.03891916116262672 0.9950791806358705 -0.03891916116262672 0.004920819364129518 0.03891916116262672
1.1919792714522783E8 0.004988014924041371 0.03947925449255114 0.9950119850759584 -0.03947925449255113 0.9950119850759584 -0.03947925449255113 0.004988014924041371 0.03947925449255114
1.2099679118665792E8 0.005056577799049906 0.04004757204515045 0.99494342220095 -0.04004757204515044 0.99494342220095 -0.04004757204515044 0.005056577799049906 0.04004757204515045
1.2282280261157903E8 0.0051265491643065035 0.04062423957340205 0.9948734508356935 -0.04062423957340205 0.9948734508356935 -0.04062423957340205 0.0051265491643065035 0.04062423957340205
1.2467637111211549E8 0.005197971703597994 0.041209384453334684 0.994802028296402 -0.041209384453334684 0.994802028296402 -0.041209384453334684 0.005197971703597994 0.041209384453334684
1.265579125632208E8 0.00527088964344734 0.04180313568557517 0.9947291103565528 -0.04180313568557518 0.9947291103565528 -0.04180313568557518 0.00527088964344734 0.04180313568557517
1.284678491159853E8 0.0053453487873563466 0.04240562389692116 0.9946546512126436 -0.04240562389692116 0.9946546512126436 -0.04240562389692116 0.0053453487873563466 0.04240562389692116
1.3040660929235186E8 0.005421396550225008 0.04301698134196862 0.9945786034497751 -0.04301698134196862 0.9945786034497751 -0.04301698134196862 0.005421396550225008 0.04301698134196862
1.3237462808126101E8 0.00549908199298415 0.043637341904819604 0.9945009180070158 -0.04363734190481961 0.9945009180070158 -0.04363734190481961 0.00549908199298415 0.043637341904819604
1.3437234703624701E8 0.005578455857480597 0.04426684110089523 0.9944215441425196 -0.04426684110089524 0.9944215441425196 -0.04426684110089524 0.005578455857480597 0.04426684110089523
1.364002143745067E8 0.00565957060165564 0.04490561607887467 0.9943404293983443 -0.04490561607887467 0.9943404293983443 -0.04490561607887467 0.00565957060165564 0.04490561607887467
1.3845868507746372E8 0.005742480435059663 0.04555380562278076 0.9942575195649405 -0.04555380562278076 0.9942575195649405 -0.04555380562278076 0.005742480435059663 0.04555380562278076
1.405482209928499E8 0.005827241354747118 0.046211550154228107 0.9941727586452529 -0.046211550154228107 0.9941727586452529 -0.046211550154228107 0.005827241354747118 0.046211550154228107
1.426692909383278E8 0.005913911181597714 0.04687899173484997 0.9940860888184022 -0.04687899173484997 0.9940860888184022 -0.04687899173484997 0.005913911181597714 0.04687899173484997
1.4482237080667645E8 0.0060025495971106025 0.04755627406891499 0.9939974504028896 -0.04755627406891499 0.9939974504028896 -0.04755627406891499 0.0060025495971106025 0.04755627406891499
1.4700794367256513E8 0.0060932181807198 0.04824354250614545 0.9939067818192802 -0.04824354250614545 0.9939067818192802 -0.04824354250614545 0.0060932181807198 0.04824354250614545
1.492264999009378E8 0.006185980447679715 0.04894094404474421 0.9938140195523204 -0.04894094404474421 0.9938140195523204 -0.04894094404474421 0.006185980447679715 0.04894094404474421
1.5147853725703382E8 0.006280901887570674 0.04964862733463668 0.9937190981124292 -0.04964862733463667 0.9937190981124292 -0.04964862733463667 0.006280901887570674 0.04964862733463668
1.5376456101806876E8 0.006378050003474992 0.050366742680931956 0.993621949996525 -0.050366742680931956 0.993621949996525 -0.050366742680931956 0.006378050003474992 0.050366742680931956
1.5608508408660066E8 0.0064774943518747735 0.05109544204760481 0.9935225056481254 -0.051095442047604814 0.9935225056481254 -0.051095442047604814 0.0064774943518747735 0.05109544204760481
1.5844062710560706E8 0.006579306583323102 0.05183487906139873 0.993420693416677 -0.05183487906139873 0.993420693416677 -0.05183487906139873 0.006579306583323102 0.05183487906139873
1.6083171857529896E8 0.0066835604839409115 0.05258520901594851 0.9933164395160591 -0.05258520901594851 0.9933164395160591 -0.05258520901594851 0.0066835604839409115 0.05258520901594851
1.632588949716973E8 0.006790332017792216 0.0533465888761193 0.9932096679822079 -0.0533465888761193 0.9932096679822079 -0.0533465888761193 0.006790332017792216 0.0533465888761193
1.6572270086699936E8 0.006899699370190776 0.0541191772825571 0.993100300629809 -0.0541191772825571 0.993100300629809 -0.0541191772825571 0.006899699370190776 0.0541191772825571
1.6822368905176118E8 0.007011742991991833 0.05490313455644459 0.9929882570080081 -0.05490313455644459 0.9929882570080081 -0.05490313455644459 0.007011742991991833 0.05490313455644459
1.7076242065892437E8 0.007126545644922928 0.05569862270445517 0.9928734543550769 -0.05569862270445517 0.9928734543550769 -0.05569862270445517 0.007126545644922928 0.05569862270445517
1.7333946528971428E8 0.007244192448008435 0.056505805423896355 0.9927558075519916 -0.056505805423896355 0.9927558075519916 -0.056505805423896355 0.007244192448008435 0.056505805423896355
1.7595540114143828E8 0.007364770925142908 0.05732484810803273 0.9926352290748572 -0.05732484810803274 0.9926352290748572 -0.05732484810803274 0.007364770925142908 0.05732484810803273
1.786108151372127E8 0.00748837105386915 0.05815591785157827 0.9925116289461308 -0.05815591785157827 0.9925116289461308 -0.05815591785157827 0.00748837105386915 0.05815591785157827
1.8130630305764765E8 0.007615085315417632 0.05899918345634622 0.9923849146845822 -0.05899918345634622 0.9923849146845822 -0.05899918345634622 0.007615085315417632 0.05899918345634622
1.840424696745189E8 0.007745008746064642 0.05985481543704382 0.9922549912539356 -0.05985481543704382 0.9922549912539356 -0.05985481543704382 0.007745008746064642 0.05985481543704382
1.8681992888645732E8 0.007878238989867963 0.06072298602719969 0.992121761010132 -0.06072298602719967 0.992121761010132 -0.06072298602719967 0.007878238989867963 0.06072298602719969
1.8963930385668582E8 0.008014876352839654 0.06160386918520918 0.9919851236471603 -0.06160386918520918 0.9919851236471603 -0.06160386918520918 0.008014876352839654 0.06160386918520918
1.92501227152835E8 0.008155023858617133 0.06249764060048372 0.991844976141383 -0.06249764060048372 0.991844976141383 -0.06249764060048372 0.008155023858617133 0.06249764060048372
1.9540634088886917E8 0.008298787305695362 0.06340447769968906 0.9917012126943046 -0.06340447769968906 0.9917012126943046 -0.06340447769968906 0.008298787305695362 0.06340447769968906
1.983552968691535E8 0.008446275326284402 0.06432455965305618 0.9915537246737154 -0.06432455965305618 0.9915537246737154 -0.06432455965305618 0.008446275326284402 0.06432455965305618
2.0134875673469606E8 0.008597599446858986 0.06525806738074894 0.9914024005531411 -0.06525806738074892 0.9914024005531411 -0.06525806738074892 0.008597599446858986 0.06525806738074894
2.0438739211159652E8 0.008752874150468623 0.06620518355927066 0.9912471258495313 -0.06620518355927066 0.9912471258495313 -0.06620518355927066 0.008752874150468623 0.06620518355927066
2.074718847617352E8 0.008912216940879451 0.06716609262789246 0.9910877830591206 -0.06716609262789247 0.9910877830591206 -0.06716609262789247 0.008912216940879451 0.06716609262789246
2.106029267357361E8 0.009075748408621399 0.06814098079508293 0.9909242515913785 -0.06814098079508293 0.9909242515913785 -0.06814098079508293 0.009075748408621399 0.06814098079508293
2.1378122052823865E8 0.009243592299017618 0.06913003604492081 0.9907564077009823 -0.06913003604492081 0.9907564077009823 -0.06913003604492081 0.009243592299017618 0.06913003604492081
2.1700747923551247E8 0.009415875582275775 0.07013344814346756 0.9905841244177244 -0.07013344814346756 0.9905841244177244 -0.07013344814346756 0.009415875582275775 0.07013344814346756
2.2028242671545094E8 0.009592728525724686 0.07115140864507882 0.9904072714742753 -0.07115140864507882 0.9904072714742753 -0.07115140864507882 0.009592728525724686 0.07115140864507882
2.23606797749979E8 0.00977428476828319 0.07218411089862932 0.9902257152317168 -0.07218411089862932 0.9902257152317168 -0.07218411089862932 0.00977428476828319 0.07218411089862932
2.2698133820991236E8 0.009960681397252093 0.0732317500536252 0.990039318602748 -0.0732317500536252 0.990039318602748 -0.0732317500536252 0.009960681397252093 0.0732317500536252
2.3040680522230446E8 0.010152059027524316 0.07429452306617572 0.9898479409724756 -0.0742945230661757 0.9898479409724756 -0.0742945230661757 0.010152059027524316 0.07429452306617572
2.338839673403185E8 0.010348561883312572 0.07537262870479293 0.9896514381166873 -0.07537262870479293 0.9896514381166873 -0.07537262870479293 0.010348561883312572 0.07537262870479293
2.37413604715664E8 0.010550337882498822 0.07646626755598619 0.9894496621175011 -0.07646626755598619 0.9894496621175011 -0.07646626755598619 0.010550337882498822 0.07646626755598619
2.4099650927363476E8 0.01075753872371408 0.07757564202961362 0.9892424612762861 -0.07757564202961362 0.9892424612762861 -0.07757564202961362 0.01075753872371408 0.07757564202961362
2.446334848907889E8 0.010970319976262823 0.07870095636395096 0.9890296800237371 -0.07870095636395096 0.9890296800237371 -0.07870095636395096 0.010970319976262823 0.07870095636395096
