!Murata Part Number: LQG15HN2N2B02
!These Parameters are Measured in Series Mode Connection
!       o--[Z]--o
!Port1              Port2
!       o-------o
!
!Freq. Start=50[MHz] Stop=20[GHz], 401[Steps]
# Hz S RI R 50
!Freq.(Hz) S11(Real) S11(Imag) S21(Real) S21(Imag) S12(Real) S12(Imag) S22(Real) S22(Imag)
5.0E7 7.99734501320556E-4 0.006256211206408461 0.9992002654986792 -0.00625621120640846 0.9992002654986792 -0.00625621120640846 7.99734501320556E-4 0.006256211206408461
5.0754570186123446E7 8.06077070135679E-4 0.006346791953208773 0.9991939229298644 -0.006346791953208773 0.9991939229298644 -0.006346791953208773 8.06077070135679E-4 0.006346791953208773
5.152052789556263E7 8.125147003066401E-4 0.006438670841413393 0.9991874852996935 -0.006438670841413393 0.9991874852996935 -0.006438670841413393 8.125147003066401E-4 0.006438670841413393
5.229804498202928E7 8.190484547713809E-4 0.006531866471097446 0.9991809515452286 -0.006531866471097446 0.9991809515452286 -0.006531866471097446 8.190484547713809E-4 0.006531866471097446
5.308729589274893E7 8.256793857376795E-4 0.006626397718824993 0.9991743206142623 -0.006626397718824994 0.9991743206142623 -0.006626397718824994 8.256793857376795E-4 0.006626397718824993
5.388845770760058E7 8.324085336353095E-4 0.006722283743878265 0.9991675914663647 -0.006722283743878265 0.9991675914663647 -0.006722283743878265 8.324085336353095E-4 0.006722283743878265
5.470171017884717E7 8.392369261709596E-4 0.006819543994714956 0.999160763073829 -0.006819543994714956 0.999160763073829 -0.006819543994714956 8.392369261709596E-4 0.006819543994714956
5.5527235771465644E7 8.461655774991376E-4 0.006918198215652106 0.9991538344225008 -0.006918198215652107 0.9991538344225008 -0.006918198215652107 8.461655774991376E-4 0.006918198215652106
5.6365219704085544E7 8.531954875223112E-4 0.007018266453774233 0.9991468045124776 -0.007018266453774233 0.9991468045124776 -0.007018266453774233 8.531954875223112E-4 0.007018266453774233
5.721584999054556E7 8.603276413335347E-4 0.007119769066062431 0.9991396723586666 -0.007119769066062431 0.9991396723586666 -0.007119769066062431 8.603276413335347E-4 0.007119769066062431
5.807931748207712E7 8.675630088146926E-4 0.007222726726740224 0.9991324369911855 -0.007222726726740224 0.9991324369911855 -0.007222726726740224 8.675630088146926E-4 0.007222726726740224
5.8955815910124585E7 8.749025444033367E-4 0.007327160434830994 0.9991250974555967 -0.007327160434830994 0.9991250974555967 -0.007327160434830994 8.749025444033367E-4 0.007327160434830994
5.984554192981184E7 8.823471870408531E-4 0.0074330915219209025 0.9991176528129592 -0.0074330915219209025 0.9991176528129592 -0.0074330915219209025 8.823471870408531E-4 0.0074330915219209025
6.074869516406457E7 8.898978603143582E-4 0.007540541660120217 0.9991101021396857 -0.007540541660120215 0.9991101021396857 -0.007540541660120215 8.898978603143582E-4 0.007540541660120217
6.166547824839868E7 8.975554728043608E-4 0.007649532870215123 0.9991024445271957 -0.007649532870215121 0.9991024445271957 -0.007649532870215121 8.975554728043608E-4 0.007649532870215123
6.2596096876384385E7 9.053209186497102E-4 0.007760087530001081 0.9990946790813505 -0.007760087530001081 0.9990946790813505 -0.007760087530001081 9.053209186497102E-4 0.007760087530001081
6.354075984579668E7 9.131950783408516E-4 0.007872228382788034 0.9990868049216592 -0.007872228382788036 0.9990868049216592 -0.007872228382788036 9.131950783408516E-4 0.007872228382788034
6.449967910546205E7 9.211788197517286E-4 0.007985978546066764 0.9990788211802484 -0.007985978546066764 0.9990788211802484 -0.007985978546066764 9.211788197517286E-4 0.007985978546066764
6.547306980281226E7 9.292729994200206E-4 0.008101361520325045 0.99907072700058 -0.008101361520325047 0.99907072700058 -0.008101361520325047 9.292729994200206E-4 0.008101361520325045
6.646115033215589E7 9.3747846408459E-4 0.008218401198001397 0.9990625215359156 -0.008218401198001398 0.9990625215359156 -0.008218401198001398 9.3747846408459E-4 0.008218401198001397
6.746414238367817E7 9.457960524881878E-4 0.008337121872563474 0.9990542039475119 -0.008337121872563474 0.9990542039475119 -0.008337121872563474 9.457960524881878E-4 0.008337121872563474
6.848227099318038E7 9.542265974525453E-4 0.008457548247697629 0.9990457734025474 -0.00845754824769763 0.9990457734025474 -0.00845754824769763 9.542265974525453E-4 0.008457548247697629
6.951576459256999E7 9.627709282320036E-4 0.008579705446595464 0.9990372290717681 -0.008579705446595464 0.9990372290717681 -0.008579705446595464 9.627709282320036E-4 0.008579705446595464
7.056485506111258E7 9.714298731508012E-4 0.008703619021322724 0.9990285701268492 -0.008703619021322724 0.9990285701268492 -0.008703619021322724 9.714298731508012E-4 0.008703619021322724
7.162977777745734E7 9.802042625280465E-4 0.008829314962255506 0.999019795737472 -0.008829314962255506 0.999019795737472 -0.008829314962255506 9.802042625280465E-4 0.008829314962255506
7.271077167244768E7 9.890949318932772E-4 0.008956819707568318 0.9990109050681067 -0.008956819707568318 0.9990109050681067 -0.008956819707568318 9.890949318932772E-4 0.008956819707568318
7.380807928272885E7 9.981027254943274E-4 0.00908616015275838 0.9990018972745057 -0.00908616015275838 0.9990018972745057 -0.00908616015275838 9.981027254943274E-4 0.00908616015275838
7.492194680516452E7 0.0010072285000980185 0.009217363660190273 0.9989927714999021 -0.009217363660190273 0.9989927714999021 -0.009217363660190273 0.0010072285000980185 0.009217363660190273
7.60526241520746E7 0.001016473129082976 0.009350458068645135 0.9989835268709171 -0.009350458068645135 0.9989835268709171 -0.009350458068645135 0.001016473129082976 0.009350458068645135
7.720036500730675E7 0.0010258375068226192 0.009485471702858541 0.9989741624931774 -0.009485471702858541 0.9989741624931774 -0.009485471702858541 0.0010258375068226192 0.009485471702858541
7.836542688315398E7 0.0010353225533551176 0.009622433383031363 0.9989646774466449 -0.009622433383031363 0.9989646774466449 -0.009622433383031363 0.0010353225533551176 0.009622433383031363
7.954807117813127E7 0.001044929219335887 0.009761372434298237 0.9989550707806641 -0.009761372434298237 0.9989550707806641 -0.009761372434298237 0.001044929219335887 0.009761372434298237
8.074856323562416E7 0.0010546584912669455 0.00990231869613857 0.998945341508733 -0.00990231869613857 0.998945341508733 -0.00990231869613857 0.0010546584912669455 0.00990231869613857
8.196717240342227E7 0.001064511396996254 0.010045302531715473 0.9989354886030039 -0.010045302531715473 0.9989354886030039 -0.010045302531715473 0.001064511396996254 0.010045302531715473
8.320417209415154E7 0.0010744890114789962 0.010190354837128698 0.9989255109885208 -0.010190354837128698 0.9989255109885208 -0.010190354837128698 0.0010744890114789962 0.010190354837128698
8.445983984661816E7 0.0010845924627916161 0.010337507050568179 0.9989154075372085 -0.010337507050568177 0.9989154075372085 -0.010337507050568177 0.0010845924627916161 0.010337507050568179
8.573445738807854E7 0.00109482293838836 0.010486791161355697 0.9989051770616116 -0.010486791161355697 0.9989051770616116 -0.010486791161355697 0.00109482293838836 0.010486791161355697
8.702831069744885E7 0.001105181691589063 0.010638239718863 0.9988948183084109 -0.010638239718863 0.9988948183084109 -0.010638239718863 0.001105181691589063 0.010638239718863
8.834169006946853E7 0.0011156700482859647 0.01079188584129567 0.9988843299517142 -0.01079188584129567 0.9988843299517142 -0.01079188584129567 0.0011156700482859647 0.01079188584129567
8.96748901798321E7 0.0011262894138564996 0.010947763224333142 0.9988737105861435 -0.010947763224333143 0.9988737105861435 -0.010947763224333143 0.0011262894138564996 0.010947763224333142
9.1028210151304E7 0.0011370412802682093 0.01110590614961631 0.9988629587197319 -0.01110590614961631 0.9988629587197319 -0.01110590614961631 0.0011370412802682093 0.01110590614961631
9.240195362083109E7 0.0011479272333612762 0.011266349493075449 0.9988520727666389 -0.011266349493075449 0.9988520727666389 -0.011266349493075449 0.0011479272333612762 0.011266349493075449
9.379642880766791E7 0.001158948960293575 0.011429128733092408 0.9988410510397066 -0.011429128733092408 0.9988410510397066 -0.011429128733092408 0.001158948960293575 0.011429128733092408
9.521194858253023E7 0.0011701082571326882 0.011594279958492187 0.9988298917428673 -0.011594279958492187 0.9988298917428673 -0.011594279958492187 0.0011701082571326882 0.011594279958492187
9.664883053779216E7 0.001181407036578969 0.0117618398763607 0.9988185929634211 -0.0117618398763607 0.9988185929634211 -0.0117618398763607 0.001181407036578969 0.0117618398763607
9.810739705874248E7 0.0011928473358034958 0.0119318458196865 0.9988071526641966 -0.0119318458196865 0.9988071526641966 -0.0119318458196865 0.0011928473358034958 0.0119318458196865
9.958797539591652E7 0.001204431324384618 0.012104335754825876 0.9987955686756151 -0.012104335754825876 0.9987955686756151 -0.012104335754825876 0.001204431324384618 0.012104335754825876
1.0109089773851961E8 0.0012161613123268234 0.012279348288792128 0.9987838386876732 -0.012279348288792128 0.9987838386876732 -0.012279348288792128 0.0012161613123268234 0.012279348288792128
1.0261650128895843E8 0.0012280397581457127 0.012456922676371038 0.9987719602418543 -0.012456922676371038 0.9987719602418543 -0.012456922676371038 0.0012280397581457127 0.012456922676371038
1.0416512833849736E8 0.001240069277003156 0.012637098827066219 0.9987599307229968 -0.012637098827066219 0.9987599307229968 -0.012637098827066219 0.001240069277003156 0.012637098827066219
1.0573712634405641E8 0.00125225264887698 0.012819917311879071 0.9987477473511231 -0.012819917311879071 0.9987477473511231 -0.012819917311879071 0.00125225264887698 0.012819917311879071
1.0733284800616828E8 0.00126459282675004 0.013005419369929624 0.9987354071732499 -0.013005419369929624 0.9987354071732499 -0.013005419369929624 0.00126459282675004 0.013005419369929624
1.0895265134811176E8 0.0012770929448040552 0.013193646914925788 0.9987229070551957 -0.013193646914925788 0.9987229070551957 -0.013193646914925788 0.0012770929448040552 0.013193646914925788
1.1059689979623953E8 0.00128975632660425 0.01338464254148956 0.9987102436733957 -0.01338464254148956 0.9987102436733957 -0.01338464254148956 0.00128975632660425 0.01338464254148956
1.1226596226151802E8 0.0013025864932616014 0.013578449531350168 0.9986974135067386 -0.013578449531350168 0.9986974135067386 -0.013578449531350168 0.0013025864932616014 0.013578449531350168
1.1396021322229806E8 0.0013155871715603287 0.013775111859415093 0.9986844128284398 -0.013775111859415093 0.9986844128284398 -0.013775111859415093 0.0013155871715603287 0.013775111859415093
1.1568003280833441E8 0.0013287623020391687 0.013974674199730799 0.9986712376979611 -0.013974674199730799 0.9986712376979611 -0.013974674199730799 0.0013287623020391687 0.013974674199730799
1.1742580688607343E8 0.0013421160470159753 0.014177181931346173 0.998657883952984 -0.014177181931346176 0.998657883952984 -0.014177181931346176 0.0013421160470159753 0.014177181931346173
1.1919792714522783E8 0.0013556527985462401 0.01438268114409233 0.9986443472014539 -0.014382681144092326 0.9986443472014539 -0.014382681144092326 0.0013556527985462401 0.01438268114409233
1.2099679118665792E8 0.0013693771863072099 0.014591218644293186 0.9986306228136927 -0.014591218644293186 0.9986306228136927 -0.014591218644293186 0.0013693771863072099 0.014591218644293186
1.2282280261157903E8 0.001383294085400442 0.01480284196042205 0.9986167059145997 -0.01480284196042205 0.9986167059145997 -0.01480284196042205 0.001383294085400442 0.01480284196042205
1.2467637111211549E8 0.0013974086240667882 0.015017599348719666 0.9986025913759332 -0.015017599348719666 0.9986025913759332 -0.015017599348719666 0.0013974086240667882 0.015017599348719666
1.265579125632208E8 0.0014117261913090353 0.015235539798790053 0.9985882738086909 -0.015235539798790053 0.9985882738086909 -0.015235539798790053 0.0014117261913090353 0.015235539798790053
1.284678491159853E8 0.0014262524444185977 0.015456713039190393 0.9985737475555814 -0.015456713039190393 0.9985737475555814 -0.015456713039190393 0.0014262524444185977 0.015456713039190393
1.3040660929235186E8 0.0014409933164038925 0.015681169543031778 0.9985590066835959 -0.015681169543031778 0.9985590066835959 -0.015681169543031778 0.0014409933164038925 0.015681169543031778
1.3237462808126101E8 0.0014559550233192635 0.0159089605336078 0.9985440449766806 -0.0159089605336078 0.9985440449766806 -0.0159089605336078 0.0014559550233192635 0.0159089605336078
1.3437234703624701E8 0.0014711440714944418 0.016140137990067655 0.9985288559285055 -0.016140137990067655 0.9985288559285055 -0.016140137990067655 0.0014711440714944418 0.016140137990067655
1.364002143745067E8 0.0014865672646657887 0.01637475465315098 0.9985134327353341 -0.01637475465315098 0.9985134327353341 -0.01637475465315098 0.0014865672646657887 0.01637475465315098
1.3845868507746372E8 0.0015022317110116572 0.016612864031001193 0.9984977682889884 -0.016612864031001193 0.9984977682889884 -0.016612864031001193 0.0015022317110116572 0.016612864031001193
1.405482209928499E8 0.00151814483009531 0.016854520405073858 0.9984818551699047 -0.016854520405073858 0.9984818551699047 -0.016854520405073858 0.00151814483009531 0.016854520405073858
1.426692909383278E8 0.001534314359719927 0.017099778836156758 0.9984656856402802 -0.017099778836156758 0.9984656856402802 -0.017099778836156758 0.001534314359719927 0.017099778836156758
1.4482237080667645E8 0.0015507483627012117 0.01734869517051751 0.9984492516372988 -0.01734869517051751 0.9984492516372988 -0.01734869517051751 0.0015507483627012117 0.01734869517051751
1.4700794367256513E8 0.0015674552335641077 0.017601326046194788 0.9984325447664361 -0.017601326046194788 0.9984325447664361 -0.017601326046194788 0.0015674552335641077 0.017601326046194788
1.492264999009378E8 0.0015844437051709779 0.017857728899448186 0.9984155562948289 -0.017857728899448186 0.9984155562948289 -0.017857728899448186 0.0015844437051709779 0.017857728899448186
1.5147853725703382E8 0.0016017228552895112 0.018117961971381876 0.9983982771447104 -0.018117961971381873 0.9983982771447104 -0.018117961971381873 0.0016017228552895112 0.018117961971381876
1.5376456101806876E8 0.0016193021131093558 0.018382084314756297 0.9983806978868907 -0.018382084314756297 0.9983806978868907 -0.018382084314756297 0.0016193021131093558 0.018382084314756297
1.5608508408660066E8 0.00163719126571721 0.018650155801001857 0.9983628087342827 -0.018650155801001857 0.9983628087342827 -0.018650155801001857 0.00163719126571721 0.018650155801001857
1.5844062710560706E8 0.0016554004645407464 0.018922237127447856 0.9983445995354592 -0.018922237127447856 0.9983445995354592 -0.018922237127447856 0.0016554004645407464 0.018922237127447856
1.6083171857529896E8 0.0016739402317723685 0.01919838982477967 0.9983260597682275 -0.019198389824779675 0.9983260597682275 -0.019198389824779675 0.0016739402317723685 0.01919838982477967
1.632588949716973E8 0.001692821466784298 0.01947867626473626 0.9983071785332156 -0.019478676264736258 0.9983071785332156 -0.019478676264736258 0.001692821466784298 0.01947867626473626
1.6572270086699936E8 0.001712055452546965 0.019763159668059825 0.998287944547453 -0.019763159668059825 0.998287944547453 -0.019763159668059825 0.001712055452546965 0.019763159668059825
1.6822368905176118E8 0.0017316538620630755 0.020051904112708643 0.9982683461379369 -0.02005190411270864 0.9982683461379369 -0.02005190411270864 0.0017316538620630755 0.020051904112708643
1.7076242065892437E8 0.0017516287648301687 0.02034497454234407 0.9982483712351699 -0.020344974542344074 0.9982483712351699 -0.020344974542344074 0.0017516287648301687 0.02034497454234407
1.7333946528971428E8 0.0017719926333446575 0.020642436775101525 0.9982280073666555 -0.020642436775101525 0.9982280073666555 -0.020642436775101525 0.0017719926333446575 0.020642436775101525
1.7595540114143828E8 0.0017927583496607155 0.020944357512655335 0.998207241650339 -0.020944357512655335 0.998207241650339 -0.020944357512655335 0.0017927583496607155 0.020944357512655335
1.786108151372127E8 0.0018139392120175618 0.02125080434958685 0.9981860607879824 -0.02125080434958685 0.9981860607879824 -0.02125080434958685 0.0018139392120175618 0.02125080434958685
1.8130630305764765E8 0.001835548941548869 0.02156184578306436 0.9981644510584512 -0.02156184578306436 0.9981644510584512 -0.02156184578306436 0.001835548941548869 0.02156184578306436
1.840424696745189E8 0.001857601689088212 0.021877551222843725 0.9981423983109119 -0.021877551222843725 0.9981423983109119 -0.021877551222843725 0.001857601689088212 0.021877551222843725
1.8681992888645732E8 0.0018801120420845914 0.02219799100159771 0.9981198879579155 -0.022197991001597712 0.9981198879579155 -0.022197991001597712 0.0018801120420845914 0.02219799100159771
1.8963930385668582E8 0.0019030950316421796 0.02252323638558206 0.9980969049683577 -0.02252323638558206 0.9980969049683577 -0.02252323638558206 0.0019030950316421796 0.02252323638558206
1.92501227152835E8 0.0019265661396985737 0.022853359585646084 0.9980734338603013 -0.022853359585646084 0.9980734338603013 -0.022853359585646084 0.0019265661396985737 0.022853359585646084
1.9540634088886917E8 0.0019505413063559067 0.023188433768595265 0.998049458693644 -0.02318843376859526 0.998049458693644 -0.02318843376859526 0.0019505413063559067 0.023188433768595265
1.983552968691535E8 0.0019750369373793073 0.023528533068913494 0.9980249630626209 -0.023528533068913497 0.9980249630626209 -0.023528533068913497 0.0019750369373793073 0.023528533068913494
2.0134875673469606E8 0.002000069911877293 0.023873732600852262 0.9979999300881227 -0.02387373260085226 0.9979999300881227 -0.02387373260085226 0.002000069911877293 0.023873732600852262
2.0438739211159652E8 0.002025657590178826 0.024224108470894266 0.9979743424098212 -0.02422410847089427 0.9979743424098212 -0.02422410847089427 0.002025657590178826 0.024224108470894266
2.074718847617352E8 0.002051817821921892 0.024579737790598927 0.997948182178078 -0.024579737790598927 0.997948182178078 -0.024579737790598927 0.002051817821921892 0.024579737790598927
2.106029267357361E8 0.0020785689543686807 0.0249406986898373 0.9979214310456314 -0.024940698689837296 0.9979214310456314 -0.024940698689837296 0.0020785689543686807 0.0249406986898373
2.1378122052823865E8 0.002105929840962594 0.025307070330424005 0.9978940701590373 -0.025307070330424005 0.9978940701590373 -0.025307070330424005 0.002105929840962594 0.025307070330424005
2.1700747923551247E8 0.0021339198501426795 0.025678932920154492 0.9978660801498576 -0.025678932920154492 0.9978660801498576 -0.025678932920154492 0.0021339198501426795 0.025678932920154492
2.2028242671545094E8 0.002162558874431222 0.026056367727255 0.9978374411255689 -0.026056367727255 0.9978374411255689 -0.026056367727255 0.002162558874431222 0.026056367727255
2.23606797749979E8 0.002191867339810775 0.026439457095254342 0.9978081326601893 -0.026439457095254342 0.9978081326601893 -0.026439457095254342 0.002191867339810775 0.026439457095254342
2.2698133820991236E8 0.0022218662154071278 0.026828284458285574 0.9977781337845929 -0.02682828445828557 0.9977781337845929 -0.02682828445828557 0.0022218662154071278 0.026828284458285574
2.3040680522230446E8 0.0022525770234953627 0.027222934356827006 0.9977474229765045 -0.027222934356827006 0.9977474229765045 -0.027222934356827006 0.0022525770234953627 0.027222934356827006
2.338839673403185E8 0.0022840218498465245 0.027623492453891427 0.9977159781501533 -0.027623492453891427 0.9977159781501533 -0.027623492453891427 0.0022840218498465245 0.027623492453891427
2.37413604715664E8 0.002316223354433189 0.028030045551673682 0.997683776645567 -0.028030045551673682 0.997683776645567 -0.028030045551673682 0.002316223354433189 0.028030045551673682
2.4099650927363476E8 0.002349204782512795 0.02844268160866626 0.997650795217487 -0.028442681608666268 0.997650795217487 -0.028442681608666268 0.002349204782512795 0.02844268160866626
