!Murata Part Number: LQG15HN7N5J02
!These Parameters are Measured in Series Mode Connection
!       o--[Z]--o
!Port1              Port2
!       o-------o
!
!Freq. Start=50[MHz] Stop=20[GHz], 401[Steps]
# Hz S RI R 50
!Freq.(Hz) S11(Real) S11(Imag) S21(Real) S21(Imag) S12(Real) S12(Imag) S22(Real) S22(Imag)
5.0E7 0.003553320305644944 0.022658804779653943 0.9964466796943551 -0.02265880477965394 0.9964466796943551 -0.02265880477965394 0.003553320305644944 0.022658804779653943
5.0754570186123446E7 0.0035908236083435382 0.02298251876688783 0.9964091763916567 -0.022982518766887828 0.9964091763916567 -0.022982518766887828 0.0035908236083435382 0.02298251876688783
5.152052789556263E7 0.003628988661805891 0.02331075094519765 0.9963710113381941 -0.023310750945197654 0.9963710113381941 -0.023310750945197654 0.003628988661805891 0.02331075094519765
5.229804498202928E7 0.003667823800221355 0.023643565456817887 0.9963321761997788 -0.023643565456817884 0.9963321761997788 -0.023643565456817884 0.003667823800221355 0.023643565456817887
5.308729589274893E7 0.0037073374816814927 0.023981027633568425 0.9962926625183184 -0.023981027633568422 0.9962926625183184 -0.023981027633568422 0.0037073374816814927 0.023981027633568425
5.388845770760058E7 0.003747538306384376 0.024323204026177714 0.9962524616936157 -0.024323204026177714 0.9962524616936157 -0.024323204026177714 0.003747538306384376 0.024323204026177714
5.470171017884717E7 0.0037884350361487525 0.024670162433537642 0.9962115649638512 -0.024670162433537642 0.9962115649638512 -0.024670162433537642 0.0037884350361487525 0.024670162433537642
5.5527235771465644E7 0.0038300366152447547 0.02502197193182523 0.9961699633847552 -0.025021971931825225 0.9961699633847552 -0.025021971931825225 0.0038300366152447547 0.02502197193182523
5.6365219704085544E7 0.0038723521925431966 0.02537870290342477 0.9961276478074568 -0.02537870290342477 0.9961276478074568 -0.02537870290342477 0.0038723521925431966 0.02537870290342477
5.721584999054556E7 0.003915391144981029 0.02574042706558431 0.9960846088550189 -0.02574042706558431 0.9960846088550189 -0.02574042706558431 0.003915391144981029 0.02574042706558431
5.807931748207712E7 0.003959163102335905 0.026107217498740416 0.9960408368976641 -0.026107217498740416 0.9960408368976641 -0.026107217498740416 0.003959163102335905 0.026107217498740416
5.8955815910124585E7 0.004003677973298122 0.02647914867444564 0.995996322026702 -0.02647914867444564 0.995996322026702 -0.02647914867444564 0.004003677973298122 0.02647914867444564
5.984554192981184E7 0.004048945972823549 0.02685629648283396 0.9959510540271765 -0.02685629648283396 0.9959510540271765 -0.02685629648283396 0.004048945972823549 0.02685629648283396
6.074869516406457E7 0.004094977650746608 0.027238738259560878 0.9959050223492534 -0.027238738259560885 0.9959050223492534 -0.027238738259560885 0.004094977650746608 0.027238738259560878
6.166547824839868E7 0.004141783921627957 0.02762655281215709 0.995858216078372 -0.027626552812157083 0.995858216078372 -0.027626552812157083 0.004141783921627957 0.02762655281215709
6.2596096876384385E7 0.004189376095806915 0.028019820445735408 0.9958106239041931 -0.028019820445735408 0.9958106239041931 -0.028019820445735408 0.004189376095806915 0.028019820445735408
6.354075984579668E7 0.004237765911624871 0.02841862298799532 0.995762234088375 -0.028418622987995325 0.995762234088375 -0.028418622987995325 0.004237765911624871 0.02841862298799532
6.449967910546205E7 0.004286965568781594 0.02882304381347035 0.9957130344312185 -0.02882304381347035 0.9957130344312185 -0.02882304381347035 0.004286965568781594 0.02882304381347035
6.547306980281226E7 0.004336987762782845 0.029233167866968075 0.9956630122372172 -0.029233167866968078 0.9956630122372172 -0.029233167866968078 0.004336987762782845 0.029233167866968075
6.646115033215589E7 0.004387845720434222 0.02964908168615595 0.9956121542795656 -0.02964908168615595 0.9956121542795656 -0.02964908168615595 0.004387845720434222 0.02964908168615595
6.746414238367817E7 0.004439553236333051 0.03007087342324971 0.9955604467636668 -0.03007087342324971 0.9955604467636668 -0.03007087342324971 0.004439553236333051 0.03007087342324971
6.848227099318038E7 0.004492124710307307 0.030498632865765773 0.9955078752896926 -0.030498632865765773 0.9955078752896926 -0.030498632865765773 0.004492124710307307 0.030498632865765773
6.951576459256999E7 0.004545575185748335 0.030932451456303443 0.9954544248142516 -0.030932451456303443 0.9954544248142516 -0.030932451456303443 0.004545575185748335 0.030932451456303443
7.056485506111258E7 0.004599920388782005 0.03137242231132734 0.9954000796112179 -0.031372422311327336 0.9954000796112179 -0.031372422311327336 0.004599920388782005 0.03137242231132734
7.162977777745734E7 0.004655176768221502 0.031818640238925465 0.9953448232317785 -0.031818640238925465 0.9953448232317785 -0.031818640238925465 0.004655176768221502 0.031818640238925465
7.271077167244768E7 0.004711361536243753 0.032271201755523275 0.9952886384637563 -0.032271201755523275 0.9952886384637563 -0.032271201755523275 0.004711361536243753 0.032271201755523275
7.380807928272885E7 0.004768492709731006 0.03273020510153941 0.995231507290269 -0.03273020510153941 0.995231507290269 -0.03273020510153941 0.004768492709731006 0.03273020510153941
7.492194680516452E7 0.004826589152218649 0.03319575025597356 0.9951734108477814 -0.03319575025597356 0.9951734108477814 -0.03319575025597356 0.004826589152218649 0.03319575025597356
7.60526241520746E7 0.004885670616390983 0.033667938949922656 0.995114329383609 -0.033667938949922656 0.995114329383609 -0.033667938949922656 0.004885670616390983 0.033667938949922656
7.720036500730675E7 0.0049457577870671105 0.03414687467902637 0.9950542422129329 -0.03414687467902637 0.9950542422129329 -0.03414687467902637 0.0049457577870671105 0.03414687467902637
7.836542688315398E7 0.0050068723246204745 0.0346326627148476 0.9949931276753794 -0.0346326627148476 0.9949931276753794 -0.0346326627148476 0.0050068723246204745 0.0346326627148476
7.954807117813127E7 0.005069036908777302 0.0351254101151998 0.9949309630912226 -0.0351254101151998 0.9949309630912226 -0.0351254101151998 0.005069036908777302 0.0351254101151998
8.074856323562416E7 0.005132275282741222 0.03562522573343614 0.9948677247172588 -0.03562522573343614 0.9948677247172588 -0.03562522573343614 0.005132275282741222 0.03562522573343614
8.196717240342227E7 0.0051966122975938885 0.036132220226721516 0.994803387702406 -0.036132220226721516 0.994803387702406 -0.036132220226721516 0.0051966122975938885 0.036132220226721516
8.320417209415154E7 0.005262073956924427 0.036646506063311705 0.9947379260430756 -0.03664650606331171 0.9947379260430756 -0.03664650606331171 0.005262073956924427 0.036646506063311705
8.445983984661816E7 0.005328687461643741 0.037168197528868574 0.9946713125383565 -0.037168197528868574 0.9946713125383565 -0.037168197528868574 0.005328687461643741 0.037168197528868574
8.573445738807854E7 0.0053964812549434655 0.0376974107318439 0.9946035187450565 -0.0376974107318439 0.9946035187450565 -0.0376974107318439 0.0053964812549434655 0.0376974107318439
8.702831069744885E7 0.005465485067363158 0.03823426360796749 0.9945345149326367 -0.03823426360796749 0.9945345149326367 -0.03823426360796749 0.005465485067363158 0.03823426360796749
8.834169006946853E7 0.005535729961933692 0.03877887592387851 0.9944642700380664 -0.03877887592387851 0.9944642700380664 -0.03877887592387851 0.005535729961933692 0.03877887592387851
8.96748901798321E7 0.005607248379369176 0.039331369279941714 0.9943927516206308 -0.039331369279941714 0.9943927516206308 -0.039331369279941714 0.005607248379369176 0.039331369279941714
9.1028210151304E7 0.005680074183284436 0.039891867112292194 0.9943199258167156 -0.0398918671122922 0.9943199258167156 -0.0398918671122922 0.005680074183284436 0.039891867112292194
9.240195362083109E7 0.0057542427054198386 0.04046049469415419 0.9942457572945801 -0.04046049469415419 0.9942457572945801 -0.04046049469415419 0.0057542427054198386 0.04046049469415419
9.379642880766791E7 0.005829790790860283 0.04103737913648123 0.9941702092091398 -0.041037379136481235 0.9941702092091398 -0.041037379136481235 0.005829790790860283 0.04103737913648123
9.521194858253023E7 0.005906756843240054 0.041622649387965116 0.99409324315676 -0.04162264938796511 0.99409324315676 -0.04162264938796511 0.005906756843240054 0.041622649387965116
9.664883053779216E7 0.005985180869930381 0.04221643623446292 0.9940148191300695 -0.04221643623446291 0.9940148191300695 -0.04221643623446291 0.005985180869930381 0.04221643623446292
9.810739705874248E7 0.006065104527211574 0.04281887229789011 0.9939348954727885 -0.042818872297890116 0.9939348954727885 -0.042818872297890116 0.006065104527211574 0.04281887229789011
9.958797539591652E7 0.00614657116543651 0.043430092034628456 0.9938534288345634 -0.04343009203462845 0.9938534288345634 -0.04343009203462845 0.00614657116543651 0.043430092034628456
1.0109089773851961E8 0.006229625874197375 0.044050231733496606 0.9937703741258024 -0.044050231733496606 0.9937703741258024 -0.044050231733496606 0.006229625874197375 0.044050231733496606
1.0261650128895843E8 0.006314315527512119 0.04467942951332979 0.993685684472488 -0.04467942951332979 0.993685684472488 -0.04467942951332979 0.006314315527512119 0.04467942951332979
1.0416512833849736E8 0.006400688829052028 0.04531782532021405 0.993599311170948 -0.04531782532021405 0.993599311170948 -0.04531782532021405 0.006400688829052028 0.04531782532021405
1.0573712634405641E8 0.0064887963574361525 0.04596556092441871 0.9935112036425638 -0.045965560924418704 0.9935112036425638 -0.045965560924418704 0.0064887963574361525 0.04596556092441871
1.0733284800616828E8 0.006578690611622689 0.04662277991706835 0.9934213093883772 -0.04662277991706835 0.9934213093883772 -0.04662277991706835 0.006578690611622689 0.04662277991706835
1.0895265134811176E8 0.0066704260564315375 0.04728962770659349 0.9933295739435686 -0.04728962770659349 0.9933295739435686 -0.04728962770659349 0.0066704260564315375 0.04728962770659349
1.1059689979623953E8 0.0067640591682361405 0.0479662515149967 0.9932359408317637 -0.0479662515149967 0.9932359408317637 -0.0479662515149967 0.0067640591682361405 0.0479662515149967
1.1226596226151802E8 0.006859648480866216 0.048652800373967534 0.9931403515191336 -0.04865280037396753 0.9931403515191336 -0.04865280037396753 0.006859648480866216 0.048652800373967534
1.1396021322229806E8 0.00695725463176652 0.0493494251208772 0.9930427453682334 -0.049349425120877206 0.9930427453682334 -0.049349425120877206 0.00695725463176652 0.0493494251208772
1.1568003280833441E8 0.007056940408459629 0.05005627839468009 0.9929430595915402 -0.05005627839468009 0.9929430595915402 -0.05005627839468009 0.007056940408459629 0.05005627839468009
1.1742580688607343E8 0.007158770795363782 0.0507735146317467 0.9928412292046362 -0.0507735146317467 0.9928412292046362 -0.0507735146317467 0.007158770795363782 0.0507735146317467
1.1919792714522783E8 0.007262813021019029 0.05150129006164763 0.9927371869789811 -0.05150129006164763 0.9927371869789811 -0.05150129006164763 0.007262813021019029 0.05150129006164763
1.2099679118665792E8 0.007369136605777548 0.05223976270290692 0.9926308633942225 -0.05223976270290692 0.9926308633942225 -0.05223976270290692 0.007369136605777548 0.05223976270290692
1.2282280261157903E8 0.0074778134100155665 0.05298909235873698 0.9925221865899844 -0.05298909235873698 0.9925221865899844 -0.05298909235873698 0.0074778134100155665 0.05298909235873698
1.2467637111211549E8 0.007588917682926207 0.05374944061276541 0.9924110823170736 -0.05374944061276541 0.9924110823170736 -0.05374944061276541 0.007588917682926207 0.05374944061276541
1.265579125632208E8 0.007702526111954089 0.05452097082475994 0.9922974738880459 -0.05452097082475994 0.9922974738880459 -0.05452097082475994 0.007702526111954089 0.05452097082475994
1.284678491159853E8 0.00781871787293343 0.05530384812635368 0.9921812821270666 -0.05530384812635368 0.9921812821270666 -0.05530384812635368 0.00781871787293343 0.05530384812635368
1.3040660929235186E8 0.007937574680992517 0.056098239416769724 0.9920624253190077 -0.056098239416769724 0.9920624253190077 -0.056098239416769724 0.007937574680992517 0.056098239416769724
1.3237462808126101E8 0.008059180842288214 0.056904313358540855 0.9919408191577118 -0.056904313358540855 0.9919408191577118 -0.056904313358540855 0.008059180842288214 0.056904313358540855
1.3437234703624701E8 0.008183623306634332 0.05772224037321582 0.9918163766933655 -0.05772224037321582 0.9918163766933655 -0.05772224037321582 0.008183623306634332 0.05772224037321582
1.364002143745067E8 0.008310991721088519 0.05855219263704161 0.9916890082789115 -0.05855219263704161 0.9916890082789115 -0.05855219263704161 0.008310991721088519 0.05855219263704161
1.3845868507746372E8 0.008441378484562065 0.05939434407660673 0.991558621515438 -0.05939434407660673 0.991558621515438 -0.05939434407660673 0.008441378484562065 0.05939434407660673
1.405482209928499E8 0.008574878803517276 0.060248870364428185 0.9914251211964827 -0.060248870364428185 0.9914251211964827 -0.060248870364428185 0.008574878803517276 0.060248870364428185
1.426692909383278E8 0.008711590748817052 0.0611159489144621 0.9912884092511829 -0.0611159489144621 0.9912884092511829 -0.0611159489144621 0.008711590748817052 0.0611159489144621
1.4482237080667645E8 0.008851615313790832 0.06199575887751426 0.9911483846862091 -0.06199575887751426 0.9911483846862091 -0.06199575887751426 0.008851615313790832 0.06199575887751426
1.4700794367256513E8 0.008995056473581196 0.0628884811365252 0.991004943526419 -0.0628884811365252 0.991004943526419 -0.0628884811365252 0.008995056473581196 0.0628884811365252
1.492264999009378E8 0.009142021245834867 0.06379429830170166 0.9908579787541651 -0.06379429830170166 0.9908579787541651 -0.06379429830170166 0.009142021245834867 0.06379429830170166
1.5147853725703382E8 0.009292619752801651 0.06471339470546368 0.9907073802471984 -0.06471339470546367 0.9907073802471984 -0.06471339470546367 0.009292619752801651 0.06471339470546368
1.5376456101806876E8 0.009446965284904527 0.06564595639717478 0.9905530347150955 -0.06564595639717478 0.9905530347150955 -0.06564595639717478 0.009446965284904527 0.06564595639717478
1.5608508408660066E8 0.009605174365843924 0.06659217113762109 0.9903948256341559 -0.0665921711376211 0.9903948256341559 -0.0665921711376211 0.009605174365843924 0.06659217113762109
1.5844062710560706E8 0.009767366819298703 0.06755222839320188 0.9902326331807012 -0.06755222839320188 0.9902326331807012 -0.06755222839320188 0.009767366819298703 0.06755222839320188
1.6083171857529896E8 0.009933665837286717 0.06852631932979447 0.9900663341627133 -0.06852631932979447 0.9900663341627133 -0.06852631932979447 0.009933665837286717 0.06852631932979447
1.632588949716973E8 0.01010419805024726 0.06951463680625321 0.9898958019497527 -0.06951463680625321 0.9898958019497527 -0.06951463680625321 0.01010419805024726 0.06951463680625321
1.6572270086699936E8 0.010279093598908126 0.0705173753675012 0.9897209064010919 -0.0705173753675012 0.9897209064010919 -0.0705173753675012 0.010279093598908126 0.0705173753675012
1.6822368905176118E8 0.01045848620800004 0.07153473123717217 0.9895415137919998 -0.07153473123717219 0.9895415137919998 -0.07153473123717219 0.01045848620800004 0.07153473123717217
1.7076242065892437E8 0.010642513261881871 0.0725669023097594 0.9893574867381182 -0.0725669023097594 0.9893574867381182 -0.0725669023097594 0.010642513261881871 0.0725669023097594
1.7333946528971428E8 0.010831315882139963 0.07361408814222441 0.98916868411786 -0.07361408814222441 0.98916868411786 -0.07361408814222441 0.010831315882139963 0.07361408814222441
1.7595540114143828E8 0.011025039007226659 0.07467648994502195 0.9889749609927734 -0.07467648994502195 0.9889749609927734 -0.07467648994502195 0.011025039007226659 0.07467648994502195
1.786108151372127E8 0.011223831474202991 0.07575431057249078 0.9887761685257971 -0.07575431057249078 0.9887761685257971 -0.07575431057249078 0.011223831474202991 0.07575431057249078
1.8130630305764765E8 0.011427846102652581 0.07684775451256369 0.9885721538973473 -0.07684775451256369 0.9885721538973473 -0.07684775451256369 0.011427846102652581 0.07684775451256369
1.840424696745189E8 0.01163723978083462 0.0779570278757451 0.9883627602191654 -0.0779570278757451 0.9883627602191654 -0.0779570278757451 0.01163723978083462 0.0779570278757451
1.8681992888645732E8 0.011852173554145836 0.07908233838330572 0.9881478264458542 -0.07908233838330572 0.9881478264458542 -0.07908233838330572 0.011852173554145836 0.07908233838330572
1.8963930385668582E8 0.01207281271596329 0.08022389535464142 0.9879271872840366 -0.0802238953546414 0.9879271872840366 -0.0802238953546414 0.01207281271596329 0.08022389535464142
1.92501227152835E8 0.012299326900941706 0.08138190969374119 0.9877006730990583 -0.0813819096937412 0.9877006730990583 -0.0813819096937412 0.012299326900941706 0.08138190969374119
1.9540634088886917E8 0.012531890180842067 0.08255659387470933 0.9874681098191579 -0.08255659387470933 0.9874681098191579 -0.08255659387470933 0.012531890180842067 0.08255659387470933
1.983552968691535E8 0.01277068116297056 0.08374816192628248 0.9872293188370294 -0.08374816192628248 0.9872293188370294 -0.08374816192628248 0.01277068116297056 0.08374816192628248
2.0134875673469606E8 0.013015883091310286 0.08495682941528306 0.9869841169086897 -0.08495682941528306 0.9869841169086897 -0.08495682941528306 0.013015883091310286 0.08495682941528306
2.0438739211159652E8 0.013267683950431175 0.08618281342894474 0.9867323160495689 -0.08618281342894474 0.9867323160495689 -0.08618281342894474 0.013267683950431175 0.08618281342894474
2.074718847617352E8 0.013526276572267583 0.08742633255604643 0.9864737234277323 -0.08742633255604643 0.9864737234277323 -0.08742633255604643 0.013526276572267583 0.08742633255604643
2.106029267357361E8 0.013791858745856433 0.0886876068667853 0.9862081412541438 -0.0886876068667853 0.9862081412541438 -0.0886876068667853 0.013791858745856433 0.0886876068667853
2.1378122052823865E8 0.014064633330133391 0.0899668578913176 0.9859353666698667 -0.08996685789131761 0.9859353666698667 -0.08996685789131761 0.014064633330133391 0.0899668578913176
2.1700747923551247E8 0.01434480836988849 0.09126430859689189 0.9856551916301113 -0.09126430859689189 0.9856551916301113 -0.09126430859689189 0.01434480836988849 0.09126430859689189
2.2028242671545094E8 0.014632597214987574 0.09258018336349394 0.9853674027850124 -0.09258018336349394 0.9853674027850124 -0.09258018336349394 0.014632597214987574 0.09258018336349394
2.23606797749979E8 0.014928218642970429 0.09391470795791919 0.9850717813570297 -0.09391470795791919 0.9850717813570297 -0.09391470795791919 0.014928218642970429 0.09391470795791919
2.2698133820991236E8 0.015231896985141926 0.0952681095061821 0.9847681030148582 -0.0952681095061821 0.9847681030148582 -0.0952681095061821 0.015231896985141926 0.0952681095061821
2.3040680522230446E8 0.015543862256277083 0.09664061646416652 0.984456137743723 -0.09664061646416652 0.984456137743723 -0.09664061646416652 0.015543862256277083 0.09664061646416652
2.338839673403185E8 0.01586435028806651 0.09803245858641287 0.9841356497119335 -0.09803245858641287 0.9841356497119335 -0.09803245858641287 0.01586435028806651 0.09803245858641287
2.37413604715664E8 0.01619360286643443 0.09944386689293355 0.9838063971335658 -0.09944386689293355 0.9838063971335658 -0.09944386689293355 0.01619360286643443 0.09944386689293355
2.4099650927363476E8 0.016531867872865858 0.10087507363393619 0.9834681321271342 -0.10087507363393622 0.9834681321271342 -0.10087507363393622 0.016531867872865858 0.10087507363393619
2.446334848907889E8 0.016879399429886296 0.10232631225232917 0.9831206005701136 -0.10232631225232917 0.9831206005701136 -0.10232631225232917 0.016879399429886296 0.10232631225232917
