!Murata Part Number: LQG15HN33NH02
!These Parameters are Measured in Series Mode Connection
!       o--[Z]--o
!Port1              Port2
!       o-------o
!
!Freq. Start=50[MHz] Stop=20[GHz], 401[Steps]
# Hz S RI R 50
!Freq.(Hz) S11(Real) S11(Imag) S21(Real) S21(Imag) S12(Real) S12(Imag) S22(Real) S22(Imag)
5.0E7 0.02366793023589543 0.10134503452732373 0.9763320697641046 -0.1013450345273237 0.9763320697641046 -0.1013450345273237 0.02366793023589543 0.10134503452732373
5.0754570186123446E7 0.024068980712273803 0.10272751757134867 0.9759310192877261 -0.10272751757134867 0.9759310192877261 -0.10272751757134867 0.024068980712273803 0.10272751757134867
5.152052789556263E7 0.02447906461500217 0.10412807629063844 0.9755209353849978 -0.10412807629063844 0.9755209353849978 -0.10412807629063844 0.02447906461500217 0.10412807629063844
5.229804498202928E7 0.024898396740557896 0.10554691590722484 0.9751016032594421 -0.10554691590722484 0.9751016032594421 -0.10554691590722484 0.024898396740557896 0.10554691590722484
5.308729589274893E7 0.025327197184916394 0.10698424346659659 0.9746728028150836 -0.10698424346659659 0.9746728028150836 -0.10698424346659659 0.025327197184916394 0.10698424346659659
5.388845770760058E7 0.02576569154066531 0.10844026782693571 0.9742343084593347 -0.10844026782693571 0.9742343084593347 -0.10844026782693571 0.02576569154066531 0.10844026782693571
5.470171017884717E7 0.026214111101911984 0.10991519964137672 0.9737858888980879 -0.10991519964137673 0.9737858888980879 -0.10991519964137673 0.026214111101911984 0.10991519964137672
5.5527235771465644E7 0.026672693076888083 0.11140925133272053 0.9733273069231119 -0.11140925133272053 0.9733273069231119 -0.11140925133272053 0.026672693076888083 0.11140925133272053
5.6365219704085544E7 0.027141680808124548 0.11292263706002935 0.9728583191918755 -0.11292263706002935 0.9728583191918755 -0.11292263706002935 0.027141680808124548 0.11292263706002935
5.721584999054556E7 0.02762132400003548 0.11445557267652498 0.9723786759999645 -0.11445557267652495 0.9723786759999645 -0.11445557267652495 0.02762132400003548 0.11445557267652498
5.807931748207712E7 0.0281118789537177 0.11600827567821229 0.9718881210462822 -0.11600827567821229 0.9718881210462822 -0.11600827567821229 0.0281118789537177 0.11600827567821229
5.8955815910124585E7 0.02861360880873835 0.11758096514265035 0.9713863911912619 -0.11758096514265035 0.9713863911912619 -0.11758096514265035 0.02861360880873835 0.11758096514265035
5.984554192981184E7 0.029126783791649118 0.11917386165729466 0.970873216208351 -0.11917386165729466 0.970873216208351 -0.11917386165729466 0.029126783791649118 0.11917386165729466
6.074869516406457E7 0.02965168147093258 0.12078718723684174 0.9703483185290676 -0.12078718723684174 0.9703483185290676 -0.12078718723684174 0.02965168147093258 0.12078718723684174
6.166547824839868E7 0.030188587018051938 0.12242116522901196 0.9698114129819482 -0.12242116522901196 0.9698114129819482 -0.12242116522901196 0.030188587018051938 0.12242116522901196
6.2596096876384385E7 0.03073779347424247 0.12407602020821515 0.9692622065257573 -0.12407602020821512 0.9692622065257573 -0.12407602020821512 0.03073779347424247 0.12407602020821515
6.354075984579668E7 0.03129960202265127 0.1257519778565576 0.9687003979773485 -0.1257519778565576 0.9687003979773485 -0.1257519778565576 0.03129960202265127 0.1257519778565576
6.449967910546205E7 0.031874322265398054 0.12744926483165667 0.968125677734602 -0.12744926483165667 0.968125677734602 -0.12744926483165667 0.031874322265398054 0.12744926483165667
6.547306980281226E7 0.03246227250510126 0.12916810862074918 0.9675377274948987 -0.12916810862074915 0.9675377274948987 -0.12916810862074915 0.03246227250510126 0.12916810862074918
6.646115033215589E7 0.033063780030381185 0.1309087373805923 0.9669362199696188 -0.1309087373805923 0.9669362199696188 -0.1309087373805923 0.033063780030381185 0.1309087373805923
6.746414238367817E7 0.03367918140482478 0.13267137976267487 0.9663208185951753 -0.13267137976267487 0.9663208185951753 -0.13267137976267487 0.03367918140482478 0.13267137976267487
6.848227099318038E7 0.0343088227588671 0.13445626472327557 0.965691177241133 -0.13445626472327557 0.965691177241133 -0.13445626472327557 0.0343088227588671 0.13445626472327557
6.951576459256999E7 0.034953060084020576 0.1362636213179285 0.9650469399159793 -0.1362636213179285 0.9650469399159793 -0.1362636213179285 0.034953060084020576 0.1362636213179285
7.056485506111258E7 0.035612259528854225 0.13809367847987034 0.9643877404711458 -0.13809367847987034 0.9643877404711458 -0.13809367847987034 0.035612259528854225 0.13809367847987034
7.162977777745734E7 0.03628679769610528 0.13994666478207674 0.9637132023038947 -0.13994666478207674 0.9637132023038947 -0.13994666478207674 0.03628679769610528 0.13994666478207674
7.271077167244768E7 0.0369770619402799 0.1418228081825094 0.96302293805972 -0.1418228081825094 0.96302293805972 -0.1418228081825094 0.0369770619402799 0.1418228081825094
7.380807928272885E7 0.037683450665081115 0.1437223357522259 0.9623165493349188 -0.1437223357522259 0.9623165493349188 -0.1437223357522259 0.037683450665081115 0.1437223357522259
7.492194680516452E7 0.03840637361998055 0.14564547338602532 0.9615936263800193 -0.1456454733860253 0.9615936263800193 -0.1456454733860253 0.03840637361998055 0.14564547338602532
7.60526241520746E7 0.0391462521952343 0.14759244549533024 0.9608537478047656 -0.14759244549533024 0.9608537478047656 -0.14759244549533024 0.0391462521952343 0.14759244549533024
7.720036500730675E7 0.03990351971462451 0.14956347468302875 0.9600964802853755 -0.14956347468302872 0.9600964802853755 -0.14956347468302872 0.03990351971462451 0.14956347468302875
7.836542688315398E7 0.040678621725193896 0.15155878140002738 0.9593213782748061 -0.15155878140002738 0.9593213782748061 -0.15155878140002738 0.040678621725193896 0.15155878140002738
7.954807117813127E7 0.04147201628322495 0.15357858358328919 0.958527983716775 -0.1535785835832892 0.958527983716775 -0.1535785835832892 0.04147201628322495 0.15357858358328919
8.074856323562416E7 0.04228417423570241 0.155623096275157 0.9577158257642975 -0.155623096275157 0.9577158257642975 -0.155623096275157 0.04228417423570241 0.155623096275157
8.196717240342227E7 0.043115579496485285 0.15769253122378826 0.9568844205035149 -0.15769253122378826 0.9568844205035149 -0.15769253122378826 0.043115579496485285 0.15769253122378826
8.320417209415154E7 0.043966729316401484 0.1597870964645487 0.9560332706835986 -0.15978709646454872 0.9560332706835986 -0.15978709646454872 0.043966729316401484 0.1597870964645487
8.445983984661816E7 0.044838134546467866 0.16190699588223947 0.9551618654535322 -0.1619069958822395 0.9551618654535322 -0.1619069958822395 0.044838134546467866 0.16190699588223947
8.573445738807854E7 0.04573031989342731 0.16405242875405426 0.9542696801065725 -0.16405242875405426 0.9542696801065725 -0.16405242875405426 0.04573031989342731 0.16405242875405426
8.702831069744885E7 0.0466438241667828 0.1662235892731863 0.9533561758332171 -0.1662235892731863 0.9533561758332171 -0.1662235892731863 0.0466438241667828 0.1662235892731863
8.834169006946853E7 0.04757920051649901 0.16842066605302816 0.9524207994835011 -0.16842066605302816 0.9524207994835011 -0.16842066605302816 0.04757920051649901 0.16842066605302816
8.96748901798321E7 0.048537016660530154 0.1706438416119298 0.9514629833394698 -0.1706438416119298 0.9514629833394698 -0.1706438416119298 0.048537016660530154 0.1706438416119298
9.1028210151304E7 0.04951785510132253 0.1728932918385025 0.9504821448986776 -0.17289329183850252 0.9504821448986776 -0.17289329183850252 0.04951785510132253 0.1728932918385025
9.240195362083109E7 0.05052231333042762 0.17516918543747645 0.9494776866695724 -0.17516918543747642 0.9494776866695724 -0.17516918543747642 0.05052231333042762 0.17516918543747645
9.379642880766791E7 0.05155100402035106 0.17747168335614566 0.9484489959796488 -0.17747168335614566 0.9484489959796488 -0.17747168335614566 0.05155100402035106 0.17747168335614566
9.521194858253023E7 0.05260455520274864 0.17980093819145135 0.9473954447972514 -0.17980093819145135 0.9473954447972514 -0.17980093819145135 0.05260455520274864 0.17980093819145135
9.664883053779216E7 0.05368361043206774 0.18215709357778023 0.9463163895679322 -0.1821570935777802 0.9463163895679322 -0.1821570935777802 0.05368361043206774 0.18215709357778023
9.810739705874248E7 0.05478882893371727 0.1845402835555749 0.9452111710662826 -0.18454028355557486 0.9452111710662826 -0.18454028355557486 0.05478882893371727 0.1845402835555749
9.958797539591652E7 0.055920885735835 0.186950631920879 0.9440791142641649 -0.18695063192087896 0.9440791142641649 -0.18695063192087896 0.055920885735835 0.186950631920879
1.0109089773851961E8 0.05708047178370254 0.18938825155596067 0.9429195282162974 -0.18938825155596067 0.9429195282162974 -0.18938825155596067 0.05708047178370254 0.18938825155596067
1.0261650128895843E8 0.058268294035842765 0.19185324374118773 0.9417317059641573 -0.19185324374118778 0.9417317059641573 -0.19185324374118778 0.058268294035842765 0.19185324374118773
1.0416512833849736E8 0.05948507554081333 0.19434569744834893 0.9405149244591867 -0.19434569744834895 0.9405149244591867 -0.19434569744834895 0.05948507554081333 0.19434569744834893
1.0573712634405641E8 0.060731555493691865 0.1968656886156492 0.9392684445063081 -0.1968656886156492 0.9392684445063081 -0.1968656886156492 0.060731555493691865 0.1968656886156492
1.0733284800616828E8 0.06200848927122646 0.19941327940463446 0.9379915107287737 -0.19941327940463446 0.9379915107287737 -0.19941327940463446 0.06200848927122646 0.19941327940463446
1.0895265134811176E8 0.06331664844460308 0.2019885174393328 0.9366833515553968 -0.20198851743933283 0.9366833515553968 -0.20198851743933283 0.06331664844460308 0.2019885174393328
1.1059689979623953E8 0.06465682076875938 0.20459143502793697 0.9353431792312407 -0.204591435027937 0.9353431792312407 -0.204591435027937 0.06465682076875938 0.20459143502793697
1.1226596226151802E8 0.06602981014715055 0.2072220483673874 0.9339701898528494 -0.2072220483673874 0.9339701898528494 -0.2072220483673874 0.06602981014715055 0.2072220483673874
1.1396021322229806E8 0.06743643657084819 0.20988035673125663 0.9325635634291519 -0.20988035673125657 0.9325635634291519 -0.20988035673125657 0.06743643657084819 0.20988035673125663
1.1568003280833441E8 0.06887753603083079 0.21256634164138097 0.9311224639691692 -0.21256634164138097 0.9311224639691692 -0.21256634164138097 0.06887753603083079 0.21256634164138097
1.1742580688607343E8 0.07035396040229802 0.2152799660237309 0.9296460395977021 -0.2152799660237309 0.9296460395977021 -0.2152799660237309 0.07035396040229802 0.2152799660237309
1.1919792714522783E8 0.07186657729981819 0.21802117334906213 0.9281334227001818 -0.21802117334906213 0.9281334227001818 -0.21802117334906213 0.07186657729981819 0.21802117334906213
1.2099679118665792E8 0.07341626990209477 0.22078988675894712 0.9265837300979053 -0.22078988675894712 0.9265837300979053 -0.22078988675894712 0.07341626990209477 0.22078988675894712
1.2282280261157903E8 0.07500393674511463 0.22358600817784222 0.9249960632548855 -0.2235860081778422 0.9249960632548855 -0.2235860081778422 0.07500393674511463 0.22358600817784222
1.2467637111211549E8 0.07663049148242 0.22640941741191176 0.9233695085175799 -0.22640941741191176 0.9233695085175799 -0.22640941741191176 0.07663049148242 0.22640941741191176
1.265579125632208E8 0.07829686261122643 0.22925997123539724 0.9217031373887737 -0.2292599712353973 0.9217031373887737 -0.2292599712353973 0.07829686261122643 0.22925997123539724
1.284678491159853E8 0.08000399316309093 0.23213750246539058 0.919996006836909 -0.23213750246539053 0.919996006836909 -0.23213750246539053 0.08000399316309093 0.23213750246539058
1.3040660929235186E8 0.08175284035782078 0.23504181902595062 0.9182471596421793 -0.23504181902595062 0.9182471596421793 -0.23504181902595062 0.08175284035782078 0.23504181902595062
1.3237462808126101E8 0.08354437521930096 0.23797270300258164 0.916455624780699 -0.23797270300258164 0.916455624780699 -0.23797270300258164 0.08354437521930096 0.23797270300258164
1.3437234703624701E8 0.08537958215190916 0.24092990968817826 0.9146204178480909 -0.24092990968817823 0.9146204178480909 -0.24092990968817823 0.08537958215190916 0.24092990968817826
1.364002143745067E8 0.08725945847618474 0.2439131666216337 0.9127405415238152 -0.2439131666216337 0.9127405415238152 -0.2439131666216337 0.08725945847618474 0.2439131666216337
1.3845868507746372E8 0.08918501392241811 0.2469221726204052 0.9108149860775819 -0.2469221726204052 0.9108149860775819 -0.2469221726204052 0.08918501392241811 0.2469221726204052
1.405482209928499E8 0.0911572700808301 0.2499565968084247 0.9088427299191697 -0.24995659680842464 0.9088427299191697 -0.24995659680842464 0.0911572700808301 0.2499565968084247
1.426692909383278E8 0.09317725980702722 0.2530160776408554 0.9068227401929728 -0.2530160776408554 0.9068227401929728 -0.2530160776408554 0.09317725980702722 0.2530160776408554
1.4482237080667645E8 0.09524602658143114 0.2561002219272956 0.904753973418569 -0.2561002219272956 0.904753973418569 -0.2561002219272956 0.09524602658143114 0.2561002219272956
1.4700794367256513E8 0.09736462382140813 0.25920860385514716 0.9026353761785918 -0.25920860385514716 0.9026353761785918 -0.25920860385514716 0.09736462382140813 0.25920860385514716
1.492264999009378E8 0.09953411414485643 0.26234076401498135 0.9004658858551435 -0.26234076401498135 0.9004658858551435 -0.26234076401498135 0.09953411414485643 0.26234076401498135
1.5147853725703382E8 0.10175556858404693 0.26549620842985083 0.8982444314159531 -0.26549620842985083 0.8982444314159531 -0.26549620842985083 0.10175556858404693 0.26549620842985083
1.5376456101806876E8 0.1040300657485636 0.26867440759061945 0.8959699342514363 -0.26867440759061945 0.8959699342514363 -0.26867440759061945 0.1040300657485636 0.26867440759061945
1.5608508408660066E8 0.10635869093624604 0.2718747954995049 0.8936413090637539 -0.27187479549950483 0.8936413090637539 -0.27187479549950483 0.10635869093624604 0.2718747954995049
1.5844062710560706E8 0.1087425351911021 0.2750967687241489 0.8912574648088978 -0.2750967687241489 0.8912574648088978 -0.2750967687241489 0.1087425351911021 0.2750967687241489
1.6083171857529896E8 0.11118269430724165 0.2783396854646651 0.8888173056927584 -0.2783396854646651 0.8888173056927584 -0.2783396854646651 0.11118269430724165 0.2783396854646651
1.632588949716973E8 0.11368026777795928 0.2816028646362247 0.8863197322220409 -0.2816028646362247 0.8863197322220409 -0.2816028646362247 0.11368026777795928 0.2816028646362247
1.6572270086699936E8 0.1162363576892033 0.2848855849698802 0.8837636423107966 -0.2848855849698802 0.8837636423107966 -0.2848855849698802 0.1162363576892033 0.2848855849698802
1.6822368905176118E8 0.11885206755677048 0.2881870841344407 0.8811479324432295 -0.2881870841344407 0.8811479324432295 -0.2881870841344407 0.11885206755677048 0.2881870841344407
1.7076242065892437E8 0.12152850110668904 0.29150655788233515 0.8784714988933109 -0.29150655788233515 0.8784714988933109 -0.29150655788233515 0.12152850110668904 0.29150655788233515
1.7333946528971428E8 0.12426676099838584 0.29484315922251897 0.8757332390016144 -0.29484315922251897 0.8757332390016144 -0.29484315922251897 0.12426676099838584 0.29484315922251897
1.7595540114143828E8 0.12706794749037761 0.29819599762359256 0.8729320525096225 -0.29819599762359256 0.8729320525096225 -0.29819599762359256 0.12706794749037761 0.29819599762359256
1.786108151372127E8 0.12993315704838218 0.30156413825040523 0.8700668429516177 -0.30156413825040523 0.8700668429516177 -0.30156413825040523 0.12993315704838218 0.30156413825040523
1.8130630305764765E8 0.13286348089591593 0.3049466012375239 0.8671365191040841 -0.3049466012375239 0.8671365191040841 -0.3049466012375239 0.13286348089591593 0.3049466012375239
1.840424696745189E8 0.13586000350762092 0.3083423610030352 0.8641399964923792 -0.30834236100303525 0.8641399964923792 -0.30834236100303525 0.13586000350762092 0.3083423610030352
1.8681992888645732E8 0.13892380104576213 0.31175034560624 0.8610761989542377 -0.31175034560624 0.8610761989542377 -0.31175034560624 0.13892380104576213 0.31175034560624
1.8963930385668582E8 0.1420559397405349 0.3151694361528708 0.857944060259465 -0.3151694361528708 0.857944060259465 -0.3151694361528708 0.1420559397405349 0.3151694361528708
1.92501227152835E8 0.1452574742150392 0.31859846625152927 0.8547425257849608 -0.31859846625152927 0.8547425257849608 -0.31859846625152927 0.1452574742150392 0.31859846625152927
1.9540634088886917E8 0.14852944575600388 0.3220362215250937 0.8514705542439961 -0.3220362215250937 0.8514705542439961 -0.3220362215250937 0.14852944575600388 0.3220362215250937
1.983552968691535E8 0.1518728805315774 0.32548143918088435 0.8481271194684226 -0.32548143918088435 0.8481271194684226 -0.32548143918088435 0.1518728805315774 0.32548143918088435
2.0134875673469606E8 0.15528878775774818 0.3289328076433995 0.8447112122422519 -0.32893280764339944 0.8447112122422519 -0.32893280764339944 0.15528878775774818 0.3289328076433995
2.0438739211159652E8 0.15877815781521087 0.3323889662534464 0.8412218421847893 -0.3323889662534464 0.8412218421847893 -0.3323889662534464 0.15877815781521087 0.3323889662534464
2.074718847617352E8 0.1623419603187533 0.3358485050374777 0.8376580396812469 -0.3358485050374777 0.8376580396812469 -0.3358485050374777 0.1623419603187533 0.3358485050374777
2.106029267357361E8 0.1659811421415114 0.3393099645509281 0.8340188578584886 -0.33930996455092804 0.8340188578584886 -0.33930996455092804 0.1659811421415114 0.3393099645509281
2.1378122052823865E8 0.16969662539670297 0.34277183579928905 0.8303033746032971 -0.34277183579928905 0.8303033746032971 -0.34277183579928905 0.16969662539670297 0.34277183579928905
2.1700747923551247E8 0.1734893053797374 0.34623256024060894 0.8265106946202626 -0.34623256024060894 0.8265106946202626 -0.34623256024060894 0.1734893053797374 0.34623256024060894
2.2028242671545094E8 0.17736004847386874 0.3496905298730106 0.8226399515261312 -0.3496905298730106 0.8226399515261312 -0.3496905298730106 0.17736004847386874 0.3496905298730106
2.23606797749979E8 0.18130969002284275 0.3531440874107191 0.8186903099771572 -0.3531440874107192 0.8186903099771572 -0.3531440874107192 0.18130969002284275 0.3531440874107191
2.2698133820991236E8 0.1853390321742645 0.35659152655196247 0.8146609678257355 -0.35659152655196247 0.8146609678257355 -0.35659152655196247 0.1853390321742645 0.35659152655196247
2.3040680522230446E8 0.1894488416976919 0.3600310923419596 0.8105511583023081 -0.3600310923419596 0.8105511583023081 -0.3600310923419596 0.1894488416976919 0.3600310923419596
2.338839673403185E8 0.19363984778172771 0.3634609816340397 0.8063601522182723 -0.3634609816340397 0.8063601522182723 -0.3634609816340397 0.19363984778172771 0.3634609816340397
2.37413604715664E8 0.19791273981464844 0.36687934365173647 0.8020872601853516 -0.3668793436517365 0.8020872601853516 -0.3668793436517365 0.19791273981464844 0.36687934365173647
2.4099650927363476E8 0.20226816515336518 0.3702842806544923 0.7977318348466348 -0.37028428065449237 0.7977318348466348 -0.37028428065449237 0.20226816515336518 0.3702842806544923
2.446334848907889E8 0.20670672688575648 0.3736738487093627 0.7932932731142435 -0.37367384870936265 0.7932932731142435 -0.37367384870936265 0.20670672688575648 0.3736738487093627
2.4832534757531032E8 0.21122898159164663 0.3770460585708524 0.7887710184083535 -0.3770460585708524 0.7887710184083535 -0.3770460585708524 0.21122898159164663 0.3770460585708524
2.5207292565009177E8 0.21583543710791778 0.3803988766707311 0.7841645628920823 -0.3803988766707311 0.7841645628920823 -0.3803988766707311 0.21583543710791778 0.3803988766707311
2.558770599385812E8 0.22052655030345183 0.3837302262193787 0.7794734496965481 -0.3837302262193787 0.7794734496965481 -0.3837302262193787 0.22052655030345183 0.3837302262193787
