!Murata Part Number: LQG15HN82NG02
!These Parameters are Measured in Series Mode Connection
!       o--[Z]--o
!Port1              Port2
!       o-------o
!
!Freq. Start=50[MHz] Stop=20[GHz], 401[Steps]
# Hz S RI R 50
!Freq.(Hz) S11(Real) S11(Imag) S21(Real) S21(Imag) S12(Real) S12(Imag) S22(Real) S22(Imag)
5.0E7 0.08909481342509852 0.22874238685389991 0.9109051865749014 -0.2287423868538999 0.9109051865749014 -0.2287423868538999 0.08909481342509852 0.22874238685389991
5.0754570186123446E7 0.09086085969332133 0.23149066787445946 0.9091391403066785 -0.2314906678744594 0.9091391403066785 -0.2314906678744594 0.09086085969332133 0.23149066787445946
5.152052789556263E7 0.09266629793983712 0.23426109390906075 0.9073337020601628 -0.23426109390906075 0.9073337020601628 -0.23426109390906075 0.09266629793983712 0.23426109390906075
5.229804498202928E7 0.09451187406776364 0.23705341941869554 0.9054881259322362 -0.23705341941869554 0.9054881259322362 -0.23705341941869554 0.09451187406776364 0.23705341941869554
5.308729589274893E7 0.09639834209053905 0.23986738137753214 0.9036016579094609 -0.23986738137753214 0.9036016579094609 -0.23986738137753214 0.09639834209053905 0.23986738137753214
5.388845770760058E7 0.09832646406317169 0.24270269868259217 0.9016735359368284 -0.24270269868259217 0.9016735359368284 -0.24270269868259217 0.09832646406317169 0.24270269868259217
5.470171017884717E7 0.10029700999622577 0.2455590715388828 0.8997029900037742 -0.2455590715388828 0.8997029900037742 -0.2455590715388828 0.10029700999622577 0.2455590715388828
5.5527235771465644E7 0.10231075775040191 0.2484361808195951 0.8976892422495981 -0.24843618081959512 0.8976892422495981 -0.24843618081959512 0.10231075775040191 0.2484361808195951
5.6365219704085544E7 0.10436849290944966 0.2513336874011028 0.8956315070905504 -0.25133368740110273 0.8956315070905504 -0.25133368740110273 0.10436849290944966 0.2513336874011028
5.721584999054556E7 0.10647100862903289 0.2542512314726344 0.8935289913709672 -0.2542512314726344 0.8935289913709672 -0.2542512314726344 0.10647100862903289 0.2542512314726344
5.807931748207712E7 0.10861910545906021 0.257188431820645 0.8913808945409398 -0.257188431820645 0.8913808945409398 -0.257188431820645 0.10861910545906021 0.257188431820645
5.8955815910124585E7 0.1108135911368865 0.2601448850880776 0.8891864088631136 -0.2601448850880776 0.8891864088631136 -0.2601448850880776 0.1108135911368865 0.2601448850880776
5.984554192981184E7 0.11305528034869927 0.26312016500888646 0.8869447196513005 -0.26312016500888646 0.8869447196513005 -0.26312016500888646 0.11305528034869927 0.26312016500888646
6.074869516406457E7 0.11534499445631853 0.2661138216183859 0.8846550055436815 -0.2661138216183859 0.8846550055436815 -0.2661138216183859 0.11534499445631853 0.2661138216183859
6.166547824839868E7 0.11768356118656301 0.2691253804401934 0.882316438813437 -0.2691253804401934 0.882316438813437 -0.2691253804401934 0.11768356118656301 0.2691253804401934
6.2596096876384385E7 0.1200718142802789 0.2721543416507588 0.879928185719721 -0.2721543416507588 0.879928185719721 -0.2721543416507588 0.1200718142802789 0.2721543416507588
6.354075984579668E7 0.12251059309807692 0.27520017922269646 0.8774894069019231 -0.27520017922269646 0.8774894069019231 -0.27520017922269646 0.12251059309807692 0.27520017922269646
6.449967910546205E7 0.12500074217979143 0.2782623400483805 0.8749992578202086 -0.2782623400483805 0.8749992578202086 -0.2782623400483805 0.12500074217979143 0.2782623400483805
6.547306980281226E7 0.12754311075466582 0.2813402430455194 0.8724568892453343 -0.28134024304551936 0.8724568892453343 -0.28134024304551936 0.12754311075466582 0.2813402430455194
6.646115033215589E7 0.13013855219926387 0.28443327824668024 0.8698614478007362 -0.28443327824668024 0.8698614478007362 -0.28443327824668024 0.13013855219926387 0.28443327824668024
6.746414238367817E7 0.13278792344013424 0.2875408058750073 0.8672120765598658 -0.2875408058750073 0.8672120765598658 -0.2875408058750073 0.13278792344013424 0.2875408058750073
6.848227099318038E7 0.1354920842982955 0.29066215540865403 0.8645079157017045 -0.290662155408654 0.8645079157017045 -0.290662155408654 0.1354920842982955 0.29066215540865403
6.951576459256999E7 0.13825189677267358 0.29379662463672895 0.8617481032273263 -0.29379662463672895 0.8617481032273263 -0.29379662463672895 0.13825189677267358 0.29379662463672895
7.056485506111258E7 0.14106822425970703 0.29694347870984195 0.8589317757402929 -0.29694347870984195 0.8589317757402929 -0.29694347870984195 0.14106822425970703 0.29694347870984195
7.162977777745734E7 0.1439419307064491 0.30010194918862537 0.8560580692935508 -0.3001019491886254 0.8560580692935508 -0.3001019491886254 0.1439419307064491 0.30010194918862537
7.271077167244768E7 0.14687387969462307 0.3032712330938929 0.8531261203053768 -0.3032712330938929 0.8531261203053768 -0.3032712330938929 0.14687387969462307 0.3032712330938929
7.380807928272885E7 0.1498649334532497 0.306450491962387 0.8501350665467503 -0.306450491962387 0.8501350665467503 -0.306450491962387 0.1498649334532497 0.306450491962387
7.492194680516452E7 0.15291595179764614 0.30963885091235116 0.847084048202354 -0.30963885091235116 0.847084048202354 -0.30963885091235116 0.15291595179764614 0.30963885091235116
7.60526241520746E7 0.156027790992804 0.31283539772344215 0.843972209007196 -0.31283539772344215 0.843972209007196 -0.31283539772344215 0.156027790992804 0.31283539772344215
7.720036500730675E7 0.15920130253939052 0.3160391819357715 0.8407986974606094 -0.3160391819357715 0.8407986974606094 -0.3160391819357715 0.15920130253939052 0.3160391819357715
7.836542688315398E7 0.16243733188087522 0.3192492139731292 0.8375626681191246 -0.3192492139731292 0.8375626681191246 -0.3192492139731292 0.16243733188087522 0.3192492139731292
7.954807117813127E7 0.1657367170305728 0.3224644642956956 0.8342632829694273 -0.32246446429569564 0.8342632829694273 -0.32246446429569564 0.1657367170305728 0.3224644642956956
8.074856323562416E7 0.16910028711770228 0.32568386258778553 0.8308997128822977 -0.3256838625877856 0.8308997128822977 -0.3256838625877856 0.16910028711770228 0.32568386258778553
8.196717240342227E7 0.17252886085190783 0.32890629698639995 0.8274711391480922 -0.32890629698639995 0.8274711391480922 -0.32890629698639995 0.17252886085190783 0.32890629698639995
8.320417209415154E7 0.1760232449060401 0.33213061335655436 0.8239767550939598 -0.3321306133565543 0.8239767550939598 -0.3321306133565543 0.1760232449060401 0.33213061335655436
8.445983984661816E7 0.17958423221739242 0.3353556146195516 0.8204157677826075 -0.33535561461955155 0.8204157677826075 -0.33535561461955155 0.17958423221739242 0.3353556146195516
8.573445738807854E7 0.18321260020799562 0.3385800601405251 0.8167873997920044 -0.3385800601405251 0.8167873997920044 -0.3385800601405251 0.18321260020799562 0.3385800601405251
8.702831069744885E7 0.18690910892500773 0.34180266518171687 0.8130908910749923 -0.34180266518171687 0.8130908910749923 -0.34180266518171687 0.18690910892500773 0.34180266518171687
8.834169006946853E7 0.19067449910269257 0.34502210042806825 0.8093255008973074 -0.34502210042806825 0.8093255008973074 -0.34502210042806825 0.19067449910269257 0.34502210042806825
8.96748901798321E7 0.19450949014795565 0.3482369915917862 0.8054905098520443 -0.3482369915917862 0.8054905098520443 -0.3482369915917862 0.19450949014795565 0.3482369915917862
9.1028210151304E7 0.19841477805190208 0.35144591910259654 0.8015852219480979 -0.35144591910259654 0.8015852219480979 -0.35144591910259654 0.19841477805190208 0.35144591910259654
9.240195362083109E7 0.20239103323038907 0.3546474178904127 0.797608966769611 -0.3546474178904127 0.797608966769611 -0.3546474178904127 0.20239103323038907 0.3546474178904127
9.379642880766791E7 0.20643889829707493 0.35783997726713584 0.793561101702925 -0.35783997726713584 0.793561101702925 -0.35783997726713584 0.20643889829707493 0.35783997726713584
9.521194858253023E7 0.2105589857730013 0.36102204091423745 0.7894410142269985 -0.3610220409142375 0.7894410142269985 -0.3610220409142375 0.2105589857730013 0.36102204091423745
9.664883053779216E7 0.2147518757372967 0.3641920069826895 0.7852481242627032 -0.3641920069826895 0.7852481242627032 -0.3641920069826895 0.2147518757372967 0.3641920069826895
9.810739705874248E7 0.21901811342414146 0.36734822831166086 0.7809818865758584 -0.36734822831166086 0.7809818865758584 -0.36734822831166086 0.21901811342414146 0.36734822831166086
9.958797539591652E7 0.22335820677169824 0.37048901277222535 0.7766417932283018 -0.37048901277222535 0.7766417932283018 -0.37048901277222535 0.22335820677169824 0.37048901277222535
1.0109089773851961E8 0.22777262392927153 0.37361262374209464 0.7722273760707284 -0.37361262374209464 0.7722273760707284 -0.37361262374209464 0.22777262392927153 0.37361262374209464
1.0261650128895843E8 0.23226179072951877 0.3767172807171231 0.7677382092704812 -0.3767172807171231 0.7677382092704812 -0.3767172807171231 0.23226179072951877 0.3767172807171231
1.0416512833849736E8 0.23682608813308959 0.3798011600650063 0.7631739118669103 -0.3798011600650063 0.7631739118669103 -0.3798011600650063 0.23682608813308959 0.3798011600650063
1.0573712634405641E8 0.2414658496536193 0.38286239592623333 0.7585341503463807 -0.38286239592623333 0.7585341503463807 -0.38286239592623333 0.2414658496536193 0.38286239592623333
1.0733284800616828E8 0.24618135877152628 0.385899081266931 0.7538186412284736 -0.385899081266931 0.7538186412284736 -0.385899081266931 0.24618135877152628 0.385899081266931
1.0895265134811176E8 0.25097284634558514 0.3889092690877763 0.7490271536544151 -0.3889092690877763 0.7490271536544151 -0.3889092690877763 0.25097284634558514 0.3889092690877763
1.1059689979623953E8 0.25584048803173565 0.39189097379263377 0.7441595119682644 -0.39189097379263377 0.7441595119682644 -0.39189097379263377 0.25584048803173565 0.39189097379263377
1.1226596226151802E8 0.26078440171905765 0.3948421727200159 0.7392155982809422 -0.3948421727200159 0.7392155982809422 -0.3948421727200159 0.26078440171905765 0.3948421727200159
1.1396021322229806E8 0.26580464499327483 0.3977608078398443 0.7341953550067252 -0.3977608078398443 0.7341953550067252 -0.3977608078398443 0.26580464499327483 0.3977608078398443
1.1568003280833441E8 0.2709012126385547 0.4006447876173364 0.7290987873614453 -0.40064478761733646 0.7290987873614453 -0.40064478761733646 0.2709012126385547 0.4006447876173364
1.1742580688607343E8 0.2760740341887334 0.4034919890451334 0.7239259658112667 -0.40349198904513334 0.7239259658112667 -0.40349198904513334 0.2760740341887334 0.4034919890451334
1.1919792714522783E8 0.2813229715394053 0.40630025984403306 0.7186770284605949 -0.40630025984403306 0.7186770284605949 -0.40630025984403306 0.2813229715394053 0.40630025984403306
1.2099679118665792E8 0.28664781663259276 0.4090674208319062 0.7133521833674074 -0.40906742083190617 0.7133521833674074 -0.40906742083190617 0.28664781663259276 0.4090674208319062
1.2282280261157903E8 0.29204828922591375 0.41179126845953945 0.7079517107740861 -0.41179126845953945 0.7079517107740861 -0.41179126845953945 0.29204828922591375 0.41179126845953945
1.2467637111211549E8 0.29752403475833233 0.4144695775112887 0.7024759652416678 -0.4144695775112887 0.7024759652416678 -0.4144695775112887 0.29752403475833233 0.4144695775112887
1.265579125632208E8 0.30307462232465104 0.4171001039675254 0.696925377675349 -0.4171001039675254 0.696925377675349 -0.4171001039675254 0.30307462232465104 0.4171001039675254
1.284678491159853E8 0.30869954277094447 0.4196805880249433 0.6913004572290555 -0.4196805880249433 0.6913004572290555 -0.4196805880249433 0.30869954277094447 0.4196805880249433
1.3040660929235186E8 0.3143982069230757 0.4222087572698454 0.6856017930769244 -0.42220875726984547 0.6856017930769244 -0.42220875726984547 0.3143982069230757 0.4222087572698454
1.3237462808126101E8 0.32016994396031406 0.4246823299985697 0.6798300560396859 -0.4246823299985697 0.6798300560396859 -0.4246823299985697 0.32016994396031406 0.4246823299985697
1.3437234703624701E8 0.32601399994588093 0.42709901867824857 0.6739860000541189 -0.42709901867824857 0.6739860000541189 -0.42709901867824857 0.32601399994588093 0.42709901867824857
1.364002143745067E8 0.33192953652595636 0.42945653354011837 0.6680704634740436 -0.42945653354011837 0.6680704634740436 -0.42945653354011837 0.33192953652595636 0.42945653354011837
1.3845868507746372E8 0.3379156298083281 0.43175258629662877 0.6620843701916719 -0.43175258629662877 0.6620843701916719 -0.43175258629662877 0.3379156298083281 0.43175258629662877
1.405482209928499E8 0.34397126943140555 0.43398489397264023 0.6560287305685946 -0.4339848939726403 0.6560287305685946 -0.4339848939726403 0.34397126943140555 0.43398489397264023
1.426692909383278E8 0.3500953578337941 0.4361511828400597 0.649904642166206 -0.4361511828400597 0.649904642166206 -0.4361511828400597 0.3500953578337941 0.4361511828400597
1.4482237080667645E8 0.35628670973400056 0.43824919244434707 0.6437132902659994 -0.43824919244434707 0.6437132902659994 -0.43824919244434707 0.35628670973400056 0.43824919244434707
1.4700794367256513E8 0.362544051829143 0.44027667971044626 0.6374559481708569 -0.44027667971044626 0.6374559481708569 -0.44027667971044626 0.362544051829143 0.44027667971044626
1.492264999009378E8 0.36886602272073865 0.44223142311485586 0.6311339772792615 -0.44223142311485586 0.6311339772792615 -0.44223142311485586 0.36886602272073865 0.44223142311485586
1.5147853725703382E8 0.37525117307478967 0.4441112269097669 0.6247488269252104 -0.4441112269097669 0.6247488269252104 -0.4441112269097669 0.37525117307478967 0.4441112269097669
1.5376456101806876E8 0.38169796602242256 0.4459139253844687 0.6183020339775774 -0.4459139253844687 0.6183020339775774 -0.4459139253844687 0.38169796602242256 0.4459139253844687
1.5608508408660066E8 0.38820477780632423 0.44763738714856066 0.6117952221936757 -0.4476373871485606 0.6117952221936757 -0.4476373871485606 0.38820477780632423 0.44763738714856066
1.5844062710560706E8 0.3947698986771251 0.44927951942092254 0.6052301013228749 -0.44927951942092265 0.6052301013228749 -0.44927951942092265 0.3947698986771251 0.44927951942092254
1.6083171857529896E8 0.40139153404271743 0.4508382723078976 0.5986084659572825 -0.4508382723078976 0.5986084659572825 -0.4508382723078976 0.40139153404271743 0.4508382723078976
1.632588949716973E8 0.4080678058722936 0.45231164305372046 0.5919321941277064 -0.45231164305372046 0.5919321941277064 -0.45231164305372046 0.4080678058722936 0.45231164305372046
1.6572270086699936E8 0.4147967543556131 0.45369768024591656 0.585203245644387 -0.45369768024591656 0.585203245644387 -0.45369768024591656 0.4147967543556131 0.45369768024591656
1.6822368905176118E8 0.4215763398167175 0.45499448795817776 0.5784236601832825 -0.45499448795817776 0.5784236601832825 -0.45499448795817776 0.4215763398167175 0.45499448795817776
1.7076242065892437E8 0.42840444487996143 0.4562002298131169 0.5715955551200386 -0.4562002298131169 0.5715955551200386 -0.4562002298131169 0.42840444487996143 0.4562002298131169
1.7333946528971428E8 0.4352788768848744 0.45731313294731013 0.5647211231151257 -0.45731313294731013 0.5647211231151257 -0.45731313294731013 0.4352788768848744 0.45731313294731013
1.7595540114143828E8 0.44219737054499575 0.45833149186115635 0.5578026294550043 -0.45833149186115635 0.5578026294550043 -0.45833149186115635 0.44219737054499575 0.45833149186115635
1.786108151372127E8 0.44915759084444756 0.4592536721363273 0.5508424091555524 -0.4592536721363273 0.5508424091555524 -0.4592536721363273 0.44915759084444756 0.4592536721363273
1.8130630305764765E8 0.4561571361646439 0.4600781140039348 0.5438428638353561 -0.4600781140039348 0.5438428638353561 -0.4600781140039348 0.4561571361646439 0.4600781140039348
1.840424696745189E8 0.4631935416321892 0.46080333574703 0.5368064583678108 -0.46080333574703 0.5368064583678108 -0.46080333574703 0.4631935416321892 0.46080333574703
1.8681992888645732E8 0.4702642826777106 0.46142793692164086 0.5297357173222894 -0.46142793692164086 0.5297357173222894 -0.46142793692164086 0.4702642826777106 0.46142793692164086
1.8963930385668582E8 0.4773667787940911 0.4619506013812737 0.5226332212059088 -0.4619506013812737 0.5226332212059088 -0.4619506013812737 0.4773667787940911 0.4619506013812737
1.92501227152835E8 0.4844983974813598 0.46237010009063295 0.5155016025186403 -0.46237010009063284 0.5155016025186403 -0.46237010009063284 0.4844983974813598 0.46237010009063295
1.9540634088886917E8 0.49165645836434657 0.46268529371524786 0.5083435416356534 -0.4626852937152478 0.5083435416356534 -0.4626852937152478 0.49165645836434657 0.46268529371524786
1.983552968691535E8 0.49883823746813577 0.4628951349747423 0.5011617625318643 -0.4628951349747423 0.5011617625318643 -0.4628951349747423 0.49883823746813577 0.4628951349747423
2.0134875673469606E8 0.5060409716353697 0.4629986707486127 0.4939590283646304 -0.4629986707486127 0.4939590283646304 -0.4629986707486127 0.5060409716353697 0.4629986707486127
2.0438739211159652E8 0.5132618630685621 0.46299504392461194 0.486738136931438 -0.46299504392461194 0.486738136931438 -0.46299504392461194 0.5132618630685621 0.46299504392461194
2.074718847617352E8 0.5204980839798005 0.4628834949811364 0.47950191602019954 -0.46288349498113635 0.47950191602019954 -0.46288349498113635 0.5204980839798005 0.4628834949811364
2.106029267357361E8 0.5277467813295481 0.4626633632963892 0.4722532186704519 -0.4626633632963892 0.4722532186704519 -0.4626633632963892 0.5277467813295481 0.4626633632963892
2.1378122052823865E8 0.5350050816357016 0.46233408817852345 0.46499491836429835 -0.4623340881785235 0.46499491836429835 -0.4623340881785235 0.5350050816357016 0.46233408817852345
2.1700747923551247E8 0.5422700958336393 0.46189520961244973 0.4577299041663607 -0.4618952096124496 0.4577299041663607 -0.4618952096124496 0.5422700958336393 0.46189520961244973
2.2028242671545094E8 0.5495389241677007 0.46134636872050144 0.4504610758322993 -0.46134636872050144 0.4504610758322993 -0.46134636872050144 0.5495389241677007 0.46134636872050144
2.23606797749979E8 0.5568086610943732 0.4606873079356938 0.44319133890562684 -0.46068730793569374 0.44319133890562684 -0.46068730793569374 0.5568086610943732 0.4606873079356938
2.2698133820991236E8 0.5640764001774355 0.45991787088784747 0.43592359982256446 -0.45991787088784747 0.43592359982256446 -0.45991787088784747 0.5640764001774355 0.45991787088784747
2.3040680522230446E8 0.5713392389554209 0.45903800200439826 0.428660761044579 -0.45903800200439826 0.428660761044579 -0.45903800200439826 0.5713392389554209 0.45903800200439826
2.338839673403185E8 0.5785942837619936 0.45804774582923036 0.4214057162380063 -0.45804774582923047 0.4214057162380063 -0.45804774582923047 0.5785942837619936 0.45804774582923036
2.37413604715664E8 0.5858386544802182 0.4569472460643705 0.4141613455197818 -0.4569472460643704 0.4141613455197818 -0.4569472460643704 0.5858386544802182 0.4569472460643705
2.4099650927363476E8 0.5930694892122026 0.4557367443408257 0.4069305107877973 -0.4557367443408256 0.4069305107877973 -0.4557367443408256 0.5930694892122026 0.4557367443408257
2.446334848907889E8 0.6002839488462065 0.4544165787262558 0.39971605115379355 -0.4544165787262558 0.39971605115379355 -0.4544165787262558 0.6002839488462065 0.4544165787262558
2.4832534757531032E8 0.607479221504073 0.452987181978488 0.39252077849592704 -0.4529871819784881 0.39252077849592704 -0.4529871819784881 0.607479221504073 0.452987181978488
2.5207292565009177E8 0.614652526852674 0.4514490795551527 0.38534747314732604 -0.4514490795551527 0.38534747314732604 -0.4514490795551527 0.614652526852674 0.4514490795551527
2.558770599385812E8 0.6218011202640263 0.44980288739087493 0.37819887973597377 -0.44980288739087493 0.37819887973597377 -0.44980288739087493 0.6218011202640263 0.44980288739087493
2.5973860395343277E8 0.6289222968097705 0.4480493094545405 0.3710777031902293 -0.4480493094545405 0.3710777031902293 -0.4480493094545405 0.6289222968097705 0.4480493094545405
