!Murata Part Number: LQG15HN9N1J02
!These Parameters are Measured in Series Mode Connection
!       o--[Z]--o
!Port1              Port2
!       o-------o
!
!Freq. Start=50[MHz] Stop=20[GHz], 401[Steps]
# Hz S RI R 50
!Freq.(Hz) S11(Real) S11(Imag) S21(Real) S21(Imag) S12(Real) S12(Imag) S22(Real) S22(Imag)
5.0E7 0.004249653418272132 0.027691078126593462 0.9957503465817279 -0.027691078126593466 0.9957503465817279 -0.027691078126593466 0.004249653418272132 0.027691078126593462
5.0754570186123446E7 0.004299617525110765 0.028085716581937512 0.9957003824748893 -0.02808571658193751 0.9957003824748893 -0.02808571658193751 0.004299617525110765 0.028085716581937512
5.152052789556263E7 0.00435051115845563 0.028485865664684962 0.9956494888415444 -0.028485865664684962 0.9956494888415444 -0.028485865664684962 0.00435051115845563 0.028485865664684962
5.229804498202928E7 0.004402348424338701 0.02889160291880457 0.9955976515756613 -0.02889160291880457 0.9955976515756613 -0.02889160291880457 0.004402348424338701 0.02889160291880457
5.308729589274893E7 0.004455143684909968 0.029303007305433434 0.9955448563150902 -0.029303007305433434 0.9955448563150902 -0.029303007305433434 0.004455143684909968 0.029303007305433434
5.388845770760058E7 0.0045089115837916045 0.029720159237422477 0.9954910884162084 -0.029720159237422474 0.9954910884162084 -0.029720159237422474 0.0045089115837916045 0.029720159237422477
5.470171017884717E7 0.004563667073113909 0.030143140613735225 0.9954363329268859 -0.030143140613735225 0.9954363329268859 -0.030143140613735225 0.004563667073113909 0.030143140613735225
5.5527235771465644E7 0.00461942544224314 0.030572034853618226 0.9953805745577567 -0.030572034853618226 0.9953805745577567 -0.030572034853618226 0.00461942544224314 0.030572034853618226
5.6365219704085544E7 0.0046762023482058825 0.0310069269304602 0.995323797651794 -0.0310069269304602 0.995323797651794 -0.0310069269304602 0.0046762023482058825 0.0310069269304602
5.721584999054556E7 0.004734013847809201 0.03144790340525717 0.995265986152191 -0.031447903405257174 0.995265986152191 -0.031447903405257174 0.004734013847809201 0.03144790340525717
5.807931748207712E7 0.004792876431450081 0.03189505245959995 0.99520712356855 -0.03189505245959995 0.99520712356855 -0.03189505245959995 0.004792876431450081 0.03189505245959995
5.8955815910124585E7 0.004852807058602237 0.03234846392810162 0.9951471929413978 -0.03234846392810162 0.9951471929413978 -0.03234846392810162 0.004852807058602237 0.03234846392810162
5.984554192981184E7 0.004913823194962655 0.032808229330183396 0.9950861768050373 -0.032808229330183396 0.9950861768050373 -0.032808229330183396 0.004913823194962655 0.032808229330183396
6.074869516406457E7 0.004975942851234558 0.03327444190113805 0.9950240571487654 -0.03327444190113804 0.9950240571487654 -0.03327444190113804 0.004975942851234558 0.03327444190113805
6.166547824839868E7 0.005039184623518378 0.0337471966223935 0.9949608153764818 -0.0337471966223935 0.9949608153764818 -0.0337471966223935 0.005039184623518378 0.0337471966223935
6.2596096876384385E7 0.005103567735276536 0.03422659025089973 0.9948964322647234 -0.03422659025089973 0.9948964322647234 -0.03422659025089973 0.005103567735276536 0.03422659025089973
6.354075984579668E7 0.0051691120808332845 0.03471272134756715 0.9948308879191666 -0.03471272134756715 0.9948308879191666 -0.03471272134756715 0.0051691120808332845 0.03471272134756715
6.449967910546205E7 0.005235838270365486 0.03520569030468584 0.9947641617296346 -0.03520569030468584 0.9947641617296346 -0.03520569030468584 0.005235838270365486 0.03520569030468584
6.547306980281226E7 0.005303767676336073 0.03570559937226087 0.9946962323236641 -0.03570559937226087 0.9946962323236641 -0.03570559937226087 0.005303767676336073 0.03570559937226087
6.646115033215589E7 0.005372922481317497 0.03621255268320181 0.9946270775186825 -0.03621255268320181 0.9946270775186825 -0.03621255268320181 0.005372922481317497 0.03621255268320181
6.746414238367817E7 0.005443325727148659 0.036726656277309463 0.9945566742728513 -0.03672665627730946 0.9945566742728513 -0.03672665627730946 0.005443325727148659 0.036726656277309463
6.848227099318038E7 0.005515001365365556 0.03724801812400848 0.9944849986346346 -0.03724801812400848 0.9944849986346346 -0.03724801812400848 0.005515001365365556 0.03724801812400848
6.951576459256999E7 0.005587974308842731 0.03777674814377887 0.994412025691157 -0.03777674814377887 0.994412025691157 -0.03777674814377887 0.005587974308842731 0.03777674814377887
7.056485506111258E7 0.00566227048458027 0.03831295822824556 0.9943377295154198 -0.03831295822824556 0.9943377295154198 -0.03831295822824556 0.00566227048458027 0.03831295822824556
7.162977777745734E7 0.005737916887569139 0.038856762258890856 0.9942620831124308 -0.038856762258890856 0.9942620831124308 -0.038856762258890856 0.005737916887569139 0.038856762258890856
7.271077167244768E7 0.0058149416356661635 0.03940827612436042 0.9941850583643338 -0.03940827612436041 0.9941850583643338 -0.03940827612436041 0.0058149416356661635 0.03940827612436042
7.380807928272885E7 0.005893374025409159 0.03996761773633961 0.9941066259745909 -0.03996761773633961 0.9941066259745909 -0.03996761773633961 0.005893374025409159 0.03996761773633961
7.492194680516452E7 0.005973244588702339 0.04053490704398299 0.9940267554112977 -0.04053490704398299 0.9940267554112977 -0.04053490704398299 0.005973244588702339 0.04053490704398299
7.60526241520746E7 0.006054585150302544 0.04111026604688635 0.9939454148496976 -0.041110266046886355 0.9939454148496976 -0.041110266046886355 0.006054585150302544 0.04111026604688635
7.720036500730675E7 0.006137428886037415 0.04169381880659584 0.9938625711139625 -0.041693818806595846 0.9938625711139625 -0.041693818806595846 0.006137428886037415 0.04169381880659584
7.836542688315398E7 0.006221810381688281 0.04228569145665619 0.9937781896183117 -0.04228569145665619 0.9937781896183117 -0.04228569145665619 0.006221810381688281 0.04228569145665619
7.954807117813127E7 0.006307765692472326 0.04288601221120421 0.9936922343075277 -0.0428860122112042 0.9936922343075277 -0.0428860122112042 0.006307765692472326 0.04288601221120421
8.074856323562416E7 0.006395332403061026 0.043494911372120616 0.9936046675969391 -0.043494911372120616 0.9936046675969391 -0.043494911372120616 0.006395332403061026 0.043494911372120616
8.196717240342227E7 0.006484549688074979 0.044112521334758306 0.993515450311925 -0.044112521334758306 0.993515450311925 -0.044112521334758306 0.006484549688074979 0.044112521334758306
8.320417209415154E7 0.006575458372998639 0.044738976592270205 0.9934245416270014 -0.044738976592270205 0.9934245416270014 -0.044738976592270205 0.006575458372998639 0.044738976592270205
8.445983984661816E7 0.0066681009954622115 0.045374413738564205 0.9933318990045378 -0.045374413738564205 0.9933318990045378 -0.045374413738564205 0.0066681009954622115 0.045374413738564205
8.573445738807854E7 0.006762521866842623 0.0460189714699183 0.9932374781331573 -0.0460189714699183 0.9932374781331573 -0.0460189714699183 0.006762521866842623 0.0460189714699183
8.702831069744885E7 0.006858767134139867 0.04667279058529148 0.9931412328658603 -0.04667279058529148 0.9931412328658603 -0.04667279058529148 0.006858767134139867 0.04667279058529148
8.834169006946853E7 0.006956884842090174 0.04733601398537058 0.9930431151579099 -0.04733601398537058 0.9930431151579099 -0.04733601398537058 0.006956884842090174 0.04733601398537058
8.96748901798321E7 0.007056924995482836 0.04800878667039586 0.9929430750045172 -0.04800878667039586 0.9929430750045172 -0.04800878667039586 0.007056924995482836 0.04800878667039586
9.1028210151304E7 0.007158939621652953 0.048691255736811066 0.9928410603783472 -0.048691255736811066 0.9928410603783472 -0.048691255736811066 0.007158939621652953 0.048691255736811066
9.240195362083109E7 0.0072629828331281 0.04938357037278488 0.9927370171668718 -0.04938357037278489 0.9927370171668718 -0.04938357037278489 0.0072629828331281 0.04938357037278488
9.379642880766791E7 0.007369110890412971 0.05008588185265368 0.992630889109587 -0.05008588185265368 0.992630889109587 -0.05008588185265368 0.007369110890412971 0.05008588185265368
9.521194858253023E7 0.0074773822649018195 0.050798343530334945 0.9925226177350982 -0.050798343530334945 0.9925226177350982 -0.050798343530334945 0.0074773822649018195 0.050798343530334945
9.664883053779216E7 0.007587857701914729 0.05152111083176295 0.9924121422980853 -0.05152111083176295 0.9924121422980853 -0.05152111083176295 0.007587857701914729 0.05152111083176295
9.810739705874248E7 0.007700600283859523 0.05225434124639632 0.9922993997161405 -0.05225434124639632 0.9922993997161405 -0.05225434124639632 0.007700600283859523 0.05225434124639632
9.958797539591652E7 0.007815675493527418 0.052998194317848545 0.9921843245064724 -0.05299819431784853 0.9921843245064724 -0.05299819431784853 0.007815675493527418 0.052998194317848545
1.0109089773851961E8 0.007933151277536174 0.05375283163369052 0.9920668487224639 -0.05375283163369053 0.9920668487224639 -0.05375283163369053 0.007933151277536174 0.05375283163369052
1.0261650128895843E8 0.008053098109940225 0.05451841681447264 0.9919469018900599 -0.05451841681447263 0.9919469018900599 -0.05451841681447263 0.008053098109940225 0.05451841681447264
1.0416512833849736E8 0.008175589056032996 0.05529511550201243 0.9918244109439669 -0.05529511550201243 0.9918244109439669 -0.05529511550201243 0.008175589056032996 0.05529511550201243
1.0573712634405641E8 0.008300699836371949 0.05608309534699194 0.9916993001636281 -0.05608309534699195 0.9916993001636281 -0.05608309534699195 0.008300699836371949 0.05608309534699194
1.0733284800616828E8 0.008428508891061861 0.05688252599590501 0.9915714911089382 -0.05688252599590501 0.9915714911089382 -0.05688252599590501 0.008428508891061861 0.05688252599590501
1.0895265134811176E8 0.008559097444336954 0.057693579077392955 0.9914409025556631 -0.057693579077392955 0.9914409025556631 -0.057693579077392955 0.008559097444336954 0.057693579077392955
1.1059689979623953E8 0.008692549569486837 0.058516428188002956 0.991307450430513 -0.05851642818800295 0.991307450430513 -0.05851642818800295 0.008692549569486837 0.058516428188002956
1.1226596226151802E8 0.00882895225417574 0.059351248877400294 0.9911710477458242 -0.059351248877400294 0.9911710477458242 -0.059351248877400294 0.00882895225417574 0.059351248877400294
1.1396021322229806E8 0.008968395466208154 0.06019821863306118 0.9910316045337918 -0.06019821863306118 0.9910316045337918 -0.06019821863306118 0.008968395466208154 0.06019821863306118
1.1568003280833441E8 0.009110972219797897 0.0610575168644692 0.9908890277802022 -0.06105751686446918 0.9908890277802022 -0.06105751686446918 0.009110972219797897 0.0610575168644692
1.1742580688607343E8 0.009256778642400697 0.06192932488683418 0.9907432213575994 -0.06192932488683418 0.9907432213575994 -0.06192932488683418 0.009256778642400697 0.06192932488683418
1.1919792714522783E8 0.00940591404217348 0.06281382590434763 0.9905940859578266 -0.06281382590434763 0.9905940859578266 -0.06281382590434763 0.00940591404217348 0.06281382590434763
1.2099679118665792E8 0.009558480976125827 0.06371120499298391 0.9904415190238741 -0.06371120499298391 0.9904415190238741 -0.06371120499298391 0.009558480976125827 0.06371120499298391
1.2282280261157903E8 0.009714585319031811 0.06462164908285307 0.9902854146809683 -0.06462164908285309 0.9902854146809683 -0.06462164908285309 0.009714585319031811 0.06462164908285307
1.2467637111211549E8 0.00987433633317174 0.06554534694010508 0.9901256636668281 -0.06554534694010508 0.9901256636668281 -0.06554534694010508 0.00987433633317174 0.06554534694010508
1.265579125632208E8 0.010037846738975538 0.06648248914838174 0.9899621532610245 -0.06648248914838174 0.9899621532610245 -0.06648248914838174 0.010037846738975538 0.06648248914838174
1.284678491159853E8 0.010205232786640268 0.0674332680898071 0.9897947672133598 -0.0674332680898071 0.9897947672133598 -0.0674332680898071 0.010205232786640268 0.0674332680898071
1.3040660929235186E8 0.010376614328795662 0.06839787792550321 0.9896233856712044 -0.06839787792550321 0.9896233856712044 -0.06839787792550321 0.010376614328795662 0.06839787792550321
1.3237462808126101E8 0.01055211489429219 0.06937651457561343 0.9894478851057078 -0.06937651457561345 0.9894478851057078 -0.06937651457561345 0.01055211489429219 0.06937651457561343
1.3437234703624701E8 0.010731861763186638 0.07036937569881106 0.9892681382368134 -0.07036937569881106 0.9892681382368134 -0.07036937569881106 0.010731861763186638 0.07036937569881106
1.364002143745067E8 0.010915986043000571 0.07137666067126655 0.9890840139569994 -0.07137666067126656 0.9890840139569994 -0.07137666067126656 0.010915986043000571 0.07137666067126655
1.3845868507746372E8 0.011104622746327088 0.07239857056504326 0.9888953772536729 -0.07239857056504326 0.9888953772536729 -0.07239857056504326 0.011104622746327088 0.07239857056504326
1.405482209928499E8 0.01129791086986131 0.07343530812588672 0.9887020891301389 -0.07343530812588674 0.9887020891301389 -0.07343530812588674 0.01129791086986131 0.07343530812588672
1.426692909383278E8 0.011495993474929788 0.07448707775036952 0.9885040065250701 -0.07448707775036952 0.9885040065250701 -0.07448707775036952 0.011495993474929788 0.07448707775036952
1.4482237080667645E8 0.011699017769593832 0.07555408546234933 0.988300982230406 -0.07555408546234933 0.988300982230406 -0.07555408546234933 0.011699017769593832 0.07555408546234933
1.4700794367256513E8 0.011907135192401322 0.07663653888869525 0.9880928648075987 -0.07663653888869525 0.9880928648075987 -0.07663653888869525 0.011907135192401322 0.07663653888869525
1.492264999009378E8 0.012120501497861175 0.07773464723423291 0.9878794985021389 -0.07773464723423291 0.9878794985021389 -0.07773464723423291 0.012120501497861175 0.07773464723423291
1.5147853725703382E8 0.012339276843714525 0.07884862125585776 0.9876607231562855 -0.07884862125585776 0.9876607231562855 -0.07884862125585776 0.012339276843714525 0.07884862125585776
1.5376456101806876E8 0.012563625880075762 0.07997867323576031 0.9874363741199241 -0.07997867323576031 0.9874363741199241 -0.07997867323576031 0.012563625880075762 0.07997867323576031
1.5608508408660066E8 0.012793717840516855 0.08112501695370682 0.9872062821594831 -0.08112501695370682 0.9872062821594831 -0.08112501695370682 0.012793717840516855 0.08112501695370682
1.5844062710560706E8 0.013029726635167735 0.08228786765831445 0.9869702733648322 -0.08228786765831445 0.9869702733648322 -0.08228786765831445 0.013029726635167735 0.08228786765831445
1.6083171857529896E8 0.013271830945905649 0.08346744203725866 0.9867281690540943 -0.08346744203725866 0.9867281690540943 -0.08346744203725866 0.013271830945905649 0.08346744203725866
1.632588949716973E8 0.013520214323706219 0.08466395818634706 0.9864797856762937 -0.08466395818634706 0.9864797856762937 -0.08466395818634706 0.013520214323706219 0.08466395818634706
1.6572270086699936E8 0.01377506528822945 0.08587763557739282 0.9862249347117706 -0.08587763557739282 0.9862249347117706 -0.08587763557739282 0.01377506528822945 0.08587763557739282
1.6822368905176118E8 0.014036577429713799 0.0871086950248167 0.9859634225702861 -0.0871086950248167 0.9859634225702861 -0.0871086950248167 0.014036577429713799 0.0871086950248167
1.7076242065892437E8 0.014304949513252707 0.08835735865090706 0.9856950504867473 -0.08835735865090708 0.9856950504867473 -0.08835735865090708 0.014304949513252707 0.08835735865090706
1.7333946528971428E8 0.014580385585528148 0.08962384984966189 0.9854196144144719 -0.08962384984966189 0.9854196144144719 -0.08962384984966189 0.014580385585528148 0.08962384984966189
1.7595540114143828E8 0.014863095084077533 0.09090839324913776 0.9851369049159224 -0.09090839324913776 0.9851369049159224 -0.09090839324913776 0.014863095084077533 0.09090839324913776
1.786108151372127E8 0.0151532929491709 0.09221121467222532 0.9848467070508292 -0.09221121467222532 0.9848467070508292 -0.09221121467222532 0.0151532929491709 0.09221121467222532
1.8130630305764765E8 0.015451199738377943 0.09353254109577111 0.984548800261622 -0.09353254109577111 0.984548800261622 -0.09353254109577111 0.015451199738377943 0.09353254109577111
1.840424696745189E8 0.01575704174390549 0.09487260060796071 0.9842429582560945 -0.09487260060796072 0.9842429582560945 -0.09487260060796072 0.01575704174390549 0.09487260060796071
1.8681992888645732E8 0.016071051112788965 0.09623162236387717 0.9839289488872113 -0.09623162236387717 0.9839289488872113 -0.09623162236387717 0.016071051112788965 0.09623162236387717
1.8963930385668582E8 0.01639346597002376 0.09760983653914437 0.9836065340299762 -0.09760983653914436 0.9836065340299762 -0.09760983653914436 0.01639346597002376 0.09760983653914437
1.92501227152835E8 0.016724530544725315 0.09900747428156266 0.9832754694552748 -0.09900747428156266 0.9832754694552748 -0.09900747428156266 0.016724530544725315 0.09900747428156266
1.9540634088886917E8 0.01706449529941007 0.10042476766063942 0.98293550470059 -0.10042476766063942 0.98293550470059 -0.10042476766063942 0.01706449529941007 0.10042476766063942
1.983552968691535E8 0.017413617062493055 0.10186194961491461 0.9825863829375071 -0.10186194961491461 0.9825863829375071 -0.10186194961491461 0.017413617062493055 0.10186194961491461
2.0134875673469606E8 0.017772159164101648 0.10331925389697541 0.9822278408358983 -0.10331925389697541 0.9822278408358983 -0.10331925389697541 0.017772159164101648 0.10331925389697541
2.0438739211159652E8 0.0181403915753094 0.10479691501605007 0.9818596084246908 -0.10479691501605007 0.9818596084246908 -0.10479691501605007 0.0181403915753094 0.10479691501605007
2.074718847617352E8 0.018518591050898033 0.10629516817806521 0.981481408949102 -0.10629516817806521 0.981481408949102 -0.10629516817806521 0.018518591050898033 0.10629516817806521
2.106029267357361E8 0.018907041275760775 0.1078142492230449 0.9810929587242393 -0.1078142492230449 0.9810929587242393 -0.1078142492230449 0.018907041275760775 0.1078142492230449
2.1378122052823865E8 0.01930603301506492 0.10935439455972301 0.9806939669849352 -0.10935439455972301 0.9806939669849352 -0.10935439455972301 0.01930603301506492 0.10935439455972301
2.1700747923551247E8 0.01971586426829674 0.11091584109723238 0.9802841357317033 -0.11091584109723238 0.9802841357317033 -0.11091584109723238 0.01971586426829674 0.11091584109723238
2.2028242671545094E8 0.02013684042731721 0.11249882617372702 0.9798631595726829 -0.11249882617372702 0.9798631595726829 -0.11249882617372702 0.02013684042731721 0.11249882617372702
2.23606797749979E8 0.02056927443856227 0.11410358748178301 0.9794307255614378 -0.11410358748178301 0.9794307255614378 -0.11410358748178301 0.02056927443856227 0.11410358748178301
2.2698133820991236E8 0.021013486969527227 0.11573036299041532 0.9789865130304728 -0.1157303629904153 0.9789865130304728 -0.1157303629904153 0.021013486969527227 0.11573036299041532
2.3040680522230446E8 0.02146980657968 0.11737939086353527 0.9785301934203201 -0.11737939086353527 0.9785301934203201 -0.11737939086353527 0.02146980657968 0.11737939086353527
2.338839673403185E8 0.021938569895953407 0.11905090937466185 0.9780614301040464 -0.11905090937466185 0.9780614301040464 -0.11905090937466185 0.021938569895953407 0.11905090937466185
2.37413604715664E8 0.022420121792972432 0.12074515681768802 0.9775798782070276 -0.12074515681768802 0.9775798782070276 -0.12074515681768802 0.022420121792972432 0.12074515681768802
2.4099650927363476E8 0.022914815578176654 0.12246237141348584 0.9770851844218232 -0.12246237141348584 0.9770851844218232 -0.12246237141348584 0.022914815578176654 0.12246237141348584
2.446334848907889E8 0.023423013182003894 0.12420279121212308 0.976576986817996 -0.12420279121212308 0.976576986817996 -0.12420279121212308 0.023423013182003894 0.12420279121212308
2.4832534757531032E8 0.023945085353304394 0.125966653990443 0.9760549146466955 -0.12596665399044296 0.9760549146466955 -0.12596665399044296 0.023945085353304394 0.125966653990443
