!Murata Part Number: LQG15HN27NH02
!These Parameters are Measured in Series Mode Connection
!       o--[Z]--o
!Port1              Port2
!       o-------o
!
!Freq. Start=50[MHz] Stop=20[GHz], 401[Steps]
# Hz S RI R 50
!Freq.(Hz) S11(Real) S11(Imag) S21(Real) S21(Imag) S12(Real) S12(Imag) S22(Real) S22(Imag)
5.0E7 0.01820231342032053 0.08418414473274737 0.9817976865796795 -0.08418414473274737 0.9817976865796795 -0.08418414473274737 0.01820231342032053 0.08418414473274737
5.0754570186123446E7 0.01849692581790231 0.08534649401319908 0.9815030741820978 -0.08534649401319908 0.9815030741820978 -0.08534649401319908 0.01849692581790231 0.08534649401319908
5.152052789556263E7 0.01879811351490488 0.08652430746773146 0.9812018864850951 -0.08652430746773146 0.9812018864850951 -0.08652430746773146 0.01879811351490488 0.08652430746773146
5.229804498202928E7 0.01910602746876203 0.08771777039738561 0.9808939725312379 -0.08771777039738561 0.9808939725312379 -0.08771777039738561 0.01910602746876203 0.08771777039738561
5.308729589274893E7 0.019420822139665436 0.08892707031309681 0.9805791778603347 -0.08892707031309682 0.9805791778603347 -0.08892707031309682 0.019420822139665436 0.08892707031309681
5.388845770760058E7 0.019742655630141083 0.09015239697155078 0.9802573443698589 -0.09015239697155078 0.9802573443698589 -0.09015239697155078 0.019742655630141083 0.09015239697155078
5.470171017884717E7 0.020071689831748896 0.09139394240780539 0.9799283101682512 -0.0913939424078054 0.9799283101682512 -0.0913939424078054 0.020071689831748896 0.09139394240780539
5.5527235771465644E7 0.020408090578964456 0.09265190096424947 0.9795919094210355 -0.09265190096424947 0.9795919094210355 -0.09265190096424947 0.020408090578964456 0.09265190096424947
5.6365219704085544E7 0.020752027810279954 0.0939264693154585 0.9792479721897202 -0.09392646931545852 0.9792479721897202 -0.09392646931545852 0.020752027810279954 0.0939264693154585
5.721584999054556E7 0.02110367573653792 0.09521784648849746 0.978896324263462 -0.09521784648849746 0.978896324263462 -0.09521784648849746 0.02110367573653792 0.09521784648849746
5.807931748207712E7 0.021463213016487456 0.096526233878212 0.9785367869835127 -0.096526233878212 0.9785367869835127 -0.096526233878212 0.021463213016487456 0.096526233878212
5.8955815910124585E7 0.021830822939527258 0.09785183525704205 0.9781691770604728 -0.09785183525704205 0.9781691770604728 -0.09785183525704205 0.021830822939527258 0.09785183525704205
5.984554192981184E7 0.02220669361557492 0.09919485677888781 0.9777933063844252 -0.09919485677888781 0.9777933063844252 -0.09919485677888781 0.02220669361557492 0.09919485677888781
6.074869516406457E7 0.022591018171974984 0.10055550697655163 0.9774089818280252 -0.10055550697655166 0.9774089818280252 -0.10055550697655166 0.022591018171974984 0.10055550697655163
6.166547824839868E7 0.0229839949573323 0.10193399675227986 0.9770160050426677 -0.10193399675227986 0.9770160050426677 -0.10193399675227986 0.0229839949573323 0.10193399675227986
6.2596096876384385E7 0.02338582775213057 0.10333053936092701 0.9766141722478693 -0.10333053936092701 0.9766141722478693 -0.10333053936092701 0.02338582775213057 0.10333053936092701
6.354075984579668E7 0.02379672598596869 0.10474535038526647 0.9762032740140313 -0.10474535038526647 0.9762032740140313 -0.10474535038526647 0.02379672598596869 0.10474535038526647
6.449967910546205E7 0.0242169049612211 0.10617864770297389 0.975783095038779 -0.10617864770297389 0.975783095038779 -0.10617864770297389 0.0242169049612211 0.10617864770297389
6.547306980281226E7 0.02464658608290201 0.10763065144481693 0.975353413917098 -0.10763065144481693 0.975353413917098 -0.10763065144481693 0.02464658608290201 0.10763065144481693
6.646115033215589E7 0.025085997094486983 0.10910158394358889 0.974914002905513 -0.10910158394358889 0.974914002905513 -0.10910158394358889 0.025085997094486983 0.10910158394358889
6.746414238367817E7 0.0255353723194199 0.11059166967333359 0.9744646276805803 -0.11059166967333359 0.9744646276805803 -0.11059166967333359 0.0255353723194199 0.11059166967333359
6.848227099318038E7 0.025994952908008483 0.11210113517841745 0.9740050470919916 -0.11210113517841745 0.9740050470919916 -0.11210113517841745 0.025994952908008483 0.11210113517841745
6.951576459256999E7 0.026464987089387985 0.11363020899201878 0.9735350129106121 -0.11363020899201878 0.9735350129106121 -0.11363020899201878 0.026464987089387985 0.11363020899201878
7.056485506111258E7 0.026945730428208334 0.11517912154361205 0.9730542695717919 -0.11517912154361205 0.9730542695717919 -0.11517912154361205 0.026945730428208334 0.11517912154361205
7.162977777745734E7 0.027437446085679516 0.11674810505504431 0.9725625539143204 -0.11674810505504432 0.9725625539143204 -0.11674810505504432 0.027437446085679516 0.11674810505504431
7.271077167244768E7 0.02794040508458845 0.11833739342481307 0.9720595949154114 -0.11833739342481306 0.9720595949154114 -0.11833739342481306 0.02794040508458845 0.11833739342481307
7.380807928272885E7 0.028454886577880267 0.11994722210017006 0.9715451134221198 -0.11994722210017006 0.9715451134221198 -0.11994722210017006 0.028454886577880267 0.11994722210017006
7.492194680516452E7 0.02898117812037991 0.12157782793669519 0.9710188218796201 -0.12157782793669519 0.9710188218796201 -0.12157782793669519 0.02898117812037991 0.12157782793669519
7.60526241520746E7 0.029519575943212528 0.12322944904500127 0.9704804240567875 -0.12322944904500129 0.9704804240567875 -0.12322944904500129 0.029519575943212528 0.12322944904500127
7.720036500730675E7 0.030070385230464965 0.12490232462424723 0.9699296147695349 -0.12490232462424723 0.9699296147695349 -0.12490232462424723 0.030070385230464965 0.12490232462424723
7.836542688315398E7 0.030633920397617382 0.12659669478215768 0.9693660796023826 -0.12659669478215768 0.9693660796023826 -0.12659669478215768 0.030633920397617382 0.12659669478215768
7.954807117813127E7 0.031210505371260768 0.12831280034126455 0.9687894946287393 -0.12831280034126455 0.9687894946287393 -0.12831280034126455 0.031210505371260768 0.12831280034126455
8.074856323562416E7 0.031800473869604835 0.13005088263110617 0.9681995261303951 -0.13005088263110617 0.9681995261303951 -0.13005088263110617 0.031800473869604835 0.13005088263110617
8.196717240342227E7 0.032404169683270645 0.13181118326613664 0.9675958303167292 -0.1318111832661366 0.9675958303167292 -0.1318111832661366 0.032404169683270645 0.13181118326613664
8.320417209415154E7 0.033021946955853296 0.13359394390911744 0.9669780530441467 -0.13359394390911747 0.9669780530441467 -0.13359394390911747 0.033021946955853296 0.13359394390911744
8.445983984661816E7 0.03365417046373241 0.1353994060197821 0.9663458295362677 -0.1353994060197821 0.9663458295362677 -0.1353994060197821 0.03365417046373241 0.1353994060197821
8.573445738807854E7 0.03430121589460126 0.13722781058857986 0.9656987841053988 -0.13722781058857986 0.9656987841053988 -0.13722781058857986 0.03430121589460126 0.13722781058857986
8.702831069744885E7 0.03496347012417984 0.1390793978553247 0.9650365298758202 -0.1390793978553247 0.9650365298758202 -0.1390793978553247 0.03496347012417984 0.1390793978553247
8.834169006946853E7 0.035641331490571346 0.14095440701258727 0.9643586685094288 -0.14095440701258727 0.9643586685094288 -0.14095440701258727 0.035641331490571346 0.14095440701258727
8.96748901798321E7 0.03633521006571826 0.14285307589368865 0.9636647899342818 -0.14285307589368865 0.9636647899342818 -0.14285307589368865 0.03633521006571826 0.14285307589368865
9.1028210151304E7 0.037045527923409205 0.14477564064516366 0.9629544720765908 -0.14477564064516366 0.9629544720765908 -0.14477564064516366 0.037045527923409205 0.14477564064516366
9.240195362083109E7 0.03777271940328422 0.14672233538357785 0.9622272805967158 -0.14672233538357785 0.9622272805967158 -0.14672233538357785 0.03777271940328422 0.14672233538357785
9.379642880766791E7 0.03851723137028296 0.14869339183659527 0.961482768629717 -0.14869339183659525 0.961482768629717 -0.14869339183659525 0.03851723137028296 0.14869339183659527
9.521194858253023E7 0.039279523468976146 0.15068903896820304 0.9607204765310238 -0.15068903896820302 0.9607204765310238 -0.15068903896820302 0.039279523468976146 0.15068903896820304
9.664883053779216E7 0.04006006837221638 0.15270950258801252 0.9599399316277839 -0.15270950258801255 0.9599399316277839 -0.15270950258801255 0.04006006837221638 0.15270950258801252
9.810739705874248E7 0.0408593520235413 0.15475500494456476 0.9591406479764586 -0.15475500494456476 0.9591406479764586 -0.15475500494456476 0.0408593520235413 0.15475500494456476
9.958797539591652E7 0.04167787387275509 0.15682576430257714 0.9583221261272448 -0.15682576430257714 0.9583221261272448 -0.15682576430257714 0.04167787387275509 0.15682576430257714
1.0109089773851961E8 0.04251614710411059 0.15892199450407737 0.9574838528958893 -0.15892199450407737 0.9574838528958893 -0.15892199450407737 0.04251614710411059 0.15892199450407737
1.0261650128895843E8 0.04337469885650606 0.16104390451337813 0.956625301143494 -0.16104390451337813 0.956625301143494 -0.16104390451337813 0.04337469885650606 0.16104390451337813
1.0416512833849736E8 0.04425407043510362 0.1631916979458522 0.9557459295648963 -0.1631916979458522 0.9557459295648963 -0.1631916979458522 0.04425407043510362 0.1631916979458522
1.0573712634405641E8 0.04515481751376703 0.16536557258047654 0.9548451824862328 -0.16536557258047652 0.9548451824862328 -0.16536557258047652 0.04515481751376703 0.16536557258047654
1.0733284800616828E8 0.04607751032770668 0.1675657198561199 0.9539224896722933 -0.1675657198561199 0.9539224896722933 -0.1675657198561199 0.04607751032770668 0.1675657198561199
1.0895265134811176E8 0.04702273385570694 0.16979232435155456 0.9529772661442931 -0.16979232435155459 0.9529772661442931 -0.16979232435155459 0.04702273385570694 0.16979232435155456
1.1059689979623953E8 0.04799108799129857 0.17204556324918144 0.9520089120087014 -0.17204556324918144 0.9520089120087014 -0.17204556324918144 0.04799108799129857 0.17204556324918144
1.1226596226151802E8 0.048983187702224026 0.1743256057824653 0.951016812297776 -0.1743256057824653 0.951016812297776 -0.1743256057824653 0.048983187702224026 0.1743256057824653
1.1396021322229806E8 0.04999966317752637 0.17663261266708413 0.9500003368224735 -0.17663261266708413 0.9500003368224735 -0.17663261266708413 0.04999966317752637 0.17663261266708413
1.1568003280833441E8 0.051041159961574836 0.17896673551580677 0.9489588400384251 -0.17896673551580677 0.9489588400384251 -0.17896673551580677 0.051041159961574836 0.17896673551580677
1.1742580688607343E8 0.05210833907432054 0.1813281162371241 0.9478916609256796 -0.1813281162371241 0.9478916609256796 -0.1813281162371241 0.05210833907432054 0.1813281162371241
1.1919792714522783E8 0.05320187711705448 0.1837168864176699 0.9467981228829456 -0.1837168864176699 0.9467981228829456 -0.1837168864176699 0.05320187711705448 0.1837168864176699
1.2099679118665792E8 0.054322466362916606 0.18613316668848154 0.9456775336370835 -0.18613316668848154 0.9456775336370835 -0.18613316668848154 0.054322466362916606 0.18613316668848154
1.2282280261157903E8 0.05547081483138122 0.1885770660751663 0.9445291851686188 -0.1885770660751663 0.9445291851686188 -0.1885770660751663 0.05547081483138122 0.1885770660751663
1.2467637111211549E8 0.056647646345917776 0.19104868133205677 0.9433523536540824 -0.19104868133205677 0.9433523536540824 -0.19104868133205677 0.056647646345917776 0.19104868133205677
1.265579125632208E8 0.05785370057399993 0.19354809626045896 0.9421462994259999 -0.19354809626045896 0.9421462994259999 -0.19354809626045896 0.05785370057399993 0.19354809626045896
1.284678491159853E8 0.05908973304860728 0.1960753810111192 0.9409102669513928 -0.1960753810111192 0.9409102669513928 -0.1960753810111192 0.05908973304860728 0.1960753810111192
1.3040660929235186E8 0.06035651517033548 0.19863059137106145 0.9396434848296645 -0.19863059137106145 0.9396434848296645 -0.19863059137106145 0.06035651517033548 0.19863059137106145
1.3237462808126101E8 0.06165483418920182 0.2012137680349757 0.9383451658107982 -0.2012137680349757 0.9383451658107982 -0.2012137680349757 0.06165483418920182 0.2012137680349757
1.3437234703624701E8 0.06298549316520279 0.20382493586137052 0.9370145068347974 -0.20382493586137052 0.9370145068347974 -0.20382493586137052 0.06298549316520279 0.20382493586137052
1.364002143745067E8 0.06434931090665018 0.20646410311373548 0.9356506890933497 -0.20646410311373548 0.9356506890933497 -0.20646410311373548 0.06434931090665018 0.20646410311373548
1.3845868507746372E8 0.06574712188528341 0.20913126068700288 0.9342528781147165 -0.20913126068700288 0.9342528781147165 -0.20913126068700288 0.06574712188528341 0.20913126068700288
1.405482209928499E8 0.0671797761271241 0.21182638131963508 0.932820223872876 -0.21182638131963513 0.932820223872876 -0.21182638131963513 0.0671797761271241 0.21182638131963508
1.426692909383278E8 0.06864813907801373 0.21454941879171668 0.9313518609219864 -0.21454941879171668 0.9313518609219864 -0.21454941879171668 0.06864813907801373 0.21454941879171668
1.4482237080667645E8 0.07015309144274307 0.21730030710947465 0.9298469085572569 -0.21730030710947462 0.9298469085572569 -0.21730030710947462 0.07015309144274307 0.21730030710947465
1.4700794367256513E8 0.07169552899666007 0.22007895967671143 0.9283044710033398 -0.22007895967671148 0.9283044710033398 -0.22007895967671148 0.07169552899666007 0.22007895967671143
1.492264999009378E8 0.07327636236861461 0.2228852684536873 0.9267236376313855 -0.2228852684536873 0.9267236376313855 -0.2228852684536873 0.07327636236861461 0.2228852684536873
1.5147853725703382E8 0.07489651679407958 0.22571910310405752 0.9251034832059205 -0.22571910310405757 0.9251034832059205 -0.22571910310405757 0.07489651679407958 0.22571910310405752
1.5376456101806876E8 0.07655693183726467 0.22858031013053404 0.9234430681627352 -0.228580310130534 0.9234430681627352 -0.228580310130534 0.07655693183726467 0.22858031013053404
1.5608508408660066E8 0.07825856108102501 0.23146871200001154 0.9217414389189749 -0.23146871200001154 0.9217414389189749 -0.23146871200001154 0.07825856108102501 0.23146871200001154
1.5844062710560706E8 0.08000237178335073 0.23438410625897582 0.9199976282166493 -0.23438410625897582 0.9199976282166493 -0.23438410625897582 0.08000237178335073 0.23438410625897582
1.6083171857529896E8 0.08178934449921674 0.2373262646400895 0.9182106555007832 -0.2373262646400895 0.9182106555007832 -0.2373262646400895 0.08178934449921674 0.2373262646400895
1.632588949716973E8 0.08362047266656275 0.2402949321609337 0.9163795273334372 -0.2402949321609337 0.9163795273334372 -0.2402949321609337 0.08362047266656275 0.2402949321609337
1.6572270086699936E8 0.08549676215517678 0.2432898262159721 0.9145032378448233 -0.2432898262159721 0.9145032378448233 -0.2432898262159721 0.08549676215517678 0.2432898262159721
1.6822368905176118E8 0.08741923077725437 0.24631063566289021 0.9125807692227456 -0.24631063566289021 0.9125807692227456 -0.24631063566289021 0.08741923077725437 0.24631063566289021
1.7076242065892437E8 0.089388907758421 0.24935701990456235 0.910611092241579 -0.2493570199045623 0.910611092241579 -0.2493570199045623 0.089388907758421 0.24935701990456235
1.7333946528971428E8 0.09140683316801532 0.2524286079679869 0.9085931668319845 -0.2524286079679869 0.9085931668319845 -0.2524286079679869 0.09140683316801532 0.2524286079679869
1.7595540114143828E8 0.09347405730745592 0.25552499758163716 0.906525942692544 -0.25552499758163716 0.906525942692544 -0.25552499758163716 0.09347405730745592 0.25552499758163716
1.786108151372127E8 0.09559164005554108 0.2586457542527696 0.9044083599444589 -0.2586457542527696 0.9044083599444589 -0.2586457542527696 0.09559164005554108 0.2586457542527696
1.8130630305764765E8 0.0977606501695675 0.26179041034633893 0.9022393498304325 -0.26179041034633893 0.9022393498304325 -0.26179041034633893 0.0977606501695675 0.26179041034633893
1.840424696745189E8 0.0999821645411941 0.2649584641672685 0.9000178354588061 -0.2649584641672685 0.9000178354588061 -0.2649584641672685 0.0999821645411941 0.2649584641672685
1.8681992888645732E8 0.10225726740603157 0.26814937904793534 0.8977427325939685 -0.2681493790479354 0.8977427325939685 -0.2681493790479354 0.10225726740603157 0.26814937904793534
1.8963930385668582E8 0.10458704950599336 0.27136258244282957 0.8954129504940067 -0.27136258244282957 0.8954129504940067 -0.27136258244282957 0.10458704950599336 0.27136258244282957
1.92501227152835E8 0.10697260720351154 0.27459746503245425 0.8930273927964884 -0.27459746503245425 0.8930273927964884 -0.27459746503245425 0.10697260720351154 0.27459746503245425
1.9540634088886917E8 0.10941504154679707 0.27785337983863784 0.890584958453203 -0.2778533798386379 0.890584958453203 -0.2778533798386379 0.10941504154679707 0.27785337983863784
1.983552968691535E8 0.11191545728540593 0.2811296413535302 0.888084542714594 -0.2811296413535302 0.888084542714594 -0.2811296413535302 0.11191545728540593 0.2811296413535302
2.0134875673469606E8 0.11447496183546949 0.2844255246846587 0.8855250381645304 -0.2844255246846587 0.8855250381645304 -0.2844255246846587 0.11447496183546949 0.2844255246846587
2.0438739211159652E8 0.11709466419404205 0.28774026471851266 0.8829053358059578 -0.28774026471851266 0.8829053358059578 -0.28774026471851266 0.11709466419404205 0.28774026471851266
2.074718847617352E8 0.11977567380213747 0.2910730553052232 0.8802243261978626 -0.2910730553052232 0.8802243261978626 -0.2910730553052232 0.11977567380213747 0.2910730553052232
2.106029267357361E8 0.12251909935613885 0.294423048466992 0.8774809006438611 -0.2944230484669921 0.8774809006438611 -0.2944230484669921 0.12251909935613885 0.294423048466992
2.1378122052823865E8 0.12532604756739907 0.2977893536330091 0.8746739524326012 -0.2977893536330091 0.8746739524326012 -0.2977893536330091 0.12532604756739907 0.2977893536330091
2.1700747923551247E8 0.12819762186998312 0.3011710369036755 0.8718023781300167 -0.3011710369036755 0.8718023781300167 -0.3011710369036755 0.12819762186998312 0.3011710369036755
2.2028242671545094E8 0.13113492107665095 0.30456712034702127 0.8688650789233489 -0.30456712034702127 0.8688650789233489 -0.30456712034702127 0.13113492107665095 0.30456712034702127
2.23606797749979E8 0.13413903798333096 0.3079765813302708 0.8658609620166692 -0.3079765813302708 0.8658609620166692 -0.3079765813302708 0.13413903798333096 0.3079765813302708
2.2698133820991236E8 0.1372110579224983 0.3113983518895656 0.8627889420775017 -0.31139835188956555 0.8627889420775017 -0.31139835188956555 0.1372110579224983 0.3113983518895656
2.3040680522230446E8 0.14035205726603664 0.31483131814089915 0.8596479427339634 -0.3148313181408991 0.8596479427339634 -0.3148313181408991 0.14035205726603664 0.31483131814089915
2.338839673403185E8 0.14356310187834084 0.31827431973535614 0.8564368981216592 -0.31827431973535614 0.8564368981216592 -0.31827431973535614 0.14356310187834084 0.31827431973535614
2.37413604715664E8 0.1468452455205963 0.3217261493617751 0.8531547544794036 -0.3217261493617751 0.8531547544794036 -0.3217261493617751 0.1468452455205963 0.3217261493617751
2.4099650927363476E8 0.15019952820736007 0.3251855522999685 0.84980047179264 -0.3251855522999685 0.84980047179264 -0.3251855522999685 0.15019952820736007 0.3251855522999685
2.446334848907889E8 0.15362697451675533 0.3286512260276336 0.8463730254832447 -0.3286512260276336 0.8463730254832447 -0.3286512260276336 0.15362697451675533 0.3286512260276336
2.4832534757531032E8 0.15712859185579336 0.33212181988408745 0.8428714081442067 -0.33212181988408745 0.8428714081442067 -0.33212181988408745 0.15712859185579336 0.33212181988408745
2.5207292565009177E8 0.16070536868252422 0.3355959347939229 0.8392946313174758 -0.3355959347939229 0.8392946313174758 -0.3355959347939229 0.16070536868252422 0.3355959347939229
2.558770599385812E8 0.16435827268692754 0.3390721230536604 0.8356417273130725 -0.3390721230536604 0.8356417273130725 -0.3390721230536604 0.16435827268692754 0.3390721230536604
