!Murata Part Number: LQP02HQ0N6B02
!These Parameters are Measured in Series Mode Connection
!       o--[Z]--o
!Port1              Port2
!       o-------o
!
!Freq. Start=50[MHz] Stop=20[GHz], 401[Steps]
# Hz S RI R 50
!Freq.(Hz) S11(Real) S11(Imag) S21(Real) S21(Imag) S12(Real) S12(Imag) S22(Real) S22(Imag)
5.0E7 3.735044827348145E-4 0.0025766175628693226 0.9996264955172651 -0.0025766175628693226 0.9996264955172651 -0.0025766175628693226 3.735044827348145E-4 0.0025766175628693226
5.0754570186123446E7 3.768640808331714E-4 0.0026132468790694297 0.9996231359191668 -0.0026132468790694297 0.9996231359191668 -0.0026132468790694297 3.768640808331714E-4 0.0026132468790694297
5.152052789556263E7 3.8026027332663644E-4 0.0026503757444194106 0.9996197397266734 -0.0026503757444194106 0.9996197397266734 -0.0026503757444194106 3.8026027332663644E-4 0.0026503757444194106
5.229804498202928E7 3.836923894031558E-4 0.002688011393103202 0.9996163076105966 -0.0026880113931032016 0.9996163076105966 -0.0026880113931032016 3.836923894031558E-4 0.002688011393103202
5.308729589274893E7 3.871597319651342E-4 0.002726161211226143 0.9996128402680349 -0.002726161211226143 0.9996128402680349 -0.002726161211226143 3.871597319651342E-4 0.002726161211226143
5.388845770760058E7 3.906615791866789E-4 0.0027648327403930386 0.9996093384208133 -0.002764832740393039 0.9996093384208133 -0.002764832740393039 3.906615791866789E-4 0.0027648327403930386
5.470171017884717E7 3.941971861885585E-4 0.0028040336812483616 0.9996058028138115 -0.002804033681248362 0.9996058028138115 -0.002804033681248362 3.941971861885585E-4 0.0028040336812483616
5.5527235771465644E7 3.9776578682764043E-4 0.002843771896971053 0.9996022342131724 -0.0028437718969710536 0.9996022342131724 -0.0028437718969710536 3.9776578682764043E-4 0.002843771896971053
5.6365219704085544E7 4.013665955969651E-4 0.0028840554167166494 0.999598633404403 -0.0028840554167166494 0.999598633404403 -0.0028840554167166494 4.013665955969651E-4 0.0028840554167166494
5.721584999054556E7 4.04998809632004E-4 0.0029248924389996883 0.999595001190368 -0.0029248924389996883 0.999595001190368 -0.0029248924389996883 4.04998809632004E-4 0.0029248924389996883
5.807931748207712E7 4.0866161081806713E-4 0.002966291335009664 0.999591338389182 -0.002966291335009664 0.999591338389182 -0.002966291335009664 4.0866161081806713E-4 0.002966291335009664
5.8955815910124585E7 4.123541679932611E-4 0.0030082606518541883 0.9995876458320068 -0.003008260651854188 0.9995876458320068 -0.003008260651854188 4.123541679932611E-4 0.0030082606518541883
5.984554192981184E7 4.1607563924085677E-4 0.003050809115723368 0.9995839243607594 -0.003050809115723368 0.9995839243607594 -0.003050809115723368 4.1607563924085677E-4 0.003050809115723368
6.074869516406457E7 4.1982517426443554E-4 0.0030939456349699584 0.9995801748257357 -0.0030939456349699584 0.9995801748257357 -0.0030939456349699584 4.1982517426443554E-4 0.0030939456349699584
6.166547824839868E7 4.236019168387097E-4 0.003137679303100299 0.9995763980831612 -0.003137679303100299 0.9995763980831612 -0.003137679303100299 4.236019168387097E-4 0.003137679303100299
6.2596096876384385E7 4.2740500732849177E-4 0.003182019401671598 0.9995725949926716 -0.0031820194016715974 0.9995725949926716 -0.0031820194016715974 4.2740500732849177E-4 0.003182019401671598
6.354075984579668E7 4.3123358526792033E-4 0.003226975403091754 0.9995687664147321 -0.003226975403091754 0.9995687664147321 -0.003226975403091754 4.3123358526792033E-4 0.003226975403091754
6.449967910546205E7 4.350867919917137E-4 0.0032725569733184807 0.9995649132080082 -0.00327255697331848 0.9995649132080082 -0.00327255697331848 4.350867919917137E-4 0.0032725569733184807
6.547306980281226E7 4.389637733099669E-4 0.003318773974455202 0.9995610362266899 -0.003318773974455202 0.9995610362266899 -0.003318773974455202 4.389637733099669E-4 0.003318773974455202
6.646115033215589E7 4.428636822177819E-4 0.0033656364672418164 0.9995571363177821 -0.0033656364672418155 0.9995571363177821 -0.0033656364672418155 4.428636822177819E-4 0.0033656364672418164
6.746414238367817E7 4.467856816308707E-4 0.003413154713439141 0.9995532143183691 -0.0034131547134391414 0.9995532143183691 -0.0034131547134391414 4.467856816308707E-4 0.003413154713439141
6.848227099318038E7 4.507289471381832E-4 0.0034613391781065724 0.9995492710528618 -0.0034613391781065732 0.9995492710528618 -0.0034613391781065732 4.507289471381832E-4 0.0034613391781065724
6.951576459256999E7 4.5469266976257036E-4 0.0035102005317731843 0.9995453073302375 -0.0035102005317731834 0.9995453073302375 -0.0035102005317731834 4.5469266976257036E-4 0.0035102005317731843
7.056485506111258E7 4.5867605872052826E-4 0.0035597496525031935 0.9995413239412795 -0.0035597496525031935 0.9995413239412795 -0.0035597496525031935 4.5867605872052826E-4 0.0035597496525031935
7.162977777745734E7 4.626783441721625E-4 0.003609997627857486 0.9995373216558279 -0.003609997627857486 0.9995373216558279 -0.003609997627857486 4.626783441721625E-4 0.003609997627857486
7.271077167244768E7 4.6669877995266315E-4 0.003660955756753504 0.9995333012200476 -0.003660955756753504 0.9995333012200476 -0.003660955756753504 4.6669877995266315E-4 0.003660955756753504
7.380807928272885E7 4.7073664627679497E-4 0.0037126355512265637 0.9995292633537232 -0.0037126355512265637 0.9995292633537232 -0.0037126355512265637 4.7073664627679497E-4 0.0037126355512265637
7.492194680516452E7 4.74791252408181E-4 0.003765048738096283 0.9995252087475917 -0.003765048738096283 0.9995252087475917 -0.003765048738096283 4.74791252408181E-4 0.003765048738096283
7.60526241520746E7 4.788619392854751E-4 0.0038182072605424033 0.9995211380607145 -0.0038182072605424033 0.9995211380607145 -0.0038182072605424033 4.788619392854751E-4 0.0038182072605424033
7.720036500730675E7 4.8294808209791394E-4 0.003872123279594951 0.9995170519179021 -0.003872123279594951 0.9995170519179021 -0.003872123279594951 4.8294808209791394E-4 0.003872123279594951
7.836542688315398E7 4.8704909280314405E-4 0.003926809175544191 0.9995129509071968 -0.003926809175544192 0.9995129509071968 -0.003926809175544192 4.8704909280314405E-4 0.003926809175544191
7.954807117813127E7 4.911644225807112E-4 0.003982277549276346 0.9995088355774194 -0.003982277549276346 0.9995088355774194 -0.003982277549276346 4.911644225807112E-4 0.003982277549276346
8.074856323562416E7 4.952935642150888E-4 0.004038541223541517 0.9995047064357848 -0.004038541223541517 0.9995047064357848 -0.004038541223541517 4.952935642150888E-4 0.004038541223541517
8.196717240342227E7 4.994360544026877E-4 0.004095613244160705 0.9995005639455973 -0.004095613244160705 0.9995005639455973 -0.004095613244160705 4.994360544026877E-4 0.004095613244160705
8.320417209415154E7 5.035914759778412E-4 0.004153506881179127 0.9994964085240222 -0.004153506881179127 0.9994964085240222 -0.004153506881179127 5.035914759778412E-4 0.004153506881179127
8.445983984661816E7 5.077594600533761E-4 0.004212235629973366 0.9994922405399466 -0.004212235629973365 0.9994922405399466 -0.004212235629973365 5.077594600533761E-4 0.004212235629973366
8.573445738807854E7 5.119396880719877E-4 0.0042718132123202 0.9994880603119277 -0.0042718132123202 0.9994880603119277 -0.0042718132123202 5.119396880719877E-4 0.0042718132123202
8.702831069744885E7 5.161318937652642E-4 0.0043322535774350315 0.9994838681062347 -0.0043322535774350315 0.9994838681062347 -0.0043322535774350315 5.161318937652642E-4 0.0043322535774350315
8.834169006946853E7 5.203358650178455E-4 0.004393570902988087 0.999479664134982 -0.004393570902988087 0.999479664134982 -0.004393570902988087 5.203358650178455E-4 0.004393570902988087
8.96748901798321E7 5.245514456348435E-4 0.004455779596106625 0.9994754485543652 -0.004455779596106625 0.9994754485543652 -0.004455779596106625 5.245514456348435E-4 0.004455779596106625
9.1028210151304E7 5.287785370112699E-4 0.004518894294371344 0.9994712214629887 -0.004518894294371344 0.9994712214629887 -0.004518894294371344 5.287785370112699E-4 0.004518894294371344
9.240195362083109E7 5.330170997028625E-4 0.004582929866815239 0.9994669829002973 -0.00458292986681524 0.9994669829002973 -0.00458292986681524 5.330170997028625E-4 0.004582929866815239
9.379642880766791E7 5.372671548982905E-4 0.004647901414933029 0.9994627328451016 -0.004647901414933029 0.9994627328451016 -0.004647901414933029 5.372671548982905E-4 0.004647901414933029
9.521194858253023E7 5.415287857933249E-4 0.004713824273709152 0.9994584712142065 -0.004713824273709152 0.9994584712142065 -0.004713824273709152 5.415287857933249E-4 0.004713824273709152
9.664883053779216E7 5.458021388681211E-4 0.004780714012672157 0.9994541978611319 -0.004780714012672157 0.9994541978611319 -0.004780714012672157 5.458021388681211E-4 0.004780714012672157
9.810739705874248E7 5.500874250692959E-4 0.00484858643698305 0.9994499125749308 -0.00484858643698305 0.9994499125749308 -0.00484858643698305 5.500874250692959E-4 0.00484858643698305
9.958797539591652E7 5.543849208990011E-4 0.004917457588564973 0.999445615079101 -0.004917457588564973 0.999445615079101 -0.004917457588564973 5.543849208990011E-4 0.004917457588564973
1.0109089773851961E8 5.586949694136542E-4 0.004987343747281193 0.9994413050305864 -0.004987343747281193 0.9994413050305864 -0.004987343747281193 5.586949694136542E-4 0.004987343747281193
1.0261650128895843E8 5.630179811354284E-4 0.00505826143216808 0.9994369820188647 -0.00505826143216808 0.9994369820188647 -0.00505826143216808 5.630179811354284E-4 0.00505826143216808
1.0416512833849736E8 5.673544348800062E-4 0.005130227402729416 0.99943264556512 -0.005130227402729416 0.99943264556512 -0.005130227402729416 5.673544348800062E-4 0.005130227402729416
1.0573712634405641E8 5.717048785044364E-4 0.005203258660297932 0.9994282951214956 -0.0052032586602979315 0.9994282951214956 -0.0052032586602979315 5.717048785044364E-4 0.005203258660297932
1.0733284800616828E8 5.760699295792636E-4 0.005277372449469561 0.9994239300704207 -0.005277372449469561 0.9994239300704207 -0.005277372449469561 5.760699295792636E-4 0.005277372449469561
1.0895265134811176E8 5.804502759893471E-4 0.005352586259615523 0.9994195497240107 -0.005352586259615524 0.9994195497240107 -0.005352586259615524 5.804502759893471E-4 0.005352586259615523
1.1059689979623953E8 5.848466764680215E-4 0.005428917826476838 0.9994151533235319 -0.005428917826476837 0.9994151533235319 -0.005428917826476837 5.848466764680215E-4 0.005428917826476838
1.1226596226151802E8 5.892599610694155E-4 0.005506385133845467 0.9994107400389304 -0.005506385133845467 0.9994107400389304 -0.005506385133845467 5.892599610694155E-4 0.005506385133845467
1.1396021322229806E8 5.936910315838808E-4 0.005585006415335815 0.9994063089684162 -0.005585006415335815 0.9994063089684162 -0.005585006415335815 5.936910315838808E-4 0.005585006415335815
1.1568003280833441E8 5.981408619015708E-4 0.005664800156249865 0.9994018591380985 -0.005664800156249865 0.9994018591380985 -0.005664800156249865 5.981408619015708E-4 0.005664800156249865
1.1742580688607343E8 6.026104983292536E-4 0.005745785095538809 0.9993973895016707 -0.005745785095538809 0.9993973895016707 -0.005745785095538809 6.026104983292536E-4 0.005745785095538809
1.1919792714522783E8 6.071010598654416E-4 0.005827980227863553 0.9993928989401345 -0.005827980227863553 0.9993928989401345 -0.005827980227863553 6.071010598654416E-4 0.005827980227863553
1.2099679118665792E8 6.116137384388928E-4 0.005911404805756084 0.9993883862615611 -0.0059114048057560846 0.9993883862615611 -0.0059114048057560846 6.116137384388928E-4 0.005911404805756084
1.2282280261157903E8 6.161497991154599E-4 0.005996078341883303 0.9993838502008846 -0.005996078341883303 0.9993838502008846 -0.005996078341883303 6.161497991154599E-4 0.005996078341883303
1.2467637111211549E8 6.20710580278153E-4 0.0060820206114144595 0.9993792894197218 -0.0060820206114144595 0.9993792894197218 -0.0060820206114144595 6.20710580278153E-4 0.0060820206114144595
1.265579125632208E8 6.25297493785157E-4 0.006169251654493071 0.9993747025062151 -0.006169251654493071 0.9993747025062151 -0.006169251654493071 6.25297493785157E-4 0.006169251654493071
1.284678491159853E8 6.299120251103425E-4 0.006257791778813746 0.9993700879748897 -0.006257791778813746 0.9993700879748897 -0.006257791778813746 6.299120251103425E-4 0.006257791778813746
1.3040660929235186E8 6.345557334706587E-4 0.006347661562304162 0.9993654442665293 -0.006347661562304162 0.9993654442665293 -0.006347661562304162 6.345557334706587E-4 0.006347661562304162
1.3237462808126101E8 6.392302519445348E-4 0.006438881855912004 0.9993607697480555 -0.006438881855912005 0.9993607697480555 -0.006438881855912005 6.392302519445348E-4 0.006438881855912004
1.3437234703624701E8 6.439372875851923E-4 0.006531473786496511 0.999356062712415 -0.006531473786496511 0.999356062712415 -0.006531473786496511 6.439372875851923E-4 0.006531473786496511
1.364002143745067E8 6.48678621532525E-4 0.006625458759824044 0.9993513213784674 -0.006625458759824044 0.9993513213784674 -0.006625458759824044 6.48678621532525E-4 0.006625458759824044
1.3845868507746372E8 6.534561091269074E-4 0.006720858463666903 0.9993465438908732 -0.006720858463666903 0.9993465438908732 -0.006720858463666903 6.534561091269074E-4 0.006720858463666903
1.405482209928499E8 6.582716800280216E-4 0.006817694871004332 0.999341728319972 -0.006817694871004332 0.999341728319972 -0.006817694871004332 6.582716800280216E-4 0.006817694871004332
1.426692909383278E8 6.631273383415016E-4 0.006915990243324765 0.9993368726616585 -0.0069159902433247634 0.9993368726616585 -0.0069159902433247634 6.631273383415016E-4 0.006915990243324765
1.4482237080667645E8 6.6802516275589E-4 0.007015767134027991 0.9993319748372442 -0.007015767134027991 0.9993319748372442 -0.007015767134027991 6.6802516275589E-4 0.007015767134027991
1.4700794367256513E8 6.729673066921004E-4 0.007117048391926071 0.9993270326933079 -0.007117048391926071 0.9993270326933079 -0.007117048391926071 6.729673066921004E-4 0.007117048391926071
1.492264999009378E8 6.779559984672927E-4 0.007219857164841678 0.9993220440015327 -0.007219857164841678 0.9993220440015327 -0.007219857164841678 6.779559984672927E-4 0.007219857164841678
1.5147853725703382E8 6.829935414747439E-4 0.007324216903302548 0.9993170064585255 -0.00732421690330255 0.9993170064585255 -0.00732421690330255 6.829935414747439E-4 0.007324216903302548
1.5376456101806876E8 6.880823143810368E-4 0.007430151364330823 0.9993119176856188 -0.007430151364330823 0.9993119176856188 -0.007430151364330823 6.880823143810368E-4 0.007430151364330823
1.5608508408660066E8 6.932247713415771E-4 0.007537684615326022 0.9993067752286584 -0.007537684615326022 0.9993067752286584 -0.007537684615326022 6.932247713415771E-4 0.007537684615326022
1.5844062710560706E8 6.984234422351851E-4 0.007646841038040485 0.9993015765577649 -0.007646841038040485 0.9993015765577649 -0.007646841038040485 6.984234422351851E-4 0.007646841038040485
1.6083171857529896E8 7.036809329182477E-4 0.007757645332646353 0.9992963190670816 -0.0077576453326463546 0.9992963190670816 -0.0077576453326463546 7.036809329182477E-4 0.007757645332646353
1.632588949716973E8 7.089999254986509E-4 0.007870122521893064 0.9992910000745016 -0.007870122521893064 0.9992910000745016 -0.007870122521893064 7.089999254986509E-4 0.007870122521893064
1.6572270086699936E8 7.143831786294956E-4 0.007984297955354722 0.9992856168213704 -0.007984297955354722 0.9992856168213704 -0.007984297955354722 7.143831786294956E-4 0.007984297955354722
1.6822368905176118E8 7.198335278223617E-4 0.008100197313766724 0.9992801664721775 -0.008100197313766724 0.9992801664721775 -0.008100197313766724 7.198335278223617E-4 0.008100197313766724
1.7076242065892437E8 7.25353885779691E-4 0.008217846613451306 0.9992746461142205 -0.008217846613451306 0.9992746461142205 -0.008217846613451306 7.25353885779691E-4 0.008217846613451306
1.7333946528971428E8 7.309472427456771E-4 0.008337272210831808 0.9992690527572543 -0.00833727221083181 0.9992690527572543 -0.00833727221083181 7.309472427456771E-4 0.008337272210831808
1.7595540114143828E8 7.366166668748784E-4 0.008458500807035833 0.9992633833331251 -0.008458500807035833 0.9992633833331251 -0.008458500807035833 7.366166668748784E-4 0.008458500807035833
1.786108151372127E8 7.42365304617631E-4 0.008581559452587524 0.9992576346953823 -0.008581559452587524 0.9992576346953823 -0.008581559452587524 7.42365304617631E-4 0.008581559452587524
1.8130630305764765E8 7.481963811212127E-4 0.00870647555218967 0.9992518036188788 -0.00870647555218967 0.9992518036188788 -0.00870647555218967 7.481963811212127E-4 0.00870647555218967
1.840424696745189E8 7.541132006456039E-4 0.008833276869596392 0.9992458867993544 -0.008833276869596392 0.9992458867993544 -0.008833276869596392 7.541132006456039E-4 0.008833276869596392
1.8681992888645732E8 7.60119146992622E-4 0.008961991532577703 0.9992398808530074 -0.008961991532577705 0.9992398808530074 -0.008961991532577705 7.60119146992622E-4 0.008961991532577703
1.8963930385668582E8 7.662176839471265E-4 0.009092648037977267 0.9992337823160529 -0.009092648037977267 0.9992337823160529 -0.009092648037977267 7.662176839471265E-4 0.009092648037977267
1.92501227152835E8 7.724123557289801E-4 0.00922527525686521 0.999227587644271 -0.009225275256865211 0.999227587644271 -0.009225275256865211 7.724123557289801E-4 0.00922527525686521
1.9540634088886917E8 7.787067874544221E-4 0.009359902439788043 0.9992212932125456 -0.009359902439788043 0.9992212932125456 -0.009359902439788043 7.787067874544221E-4 0.009359902439788043
1.983552968691535E8 7.851046856055293E-4 0.009496559222118048 0.9992148953143946 -0.009496559222118048 0.9992148953143946 -0.009496559222118048 7.851046856055293E-4 0.009496559222118048
2.0134875673469606E8 7.916098385064654E-4 0.009635275629504891 0.9992083901614935 -0.00963527562950489 0.9992083901614935 -0.00963527562950489 7.916098385064654E-4 0.009635275629504891
2.0438739211159652E8 7.982261168052829E-4 0.009776082083432489 0.9992017738831948 -0.009776082083432489 0.9992017738831948 -0.009776082083432489 7.982261168052829E-4 0.009776082083432489
2.074718847617352E8 8.049574739601204E-4 0.009919009406884467 0.99919504252604 -0.009919009406884467 0.99919504252604 -0.009919009406884467 8.049574739601204E-4 0.009919009406884467
2.106029267357361E8 8.118079467287385E-4 0.010064088830121979 0.9991881920532713 -0.01006408883012198 0.9991881920532713 -0.01006408883012198 8.118079467287385E-4 0.010064088830121979
2.1378122052823865E8 8.187816556604719E-4 0.010211351996577881 0.9991812183443397 -0.010211351996577881 0.9991812183443397 -0.010211351996577881 8.187816556604719E-4 0.010211351996577881
2.1700747923551247E8 8.25882805589815E-4 0.01036083096887158 0.9991741171944101 -0.01036083096887158 0.9991741171944101 -0.01036083096887158 8.25882805589815E-4 0.01036083096887158
2.2028242671545094E8 8.331156861310469E-4 0.010512558234949374 0.999166884313869 -0.010512558234949374 0.999166884313869 -0.010512558234949374 8.331156861310469E-4 0.010512558234949374
2.23606797749979E8 8.404846721734903E-4 0.010666566714355145 0.9991595153278264 -0.010666566714355145 0.9991595153278264 -0.010666566714355145 8.404846721734903E-4 0.010666566714355145
2.2698133820991236E8 8.479942243772316E-4 0.010822889764636898 0.9991520057756227 -0.010822889764636898 0.9991520057756227 -0.010822889764636898 8.479942243772316E-4 0.010822889764636898
2.3040680522230446E8 8.556488896693691E-4 0.010981561187894694 0.9991443511103304 -0.010981561187894692 0.9991443511103304 -0.010981561187894692 8.556488896693691E-4 0.010981561187894694
2.338839673403185E8 8.634533017411375E-4 0.011142615237475992 0.9991365466982589 -0.011142615237475994 0.9991365466982589 -0.011142615237475994 8.634533017411375E-4 0.011142615237475992
2.37413604715664E8 8.714121815465564E-4 0.011306086624824723 0.9991285878184535 -0.011306086624824723 0.9991285878184535 -0.011306086624824723 8.714121815465564E-4 0.011306086624824723
